!Created with skrf (http://scikit-rf.org).
# GHz S RI R 50.0 
!freq ReS11 ImS11
10000000.0 -0.9673837125 0.176265519
19950000.0 -0.9378680757 0.3413377589
29900000.0 -0.8836979999 0.495939821
39850000.0 -0.7894738458 0.6348163316
49800000.0 -0.6564248292 0.7515652441
59750000.0 -0.4860378573 0.8440989328
69700000.0 -0.2813294525 0.9121149572
79650000.0 -0.047454486 0.9503515602
89600000.0 0.2134022934 0.9410818011
99550000.0 0.4879333891 0.8544229879
109500000.0 0.7410431875 0.6568503353
119450000.0 0.9163685069 0.3396636159
129400000.0 0.95812784 -0.0618001691
139350000.0 0.8367024704 -0.4720306894
149300000.0 0.568188374 -0.804641549
159250000.0 0.2115367792 -0.9897567566
169200000.0 -0.1502282734 -1.006050522
179150000.0 -0.4534482827 -0.8890361222
189100000.0 -0.6763763406 -0.6988114275
199050000.0 -0.8274601633 -0.4829310204
209000000.0 -0.9214217005 -0.2666895254
218950000.0 -0.9713460268 -0.0627277355
228900000.0 -0.9760040668 0.1226790305
238850000.0 -0.936230967 0.2862288208
248800000.0 -0.8597066432 0.4091204724
258750000.0 -0.7587339009 0.5458428437
268700000.0 -0.6377236258 0.6552252394
278650000.0 -0.5051975442 0.7518937152
288600000.0 -0.3628483693 0.8316124391
298550000.0 -0.2109118407 0.8851819202
308500000.0 -0.0516620474 0.8986566918
318450000.0 0.1107626167 0.8619518866
328400000.0 0.2681155546 0.7726626362
338350000.0 0.4057539958 0.6350112058
348300000.0 0.5098842781 0.4581860441
358250000.0 0.559082098 0.2605131006
368200000.0 0.5352225558 0.0699264174
378150000.0 0.4393722181 -0.0760854444
388100000.0 0.2958858288 -0.1550909274
398050000.0 0.1435897002 -0.1694220503
408000000.0 0.012729813 -0.1395342862
417950000.0 -0.0782980607 -0.0859338429
427900000.0 -0.1299245503 -0.0265425744
437850000.0 -0.1402234094 0.02902345
447800000.0 -0.1239326417 0.0771719275
457750000.0 -0.0892033368 0.116745593
467700000.0 -0.0477788534 0.1493395032
477650000.0 -0.0117103357 0.1699609478
487600000.0 0.0204941564 0.1751916847
497550000.0 0.0335532702 0.1714161676
507500000.0 0.0439057022 0.146210891
517450000.0 0.0486497104 0.1127646429
527400000.0 0.0480481804 0.0749059079
537350000.0 0.0464516527 0.0393032243
547300000.0 0.0436798463 0.0126602425
557250000.0 0.0342029649 0.0007411148
567200000.0 0.0148945991 0.0036018974
577150000.0 -0.0110280325 0.0156985107
587100000.0 -0.0428067523 0.0338436675
597050000.0 -0.0740824952 0.0526533569
607000000.0 -0.0991212857 0.0692807402
616950000.0 -0.1112748487 0.0841389733
626900000.0 -0.1069998057 0.0989301678
636850000.0 -0.0888234314 0.117066765
646800000.0 -0.0590055675 0.137537401
656750000.0 -0.0256577742 0.1624385361
666700000.0 0.0058191151 0.1845850467
676650000.0 0.0351223901 0.1991458718
686600000.0 0.0581076937 0.2017142282
696550000.0 0.0787361113 0.1855285788
706500000.0 0.0995064366 0.1543940407
716450000.0 0.1220871209 0.1100879999
726400000.0 0.1434454959 0.0608834989
736350000.0 0.1605469108 0.0099205938
746300000.0 0.1690812046 -0.0344431105
756250000.0 0.1583360528 -0.0725491278
766200000.0 0.1289719531 -0.1037356839
776150000.0 0.0781000484 -0.1281237599
786100000.0 0.0130693814 -0.1472853728
796050000.0 -0.0594737521 -0.1594511221
806000000.0 -0.1315043623 -0.1620074975
815950000.0 -0.1920781078 -0.1500654634
825900000.0 -0.2392605343 -0.1172077876
835850000.0 -0.269366798 -0.0646055682
845800000.0 -0.2849633066 0.0089724196
855750000.0 -0.2878685409 0.0947479139
865700000.0 -0.2821247459 0.1858768171
875650000.0 -0.2571502382 0.2714315733
885600000.0 -0.2162965336 0.3426989255
895550000.0 -0.1543915673 0.3928555528
905500000.0 -0.0680324159 0.4169155136
915450000.0 0.0375039564 0.4181398652
925400000.0 0.156136751 0.3936532811
935350000.0 0.2812741984 0.3426903111
945300000.0 0.3964034167 0.2599171804
955250000.0 0.483324014 0.1378336771
965200000.0 0.5196139566 -0.0255433833
975150000.0 0.4829739292 -0.2204715299
985100000.0 0.3592530839 -0.4244274955
995050000.0 0.1440874374 -0.5967931823
1005000000.0 -0.1511846127 -0.6775229486
1014950000.0 -0.4717118429 -0.6059219468
1024900000.0 -0.7212434145 -0.3692666502
1034850000.0 -0.8232271316 -0.0322260599
1044800000.0 -0.7699039385 0.3113708396
1054750000.0 -0.5920186953 0.5666663259
1064700000.0 -0.405774592 0.7581110664
1074650000.0 -0.1505088882 0.8444891474
1084600000.0 0.1103228593 0.8452042466
1094550000.0 0.350022948 0.7396304989
1104500000.0 0.5376491122 0.5727370117
1114450000.0 0.6695729952 0.3762504968
1124400000.0 0.7432928135 0.1687274255
1134350000.0 0.7543772246 -0.0345400131
1144300000.0 0.7000904048 -0.2214922319
1154250000.0 0.5897454444 -0.3751822002
1164200000.0 0.4438502891 -0.4922524692
1174150000.0 0.2829680394 -0.5740555249
1184100000.0 0.1238262319 -0.6231380698
1194050000.0 -0.0247752007 -0.6430256314
1204000000.0 -0.1586237108 -0.6278733522
1213950000.0 -0.2720779138 -0.5829639302
1223900000.0 -0.3689948544 -0.5058125002
1233850000.0 -0.4457727051 -0.4100479832
1243800000.0 -0.5114036574 -0.3040452216
1253750000.0 -0.5648919236 -0.2002515123
1263700000.0 -0.605655442 -0.1036091603
1273650000.0 -0.6313746176 -0.0164303811
1283600000.0 -0.6363498863 0.0605424602
1293550000.0 -0.6210174989 0.1330406133
1303500000.0 -0.5861788134 0.2034693951
1313450000.0 -0.5380992421 0.2771680889
1323400000.0 -0.4843772024 0.3516231715
1333350000.0 -0.4315440375 0.4259640851
1343300000.0 -0.3812567082 0.4935911785
1353250000.0 -0.3316307204 0.5479967632
1363200000.0 -0.2810606422 0.5854122175
1373150000.0 -0.2244372432 0.6042777704
1383100000.0 -0.1579028201 0.6078841203
1393050000.0 -0.0826783085 0.6026601572
1403000000.0 0.0003335472 0.5958288484
1412950000.0 0.086233117 0.5896822769
1422900000.0 0.1695111281 0.5836024293
1432850000.0 0.2442861157 0.5718972167
1442800000.0 0.3076253834 0.5492282163
1452750000.0 0.3581945374 0.5098580437
1462700000.0 0.39840072 0.4513605703
1472650000.0 0.434601625 0.379744326
1482600000.0 0.4695358416 0.2983082931
1492550000.0 0.5051741149 0.2139775365
1502500000.0 0.5372898022 0.1294502631
1512450000.0 0.5592263644 0.0487954231
1522400000.0 0.5634590332 -0.0295724975
1532350000.0 0.5435782338 -0.1043110475
1542300000.0 0.502230603 -0.1747925927
1552250000.0 0.443238547 -0.2453382274
1562200000.0 0.3750450747 -0.3143934684
1572150000.0 0.3028393529 -0.3808815579
1582100000.0 0.2287607669 -0.4387961641
1592050000.0 0.1521729204 -0.4826036189
1602000000.0 0.0717534809 -0.5056791032
1611950000.0 -0.0119835706 -0.5035339389
1621900000.0 -0.0983675831 -0.4819398061
1631850000.0 -0.1862691333 -0.4472314214
1641800000.0 -0.2712150415 -0.4077207372
1651750000.0 -0.3508184615 -0.3653477875
1661700000.0 -0.4207810875 -0.3201217406
1671650000.0 -0.4776951003 -0.2678398828
1681600000.0 -0.5154502784 -0.2032162334
1691550000.0 -0.5359589477 -0.1278458954
1701500000.0 -0.5427162207 -0.0450481093
1711450000.0 -0.5428408111 0.0409536449
1721400000.0 -0.5414209383 0.1213359443
1731350000.0 -0.5402447002 0.1953872439
1741300000.0 -0.5359443854 0.2586902117
1751250000.0 -0.5232318597 0.3132825679
1761200000.0 -0.4952218551 0.359892316
1771150000.0 -0.4507158446 0.4018796049
1781100000.0 -0.3922224815 0.4421258615
1791050000.0 -0.3282249578 0.4809455906
1801000000.0 -0.2672590411 0.5214850895
1810950000.0 -0.2136179517 0.5576606401
1820900000.0 -0.1701512141 0.5867399795
1830850000.0 -0.1314187425 0.602749426
1840800000.0 -0.0925715628 0.6032919153
1850750000.0 -0.0483563697 0.5882563428
1860700000.0 0.00501427 0.561108827
1870650000.0 0.065063278 0.5299477216
1880600000.0 0.1285286789 0.5001922543
1890550000.0 0.185257872 0.4759753034
1900500000.0 0.2307615323 0.4555683729
1910450000.0 0.2599162099 0.4340465275
1920400000.0 0.2692141815 0.4038915901
1930350000.0 0.2632621995 0.3617825344
1940300000.0 0.2480120519 0.3050049965
1950250000.0 0.2292709858 0.2398565677
1960200000.0 0.2102852221 0.1734854202
1970150000.0 0.1902052969 0.1145337264
1980100000.0 0.1627970097 0.0741214495
1990050000.0 0.1191787738 0.055026025
2000000000.0 0.0515940639 0.0670367423
