!Created with skrf (http://scikit-rf.org).
# GHz S RI R 50.0 
!freq ReS11 ImS11
10000000.0 -0.9654528997 0.1769968729
19950000.0 -0.9367535831 0.3426751619
29900000.0 -0.8830908791 0.4977486417
39850000.0 -0.789098192 0.6367881728
49800000.0 -0.655820816 0.7526063326
59750000.0 -0.4849942324 0.8437713817
69700000.0 -0.2809318535 0.9106840726
79650000.0 -0.0484970513 0.9488563994
89600000.0 0.2095354291 0.9416161007
99550000.0 0.4807117527 0.8596508175
109500000.0 0.7309963776 0.6705069079
119450000.0 0.9080205011 0.3641632432
129400000.0 0.9590558583 -0.02640911
139350000.0 0.8555438272 -0.4326784435
149300000.0 0.6075140712 -0.7737709466
159250000.0 0.2642088505 -0.978163205
169200000.0 -0.0970002106 -1.015908243
179150000.0 -0.4086985605 -0.9140070619
189100000.0 -0.6436455931 -0.7312059678
199050000.0 -0.8067192356 -0.5170003693
209000000.0 -0.91113212 -0.2989356474
218950000.0 -0.9701843244 -0.0915368862
228900000.0 -0.9809721517 0.0985063051
238850000.0 -0.9446707478 0.2669443325
248800000.0 -0.8519289149 0.4027441216
258750000.0 -0.764644427 0.5365514979
268700000.0 -0.6408154056 0.6494343532
278650000.0 -0.5045866877 0.7495661621
288600000.0 -0.3577867681 0.8318701988
298550000.0 -0.2016220418 0.8861228224
308500000.0 -0.0383487761 0.897433654
318450000.0 0.1269113017 0.8558431206
328400000.0 0.2848701613 0.7602848801
338350000.0 0.422173971 0.6161476212
348300000.0 0.5242398332 0.4334391709
358250000.0 0.5689672971 0.2311221899
368200000.0 0.5396689625 0.0394551131
378150000.0 0.4384048359 -0.1045918441
388100000.0 0.2909513829 -0.1795725677
398050000.0 0.1370189633 -0.189941164
408000000.0 0.0067530377 -0.1579507218
417950000.0 -0.0826136194 -0.1050436606
427900000.0 -0.1338404713 -0.0496526024
437850000.0 -0.1458804657 0.0021999276
447800000.0 -0.1339799609 0.0480689833
457750000.0 -0.104104436 0.0886106948
467700000.0 -0.0670448986 0.1251934752
477650000.0 -0.0342660523 0.1505690921
487600000.0 -0.0037975031 0.1615900197
497550000.0 0.0097482264 0.1593356425
507500000.0 0.0230925179 0.1358374041
517450000.0 0.0286203027 0.1020984815
527400000.0 0.0277594065 0.0629186173
537350000.0 0.0248890962 0.0272341272
547300000.0 0.019635505 0.0027979654
557250000.0 0.008421182 -0.0055615847
567200000.0 -0.0113680035 0.0030742011
577150000.0 -0.0358255816 0.0208664556
587100000.0 -0.0646126467 0.0428766055
597050000.0 -0.0914474541 0.0627256624
607000000.0 -0.1124484866 0.0779016717
616950000.0 -0.1221168664 0.0891187599
626900000.0 -0.1169116441 0.1007952632
636850000.0 -0.0989328456 0.1169344656
646800000.0 -0.0695945745 0.1380234975
656750000.0 -0.0359625273 0.1649493541
666700000.0 -0.0045609547 0.189231855
676650000.0 0.0256920813 0.2059512947
686600000.0 0.0499826743 0.2096079282
696550000.0 0.0719193535 0.1923970651
706500000.0 0.0949396227 0.1589176843
716450000.0 0.1197164817 0.1108832839
726400000.0 0.1426024193 0.0571756358
736350000.0 0.1603928267 0.0024501034
746300000.0 0.1675238564 -0.0446562195
756250000.0 0.153603983 -0.0832481092
766200000.0 0.1200369468 -0.1126164862
776150000.0 0.0647975214 -0.1348727248
786100000.0 -0.0008340627 -0.1522712638
796050000.0 -0.0710033252 -0.1641659954
806000000.0 -0.1414183273 -0.168301815
815950000.0 -0.2018881189 -0.1593007607
825900000.0 -0.2506636557 -0.1297208306
835850000.0 -0.2831431136 -0.0788736219
845800000.0 -0.3026300163 -0.0060218458
855750000.0 -0.3091320479 0.0802993139
865700000.0 -0.3059233738 0.1721922158
875650000.0 -0.2886893912 0.2588822746
885600000.0 -0.2534091396 0.3315338296
895550000.0 -0.1962922152 0.3847517154
905500000.0 -0.1139463128 0.4127634819
915450000.0 -0.0098603981 0.4190610737
925400000.0 0.1090710385 0.402401293
935350000.0 0.2360458189 0.3611080527
945300000.0 0.3552240513 0.2913165952
955250000.0 0.4500046941 0.1832735964
965200000.0 0.4987105504 0.0317637075
975150000.0 0.4785795243 -0.1580481779
985100000.0 0.3728075911 -0.3676187401
995050000.0 0.173665415 -0.5567887077
1005000000.0 -0.1097016362 -0.6636848221
1014950000.0 -0.4258542706 -0.6251159228
1024900000.0 -0.685080968 -0.4220964616
1034850000.0 -0.8139997881 -0.1120890764
1044800000.0 -0.8072596041 0.2177967298
1054750000.0 -0.6926604789 0.5078609
1064700000.0 -0.5017858718 0.7225539426
1074650000.0 -0.2654308564 0.8441093924
1084600000.0 -0.0239963833 0.8679604613
1094550000.0 0.2165392678 0.805886098
1104500000.0 0.4226255135 0.6765230533
1114450000.0 0.5839879649 0.5098267189
1124400000.0 0.6958651885 0.3218132395
1134350000.0 0.7489895327 0.1249169148
1144300000.0 0.734240985 -0.0703348422
1154250000.0 0.6559527156 -0.2446503249
1164200000.0 0.5303102743 -0.3893443537
1174150000.0 0.3787379682 -0.4998946777
1184100000.0 0.2209873464 -0.576649232
1194050000.0 0.0680524486 -0.619959184
1204000000.0 -0.0743114525 -0.6247022291
1213950000.0 -0.1974844825 -0.5927188582
1223900000.0 -0.3058281302 -0.5243283706
1233850000.0 -0.3929297165 -0.432071496
1243800000.0 -0.4691106234 -0.3278022193
1253750000.0 -0.5315905741 -0.2251579571
1263700000.0 -0.5806875865 -0.1293777798
1273650000.0 -0.6140058213 -0.0430033324
1283600000.0 -0.6246932843 0.0339783839
1293550000.0 -0.6140532006 0.1056368902
1303500000.0 -0.5834759284 0.1761849127
1313450000.0 -0.5392526284 0.2506951584
1323400000.0 -0.4894929146 0.3279959085
1333350000.0 -0.4414407297 0.4067223237
1343300000.0 -0.3949262109 0.4793533933
1353250000.0 -0.3488191545 0.5385093029
1363200000.0 -0.300787615 0.5788995264
1373150000.0 -0.2468636467 0.599444905
1383100000.0 -0.1826478825 0.6037849255
1393050000.0 -0.1094618618 0.5996676637
1403000000.0 -0.0278450463 0.5946313687
1412950000.0 0.0569726581 0.5926874078
1422900000.0 0.1390599763 0.5916709329
1432850000.0 0.2125977331 0.5862033621
1442800000.0 0.2739093923 0.5702926979
1452750000.0 0.3231930747 0.5379099584
1462700000.0 0.3624653419 0.4864335716
1472650000.0 0.3999337885 0.4217505899
1482600000.0 0.4381255035 0.3471285462
1492550000.0 0.4798556074 0.2686226691
1502500000.0 0.5191795083 0.1900666089
1512450000.0 0.5508788263 0.1140152113
1522400000.0 0.565115861 0.0395392529
1532350000.0 0.5562882771 -0.0325731185
1542300000.0 0.5253794639 -0.1028514999
1552250000.0 0.4762473663 -0.1754145093
1562200000.0 0.4170975972 -0.2488027866
1572150000.0 0.3526459366 -0.3224367408
1582100000.0 0.2858389215 -0.3885219747
1592050000.0 0.2157782857 -0.4416145146
1602000000.0 0.140910871 -0.4749772932
1611950000.0 0.060630893 -0.4827463507
1621900000.0 -0.0259900313 -0.4718157133
1631850000.0 -0.1164686027 -0.4467366591
1641800000.0 -0.2068025861 -0.4156276586
1651750000.0 -0.2929200942 -0.3801861359
1661700000.0 -0.3690732756 -0.3414489903
1671650000.0 -0.4324590588 -0.2944015755
1681600000.0 -0.4767952458 -0.2335774235
1691550000.0 -0.5033477409 -0.1594048072
1701500000.0 -0.5165308265 -0.0753923489
1711450000.0 -0.5223023355 0.0129213659
1721400000.0 -0.5248733027 0.0968568186
1731350000.0 -0.5271277624 0.1737844585
1741300000.0 -0.5255112079 0.2387240735
1751250000.0 -0.5152187774 0.2941547681
1761200000.0 -0.4887962157 0.3409577191
1771150000.0 -0.4458158965 0.3829857544
1781100000.0 -0.3876818333 0.4238351913
1791050000.0 -0.3233394095 0.4648562313
1801000000.0 -0.2628077262 0.5069837779
1810950000.0 -0.2098133292 0.5461454689
1820900000.0 -0.1672784545 0.5776454354
1830850000.0 -0.1298586487 0.5961686572
1840800000.0 -0.0919639043 0.5979434139
1850750000.0 -0.0482223868 0.5828337558
1860700000.0 0.0054730973 0.5555476021
1870650000.0 0.0664843199 0.5227766966
1880600000.0 0.1311167183 0.4916274715
1890550000.0 0.1873630738 0.4659658815
1900500000.0 0.2300640532 0.4466691063
1910450000.0 0.2573147154 0.4298735185
1920400000.0 0.2672420007 0.4047821208
1930350000.0 0.263300475 0.366257775
1940300000.0 0.2498357512 0.3120634255
1950250000.0 0.2353756214 0.2466575046
1960200000.0 0.2217214762 0.1790818105
1970150000.0 0.2083981885 0.1158190523
1980100000.0 0.1888632379 0.0679462483
1990050000.0 0.1500718195 0.0373134483
2000000000.0 0.0852379864 0.0348480811
