!Created with skrf (http://scikit-rf.org).
# GHz S RI R 50.0 
!freq ReS11 ImS11
10000000.0 -0.9694874843 0.176165004
19950000.0 -0.9389441682 0.341039178
29900000.0 -0.8836381668 0.4956591528
39850000.0 -0.7886499467 0.6354546092
49800000.0 -0.6552563 0.7534222423
59750000.0 -0.4841933301 0.8472834376
69700000.0 -0.2789783009 0.9160934028
79650000.0 -0.0439177525 0.9537107841
89600000.0 0.2184802669 0.9421827317
99550000.0 0.4938556564 0.8520251469
109500000.0 0.7466211636 0.6509317532
119450000.0 0.9207229699 0.330948348
129400000.0 0.9604608418 -0.0712514975
139350000.0 0.836527133 -0.4802325959
149300000.0 0.5662854395 -0.8097180276
159250000.0 0.2099635255 -0.9917899969
169200000.0 -0.1509359894 -1.007441268
179150000.0 -0.4539236068 -0.8918646598
189100000.0 -0.6772076508 -0.7034919348
199050000.0 -0.8291675621 -0.4888867732
209000000.0 -0.9233648419 -0.2728281296
218950000.0 -0.9733666798 -0.0687070746
228900000.0 -0.9779188506 0.1171896206
238850000.0 -0.9387230495 0.2814523003
248800000.0 -0.8511987133 0.4142338078
258750000.0 -0.7613189056 0.5459026493
268700000.0 -0.6402796638 0.6564365116
278650000.0 -0.5068408527 0.7537482662
288600000.0 -0.3626817693 0.8333017279
298550000.0 -0.2085146638 0.8860165584
308500000.0 -0.0462238672 0.8985453752
318450000.0 0.119227836 0.8598768249
328400000.0 0.2793290395 0.7684561423
338350000.0 0.418614644 0.627216298
348300000.0 0.5216734067 0.4462041326
358250000.0 0.5662361272 0.2442629441
368200000.0 0.5362264893 0.0519571976
378150000.0 0.4358051586 -0.0931821382
388100000.0 0.2912553299 -0.1696997016
398050000.0 0.1403378184 -0.181981173
408000000.0 0.0112410448 -0.1516467803
417950000.0 -0.0783996952 -0.098782767
427900000.0 -0.1297528009 -0.0400216431
437850000.0 -0.1406351573 0.0147650922
447800000.0 -0.1251373237 0.0627082697
457750000.0 -0.0914280277 0.101373466
467700000.0 -0.0512618003 0.1323325217
477650000.0 -0.0169314975 0.151774571
487600000.0 0.0125459212 0.1571769412
497550000.0 0.030314637 0.1512802131
507500000.0 0.0374831566 0.1253715693
517450000.0 0.0409877374 0.091990026
527400000.0 0.038878183 0.0545974009
537350000.0 0.0349569494 0.0191842868
547300000.0 0.0291749891 -0.0058528505
557250000.0 0.0181252262 -0.0174570946
567200000.0 -0.0027532327 -0.0148601833
577150000.0 -0.0298661101 -0.0028786788
587100000.0 -0.0622494842 0.0151740169
597050000.0 -0.0938475288 0.0344386385
607000000.0 -0.1185747438 0.0523402129
616950000.0 -0.1312808725 0.0684432531
626900000.0 -0.1278957688 0.0846482299
636850000.0 -0.1109243451 0.1040744478
646800000.0 -0.0828404368 0.1256535658
656750000.0 -0.0505905015 0.1510198745
666700000.0 -0.0197534379 0.1737125371
676650000.0 0.0092170962 0.1885779479
686600000.0 0.0324189827 0.1918829756
696550000.0 0.0531787514 0.1765675701
706500000.0 0.0742413417 0.1467058163
716450000.0 0.096666036 0.1037853332
726400000.0 0.1172718096 0.0555854761
736350000.0 0.133333596 0.0055537467
746300000.0 0.1397362047 -0.0388090762
756250000.0 0.1269876878 -0.0761770164
766200000.0 0.0950087825 -0.104790919
776150000.0 0.0461629607 -0.1226993401
786100000.0 -0.0132472193 -0.1400911786
796050000.0 -0.0825655402 -0.1518148224
806000000.0 -0.1521276004 -0.1535422737
815950000.0 -0.2107088958 -0.140582253
825900000.0 -0.2553960647 -0.1074784752
835850000.0 -0.2835136621 -0.0566191296
845800000.0 -0.29763951 0.0134525127
855750000.0 -0.2999414732 0.0948766237
865700000.0 -0.2908203106 0.1815411804
875650000.0 -0.2693051275 0.2635257117
885600000.0 -0.2299461548 0.3319764319
895550000.0 -0.1693058285 0.3813246241
905500000.0 -0.086473869 0.4054602072
915450000.0 0.0160684905 0.4077544771
925400000.0 0.1315375071 0.3849753942
935350000.0 0.2539521968 0.3344743475
945300000.0 0.3677463305 0.2521461587
955250000.0 0.4529714371 0.1286351422
965200000.0 0.486694687 -0.0360226399
975150000.0 0.4463086009 -0.2317173271
985100000.0 0.316613134 -0.4319863722
995050000.0 0.0964235544 -0.5945669387
1005000000.0 -0.1955364981 -0.6592922635
1014950000.0 -0.4996413427 -0.5770467708
1024900000.0 -0.728609302 -0.34682331
1034850000.0 -0.8234070317 -0.0347291207
1044800000.0 -0.7872816699 0.2836901763
1054750000.0 -0.6452214073 0.5557162069
1064700000.0 -0.4220535855 0.7456522826
1074650000.0 -0.179688229 0.7788450985
1084600000.0 -0.004850108 0.8270222476
1094550000.0 0.2552991551 0.7751791992
1104500000.0 0.4711598418 0.6284897247
1114450000.0 0.6278036743 0.4353926937
1124400000.0 0.7206406314 0.2197571907
1134350000.0 0.7429052403 0.0009271173
1144300000.0 0.6891940794 -0.2037726292
1154250000.0 0.572146036 -0.3712301592
1164200000.0 0.4134850442 -0.4960069474
1174150000.0 0.2385438477 -0.5765446893
1184100000.0 0.0685392835 -0.618062439
1194050000.0 -0.0872958531 -0.6255072941
1204000000.0 -0.2224719583 -0.5971671517
1213950000.0 -0.3343776103 -0.5401788991
1223900000.0 -0.4244124967 -0.4528605406
1233850000.0 -0.493487332 -0.3506722602
1243800000.0 -0.5498643672 -0.2409210883
1253750000.0 -0.5935012067 -0.1356782432
1263700000.0 -0.6251853919 -0.0396506272
1273650000.0 -0.6421157542 0.0464468601
1283600000.0 -0.6406381243 0.1204996812
1293550000.0 -0.620145946 0.1890514361
1303500000.0 -0.5816029393 0.2551364625
1313450000.0 -0.5313125586 0.3232151821
1323400000.0 -0.4764090399 0.392934141
1333350000.0 -0.4218095302 0.4611643936
1343300000.0 -0.3705235638 0.5230318888
1353250000.0 -0.3195087286 0.5721880526
1363200000.0 -0.2684914725 0.6049105623
1373150000.0 -0.2123934983 0.6199698475
1383100000.0 -0.1475185473 0.6203160161
1393050000.0 -0.0755166657 0.6131487153
1403000000.0 0.0035366855 0.604088084
1412950000.0 0.0854429908 0.5954990228
1422900000.0 0.1647726191 0.5878142688
1432850000.0 0.2355660744 0.5745856257
1442800000.0 0.2961215884 0.5509893019
1452750000.0 0.3444454144 0.5117351236
1462700000.0 0.383526979 0.455167186
1472650000.0 0.418556654 0.3846965657
1482600000.0 0.4527662288 0.3046170456
1492550000.0 0.4868970425 0.2200696582
1502500000.0 0.516543821 0.1351056809
1512450000.0 0.5353308035 0.0514805625
1522400000.0 0.535946913 -0.0300830032
1532350000.0 0.510915063 -0.1074394603
1542300000.0 0.4645057238 -0.1805207747
1552250000.0 0.3983916553 -0.2506810621
1562200000.0 0.3222986457 -0.3152274705
1572150000.0 0.243744584 -0.3749327929
1582100000.0 0.162895239 -0.4263452801
1592050000.0 0.0784991173 -0.4620443325
1602000000.0 -0.0088707057 -0.4744814003
1611950000.0 -0.0964507131 -0.4611550917
1621900000.0 -0.1832385965 -0.4280571056
1631850000.0 -0.2676651839 -0.3822298234
1641800000.0 -0.3480390276 -0.3313743616
1651750000.0 -0.4205494988 -0.2783582734
1661700000.0 -0.4817156392 -0.2221100706
1671650000.0 -0.5275462402 -0.1594373719
1681600000.0 -0.5524341861 -0.0878054721
1691550000.0 -0.5595548603 -0.0088103383
1701500000.0 -0.5549696414 0.0740011414
1711450000.0 -0.5439640283 0.1564098098
1721400000.0 -0.5337426443 0.2324447384
1731350000.0 -0.5235972964 0.3010429986
1741300000.0 -0.5114063651 0.3597476653
1751250000.0 -0.4909645767 0.4087577954
1761200000.0 -0.4566579035 0.4496305106
1771150000.0 -0.4074874011 0.484970287
1781100000.0 -0.3469217242 0.5175716073
1791050000.0 -0.2821319047 0.5495798399
1801000000.0 -0.2221424985 0.5824650424
1810950000.0 -0.1696983262 0.6120911768
1820900000.0 -0.1271377717 0.6356689544
1830850000.0 -0.0890731787 0.6474046451
1840800000.0 -0.0515335021 0.6445609163
1850750000.0 -0.0088338652 0.6272901837
1860700000.0 0.0421767282 0.5990553161
1870650000.0 0.0986466241 0.5678629065
1880600000.0 0.1590610659 0.5385186876
1890550000.0 0.2132667062 0.5144129704
1900500000.0 0.2566393626 0.4938988413
1910450000.0 0.2839103996 0.4723670436
1920400000.0 0.2930352222 0.4433395762
1930350000.0 0.2888214073 0.4034043074
1940300000.0 0.2765524566 0.3513459802
1950250000.0 0.2613933804 0.2889868758
1960200000.0 0.2486829507 0.2270569794
1970150000.0 0.2355777125 0.1706809834
1980100000.0 0.2183104621 0.1296157247
1990050000.0 0.1865630552 0.1077654579
2000000000.0 0.136365283 0.1082712895
