!Created with skrf (http://scikit-rf.org).
# GHz S RI R 50.0 
!freq ReS11 ImS11
10000000.0 -0.965336288 0.1806351347
19950000.0 -0.9343838775 0.3495791032
29900000.0 -0.8779472166 0.5070832085
39850000.0 -0.7805074639 0.6468790606
49800000.0 -0.6444060119 0.7619517525
59750000.0 -0.4720764436 0.8510733598
69700000.0 -0.2689212061 0.9148760203
79650000.0 -0.0409372608 0.9499055111
89600000.0 0.2088671316 0.9421477058
99550000.0 0.4677188769 0.8665456011
109500000.0 0.7077386089 0.6949791684
119450000.0 0.8859619331 0.417841722
129400000.0 0.9590278854 0.0582333123
139350000.0 0.8987432526 -0.3308572007
149300000.0 0.7020076804 -0.6834110083
159250000.0 0.3951672519 -0.9292422512
169200000.0 0.0395065897 -1.020188953
179150000.0 -0.2948783573 -0.9607418449
189100000.0 -0.5641368454 -0.7984322128
199050000.0 -0.7599125479 -0.586252725
209000000.0 -0.8895827017 -0.3577018296
218950000.0 -0.9643227543 -0.1324689525
228900000.0 -0.9811472401 0.0791072506
238850000.0 -0.9400305039 0.2714810939
248800000.0 -0.6922273675 0.3515472201
258750000.0 -0.7472458259 0.551460905
268700000.0 -0.6040277858 0.6755118859
278650000.0 -0.4475917953 0.7776980228
288600000.0 -0.2800742635 0.8546701466
298550000.0 -0.1036057801 0.8957301193
308500000.0 0.076313708 0.8859087994
318450000.0 0.2503418279 0.8168890986
328400000.0 0.4076501096 0.6908571545
338350000.0 0.5332591888 0.5180216853
348300000.0 0.6102693002 0.3133804437
358250000.0 0.6224829869 0.1003248607
368200000.0 0.5628462389 -0.0869532422
378150000.0 0.4427251285 -0.2161948226
388100000.0 0.2914269629 -0.2777049415
398050000.0 0.140938367 -0.2801300503
408000000.0 0.0118897172 -0.245251954
417950000.0 -0.0840108157 -0.194205101
427900000.0 -0.1406595266 -0.1412767755
437850000.0 -0.15878953 -0.0886575271
447800000.0 -0.1485901344 -0.0406632673
457750000.0 -0.1202149441 0.0037064701
467700000.0 -0.0867028453 0.0409076032
477650000.0 -0.0554888453 0.0666148751
487600000.0 -0.0310404339 0.0736390528
497550000.0 -0.0940527704 0.0821044207
507500000.0 -0.0220104258 0.0769077353
517450000.0 -0.0217897541 0.0379070729
527400000.0 -0.0265501186 -0.0007409623
537350000.0 -0.0322617938 -0.0347833035
547300000.0 -0.0426924079 -0.054297731
557250000.0 -0.0515228241 -0.0563598031
567200000.0 -0.0665790037 -0.0431611364
577150000.0 -0.088368351 -0.019875374
587100000.0 -0.1169499959 0.007899285
597050000.0 -0.1447320651 0.0332230356
607000000.0 -0.1655183799 0.0530339406
616950000.0 -0.1744306599 0.0705348391
626900000.0 -0.1695746546 0.0845468486
636850000.0 -0.1489625202 0.1004474198
646800000.0 -0.1174317862 0.1203458696
656750000.0 -0.0820799344 0.1468110343
666700000.0 -0.0486459493 0.170819097
676650000.0 -0.0161946028 0.187778782
686600000.0 0.009821582 0.1927932527
696550000.0 0.0321567305 0.174852079
706500000.0 0.0534153669 0.1295515542
716450000.0 0.0768465747 0.0695591822
726400000.0 0.0991277864 0.0433534347
736350000.0 0.1152878263 -0.0013972187
746300000.0 0.1217780858 -0.050158888
756250000.0 0.1098490339 -0.0933391628
766200000.0 0.0793060853 -0.1273217424
776150000.0 0.0268485208 -0.1521925771
786100000.0 -0.0397718406 -0.1702735701
796050000.0 -0.1130770783 -0.1813116943
806000000.0 -0.1865638156 -0.1840739681
815950000.0 -0.2486354124 -0.1726313127
825900000.0 -0.2965000343 -0.14228776
835850000.0 -0.3293089576 -0.0926156336
845800000.0 -0.348121781 -0.0235686678
855750000.0 -0.3558369029 0.0581284439
865700000.0 -0.3545292796 0.1456369847
875650000.0 -0.3411996611 0.23082188
885600000.0 -0.3128293759 0.3039419621
895550000.0 -0.2632634218 0.3603871835
905500000.0 -0.1897189169 0.3955183488
915450000.0 -0.0946734266 0.4128270675
925400000.0 0.0184476861 0.4075678989
935350000.0 0.1445967639 0.3815482871
945300000.0 0.270065919 0.3236109244
955250000.0 0.376895552 0.2216849857
965200000.0 0.4406337867 0.0685791418
975150000.0 0.4298067292 -0.1327645606
985100000.0 0.3232496481 -0.3550018224
995050000.0 0.111957507 -0.5462080935
1005000000.0 -0.1861458457 -0.6377990127
1014950000.0 -0.4992792732 -0.5687422529
1024900000.0 -0.7324603179 -0.3440668359
1034850000.0 -0.8279830636 -0.0399569817
1044800000.0 -0.798175741 0.2649807448
1054750000.0 -0.6717814216 0.5253872512
1064700000.0 -0.4735925724 0.6832669604
1074650000.0 -0.3047490216 0.7637616113
1084600000.0 -0.1286243736 0.8442702117
1094550000.0 0.1206379628 0.8146111477
1104500000.0 0.3350489359 0.7013318484
1114450000.0 0.506140867 0.5417542425
1124400000.0 0.6260263481 0.3537334664
1134350000.0 0.683460667 0.1523323321
1144300000.0 0.6670645223 -0.048197508
1154250000.0 0.5797745624 -0.2241549473
1164200000.0 0.4414209149 -0.3638001755
1174150000.0 0.2763099093 -0.4623676427
1184100000.0 0.1080461621 -0.5203972027
1194050000.0 -0.0493748014 -0.5424863455
1204000000.0 -0.1881576283 -0.52619082
1213950000.0 -0.3011446867 -0.4754655181
1223900000.0 -0.3925037651 -0.3930694209
1233850000.0 -0.4613193722 -0.2927097368
1243800000.0 -0.5153586752 -0.1827313322
1253750000.0 -0.5581297924 -0.0786700331
1263700000.0 -0.5887740011 0.0184689707
1273650000.0 -0.6036754973 0.1017518054
1283600000.0 -0.6002808456 0.1749379948
1293550000.0 -0.5770559941 0.2410000034
1303500000.0 -0.535477715 0.3043781873
1313450000.0 -0.4825455171 0.370357632
1323400000.0 -0.4253431439 0.4381465702
1333350000.0 -0.3711899444 0.5044279447
1343300000.0 -0.3210739591 0.5641826535
1353250000.0 -0.2750710254 0.6086769078
1363200000.0 -0.2278956637 0.6358566507
1373150000.0 -0.1764400299 0.6434317941
1383100000.0 -0.1155612712 0.6351495962
1393050000.0 -0.046006955 0.6211121359
1403000000.0 0.0325079432 0.6071047591
1412950000.0 0.1124883914 0.596829387
1422900000.0 0.1889149997 0.5909296742
1432850000.0 0.2543518895 0.5840216043
1442800000.0 0.3066506206 0.5683914395
1452750000.0 0.3436648983 0.5409311546
1462700000.0 0.3737409744 0.498267299
1472650000.0 0.4027289829 0.4436671061
1482600000.0 0.4363864033 0.3810386897
1492550000.0 0.4752121004 0.3137989899
1502500000.0 0.5143576418 0.2454881624
1512450000.0 0.5490343009 0.1758794296
1522400000.0 0.5670491661 0.1038042502
1532350000.0 0.5676744672 0.0303261637
1542300000.0 0.545930808 -0.0468559276
1552250000.0 0.5071512947 -0.1248309759
1562200000.0 0.4597035353 -0.2050097092
1572150000.0 0.4056688488 -0.2835221298
1582100000.0 0.3492554976 -0.3536365434
1592050000.0 0.2854430785 -0.4108387868
1602000000.0 0.2120621655 -0.4461203528
1611950000.0 0.1276596381 -0.4568438145
1621900000.0 0.033984895 -0.4469398103
1631850000.0 -0.0659506708 -0.4217473964
1641800000.0 -0.1635233599 -0.3908054989
1651750000.0 -0.2550829926 -0.3571059123
1661700000.0 -0.334574187 -0.3183894991
1671650000.0 -0.3981238964 -0.2738092136
1681600000.0 -0.4422664106 -0.2159821011
1691550000.0 -0.4671975446 -0.1437429741
1701500000.0 -0.476603547 -0.062675656
1711450000.0 -0.4787160545 0.0245842741
1721400000.0 -0.4773876591 0.1083159711
1731350000.0 -0.4759739958 0.1857617562
1741300000.0 -0.4695246012 0.2540234331
1751250000.0 -0.4536134274 0.3116757971
1761200000.0 -0.4210123602 0.3610368143
1771150000.0 -0.3693314715 0.4033557317
1781100000.0 -0.3020341837 0.4397978693
1791050000.0 -0.2249956496 0.4663787731
1801000000.0 -0.1633497531 0.4612632022
1810950000.0 -0.1647744183 0.4834356866
1820900000.0 -0.143177637 0.5477309306
1830850000.0 -0.1028213468 0.5775920559
1840800000.0 -0.0602918975 0.5812317671
1850750000.0 -0.0129839664 0.5648010004
1860700000.0 0.0427094595 0.5355802808
1870650000.0 0.1048919779 0.5012905067
1880600000.0 0.1690751241 0.4700649473
1890550000.0 0.2264929303 0.4442930508
1900500000.0 0.2727922912 0.422617605
1910450000.0 0.3022727228 0.4006148284
1920400000.0 0.3138270904 0.3683732678
1930350000.0 0.3097370013 0.3230350151
1940300000.0 0.2946081215 0.2619389368
1950250000.0 0.2741653044 0.1927465114
1960200000.0 0.2507598953 0.1238108661
1970150000.0 0.2219965815 0.0637721137
1980100000.0 0.1839894822 0.0236924186
1990050000.0 0.1276740988 0.008606506
2000000000.0 0.0488570521 0.0222947734
