!Created with skrf (http://scikit-rf.org).
# GHz S RI R 50.0 
!freq ReS11 ImS11
10000000.0 -0.9702317274 0.1795804518
19950000.0 -0.9370750321 0.3470268356
29900000.0 -0.8786523962 0.5031139964
39850000.0 -0.7811306806 0.6428983707
49800000.0 -0.6467860886 0.7595016106
59750000.0 -0.47760285 0.8511052983
69700000.0 -0.2777915886 0.9177335185
79650000.0 -0.0525647081 0.9543618179
89600000.0 0.1943660478 0.9475794027
99550000.0 0.4519729584 0.874109156
109500000.0 0.6935811244 0.7070824834
119450000.0 0.8782791255 0.4358416592
129400000.0 0.9621365856 0.0801670991
139350000.0 0.9123753497 -0.3097807398
149300000.0 0.721920406 -0.6670146492
159250000.0 0.4167270358 -0.9188054181
169200000.0 0.0585482536 -1.017224801
179150000.0 -0.2813071978 -0.9648332384
189100000.0 -0.5573451017 -0.8075311762
199050000.0 -0.7580579437 -0.596776241
209000000.0 -0.8893945073 -0.3674740637
218950000.0 -0.963718756 -0.1403484725
228900000.0 -0.9791691591 0.0736759037
238850000.0 -0.937479326 0.2698798936
248800000.0 -0.656408544 0.4318882527
258750000.0 -0.7523330614 0.5479728787
268700000.0 -0.609696797 0.6758589191
278650000.0 -0.4534100917 0.7781735205
288600000.0 -0.2850118976 0.8535641513
298550000.0 -0.1078969745 0.8927086635
308500000.0 0.0724714276 0.8824732531
318450000.0 0.2465168897 0.8150909268
328400000.0 0.4036278043 0.6921717389
338350000.0 0.5293633609 0.5234191956
348300000.0 0.6082551644 0.3228205646
358250000.0 0.6241076746 0.1111315185
368200000.0 0.5684319065 -0.0783313669
378150000.0 0.449098789 -0.212988875
388100000.0 0.2952798357 -0.2823044992
398050000.0 0.1420557419 -0.2898829089
408000000.0 0.0110277866 -0.2552684811
417950000.0 -0.0860736532 -0.1997390189
427900000.0 -0.1431677093 -0.1402498638
437850000.0 -0.1609824299 -0.0815398052
447800000.0 -0.1500036145 -0.0299632834
457750000.0 -0.1213328924 0.0143710283
467700000.0 -0.0866883598 0.0468014739
477650000.0 -0.0542495129 0.0665409803
487600000.0 -0.0260395209 0.0672869409
497550000.0 -0.0599197145 0.0103784707
507500000.0 -0.0273960989 0.0688420844
517450000.0 -0.0212755347 0.0345280936
527400000.0 -0.0232598069 0.0014002486
537350000.0 -0.0258709891 -0.0273698285
547300000.0 -0.0374946855 -0.0518367562
557250000.0 -0.0548577197 -0.0542173132
567200000.0 -0.0729961354 -0.0437824331
577150000.0 -0.0972443897 -0.0249933104
587100000.0 -0.1268733653 -0.0016216451
597050000.0 -0.1542983433 0.0217755551
607000000.0 -0.1750510368 0.0419752985
616950000.0 -0.1827899344 0.0625507975
626900000.0 -0.1778505644 0.0810655086
636850000.0 -0.157646264 0.1023229149
646800000.0 -0.1271339333 0.1257422535
656750000.0 -0.0927740885 0.1532298623
666700000.0 -0.06027561 0.1755321624
676650000.0 -0.0278772383 0.189649719
686600000.0 -0.0002733177 0.1931293708
696550000.0 0.0240740893 0.1782767276
706500000.0 0.0477245912 0.1465750195
716450000.0 0.0728700107 0.10155282
726400000.0 0.0963948697 0.0505546095
736350000.0 0.1129725225 -0.0014389144
746300000.0 0.1182376497 -0.0499916316
756250000.0 0.1046590156 -0.0918203215
766200000.0 0.0728255643 -0.124939449
776150000.0 0.0185686095 -0.1502501342
786100000.0 -0.0497107512 -0.1679399174
796050000.0 -0.1240276882 -0.1765354762
806000000.0 -0.1984538749 -0.1750364533
815950000.0 -0.2590804363 -0.1577086803
825900000.0 -0.3036173711 -0.1211650509
835850000.0 -0.3317082573 -0.0686733141
845800000.0 -0.345958306 0.0003663687
855750000.0 -0.3502501218 0.0794128353
865700000.0 -0.3463102196 0.1635011376
875650000.0 -0.3303691727 0.2438376287
885600000.0 -0.3002289368 0.3134344388
895550000.0 -0.2499659119 0.367298783
905500000.0 -0.1769989214 0.400650796
915450000.0 -0.0840213704 0.4165004328
925400000.0 0.0261834958 0.4101018469
935350000.0 0.1483321432 0.3817990052
945300000.0 0.2688548228 0.3220196412
955250000.0 0.3729293434 0.220022438
965200000.0 0.4361527365 0.0684352651
975150000.0 0.4304440357 -0.1277946956
985100000.0 0.3322689064 -0.3460718627
995050000.0 0.1299111672 -0.5367652962
1005000000.0 -0.1627351705 -0.6329147879
1014950000.0 -0.4768223929 -0.5729750256
1024900000.0 -0.718944582 -0.3594492293
1034850000.0 -0.8259078581 -0.0608550811
1044800000.0 -0.8051384747 0.2439811995
1054750000.0 -0.677173736 0.5052772463
1064700000.0 -0.4803252155 0.6398919471
1074650000.0 -0.3160627708 0.7375608121
1084600000.0 -0.1858441886 0.7854468612
1094550000.0 0.0457781725 0.8111624803
1104500000.0 0.2700075836 0.7317548768
1114450000.0 0.4561387532 0.5936880771
1124400000.0 0.5923279789 0.416893594
1134350000.0 0.6677787559 0.21799278
1144300000.0 0.6688464909 0.0096900894
1154250000.0 0.5956155065 -0.1805883476
1164200000.0 0.4642259433 -0.3375685436
1174150000.0 0.3000929695 -0.4498466511
1184100000.0 0.129506846 -0.5141847721
1194050000.0 -0.0318954466 -0.5384042505
1204000000.0 -0.1757396435 -0.5180605682
1213950000.0 -0.2925671742 -0.4647848403
1223900000.0 -0.3877871057 -0.3790212168
1233850000.0 -0.4601499754 -0.2773410928
1243800000.0 -0.5144435389 -0.1675920539
1253750000.0 -0.5565292368 -0.0641220651
1263700000.0 -0.5842451099 0.0314048826
1273650000.0 -0.5967069723 0.1137080923
1283600000.0 -0.5914032222 0.1849849204
1293550000.0 -0.5676419245 0.2497409761
1303500000.0 -0.5277385237 0.3111097943
1313450000.0 -0.477215813 0.37485862
1323400000.0 -0.4224219967 0.4392014649
1333350000.0 -0.3691870724 0.5023702046
1343300000.0 -0.3183712042 0.5598773452
1353250000.0 -0.2706858572 0.6035460212
1363200000.0 -0.2214405693 0.6327126701
1373150000.0 -0.1693374387 0.6444672842
1383100000.0 -0.1097719433 0.64231032
1393050000.0 -0.0425312493 0.6345160012
1403000000.0 0.0309125317 0.6248523606
1412950000.0 0.1059380179 0.6165843893
1422900000.0 0.1781003171 0.6100281756
1432850000.0 0.2414786501 0.6000204536
1442800000.0 0.294324005 0.5811422464
1452750000.0 0.3346971767 0.5516506385
1462700000.0 0.369579171 0.508676
1472650000.0 0.4035246708 0.4539378557
1482600000.0 0.4404360435 0.39041285
1492550000.0 0.4818674981 0.3219338238
1502500000.0 0.5216214741 0.252886427
1512450000.0 0.5558548515 0.1834195754
1522400000.0 0.574555283 0.1128018012
1532350000.0 0.5758603643 0.043197905
1542300000.0 0.5546668976 -0.0295033121
1552250000.0 0.5164052154 -0.1025874519
1562200000.0 0.4677835839 -0.1778596298
1572150000.0 0.4108208382 -0.2530143643
1582100000.0 0.3501021913 -0.3222632363
1592050000.0 0.2835823395 -0.3818149314
1602000000.0 0.2084749539 -0.4240129238
1611950000.0 0.1247890045 -0.4430552149
1621900000.0 0.0349969701 -0.4407401623
1631850000.0 -0.0599819671 -0.4226476935
1641800000.0 -0.1521666273 -0.3933939876
1651750000.0 -0.2391436211 -0.358334816
1661700000.0 -0.316556237 -0.3138692644
1671650000.0 -0.37854329 -0.2605178539
1681600000.0 -0.4206974283 -0.1922438068
1691550000.0 -0.4360316969 -0.1107051019
1701500000.0 -0.4217343706 -0.0493221086
1711450000.0 -0.4617741397 0.0019145595
1721400000.0 -0.4836906703 0.0978270241
1731350000.0 -0.4870456617 0.181916544
1741300000.0 -0.4819760393 0.2527479273
1751250000.0 -0.4663301297 0.3112864
1761200000.0 -0.4353603921 0.3618690221
1771150000.0 -0.3889006396 0.4057037303
1781100000.0 -0.330993749 0.4461687202
1791050000.0 -0.2665121163 0.4865088893
1801000000.0 -0.2061592119 0.5241636083
1810950000.0 -0.1517687914 0.5580302881
1820900000.0 -0.1068774693 0.5835390137
1830850000.0 -0.066886437 0.596206341
1840800000.0 -0.0268782217 0.5940871063
1850750000.0 0.0175281893 0.5769040012
1860700000.0 0.0693749789 0.5494783399
1870650000.0 0.1270163029 0.5179492232
1880600000.0 0.1859119014 0.4883904632
1890550000.0 0.2395088804 0.4638599329
1900500000.0 0.2823069646 0.4433671546
1910450000.0 0.3096151422 0.4220297641
1920400000.0 0.3213012726 0.3918533597
1930350000.0 0.3193870467 0.3499748925
1940300000.0 0.3088962562 0.2919726732
1950250000.0 0.2929070202 0.2249743017
1960200000.0 0.2750973553 0.1554243041
1970150000.0 0.2524457439 0.0926106902
1980100000.0 0.2197190827 0.0472462112
1990050000.0 0.1679180886 0.0263626553
2000000000.0 0.0885709347 0.0363740221
