!Created with skrf (http://scikit-rf.org).
# GHz S RI R 50.0 
!freq ReS11 ImS11
10000000.0 -0.9667278629 0.1788634783
19950000.0 -0.9357549213 0.3454808496
29900000.0 -0.8799075732 0.5011657791
39850000.0 -0.784279215 0.6398168816
49800000.0 -0.6509906851 0.7550278166
59750000.0 -0.4823771755 0.8452653617
69700000.0 -0.2828193674 0.911403245
79650000.0 -0.0577941717 0.9491601891
89600000.0 0.1902413206 0.945125219
99550000.0 0.4498775672 0.8739512394
109500000.0 0.6941322871 0.7060563217
119450000.0 0.8793953146 0.4295313196
129400000.0 0.9588514769 0.0657489995
139350000.0 0.8990475774 -0.3312832855
149300000.0 0.6953518018 -0.6895456181
159250000.0 0.3775448732 -0.9340421777
169200000.0 0.0135749975 -1.016981834
179150000.0 -0.3225335455 -0.9467740182
189100000.0 -0.5879594263 -0.7764097663
199050000.0 -0.7763654183 -0.5591726284
209000000.0 -0.8972969418 -0.3289482658
218950000.0 -0.9637609881 -0.1051068893
228900000.0 -0.9738198023 0.1032471439
238850000.0 -0.9281051385 0.2920431528
248800000.0 -0.8420398972 0.3355569612
258750000.0 -0.7375699864 0.5606556838
268700000.0 -0.5975761159 0.6803191265
278650000.0 -0.4449578482 0.7788997865
288600000.0 -0.2822831901 0.8537986072
298550000.0 -0.1117547979 0.8937344752
308500000.0 0.0619054613 0.8866364784
318450000.0 0.2307778021 0.8236023807
328400000.0 0.3854333011 0.7063669216
338350000.0 0.5125377175 0.5431193527
348300000.0 0.5966073328 0.3472504379
358250000.0 0.6200859413 0.1380788355
368200000.0 0.5717510329 -0.0516454847
378150000.0 0.4565267108 -0.1883145639
388100000.0 0.3034201801 -0.258514082
398050000.0 0.1486651619 -0.2653906021
408000000.0 0.0162388483 -0.229759581
417950000.0 -0.0806040736 -0.1735678564
427900000.0 -0.1353043391 -0.1141460637
437850000.0 -0.1500016827 -0.0572165531
447800000.0 -0.1347239587 -0.0076775738
457750000.0 -0.1021448659 0.0345255064
467700000.0 -0.0648300259 0.0646029664
477650000.0 -0.0309160557 0.080817308
487600000.0 -0.0088938943 0.0687111569
497550000.0 -0.0068653976 0.1124367728
507500000.0 0.0043386655 0.0767786691
517450000.0 0.0033079851 0.0404002501
527400000.0 -0.0021146913 0.0045335709
537350000.0 -0.0092482728 -0.0263725283
547300000.0 -0.0214338938 -0.0459215458
557250000.0 -0.0355438549 -0.0509822162
567200000.0 -0.0551516009 -0.0398189965
577150000.0 -0.081644118 -0.0174407621
587100000.0 -0.1112041397 0.0183273897
597050000.0 -0.1231756645 0.0243145782
607000000.0 -0.155687286 0.043282073
616950000.0 -0.1672032721 0.064525489
626900000.0 -0.1627991458 0.0828626526
636850000.0 -0.1424472286 0.1031623302
646800000.0 -0.1105174348 0.126901819
656750000.0 -0.07560601 0.1545794053
666700000.0 -0.0425695528 0.1778961167
676650000.0 -0.0101597936 0.1924557339
686600000.0 0.016418963 0.196481733
696550000.0 0.038992188 0.1812717482
706500000.0 0.0614717669 0.148865671
716450000.0 0.0857136045 0.1033618067
726400000.0 0.1085816372 0.0519493497
736350000.0 0.1257623145 0.0004916683
746300000.0 0.1317276392 -0.046406167
756250000.0 0.1196580536 -0.0854086232
766200000.0 0.0880671997 -0.1160278627
776150000.0 0.0356596519 -0.1393327131
786100000.0 -0.0312912449 -0.1560946328
796050000.0 -0.1036422207 -0.1656423005
806000000.0 -0.1760798051 -0.166340855
815950000.0 -0.2354183031 -0.1522409506
825900000.0 -0.279869647 -0.1185435613
835850000.0 -0.3080282054 -0.0657289077
845800000.0 -0.3217575446 0.0060695872
855750000.0 -0.3240431923 0.0896890623
865700000.0 -0.3157909853 0.1778241839
875650000.0 -0.2949259784 0.261944813
885600000.0 -0.256739187 0.332155307
895550000.0 -0.1960910798 0.3831019634
905500000.0 -0.1100425633 0.4092279057
915450000.0 0.0005714016 0.4111316959
925400000.0 0.1336595962 0.3773111301
935350000.0 0.2685132767 0.2793761384
945300000.0 0.2793163888 0.158764015
955250000.0 0.3368030554 0.1304165076
965200000.0 0.4045606428 0.0021279071
975150000.0 0.3885151828 -0.1898278615
985100000.0 0.2686311763 -0.3987232352
995050000.0 0.0426035232 -0.5648766899
1005000000.0 -0.2606839701 -0.6200784271
1014950000.0 -0.5606345538 -0.5139879102
1024900000.0 -0.7642840168 -0.2666012423
1034850000.0 -0.8256574575 0.0427998891
1044800000.0 -0.7656813448 0.3410291778
1054750000.0 -0.6154016333 0.5769840393
1064700000.0 -0.4337308444 0.7469043411
1074650000.0 -0.2136968557 0.82843448
1084600000.0 0.0167104856 0.8444214195
1094550000.0 0.2434160998 0.7677628059
1104500000.0 0.4348860352 0.6276415085
1114450000.0 0.580889065 0.4484669615
1124400000.0 0.671224007 0.2464441417
1134350000.0 0.6960849051 0.0388084143
1144300000.0 0.6473408048 -0.1581654301
1154250000.0 0.5326039248 -0.3205798563
1164200000.0 0.37585569 -0.4408390659
1174150000.0 0.2006284307 -0.5170818413
1184100000.0 0.0294650407 -0.5521207871
1194050000.0 -0.1254195708 -0.5512250047
1204000000.0 -0.2574926179 -0.5141524229
1213950000.0 -0.3605424631 -0.4459180903
1223900000.0 -0.4402397843 -0.3516025262
1233850000.0 -0.4981929196 -0.2436595851
1243800000.0 -0.5410457895 -0.1306748469
1253750000.0 -0.5729729494 -0.0258981861
1263700000.0 -0.5939812678 0.0696469128
1273650000.0 -0.5993910729 0.150749502
1283600000.0 -0.5880369618 0.2197061273
1293550000.0 -0.5579051317 0.2817331148
1303500000.0 -0.5110442327 0.3392686614
1313450000.0 -0.4546600109 0.3991024863
1323400000.0 -0.3948146476 0.4606151407
1333350000.0 -0.3376993566 0.5209247453
1343300000.0 -0.2843150101 0.5759292243
1353250000.0 -0.233906162 0.6166514962
1363200000.0 -0.1826846657 0.6413905098
1373150000.0 -0.1283802342 0.6479130464
1383100000.0 -0.0661873428 0.6392936734
1393050000.0 0.0031526442 0.6249212893
1403000000.0 0.0792101786 0.6088428658
1412950000.0 0.1559050718 0.5946483941
1422900000.0 0.2288428552 0.5827234013
1432850000.0 0.2906932396 0.567530874
1442800000.0 0.3409507025 0.5446915548
1452750000.0 0.3781589553 0.510587147
1462700000.0 0.4116749838 0.4616701252
1472650000.0 0.4433989315 0.3972590668
1482600000.0 0.4767801705 0.3232841606
1492550000.0 0.51165947 0.2455121841
1502500000.0 0.5440310305 0.1679875588
1512450000.0 0.5688080584 0.0925064754
1522400000.0 0.5747307685 0.0178724511
1532350000.0 0.5598945799 -0.0514996288
1542300000.0 0.5226940734 -0.1222362077
1552250000.0 0.4681767248 -0.1905997143
1562200000.0 0.4048501038 -0.2597591056
1572150000.0 0.3360438806 -0.3273420904
1582100000.0 0.2649506544 -0.387232919
1592050000.0 0.1898177183 -0.4340214308
1602000000.0 0.1096883716 -0.4601483921
1611950000.0 0.0239435223 -0.4608248183
1621900000.0 -0.0650158438 -0.4403211197
1631850000.0 -0.1569310939 -0.4052328515
1641800000.0 -0.2451588055 -0.3618335623
1651750000.0 -0.3261043394 -0.3151341464
1661700000.0 -0.3974812924 -0.2624332232
1671650000.0 -0.4503903961 -0.203072879
1681600000.0 -0.4834503866 -0.1332141554
1691550000.0 -0.4961839592 -0.0515072024
1701500000.0 -0.4956474055 0.0343842116
1711450000.0 -0.4882748386 0.1218245984
1721400000.0 -0.478591153 0.2041331024
1731350000.0 -0.468573131 0.277708096
1741300000.0 -0.4546371289 0.3411394569
1751250000.0 -0.431353321 0.3923716553
1761200000.0 -0.3930280572 0.4341490771
1771150000.0 -0.3390384841 0.4694502383
1781100000.0 -0.2737183169 0.4997282039
1791050000.0 -0.2029870432 0.5301228999
1801000000.0 -0.1368605088 0.5594341441
1810950000.0 -0.0780198003 0.5866453271
1820900000.0 -0.0278665194 0.6046134436
1830850000.0 0.0196618287 0.607058586
1840800000.0 0.0727277485 0.5829990289
1850750000.0 0.1120598885 0.4916438852
1860700000.0 0.0624277806 0.5024467216
1870650000.0 0.1429697253 0.5006469221
1880600000.0 0.214633993 0.4704412342
1890550000.0 0.2730495755 0.4412272032
1900500000.0 0.3170066132 0.4153764194
1910450000.0 0.342283213 0.3894333324
1920400000.0 0.3489086001 0.3547944744
1930350000.0 0.3386896547 0.3075272077
1940300000.0 0.3164182509 0.2462810958
1950250000.0 0.2895889501 0.175834342
1960200000.0 0.2590454019 0.1063612928
1970150000.0 0.2222558013 0.0469689787
1980100000.0 0.1740611151 0.0100560622
1990050000.0 0.1040177212 0.0077938591
2000000000.0 0.0056367377 0.0515380371
