!Created with skrf (http://scikit-rf.org).
# GHz S RI R 50.0 
!freq ReS11 ImS11
10000000.0 -0.9709648521 0.1803992826
19950000.0 -0.9370269632 0.3488131204
29900000.0 -0.8772248989 0.5064440158
39850000.0 -0.7773724609 0.6477813917
49800000.0 -0.6398777444 0.7660021773
59750000.0 -0.4662377053 0.8584151765
69700000.0 -0.2604894965 0.9240056961
79650000.0 -0.0277435848 0.9568520588
89600000.0 0.2273476556 0.9413207272
99550000.0 0.4914861567 0.8528904911
109500000.0 0.733594826 0.6643153898
119450000.0 0.9073057166 0.3681842981
129400000.0 0.9650025071 -0.0078158454
139350000.0 0.8767456641 -0.403861262
149300000.0 0.6454828241 -0.7448766023
159250000.0 0.3120387101 -0.959638416
169200000.0 -0.0480835836 -1.015735783
179150000.0 -0.372684184 -0.9307744633
189100000.0 -0.6255296594 -0.7547347336
199050000.0 -0.8031199427 -0.5368879281
209000000.0 -0.9144897067 -0.3073228971
218950000.0 -0.9723503585 -0.0846558635
228900000.0 -0.9756226665 0.1222825293
238850000.0 -0.9247093873 0.3105029566
248800000.0 -0.8526081531 0.411456903
258750000.0 -0.7214603417 0.5722922864
268700000.0 -0.6014117985 0.6795324866
278650000.0 -0.4520046915 0.7844292428
288600000.0 -0.2878924535 0.8588927256
298550000.0 -0.1151073215 0.897747482
308500000.0 0.061062131 0.8899896856
318450000.0 0.2318394963 0.8273282099
328400000.0 0.3880503697 0.7120389953
338350000.0 0.5156777542 0.5514356916
348300000.0 0.5995980183 0.3577101424
358250000.0 0.6229840339 0.1498935622
368200000.0 0.5754067625 -0.0406572109
378150000.0 0.4615073788 -0.1803975314
388100000.0 0.3101428095 -0.2554167427
398050000.0 0.1559479544 -0.2671698963
408000000.0 0.0235604786 -0.2343857974
417950000.0 -0.0737366647 -0.1781653232
427900000.0 -0.1291069788 -0.1167036904
437850000.0 -0.144398095 -0.0563399705
447800000.0 -0.1302979006 -0.0042664994
457750000.0 -0.0983605261 0.039048099
467700000.0 -0.0607843115 0.0692260752
477650000.0 -0.0256466774 0.0832949932
487600000.0 0.0002657393 0.064670689
497550000.0 -0.0011625711 0.1077807885
507500000.0 0.0134190872 0.073423414
517450000.0 0.0147301713 0.037399772
527400000.0 0.0106872461 0.001855284
537350000.0 0.0048335224 -0.029054116
547300000.0 -0.0089191902 -0.0503334625
557250000.0 -0.0242126233 -0.0558363635
567200000.0 -0.0439032932 -0.0472369797
577150000.0 -0.0692995615 -0.0292684272
587100000.0 -0.0997735449 -0.0067941979
597050000.0 -0.1277435246 0.0157111494
607000000.0 -0.1481661583 0.0355055222
616950000.0 -0.1565407659 0.0557915192
626900000.0 -0.1511941571 0.0734022798
636850000.0 -0.1319037078 0.0932918566
646800000.0 -0.1014378229 0.1153772486
656750000.0 -0.0685929346 0.1412696771
666700000.0 -0.0371299594 0.1612071809
676650000.0 -0.0058145942 0.1733339972
686600000.0 0.01946776 0.1751155555
696550000.0 0.0417574785 0.1591210579
706500000.0 0.0631392193 0.1268214206
716450000.0 0.0854267829 0.0824506914
726400000.0 0.1061744581 0.0324319344
736350000.0 0.120261516 -0.018086893
746300000.0 0.1240769304 -0.0643350708
756250000.0 0.1102989352 -0.1034784021
766200000.0 0.0786094132 -0.1347900496
776150000.0 0.026367342 -0.1582657222
786100000.0 -0.0398601736 -0.1750200245
796050000.0 -0.1122660454 -0.1837071474
806000000.0 -0.1856483003 -0.1839298391
815950000.0 -0.2475613851 -0.1677850087
825900000.0 -0.296274981 -0.1331207534
835850000.0 -0.3294557015 -0.0785372171
845800000.0 -0.3479880034 -0.0046985308
855750000.0 -0.3515140812 0.082902711
865700000.0 -0.3393531707 0.1789317323
875650000.0 -0.3013633483 0.2613046014
885600000.0 -0.2563610793 0.305603051
895550000.0 -0.2221854989 0.3444112204
905500000.0 -0.1604998098 0.3815892245
915450000.0 -0.0712763445 0.4026840089
925400000.0 0.0383834321 0.39922121
935350000.0 0.1606918424 0.3721638594
945300000.0 0.2815687008 0.3107471162
955250000.0 0.3850921746 0.2065830915
965200000.0 0.4468302789 0.0547303808
975150000.0 0.440290221 -0.140373141
985100000.0 0.344336847 -0.3553062378
995050000.0 0.1462994193 -0.5430084527
1005000000.0 -0.1435813032 -0.6423320865
1014950000.0 -0.4629083866 -0.5825484232
1024900000.0 -0.7092255096 -0.3595690003
1034850000.0 -0.8113314424 -0.0496157808
1044800000.0 -0.7731041033 0.2704833372
1054750000.0 -0.5977208109 0.4805711474
1064700000.0 -0.5123093531 0.6505842443
1074650000.0 -0.2962583917 0.8077579332
1084600000.0 -0.0274850835 0.8475189163
1094550000.0 0.2225841537 0.7748187095
1104500000.0 0.428985431 0.6307281223
1114450000.0 0.5810255734 0.4443825265
1124400000.0 0.6706414409 0.2342382525
1134350000.0 0.6895932526 0.02140317
1144300000.0 0.6348617964 -0.1778847069
1154250000.0 0.515580472 -0.3390371946
1164200000.0 0.3591609179 -0.4556462211
1174150000.0 0.1878209368 -0.5290566219
1184100000.0 0.0201950703 -0.5628089085
1194050000.0 -0.1302794328 -0.5619222608
1204000000.0 -0.2604671379 -0.526579965
1213950000.0 -0.3631761493 -0.4616429264
1223900000.0 -0.4452565187 -0.3719885659
1233850000.0 -0.5055687804 -0.2682320885
1243800000.0 -0.5517798648 -0.158807961
1253750000.0 -0.5857030031 -0.0561162566
1263700000.0 -0.6085723817 0.0386649536
1273650000.0 -0.6157414799 0.1203724509
1283600000.0 -0.6074460088 0.1912445291
1293550000.0 -0.5816106488 0.2553673404
1303500000.0 -0.5393760961 0.3164649336
1313450000.0 -0.487217792 0.3794174048
1323400000.0 -0.430044324 0.4437012339
1333350000.0 -0.3749043704 0.5056010789
1343300000.0 -0.322440375 0.5623946606
1353250000.0 -0.2719919341 0.605137964
1363200000.0 -0.2206030876 0.6335693394
1373150000.0 -0.1667012771 0.6444407779
1383100000.0 -0.1049425235 0.6412409039
1393050000.0 -0.0362646505 0.6321588868
1403000000.0 0.0397729739 0.6197342775
1412950000.0 0.1167741167 0.6079136985
1422900000.0 0.1910544491 0.5969666212
1432850000.0 0.2557919403 0.5820720237
1442800000.0 0.3106193295 0.5604590776
1452750000.0 0.354216297 0.5279207169
1462700000.0 0.3930817119 0.481217657
1472650000.0 0.4291571505 0.4209317374
1482600000.0 0.4658881021 0.3497917767
1492550000.0 0.5025788237 0.2739317335
1502500000.0 0.5359121748 0.1959408005
1512450000.0 0.5606560497 0.119458367
1522400000.0 0.5691455314 0.0422259689
1532350000.0 0.5576816975 -0.0308106082
1542300000.0 0.526816242 -0.1039450059
1552250000.0 0.4782514973 -0.1746963713
1562200000.0 0.422089109 -0.244505706
1572150000.0 0.3592952942 -0.3138019426
1582100000.0 0.2925036131 -0.3744030876
1592050000.0 0.2199714781 -0.4234350225
1602000000.0 0.1411923916 -0.4546409012
1611950000.0 0.0562790595 -0.4616404641
1621900000.0 -0.0326547205 -0.4494833693
1631850000.0 -0.1239171514 -0.4233337794
1641800000.0 -0.2118063136 -0.3888169838
1651750000.0 -0.2935685869 -0.3501310793
1661700000.0 -0.3668620661 -0.304543199
1671650000.0 -0.425555842 -0.2494406949
1681600000.0 -0.4670383879 -0.1835049713
1691550000.0 -0.4909786607 -0.1044626884
1701500000.0 -0.5007523341 -0.0193814996
1711450000.0 -0.5025310586 0.0671792004
1721400000.0 -0.4997587796 0.1494573426
1731350000.0 -0.4951722754 0.2235782994
1741300000.0 -0.4848984004 0.2886676756
1751250000.0 -0.4644091446 0.3440324598
1761200000.0 -0.4288926427 0.3911390558
1771150000.0 -0.3780088888 0.4330523127
1781100000.0 -0.3152993615 0.4706974683
1791050000.0 -0.2476804885 0.5075555929
1801000000.0 -0.1843728123 0.5418574389
1810950000.0 -0.1283900519 0.5718885325
1820900000.0 -0.0821449096 0.5937372145
1830850000.0 -0.0407408415 0.6013341429
1840800000.0 2.77284e-05 0.5944329266
1850750000.0 0.0457322043 0.5710309285
1860700000.0 0.098293533 0.5361505288
1870650000.0 0.1568794734 0.4952250653
1880600000.0 0.2138660932 0.4542341177
1890550000.0 0.2613652453 0.4210362572
1900500000.0 0.3025610024 0.3929869971
1910450000.0 0.3268718185 0.3603338178
1920400000.0 0.3299239987 0.3193270837
1930350000.0 0.314304208 0.267618355
1940300000.0 0.2830690233 0.2047134203
1950250000.0 0.2418725337 0.1356719333
1960200000.0 0.1923192299 0.0723956986
1970150000.0 0.1323766686 0.0246081252
1980100000.0 0.06124499 0.0119311518
1990050000.0 -0.0184900909 0.0487246761
2000000000.0 -0.0943067887 0.1376788718
