!Created with skrf (http://scikit-rf.org).
# GHz S RI R 50.0 
!freq ReS11 ImS11
10000000.0 -0.9689096717 0.1808239565
19950000.0 -0.9357200148 0.3489959451
29900000.0 -0.8767785347 0.5055901127
39850000.0 -0.7786559185 0.6451007792
49800000.0 -0.6435103637 0.7611787256
59750000.0 -0.4737925154 0.8516933993
69700000.0 -0.2735671219 0.9171325758
79650000.0 -0.0489600233 0.9531142415
89600000.0 0.1977065762 0.9457448104
99550000.0 0.4545410748 0.8722196645
109500000.0 0.6955017567 0.7047334099
119450000.0 0.8794021575 0.4322181666
129400000.0 0.9614826672 0.0742976781
139350000.0 0.9078301695 -0.3190069094
149300000.0 0.7104781667 -0.6781329377
159250000.0 0.3959503288 -0.9272923872
169200000.0 0.0304803821 -1.016961939
179150000.0 -0.311853111 -0.9523752259
189100000.0 -0.5845979836 -0.7832231652
199050000.0 -0.7783689631 -0.563101398
209000000.0 -0.900879196 -0.3281560253
218950000.0 -0.9660204658 -0.0989970423
228900000.0 -0.972758322 0.1134970364
238850000.0 -0.9234825304 0.3049681305
248800000.0 -0.6900965832 0.330764495
258750000.0 -0.7277943887 0.5748587132
268700000.0 -0.585188807 0.6943082423
278650000.0 -0.4304748682 0.7902549025
288600000.0 -0.2662696022 0.8606570591
298550000.0 -0.0954869801 0.8965538234
308500000.0 0.0768029691 0.8863266072
318450000.0 0.2431231488 0.8223297511
328400000.0 0.3946018743 0.7066891211
338350000.0 0.5187395968 0.5473281036
348300000.0 0.601519745 0.3563388488
358250000.0 0.6256668906 0.1510258083
368200000.0 0.5799193767 -0.0372248148
378150000.0 0.4676975823 -0.1750135405
388100000.0 0.3172301579 -0.2477952473
398050000.0 0.1635206267 -0.2572286742
408000000.0 0.0318090075 -0.2229537203
417950000.0 -0.064191086 -0.166691546
427900000.0 -0.118678302 -0.1069580615
437850000.0 -0.1332918826 -0.0500891614
447800000.0 -0.1198590874 -0.0008733394
457750000.0 -0.0898900326 0.0419804313
467700000.0 -0.0540855193 0.0741499357
477650000.0 -0.0199416282 0.0926262502
487600000.0 0.0088072116 0.0892993546
497550000.0 -0.0170217037 0.1242658881
507500000.0 0.0183718306 0.0891611271
517450000.0 0.0207855095 0.0531873712
527400000.0 0.0178039643 0.0177245203
537350000.0 0.0132301501 -0.0128660216
547300000.0 0.0019198352 -0.0353374509
557250000.0 -0.0132071327 -0.0412001775
567200000.0 -0.0322801125 -0.0322696471
577150000.0 -0.0572920178 -0.014214041
587100000.0 -0.0878944463 0.0093756561
597050000.0 -0.1165989406 0.0325830232
607000000.0 -0.1371699447 0.0527692731
616950000.0 -0.1448290015 0.0732295445
626900000.0 -0.1392370135 0.0914109493
636850000.0 -0.1190858922 0.1115419772
646800000.0 -0.088154989 0.1346771534
656750000.0 -0.054079795 0.1613276043
666700000.0 -0.0213339746 0.1837394654
676650000.0 0.010935904 0.1973539782
686600000.0 0.0381209035 0.2004131015
696550000.0 0.062032824 0.1853076457
706500000.0 0.0853583986 0.1528889465
716450000.0 0.110388045 0.1075909193
726400000.0 0.1336587194 0.0560091032
736350000.0 0.1499794434 0.0035398466
746300000.0 0.156074938 -0.0463408142
756250000.0 0.1411695803 -0.091093982
766200000.0 0.1006169238 -0.1285229739
776150000.0 0.0193950046 -0.1470584205
786100000.0 -0.036108863 -0.1040284299
796050000.0 -0.0668015364 -0.126906841
806000000.0 -0.1309825808 -0.1430447283
815950000.0 -0.1904681716 -0.1382410809
825900000.0 -0.237224243 -0.1104913598
835850000.0 -0.2687689855 -0.0619507002
845800000.0 -0.2858708287 0.0068091448
855750000.0 -0.2903854874 0.0875378974
865700000.0 -0.2842615968 0.1738817295
875650000.0 -0.2648353756 0.2554655516
885600000.0 -0.2283877615 0.3241012799
895550000.0 -0.17148747 0.3738228812
905500000.0 -0.0927557073 0.399862235
915450000.0 0.0046249175 0.405417779
925400000.0 0.1161365634 0.387056894
935350000.0 0.2349385666 0.3447684816
945300000.0 0.3474095149 0.2713673074
955250000.0 0.4361484844 0.1578664681
965200000.0 0.4790818501 0.0021271193
975150000.0 0.4511360756 -0.1901875689
985100000.0 0.3339093923 -0.3967851066
995050000.0 0.1170395317 -0.5699892837
1005000000.0 -0.1880147013 -0.6445319788
1014950000.0 -0.5096851954 -0.5534579363
1024900000.0 -0.7432675187 -0.2979433354
1034850000.0 -0.8178665114 0.039424764
1044800000.0 -0.7457874642 0.364603241
1054750000.0 -0.5641649979 0.6173301483
1064700000.0 -0.3402074107 0.7543378558
1074650000.0 -0.118411831 0.7719443737
1084600000.0 0.0533199247 0.8114082338
1094550000.0 0.2904403623 0.7436695885
1104500000.0 0.477724099 0.59918953
1114450000.0 0.6118903356 0.4219923947
1124400000.0 0.6918012181 0.2295312047
1134350000.0 0.7128816643 0.0364479882
1144300000.0 0.6704252401 -0.1470370524
1154250000.0 0.5693870152 -0.3026524761
1164200000.0 0.4288754625 -0.4234351551
1174150000.0 0.2683622771 -0.5069641148
1184100000.0 0.1062158957 -0.5529939201
1194050000.0 -0.0453696072 -0.5643799236
1204000000.0 -0.1796695142 -0.53815677
1213950000.0 -0.2901657724 -0.4787943237
1223900000.0 -0.3802932112 -0.3896823372
1233850000.0 -0.4477224517 -0.282824069
1243800000.0 -0.4989005546 -0.1674557137
1253750000.0 -0.5356254825 -0.0580597185
1263700000.0 -0.558410902 0.043701464
1273650000.0 -0.5627988849 0.1315488732
1283600000.0 -0.5488600472 0.207222485
1293550000.0 -0.5148429497 0.2752550673
1303500000.0 -0.4631714373 0.3379235597
1313450000.0 -0.4002400147 0.4012106505
1323400000.0 -0.3323146053 0.4640398893
1333350000.0 -0.266270086 0.5233833891
1343300000.0 -0.2025550923 0.5750220127
1353250000.0 -0.142946165 0.6104464087
1363200000.0 -0.0826312517 0.6280944797
1373150000.0 -0.0213268639 0.6263988876
1383100000.0 0.0457771379 0.6091601164
1393050000.0 0.1186699573 0.5856777003
1403000000.0 0.1958782116 0.5584418865
1412950000.0 0.2724988221 0.5326757498
1422900000.0 0.3437410404 0.5077563626
1432850000.0 0.402887203 0.4792817864
1442800000.0 0.4488069149 0.443542478
1452750000.0 0.4801164374 0.3972753441
1462700000.0 0.5041176099 0.3386882972
1472650000.0 0.5249037996 0.2688736706
1482600000.0 0.5464030917 0.1915790697
1492550000.0 0.5688825716 0.1111746943
1502500000.0 0.5876998089 0.0326697514
1512450000.0 0.5977832001 -0.0425852358
1522400000.0 0.5899161759 -0.1128101196
1532350000.0 0.5646692069 -0.1754104613
1542300000.0 0.5203173984 -0.2359078566
1552250000.0 0.4631699906 -0.2938434125
1562200000.0 0.400213833 -0.351352901
1572150000.0 0.3346581639 -0.408298338
1582100000.0 0.2683880759 -0.4595387156
1592050000.0 0.1989835959 -0.4993424088
1602000000.0 0.1264243713 -0.5224884836
1611950000.0 0.0485533858 -0.5240062433
1621900000.0 -0.0327386725 -0.5068842283
1631850000.0 -0.1171752464 -0.4775491975
1641800000.0 -0.1989696642 -0.4414371122
1651750000.0 -0.2755340546 -0.4032434461
1661700000.0 -0.345416836 -0.3591925166
1671650000.0 -0.4014679004 -0.3076391138
1681600000.0 -0.4419954609 -0.2441898198
1691550000.0 -0.4646131888 -0.1653837255
1701500000.0 -0.4731917222 -0.0800944592
1711450000.0 -0.4727200614 0.01066115
1721400000.0 -0.4663955301 0.0970953822
1731350000.0 -0.4557538687 0.1754163662
1741300000.0 -0.4379017626 0.2440853727
1751250000.0 -0.4073508139 0.3001740036
1761200000.0 -0.3596483768 0.3457697403
1771150000.0 -0.293807963 0.3821231388
1781100000.0 -0.2159471466 0.4104534218
1791050000.0 -0.1308000513 0.433818242
1801000000.0 -0.0507576998 0.4502003646
1810950000.0 0.0220053302 0.4570151995
1820900000.0 0.0827054409 0.4477294287
1830850000.0 0.1332843771 0.4145502245
1840800000.0 0.1673058748 0.3455827992
1850750000.0 0.1298026866 0.2699355048
1860700000.0 0.1643072234 0.2940773114
1870650000.0 0.2395847702 0.2323204707
1880600000.0 0.2865586434 0.1601175065
1890550000.0 0.3124541797 0.0959074723
1900500000.0 0.3170463406 0.0400261216
1910450000.0 0.2963444185 -0.0085843017
1920400000.0 0.2489533007 -0.055595551
1930350000.0 0.1820805989 -0.1003201307
1940300000.0 0.1047594592 -0.1427002072
1950250000.0 0.0273773188 -0.1789165376
1960200000.0 -0.0413243704 -0.2020737359
1970150000.0 -0.0989323919 -0.2072167258
1980100000.0 -0.1461800437 -0.1893388645
1990050000.0 -0.1897682121 -0.1462433052
2000000000.0 -0.2365971079 -0.0801656764
