!Created with skrf (http://scikit-rf.org).
# GHz S RI R 50.0 
!freq ReS11 ImS11
10000000.0 -0.9732496363 0.1751147898
19950000.0 -0.9413787182 0.3388470929
29900000.0 -0.8849475598 0.4924998344
39850000.0 -0.7901933887 0.6321645303
49800000.0 -0.6585339409 0.7509661714
59750000.0 -0.4908421739 0.8464728325
69700000.0 -0.2897317764 0.9170540262
79650000.0 -0.0591887993 0.9566883675
89600000.0 0.1979013234 0.9483573781
99550000.0 0.4687154225 0.8653674798
109500000.0 0.7216727586 0.6771070393
119450000.0 0.9057964346 0.3733129908
129400000.0 0.9662883916 -0.0168849459
139350000.0 0.869115439 -0.4252953954
149300000.0 0.6217478866 -0.7683109118
159250000.0 0.2760367931 -0.9739356685
169200000.0 -0.0880185235 -1.014326636
179150000.0 -0.4039167065 -0.9177595446
189100000.0 -0.6437280776 -0.7402253427
199050000.0 -0.8097622429 -0.529218738
209000000.0 -0.9144302624 -0.3124752925
218950000.0 -0.9714149412 -0.1050516319
228900000.0 -0.9811536649 0.0856669936
238850000.0 -0.9461429181 0.2558848476
248800000.0 -0.8624001104 0.4073175168
258750000.0 -0.7744625084 0.5324555602
268700000.0 -0.6547419414 0.6477415024
278650000.0 -0.520994195 0.7481735746
288600000.0 -0.3753532668 0.8293483186
298550000.0 -0.2185107041 0.8829665834
308500000.0 -0.0532404152 0.8959356942
318450000.0 0.1150960802 0.8582808099
328400000.0 0.2772820592 0.7681699331
338350000.0 0.4179137476 0.6285352889
348300000.0 0.5218669046 0.4494080658
358250000.0 0.5676964775 0.2486637922
368200000.0 0.5399501192 0.0552110868
378150000.0 0.442654752 -0.0942035414
388100000.0 0.2995302991 -0.1777193894
398050000.0 0.1485084862 -0.1975468062
408000000.0 0.0178693609 -0.1718458745
417950000.0 -0.0756108597 -0.1200908607
427900000.0 -0.1315892376 -0.060659672
437850000.0 -0.1472233804 -0.0034137016
447800000.0 -0.1368262067 0.0473170919
457750000.0 -0.1074532788 0.0882672431
467700000.0 -0.0702166972 0.1214298451
477650000.0 -0.0373456158 0.1421713575
487600000.0 -0.0071156722 0.1484470015
497550000.0 0.0069981746 0.1444550594
507500000.0 0.0211961355 0.1213951662
517450000.0 0.0254284612 0.0903183295
527400000.0 0.0234538467 0.0557972466
537350000.0 0.0189395352 0.0226853702
547300000.0 0.0105137207 -0.0004072785
557250000.0 -0.0011499972 -0.0096900074
567200000.0 -0.0218112307 -0.0065762005
577150000.0 -0.0480905113 0.0052218627
587100000.0 -0.0784585126 0.0234430273
597050000.0 -0.1074911997 0.0430464608
607000000.0 -0.130071398 0.0618474739
616950000.0 -0.1408102127 0.0794788015
626900000.0 -0.1367588441 0.0978205857
636850000.0 -0.1200373312 0.1189905148
646800000.0 -0.0927485494 0.1417661162
656750000.0 -0.0611674912 0.1677988026
666700000.0 -0.0307225424 0.1903578373
676650000.0 -0.0004509049 0.2055920294
686600000.0 0.0245401123 0.2095178102
696550000.0 0.0483616957 0.1956877978
706500000.0 0.0726616202 0.1678200496
716450000.0 0.0987777696 0.12684486
726400000.0 0.1228583981 0.0804380112
736350000.0 0.1420080999 0.0308858771
746300000.0 0.152215815 -0.0149177489
756250000.0 0.1435216205 -0.0563038586
766200000.0 0.1166228349 -0.0918353557
776150000.0 0.0689262012 -0.1206830174
786100000.0 0.0059211205 -0.1440697941
796050000.0 -0.0657121741 -0.1597520229
806000000.0 -0.1390427589 -0.1641904437
815950000.0 -0.2031557141 -0.1530470652
825900000.0 -0.2561179601 -0.1200137641
835850000.0 -0.2921547812 -0.0659379952
845800000.0 -0.3124557891 0.0104402028
855750000.0 -0.3130935088 0.1020583509
865700000.0 -0.2873728189 0.1917105095
875650000.0 -0.2531499532 0.2396788326
885600000.0 -0.2435763524 0.2963006367
895550000.0 -0.2043685656 0.3580927833
905500000.0 -0.1324277429 0.3997316669
915450000.0 -0.0369987482 0.4202323355
925400000.0 0.0758192081 0.4159182477
935350000.0 0.2003176569 0.3859134614
945300000.0 0.3225597205 0.3231898602
955250000.0 0.4268135844 0.2195135193
965200000.0 0.4914077598 0.0690154234
975150000.0 0.4924560681 -0.1231639967
985100000.0 0.4102429703 -0.3378515955
995050000.0 0.2318586047 -0.5381126819
1005000000.0 -0.0406744787 -0.6638985171
1014950000.0 -0.363770206 -0.6506874064
1024900000.0 -0.6482722491 -0.4716359966
1034850000.0 -0.8105724896 -0.1751965661
1044800000.0 -0.8336790868 0.1531678064
1054750000.0 -0.741149787 0.4502462958
1064700000.0 -0.5641985425 0.6817882346
1074650000.0 -0.328504698 0.8207982826
1084600000.0 -0.0909541924 0.8586119019
1094550000.0 0.1540419707 0.8249575393
1104500000.0 0.3712951574 0.7157029453
1114450000.0 0.5451056305 0.5602766075
1124400000.0 0.6688559691 0.3762863454
1134350000.0 0.7333214664 0.176675906
1144300000.0 0.7308473733 -0.0263139672
1154250000.0 0.6618009303 -0.2120753099
1164200000.0 0.541706639 -0.368772475
1174150000.0 0.3912835504 -0.4881533062
1184100000.0 0.2317876664 -0.5674009835
1194050000.0 0.0759903447 -0.6099241326
1204000000.0 -0.0698469208 -0.6125622756
1213950000.0 -0.1969449352 -0.5806986914
1223900000.0 -0.3092847988 -0.5140817741
1233850000.0 -0.4002224811 -0.4238988299
1243800000.0 -0.4769285547 -0.3222561606
1253750000.0 -0.5384732943 -0.2204581713
1263700000.0 -0.5841028439 -0.1238914515
1273650000.0 -0.6132464991 -0.0361591661
1283600000.0 -0.6227491577 0.0417429252
1293550000.0 -0.6126157667 0.1153828199
1303500000.0 -0.584766178 0.187691934
1313450000.0 -0.5441437541 0.2624790736
1323400000.0 -0.4971486223 0.3386661724
1333350000.0 -0.4493539722 0.4133622058
1343300000.0 -0.4022251853 0.4818747703
1353250000.0 -0.3541051744 0.5378745036
1363200000.0 -0.3050656325 0.5773191033
1373150000.0 -0.2506358802 0.6011380725
1383100000.0 -0.1868676131 0.6106817245
1393050000.0 -0.1152271695 0.6120722396
1403000000.0 -0.0359854448 0.6106646461
1412950000.0 0.046431873 0.6086764328
1422900000.0 0.1268263975 0.6068731713
1432850000.0 0.200641219 0.5987629556
1442800000.0 0.2642586787 0.5810347686
1452750000.0 0.3179806047 0.548564757
1462700000.0 0.3621506586 0.4989546014
1472650000.0 0.4029533938 0.4370011203
1482600000.0 0.442133621 0.3654063461
1492550000.0 0.4824042393 0.2897549672
1502500000.0 0.5194813303 0.2118214581
1512450000.0 0.5483066971 0.1348608941
1522400000.0 0.5626275741 0.0573265941
1532350000.0 0.5562145393 -0.0189771183
1542300000.0 0.5293379273 -0.094002039
1552250000.0 0.485140437 -0.1698547697
1562200000.0 0.4296724017 -0.2439627454
1572150000.0 0.3682224731 -0.3162436854
1582100000.0 0.3017537006 -0.3828905916
1592050000.0 0.2282457627 -0.4376894726
1602000000.0 0.1474133795 -0.4748739534
1611950000.0 0.0602414933 -0.4880915812
1621900000.0 -0.0318482464 -0.4815054043
1631850000.0 -0.1249540675 -0.4592951202
1641800000.0 -0.215454652 -0.4289883
1651750000.0 -0.3002064352 -0.3918586731
1661700000.0 -0.3756061992 -0.3487039826
1671650000.0 -0.439481597 -0.2971666634
1681600000.0 -0.4866693179 -0.2318112547
1691550000.0 -0.516554955 -0.1554880097
1701500000.0 -0.534237706 -0.071245135
1711450000.0 -0.5417783393 0.0154964619
1721400000.0 -0.5462370947 0.0969197297
1731350000.0 -0.5474378216 0.1716921489
1741300000.0 -0.5440533973 0.2361056807
1751250000.0 -0.5314622883 0.2934593181
1761200000.0 -0.5049355055 0.3438221437
1771150000.0 -0.4630580707 0.3904011412
1781100000.0 -0.4087657215 0.4356685508
1791050000.0 -0.3487356864 0.478650651
1801000000.0 -0.2908259601 0.5214146596
1810950000.0 -0.2395821108 0.5589086515
1820900000.0 -0.1968261219 0.5887327905
1830850000.0 -0.158019982 0.6068660779
1840800000.0 -0.1191414993 0.6107248383
1850750000.0 -0.0744788596 0.6014859376
1860700000.0 -0.0212018145 0.5823612319
1870650000.0 0.0387311784 0.5595214545
1880600000.0 0.1034512771 0.5372465067
1890550000.0 0.161541002 0.5188496837
1900500000.0 0.210598849 0.5022038469
1910450000.0 0.2449744327 0.4831866952
1920400000.0 0.2630706842 0.4560534195
1930350000.0 0.2691560887 0.4170317817
1940300000.0 0.266914985 0.3651942683
1950250000.0 0.2623286271 0.3019721068
1960200000.0 0.2581588667 0.2372041048
1970150000.0 0.2525456198 0.175286402
1980100000.0 0.2413760064 0.1252338411
1990050000.0 0.2147351904 0.0885726251
2000000000.0 0.1659090939 0.0701144371
