!Created with skrf (http://scikit-rf.org).
# GHz S RI R 50.0 
!freq ReS11 ImS11
10000000.0 -0.967738928 0.1784398756
19950000.0 -0.9368027043 0.3449588154
29900000.0 -0.8812386117 0.5004741922
39850000.0 -0.7859471226 0.6394811327
49800000.0 -0.653120877 0.7550402553
59750000.0 -0.4850142183 0.8453692667
69700000.0 -0.2864026028 0.9119900262
79650000.0 -0.0627477929 0.9505568507
89600000.0 0.1828391236 0.9478656279
99550000.0 0.4400010357 0.8800473741
109500000.0 0.682405442 0.718765568
119450000.0 0.8693327917 0.4522548859
129400000.0 0.9571965009 0.0999733781
139350000.0 0.914256214 -0.289518077
149300000.0 0.7328742429 -0.6496995151
159250000.0 0.4351615676 -0.9093627717
169200000.0 0.0807815525 -1.016758036
179150000.0 -0.2595574414 -0.9713710416
189100000.0 -0.5383024905 -0.8187647966
199050000.0 -0.7430113085 -0.6115058042
209000000.0 -0.879809098 -0.3842171758
218950000.0 -0.960512788 -0.1586538319
228900000.0 -0.9821862361 0.0546710989
238850000.0 -0.9458279875 0.2502367181
248800000.0 -0.7476844379 0.4487465384
258750000.0 -0.7598689263 0.5374802137
268700000.0 -0.6177138022 0.6661158438
278650000.0 -0.4613006295 0.7709879455
288600000.0 -0.2924502798 0.8495276015
298550000.0 -0.1150978201 0.8912048988
308500000.0 0.0652056403 0.882208324
318450000.0 0.2389644613 0.8144790417
328400000.0 0.3960796868 0.6907245323
338350000.0 0.522372817 0.5214676037
348300000.0 0.6034822485 0.3211679312
358250000.0 0.6226207263 0.109780423
368200000.0 0.5700734454 -0.0794823999
378150000.0 0.4525434734 -0.2150905855
388100000.0 0.2983975119 -0.2855836742
398050000.0 0.1432387319 -0.2945673365
408000000.0 0.0087066343 -0.2617544256
417950000.0 -0.0911956312 -0.2075229608
427900000.0 -0.1497100918 -0.1485671434
437850000.0 -0.1676527847 -0.090220019
447800000.0 -0.1558654785 -0.0384462127
457750000.0 -0.1257645705 0.0065538664
467700000.0 -0.0902398646 0.0399321049
477650000.0 -0.0582663871 0.0600533423
487600000.0 -0.0328695146 0.0631367227
497550000.0 -0.034661014 0.0308739124
507500000.0 -0.0320563699 0.063268234
517450000.0 -0.0296032868 0.025753601
527400000.0 -0.0339386597 -0.0081537824
537350000.0 -0.0388551121 -0.036317769
547300000.0 -0.0475438511 -0.055840941
557250000.0 -0.061482705 -0.0592801716
567200000.0 -0.0788369384 -0.0476583416
577150000.0 -0.1024838818 -0.027214992
587100000.0 -0.1325800171 -0.0025054936
597050000.0 -0.1612919579 0.0214252421
607000000.0 -0.1830015019 0.0413697646
616950000.0 -0.1916695824 0.0611449421
626900000.0 -0.1864368931 0.078631858
636850000.0 -0.1656362232 0.09878055
646800000.0 -0.133743562 0.1221530236
656750000.0 -0.0978865489 0.1500262979
666700000.0 -0.0642623041 0.1734159299
676650000.0 -0.0310001064 0.1881368825
686600000.0 -0.0036947066 0.1921096879
696550000.0 0.0201645603 0.1767778773
706500000.0 0.0432670478 0.1433618366
716450000.0 0.0675287211 0.0964394881
726400000.0 0.0891998074 0.0435079158
736350000.0 0.1042372823 -0.0085005527
746300000.0 0.1082428458 -0.0541925433
756250000.0 0.0950520767 -0.0911557291
766200000.0 0.064633167 -0.1196542285
776150000.0 0.0150387754 -0.1420134592
786100000.0 -0.0490781058 -0.1602420069
796050000.0 -0.1198089179 -0.1723958326
806000000.0 -0.1910527905 -0.1764164309
815950000.0 -0.2508672993 -0.1662393195
825900000.0 -0.2970275772 -0.1364176199
835850000.0 -0.3284707845 -0.0879558309
845800000.0 -0.346955403 -0.0198831249
855750000.0 -0.3551531049 0.0604016474
865700000.0 -0.3540712705 0.1462326813
875650000.0 -0.3445240129 0.2306136882
885600000.0 -0.3179445244 0.3033291999
895550000.0 -0.2703509141 0.3601780797
905500000.0 -0.1983340499 0.3964753465
915450000.0 -0.1051777325 0.415187312
925400000.0 0.0067123517 0.4122189274
935350000.0 0.1311813413 0.3886442524
945300000.0 0.2550549449 0.3345358318
955250000.0 0.3632366413 0.2391338104
965200000.0 0.4327672904 0.0947876055
975150000.0 0.4370876318 -0.096083254
985100000.0 0.3555414701 -0.3130877038
995050000.0 0.1762891889 -0.5116962274
1005000000.0 -0.0934380002 -0.6338365846
1014950000.0 -0.4000726252 -0.6155426299
1024900000.0 -0.6609451373 -0.4449190712
1034850000.0 -0.8068759268 -0.1723944459
1044800000.0 -0.8332728149 0.128204221
1054750000.0 -0.7572039474 0.4061924482
1064700000.0 -0.5925906154 0.6068431102
1074650000.0 -0.4447309973 0.7470567354
1084600000.0 -0.2408022383 0.8169080104
1094550000.0 -0.0103380228 0.8377103876
1104500000.0 0.2214630779 0.7670321478
1114450000.0 0.4212255086 0.6357435369
1124400000.0 0.5745937144 0.4625221667
1134350000.0 0.666029709 0.2625673923
1144300000.0 0.6812182237 0.0490819227
1154250000.0 0.6161199257 -0.1497787384
1164200000.0 0.4885590426 -0.3162084733
1174150000.0 0.3245423348 -0.4381430278
1184100000.0 0.1512587653 -0.512452308
1194050000.0 -0.0126475149 -0.5446115315
1204000000.0 -0.1592745079 -0.5313186543
1213950000.0 -0.278385206 -0.4821378349
1223900000.0 -0.3762580277 -0.3994187455
1233850000.0 -0.4507581298 -0.2985861745
1243800000.0 -0.5096931275 -0.1890335651
1253750000.0 -0.5554468031 -0.0858383517
1263700000.0 -0.5887285077 0.0099274787
1273650000.0 -0.6054056285 0.0921686549
1283600000.0 -0.6040227609 0.1636146524
1293550000.0 -0.5828781522 0.2292601037
1303500000.0 -0.5440135698 0.2914902841
1313450000.0 -0.4937707351 0.3566019139
1323400000.0 -0.43932708 0.4234084953
1333350000.0 -0.3868668011 0.4894629422
1343300000.0 -0.337262568 0.5499668601
1353250000.0 -0.2904313703 0.5967121414
1363200000.0 -0.2422197223 0.6280414238
1373150000.0 -0.1901646037 0.641164153
1383100000.0 -0.1292151433 0.6395203113
1393050000.0 -0.0605705973 0.6316777815
1403000000.0 0.0150430894 0.6215622985
1412950000.0 0.0921780836 0.6139048704
1422900000.0 0.1664005488 0.6080040279
1432850000.0 0.2308897815 0.5986526805
1442800000.0 0.2845086676 0.5806478947
1452750000.0 0.3248574714 0.5511144957
1462700000.0 0.3609197201 0.5076263132
1472650000.0 0.3963480703 0.45118153
1482600000.0 0.4353814169 0.3845485544
1492550000.0 0.4772012805 0.3136662757
1502500000.0 0.5179256037 0.2417876796
1512450000.0 0.5523289812 0.1700935643
1522400000.0 0.5698597505 0.0976420826
1532350000.0 0.5687867554 0.0269106119
1542300000.0 0.5441996671 -0.0468362956
1552250000.0 0.5020500964 -0.1207161692
1562200000.0 0.4496359213 -0.1962252945
1572150000.0 0.3905343352 -0.2714851042
1582100000.0 0.3288446395 -0.3401337989
1592050000.0 0.2611941175 -0.3978469683
1602000000.0 0.1869226903 -0.4375845665
1611950000.0 0.1033939273 -0.4533132256
1621900000.0 0.012545555 -0.4484249403
1631850000.0 -0.0824828562 -0.4276111085
1641800000.0 -0.1759849602 -0.3975694429
1651750000.0 -0.2635555152 -0.3632536937
1661700000.0 -0.3421521755 -0.3216979686
1671650000.0 -0.4051515116 -0.2719538272
1681600000.0 -0.4502596189 -0.2085033879
1691550000.0 -0.4753512734 -0.1305301849
1701500000.0 -0.4865914165 -0.0451418788
1711450000.0 -0.4896132804 0.0449917106
1721400000.0 -0.4855976023 0.1304431704
1731350000.0 -0.4762239165 0.2050324185
1741300000.0 -0.4552858207 0.2555203573
1751250000.0 -0.4553870588 0.2700436053
1761200000.0 -0.4648225804 0.3223680692
1771150000.0 -0.4297688032 0.3807027729
1781100000.0 -0.3725863375 0.4298196131
1791050000.0 -0.3065591906 0.4750750847
1801000000.0 -0.2446321967 0.517345147
1810950000.0 -0.1893211531 0.5562128793
1820900000.0 -0.1438426461 0.5860214424
1830850000.0 -0.1039917262 0.6028138912
1840800000.0 -0.0644055332 0.6039732625
1850750000.0 -0.0201567065 0.5882180167
1860700000.0 0.0321142552 0.5620911278
1870650000.0 0.0910026658 0.5309689878
1880600000.0 0.152556946 0.5021412707
1890550000.0 0.2079909979 0.4784779128
1900500000.0 0.2530800785 0.459017753
1910450000.0 0.2813128816 0.439292208
1920400000.0 0.2934259517 0.4110785316
1930350000.0 0.2909725091 0.3709370123
1940300000.0 0.2811878156 0.3156943246
1950250000.0 0.2688171736 0.2526468731
1960200000.0 0.25710954 0.1859248962
1970150000.0 0.2442030224 0.1264460387
1980100000.0 0.2254346262 0.0824816316
1990050000.0 0.1928397219 0.0576339358
2000000000.0 0.1386628685 0.0543719631
