!Created with skrf (http://scikit-rf.org).
# GHz S RI R 50.0 
!freq ReS11 ImS11
10000000.0 -0.7649586404 0.673423926
19950000.0 -0.1376094745 0.9870412302
29900000.0 0.5373964414 0.8192067511
39850000.0 0.9446074813 0.2479694785
49800000.0 0.8735082518 -0.4633997129
59750000.0 0.3252502273 -0.9552694084
69700000.0 -0.4360387875 -0.9252851851
79650000.0 -0.9601853583 -0.3380107351
89600000.0 -0.8779960489 0.4679188553
99550000.0 -0.1973669021 0.9487455194
109500000.0 0.6334155525 0.7211725587
119450000.0 0.9692251982 -0.1094285552
129400000.0 0.4591679742 -0.8873239354
139350000.0 -0.4740121487 -0.8856249826
149300000.0 -0.9744328458 -0.1117992131
159250000.0 -0.6408512735 0.7042897488
169200000.0 0.1673143185 0.9278958737
179150000.0 0.830236278 0.4750269519
189100000.0 0.9346799962 -0.2935585311
199050000.0 0.461803724 -0.8795233634
209000000.0 -0.2663461226 -0.9503196694
218950000.0 -0.8196959215 -0.5091642695
228900000.0 -0.9254136685 0.1718044996
238850000.0 -0.5599479833 0.7401850691
248800000.0 0.0708352714 0.9270948079
258750000.0 0.6827816417 0.6564619186
268700000.0 0.9622939469 0.0534019808
278650000.0 0.7705959051 -0.5827602933
288600000.0 0.2054144675 -0.9255678449
298550000.0 -0.4373352751 -0.802676933
308500000.0 -0.8260979626 -0.2842588642
318450000.0 -0.7589981719 0.3528755945
328400000.0 -0.2748117226 0.7589181275
338350000.0 0.3387743529 0.6978230761
348300000.0 0.6887913359 0.225982031
358250000.0 0.5663611243 -0.300212184
368200000.0 0.1372904405 -0.5076326659
378150000.0 -0.2237765098 -0.3293541857
388100000.0 -0.2821973 -0.0072634242
398050000.0 -0.100474398 0.1743441424
408000000.0 0.0926568529 0.1284302987
417950000.0 0.1338000575 -0.0239700055
427900000.0 0.0337980135 -0.1163604844
437850000.0 -0.0888051417 -0.0793351249
447800000.0 -0.1287291807 0.0412848067
457750000.0 -0.0584745423 0.1473345193
467700000.0 0.0661259402 0.1621479497
477650000.0 0.1589058126 0.081837591
487600000.0 0.1646482507 -0.0350574294
497550000.0 0.0945432752 -0.117801916
507500000.0 -0.005868627 -0.1262403241
517450000.0 -0.0736952703 -0.0717071006
527400000.0 -0.0810247234 -0.0011545052
537350000.0 -0.0449186994 0.0388454668
547300000.0 -0.0061651661 0.0361161695
557250000.0 0.0021787562 0.0100706521
567200000.0 -0.0200931451 -0.0010989735
577150000.0 -0.0418786465 0.0218594341
587100000.0 -0.0295046924 0.064536326
597050000.0 0.0244107967 0.0873325807
607000000.0 0.092622283 0.0591591124
616950000.0 0.1279834692 -0.0207597092
626900000.0 0.0976196039 -0.1150759918
636850000.0 0.0045672325 -0.170307384
646800000.0 -0.1072430532 -0.148560549
656750000.0 -0.1779421329 -0.053861838
666700000.0 -0.1646688708 0.0667131499
676650000.0 -0.0707465194 0.1467420086
686600000.0 0.0534308499 0.1398818865
696550000.0 0.1386739046 0.0494270198
706500000.0 0.1382462042 -0.0718004776
716450000.0 0.0561159906 -0.1537670478
726400000.0 -0.0543299045 -0.1502602799
736350000.0 -0.1206678233 -0.0681810656
746300000.0 -0.0990439843 0.0320273418
756250000.0 -0.0033781399 0.0772598267
766200000.0 0.096284535 0.0263801699
776150000.0 0.1205395805 -0.0911140304
786100000.0 0.0386742192 -0.1936490705
796050000.0 -0.1079193681 -0.198635834
806000000.0 -0.2213051566 -0.0785765253
815950000.0 -0.2084672766 0.1073529495
825900000.0 -0.0490014282 0.242026998
835850000.0 0.179846391 0.2233916032
845800000.0 0.3435477069 0.0377760745
855750000.0 0.3339594934 -0.2255587737
865700000.0 0.1358149924 -0.4212621715
875650000.0 -0.157497671 -0.4286645996
885600000.0 -0.3870024366 -0.2220523915
895550000.0 -0.4120963389 0.1017344872
905500000.0 -0.1965965536 0.3645000576
915450000.0 0.1528475406 0.4031723324
925400000.0 0.4338537475 0.1770511316
935350000.0 0.470681635 -0.1886018118
945300000.0 0.2278545302 -0.47395349
955250000.0 -0.1597970132 -0.4888823192
965200000.0 -0.4416898513 -0.192952474
975150000.0 -0.3874627551 0.2420574273
985100000.0 0.0284689071 0.4764685943
995050000.0 0.4931628266 0.2425457074
1005000000.0 0.5415033839 -0.3190621028
1014950000.0 0.0478206808 -0.6690585684
1024900000.0 -0.51637394 -0.3925785891
1034850000.0 -0.5442179037 0.1629813169
1044800000.0 -0.2742467078 0.545860041
1054750000.0 0.3476761864 0.6533074743
1064700000.0 0.8372367856 0.1113718827
1074650000.0 0.6312482381 -0.6113712899
1084600000.0 -0.0446093128 -0.8615587802
1094550000.0 -0.6519592071 -0.5111610611
1104500000.0 -0.770165385 0.1743063551
1114450000.0 -0.3093154743 0.6918994332
1124400000.0 0.3623266044 0.6394692345
1134350000.0 0.7039142153 0.1083054776
1144300000.0 0.5236842864 -0.4413575251
1154250000.0 0.0374424431 -0.6515833915
1164200000.0 -0.4186747198 -0.4601750317
1174150000.0 -0.6020288851 -0.0076408236
1184100000.0 -0.3931394282 0.4375376588
1194050000.0 0.0780223203 0.5767907297
1204000000.0 0.4873231188 0.3267731136
1213950000.0 0.5852525712 -0.1218383735
1223900000.0 0.3569437319 -0.4962832708
1233850000.0 -0.0471192292 -0.6228402244
1243800000.0 -0.4333911713 -0.4613868266
1253750000.0 -0.628515292 -0.0851116181
1263700000.0 -0.529147822 0.3377642964
1273650000.0 -0.1660990281 0.5937309536
1283600000.0 0.2770068966 0.5419010518
1293550000.0 0.5716693699 0.2164062303
1303500000.0 0.5912437148 -0.2082690154
1313450000.0 0.3549555372 -0.5448440383
1323400000.0 -0.0271044275 -0.6718774257
1333350000.0 -0.4103310813 -0.5487778344
1343300000.0 -0.6493882457 -0.2149078277
1353250000.0 -0.6325830842 0.2084082651
1363200000.0 -0.3439354346 0.5346599312
1373150000.0 0.0919267689 0.5998707995
1383100000.0 0.4642953696 0.3739263205
1393050000.0 0.6091996302 -0.0217958622
1403000000.0 0.4882169104 -0.4082649433
1412950000.0 0.1717315211 -0.6391855737
1422900000.0 -0.2130572509 -0.640714738
1432850000.0 -0.5226387089 -0.4134960271
1442800000.0 -0.6314694909 -0.0395298559
1452750000.0 -0.4792704326 0.326748817
1462700000.0 -0.1244988352 0.5119441997
1472650000.0 0.2625109013 0.4236582653
1482600000.0 0.4939404994 0.1139574096
1492550000.0 0.4732617728 -0.2566230092
1502500000.0 0.2329643728 -0.5181433421
1512450000.0 -0.1069421021 -0.5677461517
1522400000.0 -0.3960372402 -0.3935662956
1532350000.0 -0.5042695603 -0.0748361908
1542300000.0 -0.3738863167 0.238013952
1552250000.0 -0.0650238992 0.3814587879
1562200000.0 0.2559073462 0.2741136247
1572150000.0 0.4096867176 -0.0205535776
1582100000.0 0.3194523125 -0.331112093
1592050000.0 0.0472960801 -0.492541532
1602000000.0 -0.260666378 -0.4285054091
1611950000.0 -0.4500231917 -0.1714264004
1621900000.0 -0.4196410684 0.1550453273
1631850000.0 -0.1694027952 0.3871311977
1641800000.0 0.1842829311 0.3900044573
1651750000.0 0.4518800893 0.1457998042
1661700000.0 0.4839375711 -0.2184053866
1671650000.0 0.267449319 -0.5120747588
1681600000.0 -0.0845077258 -0.5971627284
1691550000.0 -0.4140867692 -0.4435991326
1701500000.0 -0.5842769542 -0.1160770045
1711450000.0 -0.5213057936 0.2581190562
1721400000.0 -0.2300712446 0.5250687052
1731350000.0 0.179455878 0.5512200465
1741300000.0 0.5184235429 0.3053141025
1751250000.0 0.6214608828 -0.101313355
1761200000.0 0.448955549 -0.4736412466
1771150000.0 0.0968589637 -0.6578284499
1781100000.0 -0.2850029073 -0.6042272373
1791050000.0 -0.5639733384 -0.3485888075
1801000000.0 -0.651121436 0.0211043737
1810950000.0 -0.5081567289 0.3824430906
1820900000.0 -0.1685905899 0.5965618387
1830850000.0 0.2406439357 0.5550048758
1840800000.0 0.5329476978 0.2639161635
1850750000.0 0.5760967379 -0.1373113291
1860700000.0 0.3743843609 -0.4635388687
1870650000.0 0.0408592426 -0.5997728023
1880600000.0 -0.2908351886 -0.5283674761
1890550000.0 -0.5182087623 -0.2967660251
1900500000.0 -0.5778498527 0.0131630905
1910450000.0 -0.4526952352 0.2963468165
1920400000.0 -0.1869113131 0.4480146205
1930350000.0 0.1063647199 0.4067992423
1940300000.0 0.2965525404 0.2053640312
1950250000.0 0.3171603254 -0.0457478251
1960200000.0 0.1985820221 -0.2323743477
1970150000.0 0.0266670554 -0.3015884425
1980100000.0 -0.1161560877 -0.2677532603
1990050000.0 -0.18848139 -0.1891097583
2000000000.0 -0.2021006371 -0.1330513867
