!Created with skrf (http://scikit-rf.org).
# GHz S RI R 50.0 
!freq ReS11 ImS11
10000000.0 -0.9984074731 0.1597426855
19950000.0 -0.9460470871 0.3059917422
29900000.0 -0.8717731165 0.446579088
39850000.0 -0.7746420394 0.5861509052
49800000.0 -0.6554868606 0.7191330832
59750000.0 -0.5084084365 0.839472294
69700000.0 -0.3257027881 0.9350081993
79650000.0 -0.102686949 0.9858232711
89600000.0 0.159247411 0.9716688633
99550000.0 0.4439359627 0.8680898625
109500000.0 0.7203424548 0.6572290761
119450000.0 0.9334263353 0.3286065369
129400000.0 1.000298854 -0.1005031768
139350000.0 0.8910923809 -0.5008068482
149300000.0 0.607677921 -0.8119128356
159250000.0 0.2485050806 -0.9639974225
169200000.0 -0.1009551087 -0.9776545333
179150000.0 -0.3966457596 -0.8970551991
189100000.0 -0.6252618688 -0.761064416
199050000.0 -0.7857898779 -0.596264721
209000000.0 -0.8825182417 -0.418800422
218950000.0 -0.9316710399 -0.2415413991
228900000.0 -0.9435394513 -0.0705761071
238850000.0 -0.929381911 0.0933857893
248800000.0 -0.8368673709 0.2349046318
258750000.0 -0.8512269236 0.3840139942
268700000.0 -0.7826176877 0.517487816
278650000.0 -0.6898333429 0.6323861211
288600000.0 -0.5707876311 0.7245404432
298550000.0 -0.4277342796 0.7909565185
308500000.0 -0.2637499124 0.830730182
318450000.0 -0.0833415281 0.8382419428
328400000.0 0.1061323568 0.8044894907
338350000.0 0.2859625212 0.7169371635
348300000.0 0.4296700266 0.5691624591
358250000.0 0.5053402064 0.37386192
368200000.0 0.4977817839 0.1652559961
378150000.0 0.4163482863 -0.0144039996
388100000.0 0.292203918 -0.1388456414
398050000.0 0.1588411582 -0.1987806736
408000000.0 0.0436903005 -0.2022497599
417950000.0 -0.0389507767 -0.1666994219
427900000.0 -0.0948438853 -0.1176174326
437850000.0 -0.1412438088 -0.0633378385
447800000.0 -0.1525800701 0.0034747911
457750000.0 -0.1485531759 0.0518810686
467700000.0 -0.1334180726 0.0825451313
477650000.0 -0.1103298012 0.0949872354
487600000.0 -0.0811644333 0.0924538678
497550000.0 -0.0490756264 0.0699921207
507500000.0 -0.0288797661 0.0678806919
517450000.0 -0.0048071773 0.0459914284
527400000.0 0.0069882402 0.0247604032
537350000.0 0.0050610257 0.0046800139
547300000.0 -0.0076971193 -0.0155144574
557250000.0 -0.0329396878 -0.0353367651
567200000.0 -0.0634477514 -0.0524940768
577150000.0 -0.0951005701 -0.0653038255
587100000.0 -0.1237312224 -0.0716684498
597050000.0 -0.1468408567 -0.0688967362
607000000.0 -0.1637173455 -0.0557352826
616950000.0 -0.1757785145 -0.033269763
626900000.0 -0.1835178448 -0.003340023
636850000.0 -0.187191072 0.0294260024
646800000.0 -0.186930219 0.0605102801
656750000.0 -0.1814746193 0.0867222679
666700000.0 -0.1681576618 0.1061801498
676650000.0 -0.1453188257 0.1174792596
686600000.0 -0.1138054075 0.1215350618
696550000.0 -0.0759207509 0.1190734124
706500000.0 -0.0351995065 0.1108811662
716450000.0 0.0033205398 0.0964069238
726400000.0 0.0345831465 0.074284225
736350000.0 0.0550713224 0.0427302801
746300000.0 0.0624525431 0.0023523869
756250000.0 0.0570240234 -0.0482809828
766200000.0 0.0394724524 -0.1034081738
776150000.0 0.0118593635 -0.1580555063
786100000.0 -0.0261453873 -0.2062014427
796050000.0 -0.072934837 -0.2408968664
806000000.0 -0.1267146992 -0.2580209755
815950000.0 -0.1875871096 -0.2551087847
825900000.0 -0.2521300653 -0.2343026654
835850000.0 -0.3174100686 -0.1988255037
845800000.0 -0.3786517316 -0.1528235457
855750000.0 -0.4307250703 -0.0983471529
865700000.0 -0.4677315883 -0.0360727154
875650000.0 -0.4846951497 0.0339551184
885600000.0 -0.4749794999 0.1132480009
895550000.0 -0.4264247428 0.1909904183
905500000.0 -0.3791023648 0.2298787218
915450000.0 -0.3458567137 0.3008715487
925400000.0 -0.2847402798 0.3765270192
935350000.0 -0.2004733978 0.4368798296
945300000.0 -0.0963844739 0.4711013131
955250000.0 0.0256595073 0.4695728519
965200000.0 0.1610974914 0.4227731187
975150000.0 0.2986703752 0.3244296184
985100000.0 0.4184567666 0.1697417819
995050000.0 0.4905571853 -0.0383873042
1005000000.0 0.4768759674 -0.2798618671
1014950000.0 0.3511839016 -0.507161632
1024900000.0 0.1221054098 -0.666002827
1034850000.0 -0.1665640826 -0.7166447565
1044800000.0 -0.4562272119 -0.6509671362
1054750000.0 -0.6967262959 -0.4856751974
1064700000.0 -0.8485169802 -0.2490965238
1074650000.0 -0.8917411874 0.0052070421
1084600000.0 -0.8511806868 0.258755486
1094550000.0 -0.7209687873 0.4850238739
1104500000.0 -0.529684945 0.6668658728
1114450000.0 -0.281375244 0.781462569
1124400000.0 -0.0082190422 0.810419524
1134350000.0 0.2575591532 0.7304321407
1144300000.0 0.4720140009 0.5460364917
1154250000.0 0.5953932297 0.2972159564
1164200000.0 0.6201105339 0.0355560887
1174150000.0 0.569689642 -0.1940723932
1184100000.0 0.4685316451 -0.3833183298
1194050000.0 0.328022944 -0.5182234469
1204000000.0 0.1708927028 -0.5921032952
1213950000.0 0.0157960901 -0.6156999909
1223900000.0 -0.1263359438 -0.6050145929
1233850000.0 -0.2521648428 -0.5752428785
1243800000.0 -0.3601240227 -0.5347860289
1253750000.0 -0.4505742603 -0.4871957955
1263700000.0 -0.522575177 -0.4322821407
1273650000.0 -0.5771118821 -0.3717073295
1283600000.0 -0.6148991371 -0.3040955614
1293550000.0 -0.6404895987 -0.2317215917
1303500000.0 -0.6593449565 -0.1572215263
1313450000.0 -0.6744557055 -0.0849540676
1323400000.0 -0.6878735585 -0.0155557582
1333350000.0 -0.6983919544 0.0495226331
1343300000.0 -0.702307054 0.110768268
1353250000.0 -0.6971267858 0.1670242274
1363200000.0 -0.679963649 0.2209075349
1373150000.0 -0.6498770506 0.2735132358
1383100000.0 -0.612438987 0.3257062401
1393050000.0 -0.5705674689 0.3781071715
1403000000.0 -0.5282481078 0.4296929931
1412950000.0 -0.4861230694 0.4783208282
1422900000.0 -0.4437104496 0.5216735634
1432850000.0 -0.3977674826 0.5559277527
1442800000.0 -0.3470191663 0.5814161566
1452750000.0 -0.2882209195 0.5964139989
1462700000.0 -0.2211308903 0.6031748851
1472650000.0 -0.1467341234 0.6043501565
1482600000.0 -0.0688509495 0.6017440212
1492550000.0 0.0097428634 0.5940728001
1502500000.0 0.0870795524 0.577726722
1512450000.0 0.1596338719 0.5496423122
1522400000.0 0.2257934637 0.5051306018
1532350000.0 0.2836723783 0.4419240346
1542300000.0 0.3332368639 0.3623105781
1552250000.0 0.3737556704 0.2696293962
1562200000.0 0.4045215693 0.1703006983
1572150000.0 0.4223707921 0.0692524108
1582100000.0 0.4252280139 -0.0317547503
1592050000.0 0.4062962861 -0.130720939
1602000000.0 0.3613372979 -0.2220381933
1611950000.0 0.2943563524 -0.3012099624
1621900000.0 0.2115968971 -0.3686074614
1631850000.0 0.1195259479 -0.4243418067
1641800000.0 0.0239781538 -0.4679523317
1651750000.0 -0.0704195475 -0.4960058517
1661700000.0 -0.1598570916 -0.5066473352
1671650000.0 -0.2425584443 -0.4977978017
1681600000.0 -0.3175339924 -0.4708592066
1691550000.0 -0.3862780976 -0.4319540725
1701500000.0 -0.4512449951 -0.3840923565
1711450000.0 -0.511451235 -0.3336100425
1721400000.0 -0.5669841707 -0.2819657006
1731350000.0 -0.6152934645 -0.2327631394
1741300000.0 -0.6523441999 -0.1835422272
1751250000.0 -0.675845137 -0.132009416
1761200000.0 -0.6857441131 -0.0789500808
1771150000.0 -0.6851455205 -0.0237776993
1781100000.0 -0.6793155877 0.0335667781
1791050000.0 -0.6733681061 0.0895340536
1801000000.0 -0.6689466376 0.143805302
1810950000.0 -0.6669818916 0.1950305434
1820900000.0 -0.6644146126 0.2418793806
1830850000.0 -0.6562118047 0.2834801167
1840800000.0 -0.6381095393 0.3198732287
1850750000.0 -0.609811407 0.3523184899
1860700000.0 -0.5715462244 0.3815873739
1870650000.0 -0.5295830915 0.4098545511
1880600000.0 -0.4884225084 0.4363279375
1890550000.0 -0.4514216885 0.4608419889
1900500000.0 -0.418854007 0.4824522952
1910450000.0 -0.3903066159 0.4982074533
1920400000.0 -0.3604330599 0.5050356439
1930350000.0 -0.3273785004 0.5030905921
1940300000.0 -0.2899106035 0.4922128303
1950250000.0 -0.2478299249 0.4739052424
1960200000.0 -0.2037422056 0.4523780031
1970150000.0 -0.1635044636 0.4282965345
1980100000.0 -0.1307164301 0.4020398315
1990050000.0 -0.1089940094 0.37158955
2000000000.0 -0.1015629454 0.3317969936
