!Created with skrf (http://scikit-rf.org).
# GHz S RI R 50.0 
!freq ReS11 ImS11
10000000.0 -0.786073718 0.0563016013
14975000.0 -0.790353177 0.0869947728
19950000.0 -0.7949892171 0.12054833
24925000.0 -0.7982933795 0.1573304403
29900000.0 -0.7997539039 0.196566851
34875000.0 -0.7970961393 0.238670109
39850000.0 -0.7900571134 0.2832820997
44825000.0 -0.7784548673 0.3299611214
49800000.0 -0.7623465897 0.3784584333
54775000.0 -0.7413221853 0.4281946974
59750000.0 -0.7154981326 0.4791032182
64725000.0 -0.6849694408 0.530719831
69700000.0 -0.6493414094 0.5828957846
74675000.0 -0.6082846945 0.6357039387
79650000.0 -0.5613483068 0.6889969741
84625000.0 -0.5075022137 0.7427444781
89600000.0 -0.4453715923 0.7963470211
94575000.0 -0.3731221841 0.8486586688
99550000.0 -0.2885654419 0.8972946845
104525000.0 -0.1900747878 0.9386140608
109500000.0 -0.0780143519 0.9681440979
114475000.0 0.0470427356 0.9804480959
119450000.0 0.180543199 0.9717536647
124425000.0 0.3170377613 0.9391215218
129400000.0 0.4497709869 0.8806124488
134375000.0 0.571829035 0.8021736266
139350000.0 0.6819524435 0.6996628572
144325000.0 0.7721185231 0.5813257788
149300000.0 0.8402453376 0.4521316622
154275000.0 0.8852185191 0.3185150131
159250000.0 0.908214669 0.1857403677
164225000.0 0.9099140393 0.058945189
169200000.0 0.8942306009 -0.0582934637
174175000.0 0.8646904141 -0.1635131049
179150000.0 0.8261737379 -0.2552620828
184125000.0 0.7830508567 -0.3341604381
189100000.0 0.7388070102 -0.4017432738
194075000.0 0.6955242336 -0.4600378059
199050000.0 0.6541199454 -0.5111029272
204025000.0 0.6140725718 -0.5567137329
209000000.0 0.5751920055 -0.598125147
213975000.0 0.5361105513 -0.6361471795
218950000.0 0.4962497377 -0.6707317952
223925000.0 0.4554571541 -0.7021964742
228900000.0 0.4136316411 -0.7303175475
233875000.0 0.3706042948 -0.7548127765
238850000.0 0.3262343315 -0.7758541767
243825000.0 0.2795213534 -0.7932751058
248800000.0 0.2561631103 -0.7876673731
253775000.0 0.2025172666 -0.8144652677
258750000.0 0.1592138082 -0.8226524401
263725000.0 0.1184373329 -0.827856951
268700000.0 0.0798345224 -0.8307638158
273675000.0 0.0428825661 -0.8318439606
278650000.0 0.0075139464 -0.8316607504
283625000.0 -0.0271535183 -0.8306849011
288600000.0 -0.0619802665 -0.8291176403
293575000.0 -0.0979296457 -0.8266385274
298550000.0 -0.1359981675 -0.822415917
303525000.0 -0.176528043 -0.815618319
308500000.0 -0.219369948 -0.8050998822
313475000.0 -0.2642086938 -0.7894061231
318450000.0 -0.3103205023 -0.767529726
323425000.0 -0.356300498 -0.7388814306
328400000.0 -0.4008564748 -0.7032431122
333375000.0 -0.4430673596 -0.6603052789
338350000.0 -0.4809293169 -0.6103217385
343325000.0 -0.5129632642 -0.5538268865
348300000.0 -0.5378026668 -0.4915557513
353275000.0 -0.553886544 -0.4250133733
358250000.0 -0.560027977 -0.355435707
363225000.0 -0.5558671964 -0.2849354634
368200000.0 -0.5417179753 -0.2163111782
373175000.0 -0.5176827366 -0.1517263401
378150000.0 -0.4850596992 -0.0927923885
383125000.0 -0.4455250149 -0.0411920974
388100000.0 -0.4010531595 0.0019849613
393075000.0 -0.353450572 0.036578006
398050000.0 -0.3046369221 0.0626885329
403025000.0 -0.2561610671 0.0804206365
408000000.0 -0.2093324261 0.0907848585
412975000.0 -0.1649200656 0.095054397
417950000.0 -0.1238117071 0.0938711407
422925000.0 -0.0864108405 0.0886438831
427900000.0 -0.0532533333 0.0803229
432875000.0 -0.024153399 0.0691035036
437850000.0 0.0006125611 0.0559527585
442825000.0 0.0213666567 0.0416723425
447800000.0 0.038515831 0.0267767088
452775000.0 0.0521049761 0.0115412722
457750000.0 0.0623663311 -0.0032018417
462725000.0 0.069863921 -0.0174338076
467700000.0 0.0750420262 -0.030902411
472675000.0 0.0780141393 -0.04314928
477650000.0 0.0790587863 -0.0542775324
482625000.0 0.0788394038 -0.0641585554
487600000.0 0.077010414 -0.0726329035
492575000.0 0.0732004273 -0.0781988373
497550000.0 0.0777684944 -0.0847946317
502525000.0 0.0712407411 -0.0915789645
507500000.0 0.0660529975 -0.0956229289
512475000.0 0.0604009869 -0.0981632006
517450000.0 0.0545070592 -0.0996213177
522425000.0 0.0482167427 -0.1001444208
527400000.0 0.0416820278 -0.0994695574
532375000.0 0.0346035949 -0.0977106572
537350000.0 0.0278556295 -0.0949284433
542325000.0 0.0210358084 -0.0911112481
547300000.0 0.014419281 -0.0864209044
552275000.0 0.0078106685 -0.0811058333
557250000.0 0.0017550844 -0.0746491682
562225000.0 -0.0042824951 -0.0670180625
567200000.0 -0.0098437825 -0.058590156
572175000.0 -0.0147640437 -0.0491948996
577150000.0 -0.0189053162 -0.0393900553
582125000.0 -0.02254221 -0.0288749613
587100000.0 -0.0250193412 -0.0177015167
592075000.0 -0.02647739 -0.0064548589
597050000.0 -0.0272362413 0.005055547
602025000.0 -0.0266874261 0.0169116298
607000000.0 -0.0248308381 0.0285173167
611975000.0 -0.0223967983 0.0396331259
616950000.0 -0.0190803259 0.050544985
621925000.0 -0.0147610487 0.0608857723
626900000.0 -0.0094365247 0.0704065498
631875000.0 -0.0036450629 0.0792924287
636850000.0 0.0030478575 0.0875576619
641825000.0 0.0102945995 0.0949156338
646800000.0 0.0175152673 0.1016315602
651775000.0 0.0248379314 0.1080645756
656750000.0 0.0324294735 0.1137538165
661725000.0 0.0401980396 0.1188201898
666700000.0 0.0477812556 0.1239895953
671675000.0 0.0555734066 0.1284234435
676650000.0 0.0638216248 0.1323941467
681625000.0 0.0727035079 0.1357069655
686600000.0 0.0820699348 0.138505277
691575000.0 0.0919705946 0.1403480913
696550000.0 0.1021938645 0.1408918165
701525000.0 0.112764499 0.1403586064
706500000.0 0.1231820931 0.1379730095
711475000.0 0.1340072178 0.1344688785
716450000.0 0.1449691467 0.1293724869
721425000.0 0.155934863 0.1225814486
726400000.0 0.1665159046 0.1144245056
731375000.0 0.1767474894 0.1052133981
736350000.0 0.1863818844 0.0947986359
741325000.0 0.195129096 0.0825873415
746300000.0 0.2026146991 0.0690695688
751275000.0 0.2090516462 0.0544495623
756250000.0 0.2135616027 0.0394662893
761225000.0 0.2167949178 0.0242034744
766200000.0 0.2194369747 0.0090167368
771175000.0 0.2211014872 -0.0068466122
776150000.0 0.2214347165 -0.0236638632
781125000.0 0.2203611621 -0.0415330775
786100000.0 0.2173520348 -0.0600774645
791075000.0 0.2125933135 -0.0788968694
796050000.0 0.2064878473 -0.0978581149
801025000.0 0.1986606616 -0.1172963083
806000000.0 0.188968764 -0.1364696285
810975000.0 0.1776763101 -0.1546048277
815950000.0 0.1644298316 -0.1720755892
820925000.0 0.1497506543 -0.1888065928
825900000.0 0.1339026594 -0.204791962
830875000.0 0.1173737199 -0.2194370742
835850000.0 0.0998029285 -0.2326555698
840825000.0 0.081825162 -0.2448125645
845800000.0 0.0635171416 -0.2556104274
850775000.0 0.0446198269 -0.2654100622
855750000.0 0.0248594361 -0.2747073369
860725000.0 0.0040635115 -0.2832724703
865700000.0 -0.0175258609 -0.2910187856
870675000.0 -0.0407894029 -0.2978340016
875650000.0 -0.0652098252 -0.3028397085
880625000.0 -0.0920698586 -0.306184927
885600000.0 -0.1201783663 -0.3069704802
890575000.0 -0.1494642487 -0.3049018142
895550000.0 -0.1795818995 -0.3000428119
900525000.0 -0.2099307025 -0.2917933556
905500000.0 -0.2405053251 -0.2803530601
910475000.0 -0.2703789448 -0.2650693561
915450000.0 -0.2993398911 -0.2464616084
920425000.0 -0.3268532446 -0.223682866
925400000.0 -0.3535732047 -0.1976690637
930375000.0 -0.378220552 -0.168009378
935350000.0 -0.4004562546 -0.1346117304
940325000.0 -0.4209414517 -0.0983008649
945300000.0 -0.4394592818 -0.057973113
950275000.0 -0.4541428082 -0.0134255929
955250000.0 -0.4657821644 0.0345746326
960225000.0 -0.4734137993 0.0875477155
965200000.0 -0.4751858837 0.14544267
970175000.0 -0.4697696742 0.207302601
975150000.0 -0.4557945369 0.2727380902
980125000.0 -0.4310072037 0.3405274321
985100000.0 -0.3945062533 0.408559223
990075000.0 -0.3450057352 0.4746394783
995050000.0 -0.2827126151 0.5360597187
1000025000.0 -0.2077996107 0.5903701053
1005000000.0 -0.1178878533 0.633976165
1009975000.0 -0.0188722533 0.6633863373
1014950000.0 0.0885876527 0.6751448248
1019925000.0 0.2001310432 0.6661356453
1024900000.0 0.3113451751 0.6359647174
1029875000.0 0.4170239586 0.5840657668
1034850000.0 0.5121390376 0.5115052385
1039825000.0 0.5923931815 0.4214415626
1044800000.0 0.6564158084 0.317698701
1049775000.0 0.7022204026 0.2045753718
1054750000.0 0.7292242114 0.0862668819
1059725000.0 0.7382610336 -0.0336201521
1064700000.0 0.7308203883 -0.1509208003
1069675000.0 0.7074922004 -0.2660010357
1074650000.0 0.6630066658 -0.3756687503
1079625000.0 0.5968026674 -0.4614662615
1084600000.0 0.549909752 -0.5323133869
1089575000.0 0.481995375 -0.6144045841
1094550000.0 0.3978701878 -0.6791623295
1099525000.0 0.3090668396 -0.7265700652
1104500000.0 0.2176006825 -0.7584353409
1109475000.0 0.1264676153 -0.7761541224
1114450000.0 0.0381161264 -0.7809099916
1119425000.0 -0.0467133188 -0.7755831825
1124400000.0 -0.1272684129 -0.7603090457
1129375000.0 -0.2019717177 -0.7368982539
1134350000.0 -0.2711914716 -0.7065612893
1139325000.0 -0.3341622663 -0.6692742362
1144300000.0 -0.3905597886 -0.6266446513
1149275000.0 -0.4396968912 -0.579519425
1154250000.0 -0.4816395707 -0.5299370317
1159225000.0 -0.5151873212 -0.4792932072
1164200000.0 -0.5434437761 -0.4300559755
1169175000.0 -0.5672582589 -0.3818111594
1174150000.0 -0.5866994629 -0.3324745061
1179125000.0 -0.6015601391 -0.2832356319
1184100000.0 -0.6122278278 -0.2345774546
1189075000.0 -0.6179936654 -0.1871842158
1194050000.0 -0.6202005772 -0.1427031432
1199025000.0 -0.6192286999 -0.1006319489
1204000000.0 -0.6155789499 -0.0612280658
1208975000.0 -0.6093127405 -0.0236647505
1213950000.0 -0.6012060929 0.0108420908
1218925000.0 -0.592451588 0.0428599456
1223900000.0 -0.5828403867 0.0726577881
1228875000.0 -0.5727869563 0.0996657874
1233850000.0 -0.5628386721 0.124834589
1238825000.0 -0.5535533639 0.1488580365
1243800000.0 -0.5443078876 0.1714616985
1248775000.0 -0.5353164615 0.1933310167
1253750000.0 -0.5251642905 0.2155086425
1258725000.0 -0.5148181631 0.2363359776
1263700000.0 -0.5048519555 0.2572515419
1268675000.0 -0.4931978179 0.2772378396
1273650000.0 -0.4812898968 0.2952256718
1278625000.0 -0.4690082385 0.312166572
1283600000.0 -0.4555552171 0.3283587817
1288575000.0 -0.4415033358 0.3420383498
1293550000.0 -0.4269459017 0.3545869831
1298525000.0 -0.4121872465 0.3655796727
1303500000.0 -0.3976401299 0.3745838861
1308475000.0 -0.3831598204 0.3807146967
1313450000.0 -0.3701900594 0.3855211604
1318425000.0 -0.3588521755 0.3879722648
1323400000.0 -0.3503334685 0.3891189908
1328375000.0 -0.3449062789 0.39006797
1333350000.0 -0.3424781119 0.3917244909
1338325000.0 -0.3420970139 0.395428611
1343300000.0 -0.3425392167 0.4016862225
1348275000.0 -0.3423870666 0.4110411307
1353250000.0 -0.3406137746 0.4224272012
1358225000.0 -0.3373563616 0.4345308533
1363200000.0 -0.3314905307 0.4473025703
1368175000.0 -0.3226177982 0.4604097621
1373150000.0 -0.3119457292 0.4726360222
1378125000.0 -0.3001171492 0.4840006668
1383100000.0 -0.2861484938 0.4945701413
1388075000.0 -0.2711792189 0.5028370816
1393050000.0 -0.2556071561 0.5098065953
1398025000.0 -0.2390672678 0.5148492648
1403000000.0 -0.2237483335 0.5177564173
1407975000.0 -0.2082832691 0.5188263879
1412950000.0 -0.1933660278 0.5176486323
1417925000.0 -0.1808104567 0.5147239897
1422900000.0 -0.1713460677 0.5108003112
1427875000.0 -0.1654259329 0.5060747803
1432850000.0 -0.1632641813 0.5025901592
1437825000.0 -0.1639271692 0.5014104319
1442800000.0 -0.1656707585 0.5030600953
1447775000.0 -0.1664388028 0.5076837717
1452750000.0 -0.165201773 0.5147245425
1457725000.0 -0.1608013416 0.5233885491
1462700000.0 -0.1528947751 0.5320028566
1467675000.0 -0.1423221585 0.5406842906
1472650000.0 -0.1289466946 0.5488532171
1477625000.0 -0.1142128659 0.5553340961
1482600000.0 -0.0977972376 0.5609065352
1487575000.0 -0.0800729645 0.5649416738
1492550000.0 -0.0617859824 0.567203199
1497525000.0 -0.0430037119 0.5680001994
1502500000.0 -0.0238720769 0.5684263148
1507475000.0 -0.0048481794 0.5677120898
1512450000.0 0.0135120386 0.5657903828
1517425000.0 0.0305199364 0.5627808732
1522400000.0 0.0468530613 0.5597182322
1527375000.0 0.0618030332 0.5553273776
1532350000.0 0.0754664124 0.5503186664
1537325000.0 0.0886605141 0.5461528498
1542300000.0 0.1017596702 0.5415952041
1547275000.0 0.114248768 0.5366067016
1552250000.0 0.1289508704 0.5322360189
1557225000.0 0.1438590831 0.5268715417
1562200000.0 0.1588958762 0.5202651379
1567175000.0 0.1748115358 0.5130696374
1572150000.0 0.1917537281 0.5044225839
1577125000.0 0.2082247162 0.4946754108
1582100000.0 0.2245167589 0.4841122362
1587075000.0 0.2413852254 0.4728830991
1592050000.0 0.2573293591 0.4612120121
1597025000.0 0.2730232959 0.4496445979
1602000000.0 0.2893625433 0.4384564059
1606975000.0 0.3046620732 0.4265080702
1611950000.0 0.3189445707 0.4147547036
1616925000.0 0.3335830364 0.4033857516
1621900000.0 0.3473423207 0.3909170047
1626875000.0 0.3608343804 0.3795100363
1631850000.0 0.3740778755 0.3676099039
1636825000.0 0.3868746124 0.3553313195
1641800000.0 0.3987773431 0.3428657868
1646775000.0 0.4109970445 0.3301978046
1651750000.0 0.4224060885 0.3172611547
1656725000.0 0.4330451579 0.3033345031
1661700000.0 0.4429714997 0.2898119131
1666675000.0 0.451989069 0.2767991071
1671650000.0 0.4601550097 0.261964593
1676625000.0 0.466856379 0.248767522
1681600000.0 0.4724137204 0.23560973
1686575000.0 0.4772805824 0.2220727847
1691550000.0 0.4811755114 0.2092572164
1696525000.0 0.4836161065 0.1974511031
1701500000.0 0.4865157104 0.1854766545
1706475000.0 0.4869029964 0.1739420778
1711450000.0 0.4862210155 0.1637557466
1716425000.0 0.4852475177 0.1544292225
1721400000.0 0.4841326502 0.1459823505
1726375000.0 0.4835197108 0.1386535738
1731350000.0 0.484152186 0.1323972187
1736325000.0 0.4865806387 0.1260996046
1741300000.0 0.4902522759 0.1193476596
1746275000.0 0.4951562899 0.1127093809
1751250000.0 0.5004686666 0.1045012388
1756225000.0 0.5054407522 0.0959665499
1761200000.0 0.5102115452 0.0874161036
1766175000.0 0.5136820847 0.077969068
1771150000.0 0.5161523035 0.0684934331
1776125000.0 0.5172093754 0.059427325
1781100000.0 0.5167972434 0.0509388867
1786075000.0 0.515058507 0.0424208461
1791050000.0 0.5110247257 0.0350478081
1796025000.0 0.505963656 0.029153095
1801000000.0 0.4988987601 0.0231573857
1805975000.0 0.4914615163 0.0208384081
1810950000.0 0.4845032231 0.0210871392
1815925000.0 0.4785295106 0.0228308111
1820900000.0 0.4762533092 0.0255630749
1825875000.0 0.4763750575 0.0286049657
1830850000.0 0.4781541161 0.0310793826
1835825000.0 0.4815084795 0.0317963448
1840800000.0 0.4854552114 0.0319492235
1845775000.0 0.4896469137 0.0309852381
1850750000.0 0.4930355961 0.0281156296
1855725000.0 0.4949734854 0.0247817436
1860700000.0 0.4952556757 0.0208925386
1865675000.0 0.4939448951 0.0158354734
1870650000.0 0.4900669741 0.0108665367
1875625000.0 0.4842765335 0.0060522548
1880600000.0 0.476246643 0.0007435096
1885575000.0 0.4661512357 -0.0040679012
1890550000.0 0.4534547049 -0.0080059335
1895525000.0 0.4397974097 -0.0112457378
1900500000.0 0.4239948991 -0.01506387
1905475000.0 0.4088838478 -0.0150937204
1910450000.0 0.3940882389 -0.0129816737
1915425000.0 0.3814883536 -0.0090861798
1920400000.0 0.3709639023 -0.0041396199
1925375000.0 0.3634316836 0.0005824976
1930350000.0 0.3576286483 0.0043191142
1935325000.0 0.3528029522 0.0068264347
1940300000.0 0.3478278486 0.0078430937
1945275000.0 0.3419521452 0.0073642116
1950250000.0 0.3341663666 0.0058210392
1955225000.0 0.3243139738 0.0040602526
1960200000.0 0.3126136016 0.0018092559
1965175000.0 0.2985667123 -0.0006742659
1970150000.0 0.2818973884 -0.003514728
1975125000.0 0.2627101587 -0.0057539333
1980100000.0 0.2405131196 -0.0083526986
1985075000.0 0.216427851 -0.0116133008
1990050000.0 0.1884553274 -0.0138095776
1995025000.0 0.1572135768 -0.0152254624
2000000000.0 0.122723532 -0.0161859633
