!Created with skrf (http://scikit-rf.org).
# GHz S RI R 50.0 
!freq ReS11 ImS11
10000000.0 -0.86785543 0.5268703163
19950000.0 -0.4712354459 0.8841905687
29900000.0 0.0523142169 0.9889023596
39850000.0 0.5624859478 0.8059780598
49800000.0 0.908110729 0.3740423425
59750000.0 0.9691211852 -0.1933419335
69700000.0 0.6950058998 -0.7180333933
79650000.0 0.1463490798 -0.9994675233
89600000.0 -0.4870068851 -0.8898887761
99550000.0 -0.930289467 -0.3871599179
109500000.0 -0.9414809715 0.3109975269
119450000.0 -0.4628038964 0.8569076207
129400000.0 0.2865092349 0.9211914805
139350000.0 0.8706816032 0.4260995689
149300000.0 0.9212298045 -0.342406575
159250000.0 0.4204017724 -0.8999828505
169200000.0 -0.2901004035 -0.9479946066
179150000.0 -0.8168062869 -0.5386819643
189100000.0 -0.959121919 0.0695452169
199050000.0 -0.7242895304 0.6115136609
209000000.0 -0.2414116638 0.9107927652
218950000.0 0.3083726803 0.8923690083
228900000.0 0.7525796299 0.5847049359
238850000.0 0.9587882499 0.0897796809
248800000.0 0.8400415001 -0.4167901198
258750000.0 0.5198351544 -0.8177670005
268700000.0 0.0216470438 -0.9585463154
278650000.0 -0.4685880698 -0.8169076568
288600000.0 -0.8065078164 -0.4426197936
298550000.0 -0.8955873521 0.0496199506
308500000.0 -0.7082218914 0.5126081385
318450000.0 -0.297495722 0.7972694485
328400000.0 0.2009015646 0.798967932
338350000.0 0.5981523774 0.5083305624
348300000.0 0.7251314713 0.0507980881
358250000.0 0.5414736236 -0.3525427182
368200000.0 0.1789153494 -0.5149102681
378150000.0 -0.1469768995 -0.4085738296
388100000.0 -0.2850368055 -0.1583637643
398050000.0 -0.2229526617 0.0636421246
408000000.0 -0.0615210153 0.1510419112
417950000.0 0.0767966587 0.1027098545
427900000.0 0.1199601935 -0.0094546883
437850000.0 0.0689839836 -0.1030508922
447800000.0 -0.0273162391 -0.128203528
457750000.0 -0.1102119971 -0.0818647424
467700000.0 -0.1405186178 0.0046390884
477650000.0 -0.1108958893 0.0882195579
487600000.0 -0.0402359857 0.133936422
497550000.0 0.0348412474 0.1251380768
507500000.0 0.0878809621 0.0826214272
517450000.0 0.0998488464 0.0212663789
527400000.0 0.0762348529 -0.0262428115
537350000.0 0.0364199274 -0.0433465505
547300000.0 0.0035111967 -0.0308667756
557250000.0 -0.0063215809 -0.0014581358
567200000.0 0.0127662868 0.0210779715
577150000.0 0.0468039373 0.0177122701
587100000.0 0.0734700236 -0.0164144739
597050000.0 0.0718088231 -0.0686579362
607000000.0 0.0333472655 -0.116395377
616950000.0 -0.0340273031 -0.1353891083
626900000.0 -0.1065657877 -0.1107042195
636850000.0 -0.1574386462 -0.0445356421
646800000.0 -0.1615739209 0.0434744346
656750000.0 -0.1143901694 0.1203481051
666700000.0 -0.0305379311 0.1601663881
676650000.0 0.0645131449 0.147115327
686600000.0 0.1373219515 0.0829762213
696550000.0 0.1622437654 -0.0112162606
706500000.0 0.1296507665 -0.1016233581
716450000.0 0.0520619503 -0.1550582496
726400000.0 -0.0396943079 -0.1518414845
736350000.0 -0.1076494804 -0.0940504974
746300000.0 -0.1227543222 -0.007470668
756250000.0 -0.0758507077 0.0692166919
766200000.0 0.0134403135 0.0973071456
776150000.0 0.1051943235 0.0571278473
786100000.0 0.1536614246 -0.0409722278
796050000.0 0.1270720696 -0.1581786849
806000000.0 0.0238491982 -0.2418404195
815950000.0 -0.1231291626 -0.2438412602
825900000.0 -0.2547409884 -0.1465095043
835850000.0 -0.3076579073 0.0267925971
845800000.0 -0.2377329726 0.2000657013
855750000.0 -0.0665388038 0.2802239918
865700000.0 0.0944485877 0.3070977271
875650000.0 0.2684424531 0.2337750276
885600000.0 0.3919923976 0.0500246142
895550000.0 0.3915486471 -0.185365519
905500000.0 0.2523399977 -0.3861786933
915450000.0 0.0153009121 -0.4747259121
925400000.0 -0.2396297879 -0.4086337842
935350000.0 -0.4160934907 -0.19951741
945300000.0 -0.4369546178 0.0847328584
955250000.0 -0.2747131718 0.3355175226
965200000.0 0.0233348819 0.4351992724
975150000.0 0.3347535832 0.3126022166
985100000.0 0.4971053806 -0.0069479021
995050000.0 0.3905300363 -0.3767124749
1005000000.0 0.0312271928 -0.5838811273
1014950000.0 -0.406788685 -0.4718917024
1024900000.0 -0.6614826422 -0.0449250961
1034850000.0 -0.521986823 0.485076606
1044800000.0 0.0028345676 0.7713583331
1054750000.0 0.6033073965 0.5673238759
1064700000.0 0.8497542463 -0.0166824063
1074650000.0 0.665588802 -0.5695814133
1084600000.0 0.1417309793 -0.8673051538
1094550000.0 -0.4209901297 -0.7572383012
1104500000.0 -0.7815753652 -0.3006026047
1114450000.0 -0.7508135322 0.2701139363
1124400000.0 -0.3540452716 0.6689565494
1134350000.0 0.1913629399 0.6936525783
1144300000.0 0.5869987916 0.3604941077
1154250000.0 0.6534183145 -0.1138970858
1164200000.0 0.4207407286 -0.4845293297
1174150000.0 0.0447706232 -0.6259041538
1184100000.0 -0.325495992 -0.5231228604
1194050000.0 -0.5577869887 -0.2283685534
1204000000.0 -0.5730137274 0.1411000719
1213950000.0 -0.3710258822 0.4473079452
1223900000.0 -0.0305659533 0.5773618469
1233850000.0 0.3167111053 0.4886656461
1243800000.0 0.5479630417 0.2276117276
1253750000.0 0.5996523033 -0.1050531278
1263700000.0 0.4770375251 -0.405154064
1273650000.0 0.2298133965 -0.5993172477
1283600000.0 -0.0743427124 -0.6494782567
1293550000.0 -0.3645847524 -0.5516149204
1303500000.0 -0.5759316507 -0.3269580388
1313450000.0 -0.657042711 -0.0239495725
1323400000.0 -0.5801069101 0.2865083068
1333350000.0 -0.3565071948 0.5233224516
1343300000.0 -0.0418751397 0.6193076508
1353250000.0 0.2778985182 0.547160747
1363200000.0 0.5175176954 0.3314425455
1373150000.0 0.6224624185 0.0344767391
1383100000.0 0.5770019539 -0.26937382
1393050000.0 0.4021259975 -0.5127220964
1403000000.0 0.1407952618 -0.648441087
1412950000.0 -0.1508774122 -0.6500184705
1422900000.0 -0.4120949536 -0.5197626931
1432850000.0 -0.5843685606 -0.281491978
1442800000.0 -0.6241567663 0.0122640895
1452750000.0 -0.5168403212 0.2906739275
1462700000.0 -0.2858728705 0.4814088795
1472650000.0 0.0085366188 0.5315057683
1482600000.0 0.2852040848 0.4292745263
1492550000.0 0.4699997304 0.2074382397
1502500000.0 0.5170470368 -0.069486405
1512450000.0 0.4200854366 -0.3257161509
1522400000.0 0.2113709913 -0.4954284903
1532350000.0 -0.049630378 -0.5353849696
1542300000.0 -0.2907380741 -0.4370509889
1552250000.0 -0.4435499143 -0.2281979764
1562200000.0 -0.4620822942 0.0289713602
1572150000.0 -0.3400481852 0.2570061396
1582100000.0 -0.1153093281 0.3842686137
1592050000.0 0.1412177932 0.3678610021
1602000000.0 0.3483695725 0.2132447129
1611950000.0 0.4369001379 -0.0314822116
1621900000.0 0.379381455 -0.2848948091
1631850000.0 0.1935504465 -0.468373576
1641800000.0 -0.0622838262 -0.5269324744
1651750000.0 -0.3135414853 -0.44249236
1661700000.0 -0.4904327835 -0.2389545133
1671650000.0 -0.5430233326 0.0300134167
1681600000.0 -0.4523099762 0.2936778254
1691550000.0 -0.236784049 0.4820891746
1701500000.0 0.0523933933 0.5390948163
1711450000.0 0.3364184027 0.4423375277
1721400000.0 0.5363589096 0.21095478
1731350000.0 0.5941132565 -0.0902725352
1741300000.0 0.4961952291 -0.3795779154
1751250000.0 0.2744362297 -0.5833933627
1761200000.0 -0.0121719175 -0.6592334222
1771150000.0 -0.2960637382 -0.5997094615
1781100000.0 -0.5214541638 -0.4232544306
1791050000.0 -0.6472957721 -0.1686750679
1801000000.0 -0.6511434837 0.1158311159
1810950000.0 -0.5308553177 0.377164108
1820900000.0 -0.3034911409 0.5613592724
1830850000.0 -0.0133059693 0.622601454
1840800000.0 0.2769566308 0.5412933295
1850750000.0 0.4947828628 0.3327538126
1860700000.0 0.5858731986 0.0497764269
1870650000.0 0.5349622894 -0.2341907476
1880600000.0 0.3668404165 -0.4535903685
1890550000.0 0.1310112631 -0.5688916123
1900500000.0 -0.1178609871 -0.5700121739
1910450000.0 -0.3322425182 -0.4706110495
1920400000.0 -0.4775630782 -0.2981028439
1930350000.0 -0.5324668673 -0.0894421698
1940300000.0 -0.4924618968 0.1135384397
1950250000.0 -0.37156681 0.2705386637
1960200000.0 -0.2017988515 0.3492219044
1970150000.0 -0.0293170315 0.3393893644
1980100000.0 0.10230781 0.2562410582
1990050000.0 0.1660791203 0.137807431
2000000000.0 0.1620182638 0.0290516067
