!Created with skrf (http://scikit-rf.org).
# GHz S RI R 50.0 
!freq ReS11 ImS11
10000000.0 -0.977873606 0.0700656762
19950000.0 -0.9676180551 0.1357853176
29900000.0 -0.9520896728 0.2043217882
39850000.0 -0.9302641015 0.2768723005
49800000.0 -0.8994055194 0.3557234682
59750000.0 -0.8572434992 0.4418218628
69700000.0 -0.7995385791 0.5354625208
79650000.0 -0.7210249107 0.6372817054
89600000.0 -0.6126478482 0.7441239091
99550000.0 -0.4648895701 0.8479834551
109500000.0 -0.2689145994 0.9336967266
119450000.0 -0.021188547 0.9752724742
129400000.0 0.2660683641 0.9404295896
139350000.0 0.5394591588 0.8186980207
149300000.0 0.7708875268 0.6061324705
159250000.0 0.9178489686 0.3414216064
169200000.0 0.972954953 0.0690705751
179150000.0 0.9527911035 -0.1747928904
189100000.0 0.8842868434 -0.3739706427
199050000.0 0.7927157031 -0.5277940161
209000000.0 0.6922198686 -0.6422877855
218950000.0 0.5929807295 -0.7276047798
228900000.0 0.4973599846 -0.7908158266
238850000.0 0.4015163337 -0.837981588
248800000.0 0.1927806116 -0.8198909093
258750000.0 0.2567893114 -0.8799676342
268700000.0 0.1652374069 -0.8954105188
278650000.0 0.0768847015 -0.8991800734
288600000.0 -0.0128751232 -0.8927508835
298550000.0 -0.1048712052 -0.8736797275
308500000.0 -0.2000365532 -0.8393752441
318450000.0 -0.2964728793 -0.7854038132
328400000.0 -0.3896049297 -0.706893407
338350000.0 -0.4715045531 -0.6015652952
348300000.0 -0.5312341478 -0.4701281501
358250000.0 -0.5556932972 -0.3204852314
368200000.0 -0.5371734098 -0.1682470625
378150000.0 -0.4784226839 -0.0336247603
388100000.0 -0.391314183 0.0703783694
398050000.0 -0.2922202221 0.1382947314
408000000.0 -0.19437989 0.1733375383
417950000.0 -0.1082168834 0.1821204211
427900000.0 -0.0380077029 0.1731127055
437850000.0 0.0150233921 0.152990382
447800000.0 0.0515502538 0.1266249857
457750000.0 0.0734291683 0.098170074
467700000.0 0.082895352 0.0708501341
477650000.0 0.0814655625 0.045820949
487600000.0 0.0692460618 0.0240835881
497550000.0 0.02066417 0.018373762
507500000.0 0.0597934907 0.0122273728
517450000.0 0.0320659746 -0.0006067693
527400000.0 0.0069530749 -0.0041393316
537350000.0 -0.0174058797 -0.003061923
547300000.0 -0.0430907029 0.0023672094
557250000.0 -0.0651986606 0.0150341602
567200000.0 -0.0838116922 0.0289978287
577150000.0 -0.099819035 0.0451013604
587100000.0 -0.113022457 0.0623939544
597050000.0 -0.1231974484 0.0796941013
607000000.0 -0.1299822445 0.0968382601
616950000.0 -0.1335462222 0.1126256347
626900000.0 -0.1331630736 0.1271708079
636850000.0 -0.1285539905 0.1403147139
646800000.0 -0.119501717 0.1514299182
656750000.0 -0.1074682489 0.1607668516
666700000.0 -0.0923057778 0.1678055419
676650000.0 -0.0759713723 0.1719718849
686600000.0 -0.0577053794 0.1727536212
696550000.0 -0.0376076667 0.1693372637
706500000.0 -0.0155318821 0.1604859271
716450000.0 0.0088075312 0.1461966553
726400000.0 0.0348837343 0.1266601174
736350000.0 0.0615059424 0.1020216996
746300000.0 0.087347155 0.0736794909
756250000.0 0.111160328 0.0408403936
766200000.0 0.1305528963 0.0042203952
776150000.0 0.1444411959 -0.0363826055
786100000.0 0.1523905982 -0.0798957001
796050000.0 0.1536550403 -0.1260138622
806000000.0 0.1493615376 -0.1740181359
815950000.0 0.1401051283 -0.2209388644
825900000.0 0.1259861064 -0.2650217482
835850000.0 0.1071750214 -0.3044330685
845800000.0 0.0835352287 -0.3377163188
855750000.0 0.0545325982 -0.364941073
865700000.0 0.0205598423 -0.3866284159
875650000.0 -0.0180558965 -0.402220334
885600000.0 -0.0609275282 -0.4116308347
895550000.0 -0.1067355086 -0.4140076789
905500000.0 -0.154482167 -0.4083058144
915450000.0 -0.2035828515 -0.3926452222
925400000.0 -0.2525471987 -0.3653183174
935350000.0 -0.3014330271 -0.3237050008
945300000.0 -0.3494742179 -0.2662002437
955250000.0 -0.3943030465 -0.1882263143
965200000.0 -0.4292771502 -0.0858678479
975150000.0 -0.4447747391 0.0433478166
985100000.0 -0.424643738 0.1956126698
995050000.0 -0.3547349234 0.3595495786
1005000000.0 -0.2226983846 0.5145147699
1014950000.0 -0.028601006 0.6284593191
1024900000.0 0.20860859 0.6700460237
1034850000.0 0.4499482366 0.6212961107
1044800000.0 0.6537983678 0.4894385849
1054750000.0 0.7890841731 0.2981212329
1064700000.0 0.8128936042 0.0865829049
1074650000.0 0.8324007356 -0.0200911379
1084600000.0 0.8295840913 -0.2105332845
1094550000.0 0.7584745 -0.3706664248
1104500000.0 0.6493929767 -0.5093042446
1114450000.0 0.5075393325 -0.6138916931
1124400000.0 0.3449455406 -0.6797667034
1134350000.0 0.1738949282 -0.7041142368
1144300000.0 0.0068839067 -0.6868697187
1154250000.0 -0.145416164 -0.6313971169
1164200000.0 -0.2733625748 -0.5453904808
1174150000.0 -0.3713153802 -0.4428516855
1184100000.0 -0.4478017273 -0.3358784676
1194050000.0 -0.5044245428 -0.2240108253
1204000000.0 -0.5380881297 -0.1170932388
1213950000.0 -0.5534365512 -0.0215642616
1223900000.0 -0.5560300329 0.0601676388
1233850000.0 -0.550688023 0.1288807782
1243800000.0 -0.5398019413 0.187368165
1253750000.0 -0.5262440792 0.2386051059
1263700000.0 -0.511138367 0.2843809545
1273650000.0 -0.4974066278 0.3236991161
1283600000.0 -0.4851713897 0.3577570316
1293550000.0 -0.4756378694 0.3849669385
1303500000.0 -0.4687583021 0.4054394083
1313450000.0 -0.4642002541 0.4203663021
1323400000.0 -0.4605456333 0.4310382366
1333350000.0 -0.456294859 0.4396160515
1343300000.0 -0.4515026034 0.4486156189
1353250000.0 -0.4464263056 0.458021597
1363200000.0 -0.4411450991 0.4680043815
1373150000.0 -0.4352206539 0.4770537034
1383100000.0 -0.4295815235 0.4847028731
1393050000.0 -0.4245773362 0.4896030869
1403000000.0 -0.4192547827 0.4915395279
1412950000.0 -0.4132385485 0.4901321195
1422900000.0 -0.4063371423 0.4871802308
1432850000.0 -0.3983763069 0.4838536277
1442800000.0 -0.389443958 0.4814409218
1452750000.0 -0.3815177694 0.4809107963
1462700000.0 -0.3728963025 0.4841989989
1472650000.0 -0.3616682242 0.4900175247
1482600000.0 -0.3473253364 0.497048972
1492550000.0 -0.3300948364 0.5028982143
1502500000.0 -0.3093232733 0.5069473536
1512450000.0 -0.2855293362 0.509574039
1522400000.0 -0.2586415328 0.5116221081
1532350000.0 -0.2281326159 0.5129203062
1542300000.0 -0.1932621407 0.5129672311
1552250000.0 -0.1555488835 0.5119753959
1562200000.0 -0.1155844895 0.5099174704
1572150000.0 -0.0742497404 0.5064290577
1582100000.0 -0.0318053866 0.5008517064
1592050000.0 0.0111289125 0.4943407063
1602000000.0 0.0540130511 0.4858141669
1611950000.0 0.0977397334 0.4753493991
1621900000.0 0.1412980204 0.4622725477
1631850000.0 0.1842417267 0.4453300987
1641800000.0 0.2249069734 0.4246055453
1651750000.0 0.2584972772 0.3998710249
1661700000.0 0.286777028 0.3973742057
1671650000.0 0.3393920265 0.3787431303
1681600000.0 0.3770216889 0.3548658879
1691550000.0 0.4088918436 0.3331940551
1701500000.0 0.4366761823 0.3135101605
1711450000.0 0.4608859785 0.2951051061
1721400000.0 0.4819420235 0.2776701695
1731350000.0 0.5003323289 0.2606081179
1741300000.0 0.5165198856 0.2447515658
1751250000.0 0.5305164859 0.2316063152
1761200000.0 0.5422425972 0.2209608783
1771150000.0 0.5510234662 0.2131449452
1781100000.0 0.5571461349 0.20740046
1791050000.0 0.5607550502 0.2039051028
1801000000.0 0.5627656636 0.2009569702
1810950000.0 0.5634634189 0.1975894044
1820900000.0 0.5638221222 0.1937895048
1830850000.0 0.5646310737 0.1891447986
1840800000.0 0.5650341119 0.1853722259
1850750000.0 0.5632149645 0.1823242262
1860700000.0 0.5580730718 0.1804053851
1870650000.0 0.5488781951 0.1801339206
1880600000.0 0.5354868066 0.1808361856
1890550000.0 0.5181398306 0.1820760186
1900500000.0 0.498381176 0.1820570282
1910450000.0 0.4776279842 0.1796726071
1920400000.0 0.4571611176 0.1751701969
1930350000.0 0.4366591759 0.1684833224
1940300000.0 0.4141718463 0.1599262825
1950250000.0 0.3886929032 0.1499412445
1960200000.0 0.3580773356 0.1392160273
1970150000.0 0.3216517669 0.1273991109
1980100000.0 0.2781429533 0.1153449919
1990050000.0 0.2274966273 0.101794462
2000000000.0 0.168659287 0.087529113
