!Created with skrf (http://scikit-rf.org).
# GHz S RI R 50.0 
!freq ReS11 ImS11
10000000.0 -0.7439182781 0.6760677688
19950000.0 -0.105908282 0.9829041068
29900000.0 0.574659782 0.7916848671
39850000.0 0.9603975839 0.1878259354
49800000.0 0.8343565745 -0.5298572495
59750000.0 0.2381592995 -0.9729840068
69700000.0 -0.5104645053 -0.8688966512
79650000.0 -0.9678563044 -0.2515918389
89600000.0 -0.8328267531 0.5195784704
99550000.0 -0.1553103243 0.9515837728
109500000.0 0.6422870229 0.7126803453
119450000.0 0.9664602567 -0.0919448144
129400000.0 0.4940856763 -0.8539464148
139350000.0 -0.4130228438 -0.8978953371
149300000.0 -0.952774709 -0.1797032656
159250000.0 -0.6849114197 0.6530105537
169200000.0 0.120652186 0.9296709416
179150000.0 0.8169364701 0.47654377
189100000.0 0.9028347752 -0.3288523486
199050000.0 0.361503113 -0.898236078
209000000.0 -0.3961234483 -0.8742711229
218950000.0 -0.8814722625 -0.3303551617
228900000.0 -0.8436350728 0.3769398405
238850000.0 -0.3329518848 0.8533324298
248800000.0 0.2758105415 0.668501454
258750000.0 0.8402897477 0.4003935299
268700000.0 0.8922363605 -0.2873932468
278650000.0 0.4566141785 -0.8099000388
288600000.0 -0.2098006286 -0.8832463993
298550000.0 -0.7337700253 -0.4820673184
308500000.0 -0.8313897907 0.1617026293
318450000.0 -0.4524516628 0.6828174904
328400000.0 0.17652768 0.7740569465
338350000.0 0.6567891973 0.3799594078
348300000.0 0.6730861655 -0.2134541828
358250000.0 0.2605507957 -0.5744383455
368200000.0 -0.2271708203 -0.4915382407
378150000.0 -0.4386675362 -0.114239166
388100000.0 -0.2950105308 0.2276563995
398050000.0 0.0097108068 0.3077572659
408000000.0 0.211144894 0.1466469209
417950000.0 0.1963345826 -0.0678154766
427900000.0 0.0446025097 -0.1665485309
437850000.0 -0.0955213651 -0.1122621962
447800000.0 -0.1299044959 0.0140772342
457750000.0 -0.0621987308 0.1060887961
467700000.0 0.0357275691 0.107469153
477650000.0 0.0884538578 0.0435150889
487600000.0 0.0716370428 -0.0256803098
497550000.0 0.0368822474 -0.0073461492
507500000.0 -0.0131945287 -0.064900464
517450000.0 -0.0313602003 -0.0220510524
527400000.0 -0.0151808666 -0.0049377319
537350000.0 -0.0022883822 -0.0190170872
547300000.0 -0.020372603 -0.0464354059
557250000.0 -0.0672601645 -0.0381548494
567200000.0 -0.0995393322 0.0132307233
577150000.0 -0.0844904382 0.0819797664
587100000.0 -0.0083073799 0.1245897861
597050000.0 0.0875425043 0.106937388
607000000.0 0.1477753535 0.0144115581
616950000.0 0.1324852167 -0.1048821365
626900000.0 0.0370327304 -0.1856928433
636850000.0 -0.0930740108 -0.1799497189
646800000.0 -0.1894123898 -0.0871890933
656750000.0 -0.1951170777 0.044000511
666700000.0 -0.1088413448 0.146834771
676650000.0 0.0211524311 0.1619680802
686600000.0 0.1236270899 0.0826372259
696550000.0 0.1438522127 -0.040759213
706500000.0 0.0752349942 -0.1344488703
716450000.0 -0.0323381498 -0.1462978442
726400000.0 -0.1064628708 -0.0798066651
736350000.0 -0.0965140366 0.0137195421
746300000.0 -0.0155858018 0.0594402834
756250000.0 0.0721635949 0.0187271105
766200000.0 0.0896601287 -0.0837649042
776150000.0 0.0105981073 -0.1710851285
786100000.0 -0.121871149 -0.1628359828
796050000.0 -0.2150183784 -0.0417006379
806000000.0 -0.1848581623 0.1320471683
815950000.0 -0.0232237854 0.2436388394
825900000.0 0.1939951124 0.2037884662
835850000.0 0.3326293679 0.0116194323
845800000.0 0.297399714 -0.2407995641
855750000.0 0.087442722 -0.4081164042
865700000.0 -0.194467977 -0.3885610562
875650000.0 -0.3932546613 -0.1689524678
885600000.0 -0.3884956587 0.1409857283
895550000.0 -0.1655643919 0.3730404947
905500000.0 0.1680721465 0.3844859341
915450000.0 0.4183437184 0.1511330998
925400000.0 0.4166767453 -0.1971909314
935350000.0 0.1767536559 -0.3985460681
945300000.0 -0.1107018154 -0.4179558045
955250000.0 -0.3591431804 -0.2054960888
965200000.0 -0.3557336472 0.145675709
975150000.0 -0.058360907 0.3690942476
985100000.0 0.3189508981 0.2496428613
995050000.0 0.4329336882 -0.1632501329
1005000000.0 0.1157807338 -0.507934115
1014950000.0 -0.3956184878 -0.4090392827
1024900000.0 -0.6082735399 0.1314122721
1034850000.0 -0.2264337372 0.6528277975
1044800000.0 0.4695786419 0.6057293931
1054750000.0 0.8215791304 -0.027141435
1064700000.0 0.4998013403 -0.6416527116
1074650000.0 -0.1189506785 -0.8262909998
1084600000.0 -0.6974430628 -0.4501599737
1094550000.0 -0.7712525681 0.2316336624
1104500000.0 -0.2952574906 0.7233623086
1114450000.0 0.3740766286 0.6526598672
1124400000.0 0.7090414535 0.1048046412
1134350000.0 0.4975825355 -0.4552161475
1144300000.0 -0.0275492507 -0.6283781747
1154250000.0 -0.4642757638 -0.3535806729
1164200000.0 -0.5255515621 0.1315926712
1174150000.0 -0.197574494 0.4675016812
1184100000.0 0.2507028165 0.4186968679
1194050000.0 0.4835180122 0.0513795411
1204000000.0 0.3585465839 -0.3448219812
1213950000.0 -0.0045854482 -0.5180678518
1223900000.0 -0.3751276467 -0.3820078995
1233850000.0 -0.5464947816 -0.0294888557
1243800000.0 -0.4259228849 0.3493447392
1253750000.0 -0.0744002683 0.544667896
1263700000.0 0.3192763287 0.4477432634
1273650000.0 0.5471799732 0.1133530901
1283600000.0 0.5022575036 -0.283768175
1293550000.0 0.2221487523 -0.5590076695
1303500000.0 -0.1664177765 -0.6009651755
1313450000.0 -0.4987610806 -0.3957634327
1323400000.0 -0.6369582778 -0.0233337764
1333350000.0 -0.5084145503 0.3612414778
1343300000.0 -0.159123396 0.5826278332
1353250000.0 0.2552224502 0.5291805729
1363200000.0 0.5418172028 0.2269917044
1373150000.0 0.5752624027 -0.1796196137
1383100000.0 0.3584809021 -0.5149365307
1393050000.0 -0.009996841 -0.6476990092
1403000000.0 -0.3801498987 -0.5333069569
1412950000.0 -0.6050843846 -0.2187082044
1422900000.0 -0.5905939798 0.1708318196
1432850000.0 -0.3337011109 0.467515455
1442800000.0 0.0525050649 0.5381221427
1452750000.0 0.3931737082 0.3525114695
1462700000.0 0.5409192224 0.001796122
1472650000.0 0.440067558 -0.3560976152
1482600000.0 0.1449464315 -0.5671794144
1492550000.0 -0.2097063552 -0.5493500109
1502500000.0 -0.4720333204 -0.314727731
1512450000.0 -0.5235728589 0.0315358138
1522400000.0 -0.3374970453 0.3297348955
1532350000.0 -0.0032841637 0.4310518387
1542300000.0 0.3082428054 0.2863772378
1552250000.0 0.4397703137 -0.0209255248
1562200000.0 0.3350870392 -0.32624066
1572150000.0 0.0624887288 -0.4789954538
1582100000.0 -0.2362021366 -0.4120614814
1592050000.0 -0.4127432158 -0.1649550995
1602000000.0 -0.3754231815 0.1407505556
1611950000.0 -0.1374400207 0.3399392913
1621900000.0 0.1750776639 0.3183345262
1631850000.0 0.3857658673 0.0844490144
1641800000.0 0.3742092376 -0.2294858175
1651750000.0 0.1517948778 -0.4480287878
1661700000.0 -0.1615668787 -0.4610942246
1671650000.0 -0.4089987584 -0.2607592019
1681600000.0 -0.4663812626 0.0605292537
1691550000.0 -0.2949243911 0.3506604391
1701500000.0 0.0369327373 0.4580289047
1711450000.0 0.3618250098 0.3134782797
1721400000.0 0.5080464192 -0.0154395435
1731350000.0 0.3975580426 -0.3571887251
1741300000.0 0.0911850004 -0.5313186137
1751250000.0 -0.1793925596 -0.4789143923
1761200000.0 -0.4677674623 -0.3190280137
1771150000.0 -0.5689393522 0.0316052676
1781100000.0 -0.4222191337 0.3703695875
1791050000.0 -0.0904757365 0.5460046465
1801000000.0 0.282098201 0.4715288406
1810950000.0 0.5203675656 0.1747518134
1820900000.0 0.5155050197 -0.1993809793
1830850000.0 0.2845561022 -0.4811467096
1840800000.0 -0.0589752703 -0.5622675035
1850750000.0 -0.3734026929 -0.4276802333
1860700000.0 -0.54562133 -0.1399139737
1870650000.0 -0.5152275603 0.1898277725
1880600000.0 -0.2949713286 0.4337635394
1890550000.0 0.0267760312 0.4905860501
1900500000.0 0.3070962401 0.3366870138
1910450000.0 0.4254899405 0.0520084215
1920400000.0 0.3452786441 -0.2302440183
1930350000.0 0.1251922981 -0.3928293951
1940300000.0 -0.1265468683 -0.3907694128
1950250000.0 -0.3115962627 -0.2516672547
1960200000.0 -0.368619675 -0.0511912211
1970150000.0 -0.2995648241 0.120492428
1980100000.0 -0.1621986149 0.1980264447
1990050000.0 -0.036630546 0.1709720745
2000000000.0 0.0143339523 0.0989028541
