!Created with skrf (http://scikit-rf.org).
# GHz S RI R 50.0 
!freq ReS11 ImS11
10000000.0 -0.8032224318 0.6032692215
19950000.0 -0.2922303328 0.9470918485
29900000.0 0.3207767255 0.9301508471
39850000.0 0.813832926 0.5546836695
49800000.0 0.9910908511 -0.0528157262
59750000.0 0.754810652 -0.6595232924
69700000.0 0.171283054 -0.9919939537
79650000.0 -0.5095968834 -0.8605076921
89600000.0 -0.9418526115 -0.2887940942
99550000.0 -0.8610703073 0.449251167
109500000.0 -0.2572714106 0.9326659111
119450000.0 0.5425737368 0.8117058326
129400000.0 0.9829420915 0.0962380897
139350000.0 0.6923567059 -0.7033078912
149300000.0 -0.1066614322 -0.9645706185
159250000.0 -0.7899341673 -0.5334031353
169200000.0 -0.9209669828 0.2247065457
179150000.0 -0.4916706806 0.8189607434
189100000.0 0.1984761269 0.9460629663
199050000.0 0.77164831 0.5904439145
209000000.0 0.9644992985 -0.0329854326
218950000.0 0.7267044395 -0.6130696439
228900000.0 0.196129963 -0.9161885716
238850000.0 -0.3983550678 -0.8399399427
248800000.0 -0.7854359507 -0.4302262596
258750000.0 -0.9278457724 0.1407934154
268700000.0 -0.6697784322 0.6661839467
278650000.0 -0.1490830101 0.9294683323
288600000.0 0.4225664028 0.8234979073
298550000.0 0.8092776229 0.3935831838
308500000.0 0.8507221567 -0.1804481357
318450000.0 0.5277259775 -0.6507880356
328400000.0 -0.0132905105 -0.8054071846
338350000.0 -0.5093908453 -0.5715287228
348300000.0 -0.7025811687 -0.0853333118
358250000.0 -0.5121294878 0.3592338407
368200000.0 -0.1062784696 0.5099865928
378150000.0 0.2247810891 0.3412180262
388100000.0 0.3010689374 0.0417973627
398050000.0 0.156772845 -0.1596496104
408000000.0 -0.0390659289 -0.1681554815
417950000.0 -0.1377181919 -0.0458988207
427900000.0 -0.1014813862 0.0842484937
437850000.0 0.0128655221 0.1294608726
447800000.0 0.1153109951 0.0724567632
457750000.0 0.1428024383 -0.0353921937
467700000.0 0.0868010234 -0.1273745758
477650000.0 -0.010948998 -0.1543808297
487600000.0 -0.0952099229 -0.1119441812
497550000.0 -0.1219711668 -0.0360077957
507500000.0 -0.1068079822 0.0377919431
517450000.0 -0.0512354654 0.0716779297
527400000.0 0.0003259885 0.0628703462
537350000.0 0.0219166411 0.0302085381
547300000.0 0.012243397 0.0044237602
557250000.0 -0.0110698258 0.0047488842
567200000.0 -0.018727769 0.029826522
577150000.0 0.0056279022 0.0559217237
587100000.0 0.0534646528 0.055275203
597050000.0 0.0981213012 0.0124891664
607000000.0 0.1068538997 -0.0609019176
616950000.0 0.0623530591 -0.1323217521
626900000.0 -0.0238240923 -0.1657084077
636850000.0 -0.1183379035 -0.1374960737
646800000.0 -0.1790089205 -0.0537776991
656750000.0 -0.1759478716 0.0536438999
666700000.0 -0.1034042307 0.1389084982
676650000.0 0.0085360862 0.1623210893
686600000.0 0.112191076 0.1116077108
696550000.0 0.1629571719 0.0109870208
706500000.0 0.1388457371 -0.0954148093
716450000.0 0.0563560316 -0.1585617013
726400000.0 -0.0418939211 -0.148266022
736350000.0 -0.1021359932 -0.0751353876
746300000.0 -0.0917302755 0.0194435855
756250000.0 -0.0145527631 0.0798653926
766200000.0 0.0849078696 0.065547515
776150000.0 0.1467312896 -0.0188612873
786100000.0 0.1257334246 -0.12958386
796050000.0 0.0217386214 -0.1976512508
806000000.0 -0.1157808654 -0.1683414141
815950000.0 -0.2102138745 -0.0384449333
825900000.0 -0.1947492312 0.1402204829
835850000.0 -0.0572062246 0.2804603169
845800000.0 0.1510892302 0.3028384832
855750000.0 0.3365909928 0.1817929198
865700000.0 0.4068312491 -0.0404652551
875650000.0 0.3138664585 -0.2689945767
885600000.0 0.0865053676 -0.3921960871
895550000.0 -0.1781013524 -0.3450577172
905500000.0 -0.3660441942 -0.1381830981
915450000.0 -0.3850951552 0.1517186279
925400000.0 -0.2103034966 0.3931241832
935350000.0 0.0861481422 0.4636969786
945300000.0 0.3628576451 0.3144966217
955250000.0 0.4682911089 0.0016264346
965200000.0 0.3146904184 -0.3178319348
975150000.0 -0.0499494787 -0.4390124249
985100000.0 -0.4126572056 -0.2322948263
995050000.0 -0.4949785801 0.2082917076
1005000000.0 -0.185719997 0.5765154614
1014950000.0 0.3381526943 0.5677156223
1024900000.0 0.693354838 0.1114967455
1034850000.0 0.5413746567 -0.5098427464
1044800000.0 -0.0906735873 -0.7861671226
1054750000.0 -0.7039596034 -0.4383102629
1064700000.0 -0.8118745908 0.1930117896
1074650000.0 -0.4682403797 0.7273282103
1084600000.0 0.149216509 0.8264150293
1094550000.0 0.6600272904 0.4853500518
1104500000.0 0.7729547601 -0.1296211149
1114450000.0 0.4064461888 -0.6296706461
1124400000.0 -0.1840128712 -0.6980458979
1134350000.0 -0.6082148634 -0.3452252378
1144300000.0 -0.6575148554 0.1576372237
1154250000.0 -0.372044646 0.5309938961
1164200000.0 0.0670029099 0.6101248856
1174150000.0 0.4375085395 0.382813687
1184100000.0 0.5582272557 -0.0372982093
1194050000.0 0.3569634296 -0.4203278058
1204000000.0 -0.0350230891 -0.5589105066
1213950000.0 -0.4012459718 -0.4159822606
1223900000.0 -0.5895598296 -0.0940404554
1233850000.0 -0.5478997337 0.2643930087
1243800000.0 -0.3028701364 0.527906198
1253750000.0 0.0564099233 0.5970634468
1263700000.0 0.3948450892 0.4327186977
1273650000.0 0.5692503648 0.0917086422
1283600000.0 0.5065331715 -0.2835656255
1293550000.0 0.2463832211 -0.5460150244
1303500000.0 -0.1021474272 -0.6163794836
1313450000.0 -0.4217714634 -0.4919589665
1323400000.0 -0.6231340542 -0.2217102386
1333350000.0 -0.6501006584 0.115998105
1343300000.0 -0.4851568455 0.424424429
1353250000.0 -0.1637989184 0.5955835768
1363200000.0 0.209308209 0.5539438553
1373150000.0 0.4942177696 0.3040048256
1383100000.0 0.5873574071 -0.053312311
1393050000.0 0.4744563767 -0.3885479174
1403000000.0 0.2126514086 -0.6004704491
1412950000.0 -0.10957002 -0.6404443863
1422900000.0 -0.4014939427 -0.5057486047
1432850000.0 -0.5753460556 -0.2315252516
1442800000.0 -0.5704719731 0.1030760319
1452750000.0 -0.3720972107 0.3856885517
1462700000.0 -0.0434039379 0.5056914827
1472650000.0 0.2897519261 0.4183315013
1482600000.0 0.5034966211 0.1665724919
1492550000.0 0.5359147491 -0.1443373415
1502500000.0 0.394115145 -0.4064602886
1512450000.0 0.1347607736 -0.5373279697
1522400000.0 -0.1536036547 -0.4942717667
1532350000.0 -0.364969057 -0.2841280576
1542300000.0 -0.4096995579 0.0183253618
1552250000.0 -0.2590023148 0.2868106275
1562200000.0 0.0190279078 0.4030758568
1572150000.0 0.2975005337 0.3269852156
1582100000.0 0.4633682467 0.1067913121
1592050000.0 0.4619059787 -0.1630115268
1602000000.0 0.2951449327 -0.3769661067
1611950000.0 0.022886751 -0.4504723292
1621900000.0 -0.2504799147 -0.3411089092
1631850000.0 -0.4088915608 -0.0756411457
1641800000.0 -0.3732366544 0.2390978362
1651750000.0 -0.1517340553 0.4676976259
1661700000.0 0.1565666028 0.5171504545
1671650000.0 0.4301856284 0.3793761682
1681600000.0 0.5766132022 0.1131776227
1691550000.0 0.5524086991 -0.193594818
1701500000.0 0.3574012924 -0.4468391206
1711450000.0 0.0421563781 -0.556906083
1721400000.0 -0.2981536187 -0.4667754191
1731350000.0 -0.530212652 -0.1909533171
1741300000.0 -0.5606565134 0.1652915485
1751250000.0 -0.3970865858 0.4671738915
1761200000.0 -0.1059475869 0.6270814901
1771150000.0 0.2176307072 0.6139961509
1781100000.0 0.4818873232 0.4430669454
1791050000.0 0.6283782981 0.1607508577
1801000000.0 0.6104966627 -0.1667676252
1810950000.0 0.4170637753 -0.448991717
1820900000.0 0.0892700564 -0.5861215521
1830850000.0 -0.2642379985 -0.5176567248
1840800000.0 -0.5156426146 -0.2689742326
1850750000.0 -0.5879972856 0.0603040189
1860700000.0 -0.4849226675 0.3583947367
1870650000.0 -0.2611377996 0.5517901001
1880600000.0 0.0150970393 0.6062503163
1890550000.0 0.2752318814 0.5186133487
1900500000.0 0.4548998613 0.3114655213
1910450000.0 0.4984898637 0.0373045848
1920400000.0 0.3849028486 -0.215923847
1930350000.0 0.1579520986 -0.3592252411
1940300000.0 -0.0920798625 -0.3556973967
1950250000.0 -0.2792699814 -0.2336406354
1960200000.0 -0.36136977 -0.0599004095
1970150000.0 -0.3441173084 0.0988777164
1980100000.0 -0.2638085709 0.1985560832
1990050000.0 -0.1705153425 0.2247379206
2000000000.0 -0.1127049016 0.1965981269
