!Created with skrf (http://scikit-rf.org).
# GHz S RI R 50.0 
!freq ReS11 ImS11
10000000.0 -0.7638544959 0.5802032473
19950000.0 -0.279702538 0.916413501
29900000.0 0.3102557036 0.90545589
39850000.0 0.7892370922 0.5419397783
49800000.0 0.9600771507 -0.0514198295
59750000.0 0.7272711829 -0.6428957261
69700000.0 0.1611654878 -0.9660091825
79650000.0 -0.4954722753 -0.8418555798
89600000.0 -0.9178424273 -0.2931918917
99550000.0 -0.855261314 0.4272956545
109500000.0 -0.2819691992 0.9201191826
119450000.0 0.5057201885 0.8335103522
129400000.0 0.9719660245 0.1471463518
139350000.0 0.7356530821 -0.6499256864
149300000.0 -0.0359207154 -0.963479434
159250000.0 -0.7412496207 -0.5799408783
169200000.0 -0.9159454298 0.1644287485
179150000.0 -0.5249447854 0.7724214622
189100000.0 0.1413544305 0.9258655403
199050000.0 0.7101111341 0.6004723778
209000000.0 0.9212917753 2.10853e-05
218950000.0 0.7129385041 -0.5745756966
228900000.0 0.207165482 -0.8858343922
238850000.0 -0.3721363313 -0.8223542918
248800000.0 -0.7722406827 -0.4008156571
258750000.0 -0.8885058884 0.1336963039
268700000.0 -0.6349105429 0.6443412211
278650000.0 -0.131410722 0.8969166699
288600000.0 0.4172467745 0.7908146321
298550000.0 0.7866228162 0.3697150385
308500000.0 0.8198767388 -0.1925927546
318450000.0 0.4958142278 -0.6498987092
328400000.0 -0.0380097408 -0.7905015862
338350000.0 -0.5178396559 -0.5473090854
348300000.0 -0.6919685512 -0.0623933299
358250000.0 -0.4903680084 0.3722806498
368200000.0 -0.0844954768 0.5116513799
378150000.0 0.2413837832 0.3374371107
388100000.0 0.3138290198 0.0378314234
398050000.0 0.1691707943 -0.1631636187
408000000.0 -0.0272706147 -0.1730379475
417950000.0 -0.1307222436 -0.0528403534
427900000.0 -0.1012060185 0.0765219806
437850000.0 0.0052450652 0.1220599209
447800000.0 0.0997372574 0.0692215871
457750000.0 0.12415703 -0.03274131
467700000.0 0.0707803527 -0.1187568115
477650000.0 -0.0200847295 -0.1432182118
487600000.0 -0.0970680129 -0.1013713403
497550000.0 -0.1284464651 -0.0288745255
507500000.0 -0.1001807945 0.0476370743
517450000.0 -0.0413386166 0.0790493262
527400000.0 0.012818036 0.0662109966
537350000.0 0.0347676474 0.0286956694
547300000.0 0.023502514 -0.0026662947
557250000.0 -0.0043293429 -0.0081940038
567200000.0 -0.0198186752 0.0127575776
577150000.0 -0.0050192135 0.0381262071
587100000.0 0.0344435434 0.0404475507
597050000.0 0.0733958543 0.0048364038
607000000.0 0.0820153256 -0.0589970584
616950000.0 0.0434719492 -0.1212779617
626900000.0 -0.0320242695 -0.1469525237
636850000.0 -0.111477404 -0.1156056689
646800000.0 -0.1565894721 -0.0355055722
656750000.0 -0.1432209765 0.0621752927
666700000.0 -0.0694389906 0.133922213
676650000.0 0.0352483574 0.1450185889
686600000.0 0.1255302422 0.0863981326
696550000.0 0.1607909208 -0.0164534983
706500000.0 0.1225662229 -0.1173009196
716450000.0 0.0298276648 -0.1698378215
726400000.0 -0.0719990347 -0.1458346702
736350000.0 -0.1281070874 -0.0582729336
746300000.0 -0.1057008579 0.0469244475
756250000.0 -0.0126847403 0.1109632141
766200000.0 0.1013382508 0.0933535273
776150000.0 0.1738551133 -0.0006856234
786100000.0 0.1575136782 -0.1229306271
796050000.0 0.0514844307 -0.2033181546
806000000.0 -0.0937834208 -0.1847059657
815950000.0 -0.1997327203 -0.0607933354
825900000.0 -0.1986225013 0.1166866254
835850000.0 -0.0748732091 0.2600818653
845800000.0 0.1207352025 0.2880741889
855750000.0 0.2939620641 0.1744643422
865700000.0 0.352629978 -0.0249745879
875650000.0 0.2803045647 -0.2227277974
885600000.0 0.0865919843 -0.3453046696
895550000.0 -0.1595956459 -0.3089682225
905500000.0 -0.3325112506 -0.1076791006
915450000.0 -0.3297651948 0.1712994671
925400000.0 -0.1371855681 0.3830803352
935350000.0 0.1539605586 0.4057637521
945300000.0 0.3866612775 0.2076452882
955250000.0 0.4083319445 -0.1239869345
965200000.0 0.1546610162 -0.3918832796
975150000.0 -0.255836821 -0.3700978627
985100000.0 -0.5202076627 0.0016941767
995050000.0 -0.3736396693 0.482846018
1005000000.0 0.1382117949 0.6701002845
1014950000.0 0.6362795966 0.3553361213
1024900000.0 0.7055989049 -0.2763008836
1034850000.0 0.2334782767 -0.7492620265
1044800000.0 -0.4369065753 -0.6728880513
1054750000.0 -0.7973372967 -0.120188421
1064700000.0 -0.6249798524 0.4663680447
1074650000.0 -0.2130114753 0.6541837514
1084600000.0 0.2519495894 0.7434539171
1094550000.0 0.6869353029 0.3516302161
1104500000.0 0.6975931879 -0.2329683776
1114450000.0 0.2947057098 -0.6444092281
1124400000.0 -0.2534512698 -0.6437957921
1134350000.0 -0.6156131531 -0.2805372907
1144300000.0 -0.6296645486 0.1964728694
1154250000.0 -0.3414515718 0.5392656041
1164200000.0 0.0814704171 0.6064317496
1174150000.0 0.4424639706 0.3808229668
1184100000.0 0.5586826391 -0.0325664593
1194050000.0 0.3664809881 -0.4099364198
1204000000.0 -0.0148720323 -0.5563708544
1213950000.0 -0.3787695456 -0.4283771388
1223900000.0 -0.5769639554 -0.1189049877
1233850000.0 -0.553625884 0.233683646
1243800000.0 -0.3297219555 0.5022915972
1253750000.0 0.015089767 0.5878834947
1263700000.0 0.3522603067 0.4460892263
1273650000.0 0.5415612447 0.1233216751
1283600000.0 0.5028182571 -0.2467840766
1293550000.0 0.2651288316 -0.5165819268
1303500000.0 -0.0654881406 -0.6021233491
1313450000.0 -0.3748904493 -0.4977823231
1323400000.0 -0.5784695438 -0.2502395659
1333350000.0 -0.6248207121 0.0699262361
1343300000.0 -0.4907620805 0.3762338523
1353250000.0 -0.1987428205 0.5638031289
1363200000.0 0.1622196502 0.5498091286
1373150000.0 0.4540279328 0.3280475446
1383100000.0 0.5673924296 -0.0154332307
1393050000.0 0.4763117595 -0.3497391075
1403000000.0 0.2340532279 -0.5701456255
1412950000.0 -0.0715307521 -0.6254574249
1422900000.0 -0.3511888022 -0.5127380643
1432850000.0 -0.5317580306 -0.2655952288
1442800000.0 -0.5543615604 0.0540653749
1452750000.0 -0.3905318787 0.3433115084
1462700000.0 -0.0859093873 0.4910902217
1472650000.0 0.2451267015 0.4366625068
1482600000.0 0.4750233239 0.2096723182
1492550000.0 0.5322989637 -0.092262249
1502500000.0 0.4149501249 -0.3617239865
1512450000.0 0.1747176015 -0.5131440331
1522400000.0 -0.1045443503 -0.4995852949
1532350000.0 -0.3265366751 -0.3229563188
1542300000.0 -0.4031043125 -0.0395336453
1552250000.0 -0.2915573129 0.2367097395
1562200000.0 -0.0377437379 0.3853288815
1572150000.0 0.2410055846 0.3479546014
1582100000.0 0.4305479366 0.1565307965
1592050000.0 0.461341178 -0.1032359218
1602000000.0 0.3289184582 -0.3281834472
1611950000.0 0.0795609255 -0.4306015524
1621900000.0 -0.1938710753 -0.3585338784
1631850000.0 -0.3746751844 -0.1244330022
1641800000.0 -0.3734108839 0.1804995311
1651750000.0 -0.1856005655 0.4191048209
1661700000.0 0.1042139665 0.4941307601
1671650000.0 0.3765239241 0.3853251072
1681600000.0 0.5359064872 0.1428272611
1691550000.0 0.5341707692 -0.1512927656
1701500000.0 0.3652093406 -0.4021340883
1711450000.0 0.0739050265 -0.523082925
1721400000.0 -0.2483008162 -0.4533898003
1731350000.0 -0.4803655221 -0.2037431867
1741300000.0 -0.5308411387 0.1349625116
1751250000.0 -0.3862104865 0.4358036253
1761200000.0 -0.11179041 0.6003774659
1771150000.0 0.196432851 0.5936969926
1781100000.0 0.4519759265 0.4326030046
1791050000.0 0.5910779825 0.1621464098
1801000000.0 0.5722967919 -0.1494801657
1810950000.0 0.3908106624 -0.4153087038
1820900000.0 0.0874047435 -0.5451346401
1830850000.0 -0.2419102635 -0.4828615502
1840800000.0 -0.4794274212 -0.2488548898
1850750000.0 -0.5497143408 0.0636628458
1860700000.0 -0.451926664 0.3479838
1870650000.0 -0.2381743754 0.5307437029
1880600000.0 0.0231410685 0.5771470243
1890550000.0 0.2624344568 0.4864764111
1900500000.0 0.4184436009 0.2856233434
1910450000.0 0.4468472474 0.0297919147
1920400000.0 0.335543811 -0.2012187057
1930350000.0 0.1231701099 -0.3267035714
1940300000.0 -0.1045726775 -0.3116661687
1950250000.0 -0.2613158681 -0.1905302246
1960200000.0 -0.3192691019 -0.0389085644
1970150000.0 -0.2973166459 0.0943713862
1980100000.0 -0.220461395 0.1716892968
1990050000.0 -0.1415497499 0.1748065179
2000000000.0 -0.1190432148 0.1302041635
