!Created with skrf (http://scikit-rf.org).
# GHz S RI R 50.0 
!freq ReS11 ImS11
10000000.0 -0.8074168981 0.602748531
19950000.0 -0.2970778956 0.9421954935
29900000.0 0.3112543325 0.9215399225
39850000.0 0.8002837566 0.5478872797
49800000.0 0.9800532654 -0.055034903
59750000.0 0.7520945605 -0.6620970754
69700000.0 0.175539724 -1.001920829
79650000.0 -0.5034318511 -0.878978996
89600000.0 -0.9384820794 -0.3152897722
99550000.0 -0.8711319548 0.4179501352
109500000.0 -0.2902139095 0.9153309109
119450000.0 0.5063083281 0.8359671665
129400000.0 0.9898654161 0.1521882289
139350000.0 0.7558593238 -0.6663005011
149300000.0 -0.0307644421 -0.9830610547
159250000.0 -0.7456540264 -0.5893389359
169200000.0 -0.9219073858 0.1669576873
179150000.0 -0.5251235012 0.7898134519
189100000.0 0.1614687256 0.9551911656
199050000.0 0.7544386713 0.6223855367
209000000.0 0.9692930405 -0.0010250098
218950000.0 0.7425423182 -0.5901646201
228900000.0 0.2148336606 -0.9016384152
238850000.0 -0.3800984672 -0.832257164
248800000.0 -0.7997047215 -0.42924579
258750000.0 -0.9213094456 0.1467810641
268700000.0 -0.6666471933 0.6745052659
278650000.0 -0.1468702075 0.9389275065
288600000.0 0.4232128157 0.8290220219
298550000.0 0.8039389684 0.3946231929
308500000.0 0.839101944 -0.1799437392
318450000.0 0.5137903933 -0.6486474052
328400000.0 -0.026482924 -0.8041267349
338350000.0 -0.5241556996 -0.573308598
348300000.0 -0.7210099874 -0.0868116229
358250000.0 -0.5324342139 0.3620770798
368200000.0 -0.124091984 0.5184806776
378150000.0 0.2155703927 0.3541925419
388100000.0 0.3051315521 0.0524914969
398050000.0 0.1704664274 -0.1606173788
408000000.0 -0.0252954261 -0.1821230863
417950000.0 -0.1312502083 -0.0673674443
427900000.0 -0.1020382655 0.0614995988
437850000.0 0.0072749356 0.1078132849
447800000.0 0.1056022286 0.0556814804
457750000.0 0.1336072291 -0.0469502994
467700000.0 0.0807081964 -0.1343668374
477650000.0 -0.0131012939 -0.1584684456
487600000.0 -0.094110635 -0.1137959884
497550000.0 -0.1281991056 -0.0312722489
507500000.0 -0.0961153283 0.0471335848
517450000.0 -0.0351168275 0.0814170231
527400000.0 0.0217397963 0.0699704781
537350000.0 0.0452993071 0.0322115621
547300000.0 0.0333794615 0.0017915576
557250000.0 0.006068054 -0.0020712645
567200000.0 -0.0094206225 0.0206324596
577150000.0 0.0054128036 0.0482749727
587100000.0 0.0453386796 0.0524923078
597050000.0 0.0846157761 0.0169957564
607000000.0 0.0922691651 -0.0485645302
616950000.0 0.0503034897 -0.1143828598
626900000.0 -0.031601985 -0.1441405589
636850000.0 -0.1204358893 -0.1151435608
646800000.0 -0.1756238842 -0.0333921751
656750000.0 -0.1686435387 0.0695198058
666700000.0 -0.0947209535 0.1485260256
676650000.0 0.0165936003 0.1644559545
686600000.0 0.1170748181 0.1056658957
696550000.0 0.1622562446 -0.0023778394
706500000.0 0.1312149538 -0.1132427273
716450000.0 0.0403162916 -0.1783012799
726400000.0 -0.0664211542 -0.1660763617
736350000.0 -0.1327752951 -0.0851221119
746300000.0 -0.1220545361 0.0205353409
756250000.0 -0.0377593146 0.0921147786
766200000.0 0.0744868688 0.0857426108
776150000.0 0.1527065455 0.0030147206
786100000.0 0.1498943121 -0.112393451
796050000.0 0.0596874819 -0.1958249144
806000000.0 -0.0754518384 -0.1881611378
815950000.0 -0.1806770124 -0.0757678614
825900000.0 -0.1854777154 0.0957471543
835850000.0 -0.06837001 0.2420103392
845800000.0 0.125203374 0.2814292224
855750000.0 0.3083126332 0.1822559187
865700000.0 0.3874753759 -0.0226262808
875650000.0 0.3103563802 -0.2423573026
885600000.0 0.0943892921 -0.3684587797
895550000.0 -0.1699734446 -0.321629712
905500000.0 -0.3520158396 -0.1043879154
915450000.0 -0.349586333 0.1904376469
925400000.0 -0.1501379974 0.4124863587
935350000.0 0.14563847 0.4417243178
945300000.0 0.3879070014 0.2622319891
955250000.0 0.4473045722 -0.0561033785
965200000.0 0.2481906535 -0.3528770804
975150000.0 -0.142195734 -0.4212701635
985100000.0 -0.4847779796 -0.1481630448
995050000.0 -0.4935917364 0.3303338963
1005000000.0 -0.0935693905 0.6604233959
1014950000.0 0.4571971288 0.5429504374
1024900000.0 0.7360566583 -0.006893438
1034850000.0 0.4627344117 -0.6189743734
1044800000.0 -0.2215926974 -0.792491017
1054750000.0 -0.7854758777 -0.3598335035
1064700000.0 -0.8129673007 0.3198692798
1074650000.0 -0.3616081673 0.7705296587
1084600000.0 0.2229044709 0.7910719422
1094550000.0 0.6837112669 0.4006450725
1104500000.0 0.7355358615 -0.2025674854
1114450000.0 0.3463730188 -0.6580777611
1124400000.0 -0.2266942313 -0.6909453383
1134350000.0 -0.6216175437 -0.3297831533
1144300000.0 -0.6538467123 0.1625298508
1154250000.0 -0.3708162121 0.5250497976
1164200000.0 0.0575071699 0.6106862082
1174150000.0 0.4337465982 0.4048974406
1184100000.0 0.580929898 -0.0034021195
1194050000.0 0.4112380293 -0.4002944671
1204000000.0 0.0310561153 -0.573158007
1213950000.0 -0.3485110572 -0.461821189
1223900000.0 -0.5678518314 -0.1559165542
1233850000.0 -0.5637925011 0.2056005214
1243800000.0 -0.3515999827 0.4945911872
1253750000.0 -0.0056500012 0.605595164
1263700000.0 0.3464581205 0.483109188
1273650000.0 0.556118305 0.1657110628
1283600000.0 0.5324862346 -0.2131091898
1293550000.0 0.2991166085 -0.4989650772
1303500000.0 -0.0385128418 -0.6006631908
1313450000.0 -0.3651473231 -0.5081139625
1323400000.0 -0.5891281561 -0.2623782529
1333350000.0 -0.6488590719 0.0669047484
1343300000.0 -0.5164934473 0.3855560438
1353250000.0 -0.216992151 0.5806591935
1363200000.0 0.1534770801 0.566685773
1373150000.0 0.4503602081 0.3400609337
1383100000.0 0.5655889519 -0.0087812283
1393050000.0 0.4757340256 -0.348361836
1403000000.0 0.2314675613 -0.575990867
1412950000.0 -0.0837815739 -0.6373857997
1422900000.0 -0.3776855797 -0.5216251359
1432850000.0 -0.5635688379 -0.2606746523
1442800000.0 -0.5728201034 0.0712594087
1452750000.0 -0.3857171313 0.3581440587
1462700000.0 -0.06488151 0.4885867023
1472650000.0 0.2678600087 0.4140439028
1482600000.0 0.4903512908 0.1745883402
1492550000.0 0.5378245366 -0.1311804906
1502500000.0 0.4094971149 -0.3990189821
1512450000.0 0.1572440399 -0.5408309751
1522400000.0 -0.1308234973 -0.5073839381
1532350000.0 -0.3487627116 -0.3051692123
1542300000.0 -0.4046065071 -0.0036864283
1552250000.0 -0.2662185499 0.2733956745
1562200000.0 0.0072258948 0.4074631867
1572150000.0 0.2926510922 0.3488146486
1582100000.0 0.4754668475 0.1378332295
1592050000.0 0.4896541512 -0.1341566097
1602000000.0 0.3356874118 -0.3610478096
1611950000.0 0.0662997212 -0.4537218085
1621900000.0 -0.2194911515 -0.3633343836
1631850000.0 -0.4029857362 -0.1101824139
1641800000.0 -0.3972688265 0.2106386852
1651750000.0 -0.1998966323 0.4621203595
1661700000.0 0.1036709644 0.5433709853
1671650000.0 0.3911151209 0.4317108655
1681600000.0 0.5619650208 0.1780052123
1691550000.0 0.5651496078 -0.1328642837
1701500000.0 0.3943700019 -0.4032871289
1711450000.0 0.0923052724 -0.5445626909
1721400000.0 -0.2530423799 -0.4912536783
1731350000.0 -0.5140268862 -0.2448877838
1741300000.0 -0.5871209724 0.1078951188
1751250000.0 -0.4494567456 0.4323168357
1761200000.0 -0.1666007584 0.6188293902
1771150000.0 0.1596236347 0.6263779897
1781100000.0 0.4376764575 0.4712536085
1791050000.0 0.6023423233 0.198986412
1801000000.0 0.6090892531 -0.1265776377
1810950000.0 0.4414390404 -0.4200009072
1820900000.0 0.1324041947 -0.5819513614
1830850000.0 -0.2213897281 -0.5419595059
1840800000.0 -0.4883148773 -0.3116658745
1850750000.0 -0.5800209169 0.0137329634
1860700000.0 -0.4918185709 0.3181143129
1870650000.0 -0.2777524539 0.5223443376
1880600000.0 -0.0068948289 0.5907868079
1890550000.0 0.253318423 0.5190898839
1900500000.0 0.4384386856 0.3253484103
1910450000.0 0.4932940199 0.0614299779
1920400000.0 0.3949511022 -0.1889622188
1930350000.0 0.1802637258 -0.3370680164
1940300000.0 -0.0643590674 -0.342011699
1950250000.0 -0.2505860387 -0.2275638046
1960200000.0 -0.3367371268 -0.0600731578
1970150000.0 -0.3251410514 0.0964850448
1980100000.0 -0.2488519942 0.1958092707
1990050000.0 -0.1579775398 0.2206219886
2000000000.0 -0.1054317922 0.1863117362
