!Created with skrf (http://scikit-rf.org).
# GHz S RI R 50.0 
!freq ReS11 ImS11
10000000.0 -0.7706838949 0.6762565353
19950000.0 -0.1405624705 0.9890420719
29900000.0 0.535080488 0.8197746467
39850000.0 0.942828698 0.24775512
49800000.0 0.8731370672 -0.4646995464
59750000.0 0.3254327896 -0.9596718169
69700000.0 -0.4383585264 -0.9324884215
79650000.0 -0.966215934 -0.3443585786
89600000.0 -0.8849695944 0.4643118843
99550000.0 -0.20403002 0.9474032732
109500000.0 0.6282582879 0.7233818921
119450000.0 0.9708397473 -0.1052054043
129400000.0 0.4631917036 -0.888727488
139350000.0 -0.4705509403 -0.8963247125
149300000.0 -0.9782313351 -0.1220908197
159250000.0 -0.6471240183 0.6986644199
169200000.0 0.1623501222 0.926978843
179150000.0 0.8304119374 0.4768143251
189100000.0 0.9402023593 -0.2945167453
199050000.0 0.4677439167 -0.8859516339
209000000.0 -0.2642999718 -0.9587560267
218950000.0 -0.8205426962 -0.5161783067
228900000.0 -0.9270061963 0.1666854536
238850000.0 -0.5621138097 0.7369476898
248800000.0 0.0709932112 0.9274286973
258750000.0 0.6846871471 0.6597160637
268700000.0 0.9689821552 0.0569147761
278650000.0 0.7815348136 -0.5826058091
288600000.0 0.2176342972 -0.9307659325
298550000.0 -0.4267303365 -0.8135215481
308500000.0 -0.8224493666 -0.3006060343
318450000.0 -0.7672750369 0.3373776336
328400000.0 -0.2939759285 0.7558239924
338350000.0 0.3223200731 0.7147162548
348300000.0 0.6920639644 0.255302137
358250000.0 0.5932319752 -0.2791854747
368200000.0 0.1720287085 -0.5112410887
378150000.0 -0.202768798 -0.3532836349
388100000.0 -0.2843292555 -0.03326218
398050000.0 -0.117233597 0.1623839136
408000000.0 0.075643534 0.132669376
417950000.0 0.1246002399 -0.0101861809
427900000.0 0.0337348797 -0.1000938903
437850000.0 -0.082187383 -0.0647100753
447800000.0 -0.1172103359 0.0510399324
457750000.0 -0.0462672253 0.1504284208
467700000.0 0.0759651657 0.1606228118
477650000.0 0.1647091503 0.0782363714
487600000.0 0.1667686853 -0.0392220843
497550000.0 0.0921320643 -0.1213542574
507500000.0 -0.0115936345 -0.1280422275
517450000.0 -0.0821223899 -0.0703568194
527400000.0 -0.0908809725 0.0058624854
537350000.0 -0.0516167463 0.0517285072
547300000.0 -0.0067163304 0.0512463879
557250000.0 0.0091677133 0.0221738142
567200000.0 -0.009394841 0.0035040521
577150000.0 -0.0337254875 0.0184210782
587100000.0 -0.0283591082 0.0560977572
597050000.0 0.017783051 0.0804067714
607000000.0 0.0816937976 0.0571061713
616950000.0 0.1172623864 -0.0171874657
626900000.0 0.0904156422 -0.1085484233
636850000.0 0.0011972991 -0.1643130443
646800000.0 -0.1090692325 -0.1452410875
656750000.0 -0.1806584948 -0.0527888542
666700000.0 -0.1691685671 0.0670980105
676650000.0 -0.0764083534 0.1486224489
686600000.0 0.0494340264 0.1436961683
696550000.0 0.138785285 0.0536927058
706500000.0 0.1423469891 -0.0710104577
716450000.0 0.0615493732 -0.1598507275
726400000.0 -0.0538437986 -0.1640739368
736350000.0 -0.1302165432 -0.0849218621
746300000.0 -0.1186186899 0.0216313476
756250000.0 -0.0269771366 0.079677905
766200000.0 0.0793731672 0.0428354574
776150000.0 0.1196232734 -0.0691162666
786100000.0 0.054301824 -0.1794032205
796050000.0 -0.0845646213 -0.2015584387
806000000.0 -0.2032933732 -0.098652614
815950000.0 -0.2051376405 0.0759870466
825900000.0 -0.0680164387 0.2138590111
835850000.0 0.148331284 0.2150707398
845800000.0 0.3182602619 0.0517362226
855750000.0 0.3292760562 -0.2002405816
865700000.0 0.1535468454 -0.4026653321
875650000.0 -0.1285216505 -0.4303159787
885600000.0 -0.3650158004 -0.2465753231
895550000.0 -0.4133537751 0.065616362
905500000.0 -0.2247663443 0.3384120865
915450000.0 0.1129840038 0.4078156778
925400000.0 0.4110645195 0.2168108283
935350000.0 0.491221543 -0.1351410492
945300000.0 0.2956916479 -0.4456221797
955250000.0 -0.0721577885 -0.5244741981
965200000.0 -0.3943171353 -0.3041683247
975150000.0 -0.4511533234 0.1025666779
985100000.0 -0.1604979353 0.4286080639
995050000.0 0.3035925578 0.4009160323
1005000000.0 0.5724965063 -0.0143248532
1014950000.0 0.3787604572 -0.5046659262
1024900000.0 -0.1732715523 -0.6397710682
1034850000.0 -0.644018394 -0.2296092264
1044800000.0 -0.5577943214 0.4593949015
1054750000.0 0.1277574179 0.770598981
1064700000.0 0.7776548008 0.3571960854
1074650000.0 0.7837038733 -0.4274691484
1084600000.0 0.1686911802 -0.8655029735
1094550000.0 -0.5323699548 -0.6602450753
1104500000.0 -0.810314646 0.0038545339
1114450000.0 -0.4602136132 0.6319665894
1124400000.0 0.2394042229 0.7211883023
1134350000.0 0.6959764013 0.2389073068
1144300000.0 0.6037448982 -0.3600525487
1154250000.0 0.1368353207 -0.6503999413
1164200000.0 -0.3529173162 -0.5216119527
1174150000.0 -0.6026371831 -0.0972485828
1184100000.0 -0.4609918831 0.3802163942
1194050000.0 -0.0092659374 0.5906150742
1204000000.0 0.4377585572 0.3963263359
1213950000.0 0.5936786973 -0.0439316643
1223900000.0 0.4071411698 -0.4472963991
1233850000.0 0.0155915885 -0.616920405
1243800000.0 -0.385551903 -0.4949562389
1253750000.0 -0.6163277039 -0.1403593924
1263700000.0 -0.5585373969 0.2891080874
1273650000.0 -0.2209813079 0.5767234937
1283600000.0 0.2252352914 0.5623856666
1293550000.0 0.5444073752 0.2596111816
1303500000.0 0.5928417531 -0.1636593701
1313450000.0 0.3779582699 -0.5142959187
1323400000.0 0.0048400202 -0.6630927094
1333350000.0 -0.3833849407 -0.5623809943
1343300000.0 -0.6390742479 -0.243256886
1353250000.0 -0.6444900205 0.1781176208
1363200000.0 -0.3732781571 0.5171226136
1373150000.0 0.0586589798 0.6023521714
1383100000.0 0.4412284288 0.392322794
1393050000.0 0.6019319005 0.0014540442
1403000000.0 0.4948297585 -0.3906988103
1412950000.0 0.185196182 -0.6339466539
1422900000.0 -0.2014294951 -0.6475971059
1432850000.0 -0.5196486487 -0.4286433641
1442800000.0 -0.6390230995 -0.0551649755
1452750000.0 -0.4947385672 0.3176976417
1462700000.0 -0.1412739989 0.5133318666
1472650000.0 0.2512821955 0.43463918
1482600000.0 0.4935327043 0.1274185888
1492550000.0 0.4840688121 -0.249087741
1502500000.0 0.2495344957 -0.5226008352
1512450000.0 -0.0932415579 -0.5854728101
1522400000.0 -0.3942277891 -0.4192905689
1532350000.0 -0.5197288722 -0.0998840044
1542300000.0 -0.4053837082 0.2251237808
1552250000.0 -0.0994660393 0.3919708902
1562200000.0 0.2387795531 0.3081225719
1572150000.0 0.425409467 0.0204080183
1582100000.0 0.364650697 -0.3085086044
1592050000.0 0.1006005116 -0.5052874367
1602000000.0 -0.2242931511 -0.4758466135
1611950000.0 -0.4485079137 -0.2355356268
1621900000.0 -0.4568919459 0.1013559067
1631850000.0 -0.2326282903 0.3693438815
1641800000.0 0.1230138091 0.4203590213
1651750000.0 0.4255810919 0.2120259792
1661700000.0 0.5086945096 -0.150205118
1671650000.0 0.3306610016 -0.4750467422
1681600000.0 -0.0109909729 -0.6050956435
1691550000.0 -0.3581728551 -0.490833057
1701500000.0 -0.5657093045 -0.1851251639
1711450000.0 -0.548241599 0.1914886423
1721400000.0 -0.295172525 0.4898236258
1731350000.0 0.1046792459 0.5676371696
1741300000.0 0.4732105613 0.3681479598
1751250000.0 0.6278622089 -0.0236055938
1761200000.0 0.4994518531 -0.4172440595
1771150000.0 0.1644014651 -0.6412544155
1781100000.0 -0.2260065028 -0.6252227441
1791050000.0 -0.5299909122 -0.3946083965
1801000000.0 -0.6504717363 -0.033157446
1810950000.0 -0.5411760754 0.3405511047
1820900000.0 -0.2231813919 0.5861923295
1830850000.0 0.1893886742 0.5855070359
1840800000.0 0.5114638172 0.3206490689
1850750000.0 0.5911876085 -0.0808990533
1860700000.0 0.4138596812 -0.4291790843
1870650000.0 0.0859537705 -0.5934924164
1880600000.0 -0.2557262555 -0.5454332001
1890550000.0 -0.502985282 -0.3274075902
1900500000.0 -0.5870369106 -0.0180906061
1910450000.0 -0.4825152206 0.2803629348
1920400000.0 -0.2243307825 0.4574436306
1930350000.0 0.0828990754 0.4390651285
1940300000.0 0.3005474856 0.2425826708
1950250000.0 0.3438576191 -0.0241635852
1960200000.0 0.2283550468 -0.236882098
1970150000.0 0.0381348509 -0.3278164087
1980100000.0 -0.1360928865 -0.29950476
1990050000.0 -0.2373821563 -0.2007801419
2000000000.0 -0.256956322 -0.1005502201
