!Created with skrf (http://scikit-rf.org).
# GHz S RI R 50.0 
!freq ReS11 ImS11
10000000.0 -0.7671568329 0.5829697981
19950000.0 -0.2763038999 0.9193243529
29900000.0 0.3196261292 0.9046042987
39850000.0 0.8000165794 0.5342524041
49800000.0 0.9655379603 -0.06543957
59750000.0 0.7209146442 -0.6574568201
69700000.0 0.1414656737 -0.9702298022
79650000.0 -0.5203539413 -0.8260971669
89600000.0 -0.9304536061 -0.2572375291
99550000.0 -0.8380991727 0.4677473919
109500000.0 -0.2341594077 0.9357715405
119450000.0 0.5549307404 0.8020518249
129400000.0 0.9784590346 0.0861562383
139350000.0 0.6827767279 -0.7008696404
149300000.0 -0.1062110418 -0.9549739939
159250000.0 -0.7793738273 -0.5283515825
169200000.0 -0.9073563151 0.2183286661
179150000.0 -0.4858246202 0.7989327648
189100000.0 0.1843156165 0.9192028027
199050000.0 0.7374307131 0.5726070042
209000000.0 0.929689979 -0.0334744892
218950000.0 0.7003531848 -0.5999494779
228900000.0 0.183137223 -0.8959205601
238850000.0 -0.3967309636 -0.8175495071
248800000.0 -0.7860496183 -0.4209901767
258750000.0 -0.8969166061 0.1508452371
268700000.0 -0.6338320485 0.6576583218
278650000.0 -0.1228786807 0.9031466687
288600000.0 0.4296926125 0.7891412138
298550000.0 0.7979633748 0.3618580512
308500000.0 0.8263301338 -0.2023270842
318450000.0 0.497147286 -0.6574062334
328400000.0 -0.0397110189 -0.7938377909
338350000.0 -0.5203519643 -0.5476250409
348300000.0 -0.69484126 -0.0613409573
358250000.0 -0.4929639425 0.373845655
368200000.0 -0.0857184819 0.5133249242
378150000.0 0.2401715055 0.337739022
388100000.0 0.3107051075 0.0380663513
398050000.0 0.1625122486 -0.1609940142
408000000.0 -0.030770715 -0.1683723821
417950000.0 -0.1299288336 -0.0479069968
427900000.0 -0.0963844895 0.0787107188
437850000.0 0.0116111344 0.1206971863
447800000.0 0.1050263781 0.0649470265
457750000.0 0.1268975441 -0.0373079786
467700000.0 0.0704059414 -0.1220426146
477650000.0 -0.0230984958 -0.1435354241
487600000.0 -0.1011934918 -0.0984193106
497550000.0 -0.1258172726 -0.0259873974
507500000.0 -0.1015832156 0.0482592333
517450000.0 -0.0431913571 0.0780486784
527400000.0 0.0099359508 0.0639832427
537350000.0 0.030575752 0.0266073521
547300000.0 0.0198098885 -0.003810654
557250000.0 -0.0075402911 -0.0076150738
567200000.0 -0.0201560539 0.015037108
577150000.0 -0.0015839991 0.0407007196
587100000.0 0.0408004226 0.0416741374
597050000.0 0.0808927263 0.0035468028
607000000.0 0.0883360479 -0.0627415144
616950000.0 0.0468350387 -0.1262282391
626900000.0 -0.0324365735 -0.1519108631
636850000.0 -0.1150000104 -0.1190989339
646800000.0 -0.1622694117 -0.037172139
656750000.0 -0.1489847439 0.0621703203
666700000.0 -0.0735267872 0.1349688805
676650000.0 0.0331373513 0.1464210761
686600000.0 0.1254667126 0.088189238
696550000.0 0.1624753983 -0.0138365974
706500000.0 0.1261145202 -0.1132631448
716450000.0 0.0363738198 -0.165051141
726400000.0 -0.0623105944 -0.1420084971
736350000.0 -0.1167297026 -0.0576493161
746300000.0 -0.0949144936 0.0428298948
756250000.0 -0.0063635597 0.1019508727
766200000.0 0.1003035716 0.081930418
776150000.0 0.1642892297 -0.0104383012
786100000.0 0.1416041168 -0.1267647518
796050000.0 0.0334356587 -0.198538716
806000000.0 -0.107368074 -0.1715864103
815950000.0 -0.2051569492 -0.0430541998
825900000.0 -0.1940432109 0.1334496226
835850000.0 -0.0623068406 0.2718135162
845800000.0 0.137040582 0.2946747983
855750000.0 0.3147454735 0.1799181683
865700000.0 0.38358995 -0.0335084008
875650000.0 0.2974025094 -0.2550470428
885600000.0 0.0764773493 -0.3789173851
895550000.0 -0.188365159 -0.329622395
905500000.0 -0.3687079968 -0.1125927747
915450000.0 -0.3663644673 0.1807081039
925400000.0 -0.1703953679 0.4063258712
935350000.0 0.1304229241 0.4461345112
945300000.0 0.3869689968 0.2665053211
955250000.0 0.4532268403 -0.0588477908
965200000.0 0.2558099313 -0.3591412765
975150000.0 -0.1298978564 -0.4266933274
985100000.0 -0.4611445302 -0.1572694507
995050000.0 -0.4641280881 0.3043299511
1005000000.0 -0.0779230584 0.6143665341
1014950000.0 0.4368368071 0.4934047612
1024900000.0 0.6837293669 -0.010185347
1034850000.0 0.4436418522 -0.5718339469
1044800000.0 -0.1963544652 -0.7443713261
1054750000.0 -0.7282803855 -0.3278646208
1064700000.0 -0.7604441067 0.2881892606
1074650000.0 -0.3583978069 0.7531391048
1084600000.0 0.2398708537 0.7888145287
1094550000.0 0.6933673055 0.3865425443
1104500000.0 0.7213878034 -0.2178758184
1114450000.0 0.3105972128 -0.6504993726
1124400000.0 -0.2568409281 -0.6506429302
1134350000.0 -0.6260615498 -0.2744030182
1144300000.0 -0.63190945 0.213472119
1154250000.0 -0.3270395057 0.554946788
1164200000.0 0.107323198 0.6028897901
1174150000.0 0.4577480629 0.3555030374
1184100000.0 0.5504935123 -0.0656366049
1194050000.0 0.3351240807 -0.4310508492
1204000000.0 -0.0532628618 -0.5533830265
1213950000.0 -0.4070633002 -0.4046371642
1223900000.0 -0.5853917839 -0.0855972376
1233850000.0 -0.5393450098 0.2643740646
1243800000.0 -0.2969649999 0.5181639088
1253750000.0 0.054825529 0.5805891616
1263700000.0 0.3822815822 0.4149871946
1273650000.0 0.5473438218 0.0799597185
1283600000.0 0.4820083492 -0.28456176
1293550000.0 0.2268708508 -0.5358616175
1303500000.0 -0.1087456516 -0.5980758525
1313450000.0 -0.411539489 -0.4725714935
1323400000.0 -0.5985151195 -0.2100489734
1333350000.0 -0.6193723779 0.1147493334
1343300000.0 -0.4567346573 0.4105216282
1353250000.0 -0.1445165524 0.571499823
1363200000.0 0.2164847401 0.5236197246
1373150000.0 0.4859869855 0.2753910697
1383100000.0 0.5663224791 -0.0744315907
1393050000.0 0.4453957627 -0.395427326
1403000000.0 0.187046881 -0.592226853
1412950000.0 -0.1249541512 -0.6174663905
1422900000.0 -0.397081995 -0.4751064547
1432850000.0 -0.5532098026 -0.2062295714
1442800000.0 -0.5383120652 0.1170181311
1452750000.0 -0.3380291938 0.3848016275
1462700000.0 -0.0164960102 0.4922279133
1472650000.0 0.3035294734 0.396146965
1482600000.0 0.5009913658 0.1443469305
1492550000.0 0.5196164485 -0.1589240267
1502500000.0 0.3703473122 -0.4085494895
1512450000.0 0.1118983968 -0.5257466332
1522400000.0 -0.1664395511 -0.4712461131
1532350000.0 -0.3636139001 -0.2588924524
1542300000.0 -0.3945435675 0.0380525428
1552250000.0 -0.2367065209 0.2921227262
1562200000.0 0.0358471513 0.3932268478
1572150000.0 0.3008488354 0.3119950462
1582100000.0 0.4575759016 0.095156168
1592050000.0 0.4491838844 -0.1678275862
1602000000.0 0.2842216468 -0.3739881727
1611950000.0 0.0183503923 -0.4424179963
1621900000.0 -0.248597093 -0.3322496242
1631850000.0 -0.4004475993 -0.0711356477
1641800000.0 -0.3599209302 0.2366401313
1651750000.0 -0.1418957134 0.454250591
1661700000.0 0.1567797152 0.4980778997
1671650000.0 0.4195184153 0.3625382448
1681600000.0 0.558607626 0.1040082771
1691550000.0 0.5323766015 -0.1936440353
1701500000.0 0.3399755484 -0.4355074716
1711450000.0 0.0328233599 -0.5350897389
1721400000.0 -0.2904819314 -0.4386537866
1731350000.0 -0.5062713023 -0.1678246591
1741300000.0 -0.5296568457 0.1767789408
1751250000.0 -0.3605612445 0.4671751754
1761200000.0 -0.072364412 0.611975521
1771150000.0 0.2386591416 0.5816608485
1781100000.0 0.4826235018 0.3928270996
1791050000.0 0.5669139715 0.1088227658
1801000000.0 0.555631635 -0.1376117126
1810950000.0 0.3851953763 -0.4163528803
1820900000.0 0.0715249815 -0.5444866523
1830850000.0 -0.2618539993 -0.4713845376
1840800000.0 -0.4928774021 -0.2283891913
1850750000.0 -0.5519162324 0.0860218971
1860700000.0 -0.4440227259 0.3658591264
1870650000.0 -0.2234178445 0.5397959178
1880600000.0 0.0406207389 0.5761697825
1890550000.0 0.2787955855 0.4756049438
1900500000.0 0.4291369933 0.2671699435
1910450000.0 0.4458384696 0.0095423026
1920400000.0 0.3219826585 -0.2141049599
1930350000.0 0.1044694538 -0.3269239526
1940300000.0 -0.1196076535 -0.3025681519
1950250000.0 -0.2724265578 -0.1771067795
1960200000.0 -0.3229638794 -0.0182825655
1970150000.0 -0.284513325 0.1102148226
1980100000.0 -0.201962931 0.1687187003
1990050000.0 -0.1349282642 0.1543532087
2000000000.0 -0.1351988584 0.1087931904
