!Created with skrf (http://scikit-rf.org).
# GHz S RI R 50.0 
!freq ReS11 ImS11
10000000.0 -0.800485906 0.6043107519
19950000.0 -0.2869988348 0.9467351975
29900000.0 0.3275532654 0.9248008458
39850000.0 0.8177354745 0.5428975037
49800000.0 0.9875154432 -0.0677327779
59750000.0 0.7439817581 -0.6703154415
69700000.0 0.1611766486 -0.994720786
79650000.0 -0.5102155012 -0.8621147063
89600000.0 -0.9378796367 -0.3046212565
99550000.0 -0.8775588472 0.4166364094
109500000.0 -0.3163841918 0.9143419152
119450000.0 0.4640818323 0.859932257
129400000.0 0.9654718542 0.2215875677
139350000.0 0.7968767483 -0.5943915604
149300000.0 0.0597759363 -0.9767754343
159250000.0 -0.6882059325 -0.6656303146
169200000.0 -0.9449406201 0.0719623372
179150000.0 -0.6009423629 0.7396589035
189100000.0 0.0873349867 0.9611373559
199050000.0 0.7149174778 0.657640406
209000000.0 0.9647224637 0.0307495664
218950000.0 0.7524856597 -0.5804264959
228900000.0 0.2153964137 -0.9098028884
238850000.0 -0.3995993137 -0.8351518805
248800000.0 -0.7487439412 -0.2849625365
258750000.0 -0.9188604138 0.1667374069
268700000.0 -0.6303298229 0.6982097914
278650000.0 -0.080327602 0.932877655
288600000.0 0.4912025571 0.7755218712
298550000.0 0.8370517457 0.3013521069
308500000.0 0.8117407583 -0.2800441837
318450000.0 0.4288895128 -0.7108257074
328400000.0 -0.134443187 -0.7920022682
338350000.0 -0.5981633227 -0.4846899704
348300000.0 -0.7184447568 0.0341778254
358250000.0 -0.4568253626 0.4566559315
368200000.0 -0.0168305016 0.5547803427
378150000.0 0.3144676521 0.3349490573
388100000.0 0.3723700062 -0.0030045261
398050000.0 0.1971328758 -0.2307219465
408000000.0 -0.0373315872 -0.2481732685
417950000.0 -0.1755737506 -0.1140581717
427900000.0 -0.1664107116 0.0451347391
437850000.0 -0.0597117935 0.12718017
447800000.0 0.0528321195 0.1062111256
457750000.0 0.1051903134 0.0227783533
467700000.0 0.0837006398 -0.0597015971
477650000.0 0.0198055737 -0.0925196191
487600000.0 -0.034948401 -0.0698298345
497550000.0 -0.017961898 -0.0401478631
507500000.0 -0.0588360777 0.0094409149
517450000.0 -0.0176876339 0.0231507138
527400000.0 0.0051820381 0.0032253684
537350000.0 -0.0045522953 -0.0225593535
547300000.0 -0.0385496015 -0.0269564971
557250000.0 -0.0682911409 0.0055876532
567200000.0 -0.0649094676 0.059124672
577150000.0 -0.0180813182 0.1027603931
587100000.0 0.0558811147 0.1049883655
597050000.0 0.1225190741 0.0524757994
607000000.0 0.1443486422 -0.0384460971
616950000.0 0.1027641102 -0.1309898039
626900000.0 0.0098809001 -0.1824344387
636850000.0 -0.0990603964 -0.165509851
646800000.0 -0.1758201412 -0.0854851221
656750000.0 -0.1873581507 0.0257999009
666700000.0 -0.1264348704 0.1213906917
676650000.0 -0.019343239 0.15840396
686600000.0 0.0869950664 0.1200228663
696550000.0 0.144177349 0.0260978986
706500000.0 0.1279983864 -0.0770545028
716450000.0 0.0523043635 -0.1390931663
726400000.0 -0.0398421144 -0.1300436564
736350000.0 -0.0933102767 -0.0585821681
746300000.0 -0.0767330741 0.0309884157
756250000.0 0.0053708905 0.0828856899
766200000.0 0.1060808557 0.0582370353
776150000.0 0.1627727725 -0.0376253174
786100000.0 0.1322411605 -0.1558743084
796050000.0 0.0150276757 -0.225479829
806000000.0 -0.1364369145 -0.1917482605
815950000.0 -0.241224457 -0.0501916504
825900000.0 -0.2296494722 0.1460327526
835850000.0 -0.0848447575 0.3032866009
845800000.0 0.1407278428 0.3336966844
855750000.0 0.3356232419 0.2096562701
865700000.0 0.4152051555 -0.0025945155
875650000.0 0.3544000607 -0.2320459628
885600000.0 0.1538319576 -0.3893048314
895550000.0 -0.1174110733 -0.3903629375
905500000.0 -0.343442859 -0.2155013531
915450000.0 -0.4135203425 0.0710315301
925400000.0 -0.284418746 0.3414363593
935350000.0 -0.0103274866 0.467553277
945300000.0 0.2816096324 0.3817490772
955250000.0 0.4453842306 0.1136215192
965200000.0 0.3754659275 -0.2075893892
975150000.0 0.0801846442 -0.3975387927
985100000.0 -0.284813368 -0.3039833025
995050000.0 -0.4629712898 0.0574130183
1005000000.0 -0.2865815771 0.4519589516
1014950000.0 0.1696841076 0.5724871149
1024900000.0 0.5906093189 0.2622162272
1034850000.0 0.6166669973 -0.3211416784
1044800000.0 0.1285994191 -0.742855661
1054750000.0 -0.5431821279 -0.608492159
1064700000.0 -0.8527121962 0.0050209143
1074650000.0 -0.62343986 0.6039566577
1084600000.0 -0.0412586561 0.8630676289
1094550000.0 0.5356853905 0.6419912982
1104500000.0 0.7999952893 0.0713643348
1114450000.0 0.5647964374 -0.5137726327
1124400000.0 -0.0096607722 -0.7255783925
1134350000.0 -0.5145395842 -0.4586648301
1144300000.0 -0.6520025638 0.0416367104
1154250000.0 -0.4171388532 0.4521627216
1164200000.0 0.004884269 0.5728685108
1174150000.0 0.3817068377 0.3768154031
1184100000.0 0.5075921451 -0.0266332601
1194050000.0 0.3108794313 -0.3910977662
1204000000.0 -0.0691253684 -0.5067293141
1213950000.0 -0.4079395016 -0.345020789
1223900000.0 -0.5574143424 -0.0213931081
1233850000.0 -0.4784692338 0.3168658868
1243800000.0 -0.2109758925 0.5387278218
1253750000.0 0.1449456193 0.5551931564
1263700000.0 0.4475307389 0.3461146142
1273650000.0 0.5633118261 -0.0098287116
1283600000.0 0.4445483939 -0.3625999712
1293550000.0 0.1532678561 -0.5769130709
1303500000.0 -0.1943403873 -0.5931697577
1313450000.0 -0.4876468588 -0.4255482056
1323400000.0 -0.6472687707 -0.1310671398
1333350000.0 -0.6265976074 0.208760652
1343300000.0 -0.4172382397 0.4944385535
1353250000.0 -0.0697093106 0.6194047476
1363200000.0 0.2983467078 0.5228980161
1373150000.0 0.5477949633 0.2344219959
1383100000.0 0.5939455863 -0.1337812201
1393050000.0 0.4420066379 -0.4544758826
1403000000.0 0.1563175845 -0.6387240097
1412950000.0 -0.1734276677 -0.6465276478
1422900000.0 -0.4566134961 -0.4813260897
1432850000.0 -0.6105035416 -0.1854553554
1442800000.0 -0.578466276 0.1553880492
1452750000.0 -0.3597389388 0.4290263164
1462700000.0 -0.02289809 0.538004816
1472650000.0 0.3142964563 0.4440402789
1482600000.0 0.5360393651 0.187363145
1492550000.0 0.5775624346 -0.1342399088
1502500000.0 0.4418559995 -0.4140335836
1512450000.0 0.1800135785 -0.5690544641
1522400000.0 -0.1244939176 -0.5506013821
1532350000.0 -0.3680051674 -0.3577028536
1542300000.0 -0.4568688326 -0.0525553589
1552250000.0 -0.3486108097 0.2483955473
1562200000.0 -0.0866013599 0.4222814817
1572150000.0 0.215436045 0.4042252533
1582100000.0 0.4346851853 0.2175159757
1592050000.0 0.494632911 -0.0518564303
1602000000.0 0.3820874596 -0.2999790337
1611950000.0 0.1398241223 -0.433160108
1621900000.0 -0.1431657493 -0.3929617383
1631850000.0 -0.3519539879 -0.1819889431
1641800000.0 -0.3878048598 0.1199757215
1651750000.0 -0.2287855401 0.3801871115
1661700000.0 0.0519924375 0.4850850503
1671650000.0 0.3325896834 0.3998517434
1681600000.0 0.5057821711 0.1682947233
1691550000.0 0.5113621415 -0.1211271656
1701500000.0 0.3506234183 -0.3583868892
1711450000.0 0.0938286608 -0.4779167136
1721400000.0 -0.2133470119 -0.4427823754
1731350000.0 -0.4599082495 -0.2224030509
1741300000.0 -0.5306078632 0.1124839559
1751250000.0 -0.3923004667 0.4200820374
1761200000.0 -0.1134224022 0.5889796887
1771150000.0 0.2022538782 0.5799587695
1781100000.0 0.4613525817 0.410144097
1791050000.0 0.5964201412 0.1298585963
1801000000.0 0.5649994715 -0.1881493325
1810950000.0 0.361120194 -0.4503589913
1820900000.0 0.0351458913 -0.5600002997
1830850000.0 -0.299548125 -0.4650979599
1840800000.0 -0.5189210103 -0.2031401135
1850750000.0 -0.5569916855 0.1206773128
1860700000.0 -0.4269356037 0.397252199
1870650000.0 -0.1888843927 0.5596317611
1880600000.0 0.0863413726 0.5795258064
1890550000.0 0.3294552999 0.4591718946
1900500000.0 0.47547349 0.2284748427
1910450000.0 0.4750240543 -0.0476955493
1920400000.0 0.3220557531 -0.278403382
1930350000.0 0.0736667906 -0.3811825284
1940300000.0 -0.1727080583 -0.333704363
1950250000.0 -0.3370520686 -0.1786239565
1960200000.0 -0.3870201873 0.0124452894
1970150000.0 -0.3355153347 0.1749469908
1980100000.0 -0.2233450349 0.2652916633
1990050000.0 -0.1033629317 0.2715100001
2000000000.0 -0.0244261163 0.2147417856
