!Created with skrf (http://scikit-rf.org).
# GHz S RI R 50.0 
!freq ReS11 ImS11
10000000.0 -0.7800030913 0.5875061729
19950000.0 -0.2861549398 0.9224126703
29900000.0 0.3095920531 0.9036339517
39850000.0 0.7896587945 0.5319508329
49800000.0 0.959263517 -0.0681495622
59750000.0 0.7217659371 -0.6659127733
69700000.0 0.145348415 -0.9893934001
79650000.0 -0.5187664031 -0.8528341843
89600000.0 -0.9333403302 -0.2865097706
99550000.0 -0.8505774971 0.439710586
109500000.0 -0.2607508885 0.9226706049
119450000.0 0.5323486283 0.8209941643
129400000.0 0.9927227322 0.1224343407
139350000.0 0.7327649273 -0.6870841819
149300000.0 -0.0554935843 -0.9773914614
159250000.0 -0.7526863223 -0.5684951351
169200000.0 -0.9090806637 0.1846688725
179150000.0 -0.5036352599 0.7897081112
189100000.0 0.1720501583 0.9345330595
199050000.0 0.742035875 0.5945146878
209000000.0 0.9406973264 -0.018928052
218950000.0 0.7129593056 -0.5918543065
228900000.0 0.1947908677 -0.8901077786
238850000.0 -0.3864927681 -0.812253575
248800000.0 -0.7815101341 -0.3805481104
258750000.0 -0.8943103015 0.1604338729
268700000.0 -0.6318586594 0.6743298439
278650000.0 -0.118556594 0.9217697097
288600000.0 0.4333958481 0.8030660292
298550000.0 0.7965395956 0.3717527757
308500000.0 0.8227189077 -0.1924898119
318450000.0 0.498205685 -0.6520886333
328400000.0 -0.0376054404 -0.8021332382
338350000.0 -0.5298663543 -0.5677717968
348300000.0 -0.7220192189 -0.0794005542
358250000.0 -0.5283401872 0.3700919071
368200000.0 -0.1180448725 0.5278025631
378150000.0 0.2238618348 0.3632741914
388100000.0 0.3167354893 0.060183885
398050000.0 0.1837835306 -0.154653162
408000000.0 -0.0120896946 -0.1796674811
417950000.0 -0.1172283234 -0.0666108601
427900000.0 -0.0905770512 0.056891392
437850000.0 0.0121717002 0.0968529167
447800000.0 0.1013768151 0.0426063534
457750000.0 0.1175179148 -0.0575367608
467700000.0 0.0590784725 -0.1378874661
477650000.0 -0.0338950777 -0.1525264864
487600000.0 -0.109788676 -0.0992269011
497550000.0 -0.1275382753 -0.0136012835
507500000.0 -0.0924034801 0.0641919639
517450000.0 -0.0207392243 0.0964031205
527400000.0 0.0406666826 0.077391847
537350000.0 0.0639277932 0.0308940005
547300000.0 0.0469751184 -0.0094683639
557250000.0 0.0109314002 -0.0193752154
567200000.0 -0.0143081593 0.0017413254
577150000.0 -0.0081298302 0.0332711309
587100000.0 0.0274280562 0.0431418035
597050000.0 0.0661116319 0.0147542377
607000000.0 0.0758310433 -0.0440811413
616950000.0 0.039823963 -0.1051988357
626900000.0 -0.0332527911 -0.1319771788
636850000.0 -0.1142977809 -0.1033500505
646800000.0 -0.1614503964 -0.0252775766
656750000.0 -0.1482923254 0.0716240518
666700000.0 -0.0762368133 0.1437187288
676650000.0 0.0297951146 0.155571699
686600000.0 0.1230890327 0.0947887781
696550000.0 0.1596713229 -0.0142134911
706500000.0 0.1228949753 -0.1229626193
716450000.0 0.0277254731 -0.1826313868
726400000.0 -0.0796316309 -0.1654724847
736350000.0 -0.1442810708 -0.0786980599
746300000.0 -0.1302577078 0.0299410834
756250000.0 -0.0414079585 0.1023079656
766200000.0 0.0751069147 0.0965513448
776150000.0 0.1559638321 0.0109661987
786100000.0 0.1547074052 -0.1077814164
796050000.0 0.0627186831 -0.1911648146
806000000.0 -0.0730366619 -0.1836627257
815950000.0 -0.1767854669 -0.0714575375
825900000.0 -0.1808919078 0.0980958252
835850000.0 -0.065256937 0.2384115639
845800000.0 0.1242252185 0.2721820706
855750000.0 0.2994229403 0.1692537081
865700000.0 0.3727046252 -0.0348622179
875650000.0 0.2901956132 -0.2507519986
885600000.0 0.0760299656 -0.3657612679
895550000.0 -0.1735932805 -0.3145626689
905500000.0 -0.3469043889 -0.1085591097
915450000.0 -0.3533291285 0.1750654783
925400000.0 -0.1712819669 0.4052812764
935350000.0 0.1213109001 0.4618561019
945300000.0 0.3835783571 0.3011884496
955250000.0 0.4730649891 -0.0143627483
965200000.0 0.3103617798 -0.3289422166
975150000.0 -0.0540123777 -0.4502177874
985100000.0 -0.4213789769 -0.2544626939
995050000.0 -0.5260279156 0.1820631172
1005000000.0 -0.2433812065 0.5702779465
1014950000.0 0.2726164043 0.6028265335
1024900000.0 0.6595139477 0.1883497568
1034850000.0 0.5760296897 -0.4304843369
1044800000.0 -0.0049412255 -0.7703901663
1054750000.0 -0.6505738166 -0.497781178
1064700000.0 -0.8302621672 0.1754065263
1074650000.0 -0.4529598035 0.7223924801
1084600000.0 0.1678071716 0.7737568014
1094550000.0 0.6266831705 0.4831938417
1104500000.0 0.7614232821 -0.1307743505
1114450000.0 0.4021511869 -0.642084373
1124400000.0 -0.1911982462 -0.7210475639
1134350000.0 -0.6242594121 -0.367043011
1144300000.0 -0.679557242 0.1480457273
1154250000.0 -0.395636712 0.5363797952
1164200000.0 0.0521038018 0.6348003427
1174150000.0 0.4432488709 0.4206147861
1184100000.0 0.5914336072 -0.0013207358
1194050000.0 0.412904493 -0.4062833696
1204000000.0 0.0221709823 -0.5754403862
1213950000.0 -0.3607087871 -0.4521855181
1223900000.0 -0.571463642 -0.1359307425
1233850000.0 -0.5535346074 0.2273233356
1243800000.0 -0.3276339134 0.506032607
1253750000.0 0.0238011326 0.5959749749
1263700000.0 0.3670582766 0.4489050617
1273650000.0 0.5521093994 0.1173374655
1283600000.0 0.4989341689 -0.2567031962
1293550000.0 0.2461171166 -0.5179228696
1303500000.0 -0.0919559882 -0.586826075
1313450000.0 -0.3987233125 -0.4644166558
1323400000.0 -0.5912231168 -0.2020413389
1333350000.0 -0.6169791252 0.1260038676
1343300000.0 -0.4569300286 0.4263590554
1353250000.0 -0.140601032 0.5871014724
1363200000.0 0.2210356115 0.5307281881
1373150000.0 0.4871494587 0.2717093392
1383100000.0 0.5572708826 -0.0851180575
1393050000.0 0.4274961029 -0.4076955483
1403000000.0 0.1598631285 -0.6003593598
1412950000.0 -0.1540058456 -0.6193071156
1422900000.0 -0.4256043816 -0.4695984494
1432850000.0 -0.5759278666 -0.1874738585
1442800000.0 -0.5473984922 0.1449743268
1452750000.0 -0.3291390324 0.4132295236
1462700000.0 0.0067513152 0.5081097383
1472650000.0 0.3317352648 0.3967143013
1482600000.0 0.5272974309 0.1312882481
1492550000.0 0.5405182666 -0.1850911125
1502500000.0 0.3803444168 -0.4438103975
1512450000.0 0.1085308853 -0.5645957877
1522400000.0 -0.1832664951 -0.5060521147
1532350000.0 -0.3895766533 -0.2820595842
1542300000.0 -0.4264091785 0.0301238838
1552250000.0 -0.270142088 0.3064398119
1562200000.0 0.0148700824 0.4325537928
1572150000.0 0.3082287283 0.3637799605
1582100000.0 0.4895411303 0.1406228771
1592050000.0 0.5004387778 -0.1396716052
1602000000.0 0.340308045 -0.3701490984
1611950000.0 0.0652815015 -0.4639409594
1621900000.0 -0.2236027509 -0.3726870187
1631850000.0 -0.4072138746 -0.1177881601
1641800000.0 -0.4016231835 0.2013967608
1651750000.0 -0.2039749443 0.4516775274
1661700000.0 0.1000388062 0.5294386924
1671650000.0 0.3850419799 0.4128722203
1681600000.0 0.5496836188 0.1557559876
1691550000.0 0.5418230317 -0.1515011662
1701500000.0 0.363502717 -0.4094444993
1711450000.0 0.0636525729 -0.5300586056
1721400000.0 -0.2654616109 -0.4584205191
1731350000.0 -0.5034119347 -0.2038431301
1741300000.0 -0.5530734081 0.1434163031
1751250000.0 -0.3990950617 0.4490307534
1761200000.0 -0.1106256272 0.609322414
1771150000.0 0.2079428596 0.5885847322
1781100000.0 0.4636910771 0.4089005133
1791050000.0 0.5926329087 0.1238874043
1801000000.0 0.5582592295 -0.1930866477
1810950000.0 0.3594536116 -0.4524659582
1820900000.0 0.0488805188 -0.5629474011
1830850000.0 -0.2799267868 -0.4832620188
1840800000.0 -0.5085394177 -0.2293497095
1850750000.0 -0.5565874704 0.0974652649
1860700000.0 -0.4321166805 0.3817931925
1870650000.0 -0.1967922556 0.5514801946
1880600000.0 0.075533411 0.578813391
1890550000.0 0.3163884905 0.4676648335
1900500000.0 0.4657168727 0.2470342139
1910450000.0 0.4785633131 -0.025012231
1920400000.0 0.3420363312 -0.2618032312
1930350000.0 0.1028704401 -0.3788615672
1940300000.0 -0.1459451472 -0.3439082649
1950250000.0 -0.3174066837 -0.1947825596
1960200000.0 -0.3771087119 -0.0045549915
1970150000.0 -0.3346394813 0.1620811861
1980100000.0 -0.2273797907 0.2609141617
1990050000.0 -0.1085018224 0.2744845111
2000000000.0 -0.0318761427 0.2206190957
