!Created with skrf (http://scikit-rf.org).
# GHz S RI R 50.0 
!freq ReS11 ImS11
10000000.0 -0.7731690226 0.6763476296
19950000.0 -0.1431989235 0.9894501266
29900000.0 0.5317994344 0.8209968422
39850000.0 0.9403864201 0.2514240651
49800000.0 0.874638851 -0.4596569346
59750000.0 0.3321191418 -0.9575001618
69700000.0 -0.4304260609 -0.9379532758
79650000.0 -0.9636299296 -0.3573960277
89600000.0 -0.8937134597 0.450192425
99550000.0 -0.2232564154 0.942850677
109500000.0 0.6100783541 0.7367736319
119450000.0 0.9723651836 -0.0794237428
129400000.0 0.4924520268 -0.876444377
139350000.0 -0.4436447658 -0.9129463016
149300000.0 -0.9760053275 -0.1537659278
159250000.0 -0.6684630675 0.6786246571
169200000.0 0.1363783536 0.9299395464
179150000.0 0.817713999 0.4960951974
189100000.0 0.9465157572 -0.2746713425
199050000.0 0.4855408231 -0.8779609275
209000000.0 -0.2473688722 -0.9656068241
218950000.0 -0.8126921355 -0.5306243372
228900000.0 -0.9290718409 0.15277363
238850000.0 -0.5701006918 0.7293263168
248800000.0 0.0523376795 0.9239071913
258750000.0 0.6782361058 0.666239461
268700000.0 0.969621784 0.0638238689
278650000.0 0.7859265445 -0.5792904597
288600000.0 0.2215241701 -0.9305876149
298550000.0 -0.4253114111 -0.8134174777
308500000.0 -0.8204013344 -0.2978039468
318450000.0 -0.7611416575 0.3412384129
328400000.0 -0.2823282268 0.7556296939
338350000.0 0.3339933012 0.7049107682
348300000.0 0.6929788773 0.2373837262
358250000.0 0.5788398378 -0.292774872
368200000.0 0.152172527 -0.5081778215
378150000.0 -0.2136934545 -0.3364834151
388100000.0 -0.281059762 -0.0136607794
398050000.0 -0.1039741621 0.1752902175
408000000.0 0.0925884901 0.1355678325
417950000.0 0.1398021421 -0.016910212
427900000.0 0.0419633452 -0.112769589
437850000.0 -0.0833155384 -0.0783636837
447800000.0 -0.1267353851 0.041823124
457750000.0 -0.0589809535 0.1489197927
467700000.0 0.065402019 0.1666835549
477650000.0 0.1589616483 0.0891987587
487600000.0 0.1658339064 -0.0272966112
497550000.0 0.0987981494 -0.1093124268
507500000.0 -0.0013926038 -0.1215158453
517450000.0 -0.0699685066 -0.0698105911
527400000.0 -0.0803458167 -0.0007058513
537350000.0 -0.0478449092 0.0407626026
547300000.0 -0.0108672841 0.0403669062
557250000.0 -0.0020191092 0.0154887648
567200000.0 -0.0231119176 0.0045234669
577150000.0 -0.044332264 0.0271357214
587100000.0 -0.0321731036 0.0689704646
597050000.0 0.0215039112 0.0927391995
607000000.0 0.0898946599 0.0643342592
616950000.0 0.1263477788 -0.0167700285
626900000.0 0.0968016624 -0.1134740997
636850000.0 0.0033683701 -0.1715917142
646800000.0 -0.1115424245 -0.1520904329
656750000.0 -0.1863762505 -0.0569713752
666700000.0 -0.1762653773 0.06638559
676650000.0 -0.0820751991 0.1500384726
686600000.0 0.0458283362 0.1458829221
696550000.0 0.1363944256 0.0557333989
706500000.0 0.140087039 -0.0687089373
716450000.0 0.0592933107 -0.1566315186
726400000.0 -0.0546030178 -0.1593319233
736350000.0 -0.1271450266 -0.0802830065
746300000.0 -0.1104734455 0.022766572
756250000.0 -0.0180462743 0.074730951
766200000.0 0.0843409464 0.0313284895
776150000.0 0.1164712584 -0.0835589643
786100000.0 0.0421830553 -0.1897689744
796050000.0 -0.1007184686 -0.2028714458
806000000.0 -0.216140844 -0.0906945325
815950000.0 -0.2105754547 0.0916796512
825900000.0 -0.0588849747 0.2295862256
835850000.0 0.1665991906 0.2186869566
845800000.0 0.3336833501 0.040869565
855750000.0 0.3323407624 -0.2191599286
865700000.0 0.1431306982 -0.4175739608
875650000.0 -0.1440376711 -0.4316689283
885600000.0 -0.3737575664 -0.2340153749
895550000.0 -0.4067939258 0.0814150999
905500000.0 -0.2059018027 0.3416772996
915450000.0 0.1307599556 0.391174174
925400000.0 0.4128633112 0.18795224
935350000.0 0.4705446463 -0.1594956515
945300000.0 0.2568771512 -0.448193773
955250000.0 -0.111377125 -0.492855519
965200000.0 -0.4039648436 -0.2404318393
975150000.0 -0.4003890957 0.1710910078
985100000.0 -0.0480021142 0.4427322645
995050000.0 0.412142681 0.307307985
1005000000.0 0.5683425108 -0.1874250657
1014950000.0 0.2145835478 -0.6263514315
1024900000.0 -0.398049775 -0.5721686399
1034850000.0 -0.7257486596 0.0212887629
1044800000.0 -0.374066782 0.6784508869
1054750000.0 0.3994186337 0.7179686538
1064700000.0 0.8742476078 0.1336009042
1074650000.0 0.6652976583 -0.6049995012
1084600000.0 0.0148093772 -0.8600665948
1094550000.0 -0.6160408427 -0.5634757538
1104500000.0 -0.7911352671 0.1087204565
1114450000.0 -0.3831822848 0.6704514513
1124400000.0 0.2971728417 0.691156457
1134350000.0 0.7029925883 0.1935431322
1144300000.0 0.5814344043 -0.3829098842
1154250000.0 0.1128313543 -0.6486936592
1164200000.0 -0.3687677366 -0.5061590966
1174150000.0 -0.6009349465 -0.0734477693
1184100000.0 -0.4416272504 0.3947810826
1194050000.0 0.0130556168 0.5871201904
1204000000.0 0.4484079114 0.3786088787
1213950000.0 0.588315247 -0.063186338
1223900000.0 0.3908289686 -0.4578131053
1233850000.0 -0.0027786972 -0.6146347721
1243800000.0 -0.3992145247 -0.4816527717
1253750000.0 -0.6204121792 -0.1215941416
1263700000.0 -0.5517062487 0.3060739124
1273650000.0 -0.2068547954 0.5853493777
1283600000.0 0.2401846027 0.5600022551
1293550000.0 0.5538699476 0.2495131413
1303500000.0 0.5943607308 -0.1759906048
1313450000.0 0.3722641863 -0.5241687195
1323400000.0 -0.0056031168 -0.6684793026
1333350000.0 -0.3950742838 -0.5624120558
1343300000.0 -0.6489779496 -0.238553289
1353250000.0 -0.6495704679 0.1859617576
1363200000.0 -0.373504682 0.5254679357
1373150000.0 0.0615854747 0.6088493901
1383100000.0 0.4442928737 0.3962632693
1393050000.0 0.6053015399 0.003322299
1403000000.0 0.499613224 -0.3908991748
1412950000.0 0.1914863236 -0.6369296681
1422900000.0 -0.1954364493 -0.6546041943
1432850000.0 -0.5170574033 -0.4390168484
1442800000.0 -0.644247317 -0.0675442192
1452750000.0 -0.5093232238 0.3079296689
1462700000.0 -0.1609026892 0.5126042924
1472650000.0 0.2364851878 0.4450202072
1482600000.0 0.4909597479 0.1453955103
1492550000.0 0.4935510744 -0.2317250265
1502500000.0 0.2661431257 -0.5139373902
1512450000.0 -0.0761531022 -0.5899243107
1522400000.0 -0.3825474572 -0.4356239215
1532350000.0 -0.5161070272 -0.1203219168
1542300000.0 -0.4105158384 0.208723259
1552250000.0 -0.1119373197 0.3834844038
1562200000.0 0.2226471673 0.3070905053
1572150000.0 0.4103858503 0.0250932906
1582100000.0 0.3562357245 -0.2993311835
1592050000.0 0.101194724 -0.4919828171
1602000000.0 -0.2148326288 -0.4615931567
1611950000.0 -0.4329271737 -0.2262497681
1621900000.0 -0.4400481255 0.1006968465
1631850000.0 -0.2183901413 0.357859891
1641800000.0 0.1322840491 0.4013871594
1651750000.0 0.4267328498 0.1913671489
1661700000.0 0.4986424506 -0.1667504863
1671650000.0 0.3106039102 -0.4818670405
1681600000.0 -0.0339688382 -0.5989890145
1691550000.0 -0.3741125119 -0.4729352198
1701500000.0 -0.5672526671 -0.1601938915
1711450000.0 -0.5321995078 0.2159450754
1721400000.0 -0.2651857314 0.503120724
1731350000.0 0.137133407 0.5615741295
1741300000.0 0.4943316498 0.3430083059
1751250000.0 0.6281850397 -0.0562379573
1761200000.0 0.4808436604 -0.441726841
1771150000.0 0.1373634627 -0.6475559549
1781100000.0 -0.2503203136 -0.6133686699
1791050000.0 -0.5434184141 -0.3703544789
1801000000.0 -0.649032724 -0.0053295404
1810950000.0 -0.524868693 0.3627833632
1820900000.0 -0.1971603916 0.5949805095
1830850000.0 0.215160784 0.5770993496
1840800000.0 0.5253420946 0.3005409377
1850750000.0 0.5888188407 -0.1023795263
1860700000.0 0.3995206851 -0.4427429577
1870650000.0 0.0677461853 -0.5955064633
1880600000.0 -0.2708961331 -0.5370326738
1890550000.0 -0.5099724407 -0.3116827185
1900500000.0 -0.5843868259 -0.0006264067
1910450000.0 -0.4723819306 0.292746653
1920400000.0 -0.2098814339 0.4597928626
1930350000.0 0.0939221636 0.4308838513
1940300000.0 0.3020710447 0.2303200806
1950250000.0 0.3349902228 -0.0318244546
1960200000.0 0.2145070664 -0.2351791623
1970150000.0 0.0276972938 -0.3172441207
1980100000.0 -0.1357104631 -0.2833252365
1990050000.0 -0.2216939301 -0.187118815
2000000000.0 -0.2306167786 -0.0997209752
