!Created with skrf (http://scikit-rf.org).
# GHz S RI R 50.0 
!freq ReS11 ImS11
10000000.0 -0.764515825 0.6770588498
19950000.0 -0.1324885203 0.9880037204
29900000.0 0.5429437952 0.8140135985
39850000.0 0.9455481562 0.2384590724
49800000.0 0.8680840768 -0.4724651916
59750000.0 0.3166998635 -0.9589848944
69700000.0 -0.441306986 -0.9250422731
79650000.0 -0.9604058595 -0.3427690474
89600000.0 -0.8868487531 0.4516633172
99550000.0 -0.2341920844 0.9395457281
109500000.0 0.5837023985 0.7603694002
119450000.0 0.9742663319 -0.0160241258
129400000.0 0.5722139962 -0.8209824124
139350000.0 -0.3419008552 -0.9494940736
149300000.0 -0.9498876218 -0.26694175
159250000.0 -0.7459377579 0.5935944143
169200000.0 0.027091662 0.9395357823
179150000.0 0.7579636928 0.5767615877
189100000.0 0.9592760863 -0.1901657597
199050000.0 0.5366562577 -0.8373047668
209000000.0 -0.2047856485 -0.967059975
218950000.0 -0.7964123152 -0.5435993943
228900000.0 -0.9235717509 0.1523553114
238850000.0 -0.5478633977 0.7395056143
248800000.0 0.0261949171 0.9047827149
258750000.0 0.6949507868 0.6381429723
268700000.0 0.9611557088 0.0106844296
278650000.0 0.72955336 -0.6263180746
288600000.0 0.1291313262 -0.9296860192
298550000.0 -0.5072137963 -0.7420897264
308500000.0 -0.8364150337 -0.1768593783
318450000.0 -0.6847396966 0.4501883025
328400000.0 -0.1442490724 0.782772525
338350000.0 0.453886843 0.6244353511
348300000.0 0.721547587 0.0976483582
358250000.0 0.5084882222 -0.4069650431
368200000.0 0.0363172186 -0.5465919157
378150000.0 -0.3168227634 -0.3015190584
388100000.0 -0.3381918029 0.0635124824
398050000.0 -0.1082822653 0.2624883005
408000000.0 0.1345827602 0.2068610817
417950000.0 0.2123276437 0.0192996825
427900000.0 0.121511356 -0.1237396126
437850000.0 -0.0228300436 -0.1321633154
447800000.0 -0.1039533231 -0.0359966622
457750000.0 -0.0803851919 0.0719072573
467700000.0 0.0068001259 0.1133822736
477650000.0 0.0804220102 0.0749233589
487600000.0 0.0831219447 0.0060715581
497550000.0 0.0925997393 -0.0437547968
507500000.0 0.017882565 -0.0560295459
517450000.0 -0.0146454949 -0.0236829296
527400000.0 -0.0063874343 0.0067434731
537350000.0 0.0196862384 0.0063258216
547300000.0 0.0276064327 -0.0288025827
557250000.0 -0.0098334008 -0.0581463732
567200000.0 -0.0666176537 -0.0463587355
577150000.0 -0.10272378 0.0131731387
587100000.0 -0.0822897732 0.0913535441
597050000.0 -0.0030638963 0.1377813082
607000000.0 0.0967226549 0.1139555413
616950000.0 0.1594229997 0.0207985394
626900000.0 0.1442147175 -0.0978769178
636850000.0 0.0512927836 -0.1799027634
646800000.0 -0.0743369243 -0.1799378231
656750000.0 -0.1670101475 -0.0961150253
666700000.0 -0.1770892412 0.0267739734
676650000.0 -0.1010316258 0.12080075
686600000.0 0.0165601233 0.1340838072
696550000.0 0.1062731023 0.0630274036
706500000.0 0.118015803 -0.0448563828
716450000.0 0.0525109791 -0.1217235896
726400000.0 -0.0412156267 -0.1211253655
736350000.0 -0.093318031 -0.0496938129
746300000.0 -0.0634038189 0.0346818604
756250000.0 0.0300131109 0.0608918253
766200000.0 0.1168740043 -0.0050306211
776150000.0 0.1223368845 -0.1298154581
786100000.0 0.0212688528 -0.2283819187
796050000.0 -0.1388179366 -0.2196369761
806000000.0 -0.2559925649 -0.0810172585
815950000.0 -0.2384910594 0.1229745676
825900000.0 -0.0677089118 0.2718208951
835850000.0 0.1778871708 0.261549978
845800000.0 0.3635289851 0.0747039768
855750000.0 0.3765365609 -0.2020126758
865700000.0 0.1935547915 -0.4227855962
875650000.0 -0.1001568535 -0.4622927847
885600000.0 -0.3522994751 -0.2924128699
895550000.0 -0.4270696868 0.0071886404
905500000.0 -0.2771295466 0.2922572746
915450000.0 0.033241678 0.4063878029
925400000.0 0.3423012005 0.2711293573
935350000.0 0.4709113956 -0.0468427479
945300000.0 0.3346223644 -0.3645303097
955250000.0 0.0062022879 -0.4858011352
965200000.0 -0.3119627171 -0.3186670155
975150000.0 -0.3945384524 0.0481794969
985100000.0 -0.1411187873 0.3565756241
995050000.0 0.2858615522 0.3269166712
1005000000.0 0.5142547326 -0.0771172175
1014950000.0 0.28066433 -0.525386161
1024900000.0 -0.2737227072 -0.5823036155
1034850000.0 -0.670439732 -0.1052522102
1044800000.0 -0.4661672267 0.5557520606
1054750000.0 0.2425853065 0.7205270771
1064700000.0 0.7680213522 0.3030848276
1074650000.0 0.7556408669 -0.4426477881
1084600000.0 0.1155461786 -0.7731980936
1094550000.0 -0.4079471982 -0.7161519984
1104500000.0 -0.792073753 -0.111088203
1114450000.0 -0.5236469533 0.5475003991
1124400000.0 0.1515165911 0.7054101788
1134350000.0 0.6309275264 0.2664281757
1144300000.0 0.5609598475 -0.3194403217
1154250000.0 0.1064003263 -0.5933550197
1164200000.0 -0.3516477056 -0.4344686823
1174150000.0 -0.5296675635 -0.0102397004
1184100000.0 -0.3235153017 0.4037804727
1194050000.0 0.1254503113 0.5048068252
1204000000.0 0.4817031023 0.232644967
1213950000.0 0.5207864003 -0.1971235729
1223900000.0 0.2589212738 -0.519314414
1233850000.0 -0.1409828966 -0.5833645994
1243800000.0 -0.4868860951 -0.3719250576
1253750000.0 -0.6160849366 0.0214025444
1263700000.0 -0.4513414362 0.4142926059
1273650000.0 -0.0587856183 0.6021134991
1283600000.0 0.3603457229 0.4815109884
1293550000.0 0.5970645 0.1235136921
1303500000.0 0.5590115552 -0.2916614505
1313450000.0 0.2865857185 -0.5917095957
1323400000.0 -0.1055527183 -0.6731490432
1333350000.0 -0.47295291 -0.5090569921
1343300000.0 -0.6752932666 -0.1495340702
1353250000.0 -0.6133738793 0.2719961041
1363200000.0 -0.2918943538 0.5687435307
1373150000.0 0.1477521526 0.5930726365
1383100000.0 0.4982257578 0.3377012706
1393050000.0 0.6135044247 -0.0657814204
1403000000.0 0.4707548217 -0.4427706547
1412950000.0 0.1449783578 -0.6571401159
1422900000.0 -0.2374384112 -0.6423502019
1432850000.0 -0.5366763043 -0.4076274612
1442800000.0 -0.6380915213 -0.0381495314
1452750000.0 -0.4909632978 0.3225782108
1462700000.0 -0.1448457021 0.5151915989
1472650000.0 0.2450571396 0.4445022853
1482600000.0 0.4953267067 0.1465128782
1492550000.0 0.4998664303 -0.2298099699
1502500000.0 0.2767136431 -0.5148220061
1512450000.0 -0.0636184415 -0.5957461731
1522400000.0 -0.3736759329 -0.4482951396
1532350000.0 -0.5178663744 -0.1389552186
1542300000.0 -0.4262569048 0.1907547708
1552250000.0 -0.1386851885 0.3750853597
1562200000.0 0.1935962067 0.3162344722
1572150000.0 0.3899788728 0.0528006463
1582100000.0 0.3534835075 -0.2627950678
1592050000.0 0.1186406174 -0.4622369527
1602000000.0 -0.1841033789 -0.4509682226
1611950000.0 -0.4017920572 -0.237119449
1621900000.0 -0.4203149749 0.074375295
1631850000.0 -0.2174899279 0.3255319868
1641800000.0 0.1129356985 0.3719456339
1651750000.0 0.3917021723 0.1734124497
1661700000.0 0.4583257977 -0.1649713657
1671650000.0 0.2797626559 -0.4605062557
1681600000.0 -0.0481602413 -0.5663532984
1691550000.0 -0.3707847173 -0.4390482872
1701500000.0 -0.5483100732 -0.1340006779
1711450000.0 -0.4999253839 0.2258623292
1721400000.0 -0.2271709297 0.4884208308
1731350000.0 0.1635684261 0.519690628
1741300000.0 0.4894586668 0.288149886
1751250000.0 0.589561864 -0.1010952723
1761200000.0 0.4238369826 -0.4592622867
1771150000.0 0.0832739735 -0.6354679449
1781100000.0 -0.2861112966 -0.5788364912
1791050000.0 -0.5529493534 -0.3248195918
1801000000.0 -0.6289599457 0.038045267
1810950000.0 -0.4780884682 0.3858886867
1820900000.0 -0.1393351876 0.5810413275
1830850000.0 0.2556727185 0.522927044
1840800000.0 0.5252748986 0.2273212903
1850750000.0 0.5472507296 -0.1629937534
1860700000.0 0.3363500477 -0.4686694654
1870650000.0 0.0060380565 -0.5843704498
1880600000.0 -0.3132095243 -0.4977278721
1890550000.0 -0.5216785646 -0.2595839184
1900500000.0 -0.5610731644 0.0464525807
1910450000.0 -0.4196091102 0.3147161961
1920400000.0 -0.1487969258 0.4439227666
1930350000.0 0.1339450154 0.380070584
1940300000.0 0.3021711283 0.1655264671
1950250000.0 0.2991952866 -0.0829634528
1960200000.0 0.1647136279 -0.2552113421
1970150000.0 -0.0140771268 -0.303863555
1980100000.0 -0.1541243134 -0.2490697785
1990050000.0 -0.2095178626 -0.163705304
2000000000.0 -0.2184509219 -0.1096750862
