!Created with skrf (http://scikit-rf.org).
# GHz S RI R 50.0 
!freq ReS11 ImS11
10000000.0 -0.7629131568 0.5787233538
19950000.0 -0.2821873841 0.9173893551
29900000.0 0.3054086152 0.9005265823
39850000.0 0.7817839004 0.5354333348
49800000.0 0.948855768 -0.0589726959
59750000.0 0.7212601508 -0.6537799227
69700000.0 0.1527857336 -0.9758264037
79650000.0 -0.5025302632 -0.8509847872
89600000.0 -0.9209821217 -0.2993306927
99550000.0 -0.8556991895 0.42128128
109500000.0 -0.2850646776 0.9160977068
119450000.0 0.503087287 0.8379651979
129400000.0 0.9805296802 0.1593696688
139350000.0 0.7505581268 -0.6545899793
149300000.0 -0.0227155778 -0.9739399201
159250000.0 -0.7340994493 -0.5904242912
169200000.0 -0.9138970071 0.1602370308
179150000.0 -0.5218193418 0.7766256156
189100000.0 0.1506012242 0.932407182
199050000.0 0.723096597 0.5989149388
209000000.0 0.9283627956 -0.0122896564
218950000.0 0.7083293778 -0.5876605932
228900000.0 0.1945954178 -0.8900422551
238850000.0 -0.3849244314 -0.8143760315
248800000.0 -0.7668926695 -0.4149840775
258750000.0 -0.8864574422 0.1575001403
268700000.0 -0.6227740329 0.66818901
278650000.0 -0.1131352286 0.9130728196
288600000.0 0.4333530022 0.795058861
298550000.0 0.7931350581 0.366215818
308500000.0 0.8190280595 -0.1956541419
318450000.0 0.4959148818 -0.6528228126
328400000.0 -0.0362962437 -0.8010043018
338350000.0 -0.523246716 -0.5680548042
348300000.0 -0.7143626202 -0.0844843461
358250000.0 -0.5268923809 0.3633893928
368200000.0 -0.1226604657 0.5273543959
378150000.0 0.2201152621 0.3723461447
388100000.0 0.3203820064 0.0748923508
398050000.0 0.1965522181 -0.14144217
408000000.0 0.0058119616 -0.1738969914
417950000.0 -0.1023492608 -0.0699577989
427900000.0 -0.0846094561 0.0484166328
437850000.0 0.0077968233 0.0885014017
447800000.0 0.0893893021 0.0387121454
457750000.0 0.1018868937 -0.0546622393
467700000.0 0.044838752 -0.1287288961
477650000.0 -0.0426057262 -0.140223036
487600000.0 -0.1121737637 -0.0874001005
497550000.0 -0.127390598 -0.0064699323
507500000.0 -0.0872785337 0.0690203214
517450000.0 -0.0154767746 0.0961108325
527400000.0 0.0440307713 0.0732326024
537350000.0 0.0642824377 0.0247026095
547300000.0 0.0439064036 -0.0160095599
557250000.0 0.0058149381 -0.0257359827
567200000.0 -0.0216020081 -0.0042506151
577150000.0 -0.0170217952 0.028320543
587100000.0 0.0177639513 0.0393521396
597050000.0 0.0570507559 0.0129126436
607000000.0 0.0695050855 -0.043363577
616950000.0 0.0372480578 -0.1032184817
626900000.0 -0.0310543948 -0.1299316322
636850000.0 -0.1066661983 -0.1021407634
646800000.0 -0.1503178486 -0.0268813996
656750000.0 -0.1361597968 0.0672115861
666700000.0 -0.0653239072 0.1368766338
676650000.0 0.0375887615 0.1472828995
686600000.0 0.1262378863 0.0867851343
696550000.0 0.159031411 -0.0201458148
706500000.0 0.1194622014 -0.1256247388
716450000.0 0.0233966254 -0.1815818397
726400000.0 -0.0830439412 -0.1616289141
736350000.0 -0.1454828004 -0.0727025425
746300000.0 -0.1292701746 0.0369978025
756250000.0 -0.0381550779 0.109744161
766200000.0 0.0802550604 0.1039884471
776150000.0 0.1632255945 0.018009279
786100000.0 0.1634645093 -0.1028765703
796050000.0 0.0719635147 -0.1890706286
806000000.0 -0.064910919 -0.1851258629
815950000.0 -0.1729443682 -0.0773279812
825900000.0 -0.1843295394 0.0901470487
835850000.0 -0.0766795238 0.2323022719
845800000.0 0.1072251195 0.2707684224
855750000.0 0.2809257051 0.1747055992
865700000.0 0.3587605977 -0.0237589392
875650000.0 0.286378342 -0.2385224771
885600000.0 0.0800716343 -0.3623073659
895550000.0 -0.1731703102 -0.3186350465
905500000.0 -0.3500877176 -0.1074563329
915450000.0 -0.3495170336 0.1821660584
925400000.0 -0.1561295009 0.4088199273
935350000.0 0.142079563 0.4506565213
945300000.0 0.393093403 0.2716912156
955250000.0 0.4554594837 -0.0472979216
965200000.0 0.2734523427 -0.3336662564
975150000.0 -0.0675702487 -0.4192976418
985100000.0 -0.3889903458 -0.239136946
995050000.0 -0.4983009158 0.1484664953
1005000000.0 -0.2645077574 0.5227470845
1014950000.0 0.2087012293 0.598496272
1024900000.0 0.6143099853 0.2558006236
1034850000.0 0.6141421787 -0.3348249496
1044800000.0 0.1123331901 -0.7388381383
1054750000.0 -0.5470723617 -0.5732910662
1064700000.0 -0.8238133054 0.0599752184
1074650000.0 -0.5202491874 0.6576334744
1084600000.0 0.0957192686 0.7691175212
1094550000.0 0.5429270582 0.5612427789
1104500000.0 0.7675166727 -0.0325939833
1114450000.0 0.4619253316 -0.5892232947
1124400000.0 -0.129670377 -0.725711073
1134350000.0 -0.5943930949 -0.4012706913
1144300000.0 -0.6813522733 0.1163302179
1154250000.0 -0.414003357 0.5213988655
1164200000.0 0.0295402061 0.6361686008
1174150000.0 0.4270933224 0.4365726726
1184100000.0 0.5883043438 0.0186218171
1194050000.0 0.4208895707 -0.3921348734
1204000000.0 0.0331712441 -0.5725892845
1213950000.0 -0.353403207 -0.459356391
1223900000.0 -0.5723242008 -0.1478616264
1233850000.0 -0.5626386999 0.2163063196
1243800000.0 -0.3435282356 0.4987553859
1253750000.0 0.0040862421 0.5959066339
1263700000.0 0.3488953744 0.4577373593
1273650000.0 0.5434832798 0.1323984498
1283600000.0 0.5031899012 -0.2430550717
1293550000.0 0.2597617038 -0.513050186
1303500000.0 -0.0751159216 -0.5930855561
1313450000.0 -0.3830226905 -0.4798713182
1323400000.0 -0.580318405 -0.2236909958
1333350000.0 -0.6158582051 0.1017196545
1343300000.0 -0.4677757093 0.4053333945
1353250000.0 -0.1623062437 0.5763985028
1363200000.0 0.1967480778 0.5368585921
1373150000.0 0.4717496054 0.2913973705
1383100000.0 0.5558972868 -0.0609101048
1393050000.0 0.4378842804 -0.3875281025
1403000000.0 0.1773090856 -0.5882177696
1412950000.0 -0.1315104033 -0.6165417167
1422900000.0 -0.4017395172 -0.4765422016
1432850000.0 -0.556653656 -0.2040087013
1442800000.0 -0.5405940682 0.1238128998
1452750000.0 -0.3368233116 0.3963868156
1462700000.0 -0.0106436918 0.5029997573
1472650000.0 0.3129721725 0.403795903
1482600000.0 0.5128418459 0.1472272687
1492550000.0 0.5317127942 -0.165586602
1502500000.0 0.3784376866 -0.4247113029
1512450000.0 0.112782727 -0.5498608783
1522400000.0 -0.1747138756 -0.4989237964
1532350000.0 -0.3809821171 -0.2834789781
1542300000.0 -0.4221134792 0.0222408625
1552250000.0 -0.2721954009 0.2967358664
1562200000.0 0.0079079905 0.4242692096
1572150000.0 0.2980961719 0.3573551595
1582100000.0 0.4777069063 0.1376897934
1592050000.0 0.4887409193 -0.1398812661
1602000000.0 0.3315861726 -0.3689761276
1611950000.0 0.0594268299 -0.4627563138
1621900000.0 -0.2274368437 -0.3717897241
1631850000.0 -0.4090165848 -0.1174463394
1641800000.0 -0.4007871714 0.2012042106
1651750000.0 -0.2008969364 0.4496285798
1661700000.0 0.1035527758 0.524440602
1671650000.0 0.38764255 0.4063222875
1681600000.0 0.5515768413 0.149140975
1691550000.0 0.5445400204 -0.1576962519
1701500000.0 0.3678090025 -0.4166322524
1711450000.0 0.069080236 -0.5379498643
1721400000.0 -0.2594529101 -0.4666505846
1731350000.0 -0.4972191227 -0.2121367399
1741300000.0 -0.5497762192 0.1359243959
1751250000.0 -0.4005657664 0.4443002929
1761200000.0 -0.1155977793 0.6099167801
1771150000.0 0.2022568352 0.5959320818
1781100000.0 0.4608104697 0.4213141245
1791050000.0 0.5942088932 0.1382082488
1801000000.0 0.5654652275 -0.1799090669
1810950000.0 0.3735928542 -0.4456945006
1820900000.0 0.0604171429 -0.5677066871
1830850000.0 -0.2734805743 -0.4882238399
1840800000.0 -0.5036500772 -0.2320494786
1850750000.0 -0.5543311881 0.0957177124
1860700000.0 -0.4313357186 0.3834340097
1870650000.0 -0.1871957592 0.5514384441
1880600000.0 0.0661580407 0.5354426519
1890550000.0 0.259145771 0.4763596273
1900500000.0 0.438120403 0.2857343082
1910450000.0 0.475516972 0.0142450526
1920400000.0 0.3590403069 -0.235471058
1930350000.0 0.1297780553 -0.3733749744
1940300000.0 -0.1228232774 -0.3590929685
1950250000.0 -0.3079931781 -0.2223499157
1960200000.0 -0.382972816 -0.0328850012
1970150000.0 -0.3519446936 0.1419708982
1980100000.0 -0.2492167305 0.2538790397
1990050000.0 -0.126415863 0.2819306708
2000000000.0 -0.0379251729 0.2378855663
