!Created with skrf (http://scikit-rf.org).
# GHz S RI R 50.0 
!freq ReS11 ImS11
10000000.0 -0.8305189455 0.0579870275
14975000.0 -0.8336964615 0.0893813331
19950000.0 -0.8371727224 0.1230025375
24925000.0 -0.8391719337 0.1594111108
29900000.0 -0.8393026012 0.1977457993
34875000.0 -0.835664888 0.2386333326
39850000.0 -0.8277652442 0.2818527735
44825000.0 -0.8154112703 0.3272433864
49800000.0 -0.7988784485 0.3745348325
54775000.0 -0.7775433619 0.4234038398
59750000.0 -0.7514682881 0.4738758858
64725000.0 -0.72061203 0.525737929
69700000.0 -0.684481502 0.5786869136
74675000.0 -0.6425898101 0.6329040116
79650000.0 -0.5941759805 0.6880508866
84625000.0 -0.5383983521 0.7438005559
89600000.0 -0.4734305841 0.7994819365
94575000.0 -0.3978872759 0.8534841979
99550000.0 -0.3094463451 0.9032563501
104525000.0 -0.2066819356 0.9448695903
109500000.0 -0.0895562013 0.973539472
114475000.0 0.0403413641 0.9840308616
119450000.0 0.1786939736 0.9725828389
124425000.0 0.3200064943 0.9362161504
129400000.0 0.4569446562 0.8736547925
134375000.0 0.5814550326 0.7908503177
139350000.0 0.6947607393 0.6833494439
144325000.0 0.7869268355 0.5605260643
149300000.0 0.8562207199 0.4274394544
154275000.0 0.9017424416 0.2908176982
159250000.0 0.9243341563 0.1559261849
164225000.0 0.9258839421 0.0278961962
169200000.0 0.9099097381 -0.0899034375
174175000.0 0.8802754045 -0.1954376461
179150000.0 0.8416709446 -0.2876455957
184125000.0 0.7980592839 -0.3672011902
189100000.0 0.7529081777 -0.4355936235
194075000.0 0.7081165382 -0.4946519422
199050000.0 0.6648858758 -0.5462816126
204025000.0 0.6230285859 -0.5922890034
209000000.0 0.5824070395 -0.6336692183
213975000.0 0.5419884121 -0.6712621403
218950000.0 0.5013576238 -0.705172506
223925000.0 0.4603277454 -0.7356065726
228900000.0 0.4185706249 -0.7625562814
233875000.0 0.3760941311 -0.7857518513
238850000.0 0.3323621133 -0.8054238788
243825000.0 0.2849350636 -0.8215582504
248800000.0 0.2734834649 -0.8094472391
253775000.0 0.2160081449 -0.8399788189
258750000.0 0.1725491756 -0.8477144104
263725000.0 0.1316355579 -0.8523077199
268700000.0 0.0924345688 -0.8548465609
273675000.0 0.0544224848 -0.8557685044
278650000.0 0.0174883128 -0.8554899094
283625000.0 -0.0193356577 -0.854189765
288600000.0 -0.0565472946 -0.8518944985
293575000.0 -0.0947669625 -0.8483035382
298550000.0 -0.1347640747 -0.8424721954
303525000.0 -0.1768529309 -0.8338661257
308500000.0 -0.2207762043 -0.8208136265
313475000.0 -0.2659845636 -0.8025111336
318450000.0 -0.3119414408 -0.77770665
323425000.0 -0.3574869446 -0.745784176
328400000.0 -0.4013649952 -0.7067643081
333375000.0 -0.442143298 -0.6604191026
338350000.0 -0.4786121817 -0.6067933566
343325000.0 -0.5091765435 -0.5464818405
348300000.0 -0.5323881012 -0.4807694699
353275000.0 -0.5466060627 -0.410735993
358250000.0 -0.5512568953 -0.3377988179
363225000.0 -0.5451461805 -0.2646896661
368200000.0 -0.5281797006 -0.1941441777
373175000.0 -0.5014630075 -0.1284031565
378150000.0 -0.4666399752 -0.0696266359
383125000.0 -0.4253633227 -0.0189312999
388100000.0 -0.3794341347 0.0230559723
393075000.0 -0.3313795146 0.0560032441
398050000.0 -0.2868051149 0.082855955
403025000.0 -0.2364457344 0.0972690525
408000000.0 -0.2038237893 0.1019304392
412975000.0 -0.1643945731 0.1059262095
417950000.0 -0.1256988149 0.1055133247
422925000.0 -0.0901551194 0.1002118014
427900000.0 -0.0553662037 0.0911297428
432875000.0 -0.0285512109 0.0790608719
437850000.0 -0.0023373167 0.0668529288
442825000.0 0.0129761304 0.0543036458
447800000.0 0.0335239218 0.0390271262
452775000.0 0.0410284871 0.0273287419
457750000.0 0.0511058014 0.013071162
462725000.0 0.0587756315 -0.0011686263
467700000.0 0.0638849869 -0.0146088602
472675000.0 0.0668557955 -0.0269781491
477650000.0 0.0681448297 -0.0382101135
482625000.0 0.068119318 -0.0481625187
487600000.0 0.0658431153 -0.0571006824
492575000.0 0.0625508382 -0.063361866
497550000.0 0.0733445848 -0.0681583043
502525000.0 0.0679624358 -0.0751524724
507500000.0 0.0637297999 -0.0777810565
512475000.0 0.0577997549 -0.0800584267
517450000.0 0.0515442234 -0.0810934534
522425000.0 0.044246091 -0.081586237
527400000.0 0.0336327233 -0.0816239267
532375000.0 0.0296788564 -0.0788225994
537350000.0 0.0223869487 -0.0758251985
542325000.0 0.0151545806 -0.0726107878
547300000.0 0.0077566644 -0.0688699389
552275000.0 0.0005393257 -0.0639047059
557250000.0 -0.006053315 -0.0577810803
562225000.0 -0.0119729137 -0.0508142428
567200000.0 -0.0174276819 -0.0429911731
572175000.0 -0.0220108917 -0.0338966364
577150000.0 -0.0254920445 -0.0240079388
582125000.0 -0.028567554 -0.0135269267
587100000.0 -0.030792615 -0.0020370474
592075000.0 -0.0323621491 0.0095716886
597050000.0 -0.0332112831 0.0213524372
602025000.0 -0.0332325869 0.0329999838
607000000.0 -0.0323578896 0.0445169918
611975000.0 -0.0303867631 0.0553999112
616950000.0 -0.0276162395 0.0655653069
621925000.0 -0.0242275158 0.0750553593
626900000.0 -0.0198597177 0.0836296209
631875000.0 -0.014627963 0.0911275899
636850000.0 -0.0088871041 0.0978373154
641825000.0 -0.002475351 0.1037345747
646800000.0 0.0040858814 0.1089502304
651775000.0 0.0111671127 0.1134486111
656750000.0 0.0186667125 0.1177407144
661725000.0 0.0261412699 0.1216413307
666700000.0 0.0334357395 0.1252505159
671675000.0 0.0411887963 0.1282723532
676650000.0 0.0491785308 0.131257875
681625000.0 0.0575818046 0.1335234494
686600000.0 0.0663664226 0.1353575795
691575000.0 0.0754865458 0.1364605976
696550000.0 0.0847623384 0.135984853
701525000.0 0.094355695 0.1342436197
706500000.0 0.1038643811 0.1309597624
711475000.0 0.1139208778 0.1263177767
716450000.0 0.1239928599 0.1200897496
721425000.0 0.1341426203 0.1125637899
726400000.0 0.144209583 0.1037560792
731375000.0 0.1536304486 0.0934336822
736350000.0 0.1627687568 0.081972296
741325000.0 0.1713541082 0.0692238012
746300000.0 0.1788833328 0.0556068806
751275000.0 0.1858848544 0.0409443142
756250000.0 0.1910631216 0.0255668435
761225000.0 0.1949728654 0.0094499331
766200000.0 0.1975815136 -0.0077578244
771175000.0 0.1805087358 -0.0283322946
776150000.0 0.1792795427 -0.0470772382
781125000.0 0.1762381723 -0.0666015322
786100000.0 0.1718201387 -0.0862031952
791075000.0 0.1654597813 -0.1063247942
796050000.0 0.1577509346 -0.1263324072
801025000.0 0.1483834838 -0.1467554481
806000000.0 0.1374875634 -0.1661578372
810975000.0 0.1252020036 -0.1850304507
815950000.0 0.1115172855 -0.2030103185
820925000.0 0.0967526922 -0.2201181099
825900000.0 0.0812057487 -0.236081502
830875000.0 0.0653465048 -0.2505635566
835850000.0 0.0482445143 -0.2630525422
840825000.0 0.0308984829 -0.2744515099
845800000.0 0.0126786913 -0.2843433805
850775000.0 -0.0059461821 -0.2927170185
855750000.0 -0.0254743422 -0.3005251703
860725000.0 -0.0460182894 -0.3074655347
865700000.0 -0.0675318672 -0.313260724
870675000.0 -0.0904911215 -0.3181608472
875650000.0 -0.1145416672 -0.3216054095
880625000.0 -0.1401616474 -0.3226989286
885600000.0 -0.1664299028 -0.3218579632
890575000.0 -0.1938018402 -0.3183468037
895550000.0 -0.2213059433 -0.3121494996
900525000.0 -0.2483817445 -0.3029158581
905500000.0 -0.2751389717 -0.2902870117
910475000.0 -0.3012327053 -0.2739828934
915450000.0 -0.3261924599 -0.2544338243
920425000.0 -0.3497433248 -0.2309221259
925400000.0 -0.3719696864 -0.2039481335
930375000.0 -0.3923173791 -0.1732727252
935350000.0 -0.410767273 -0.1391654985
940325000.0 -0.4270918181 -0.1017125599
945300000.0 -0.4407627996 -0.0602735514
950275000.0 -0.4515344944 -0.0149328429
955250000.0 -0.4588299347 0.0343639525
960225000.0 -0.4610098651 0.0877799388
965200000.0 -0.4570854213 0.1454136202
970175000.0 -0.4457425673 0.2066514972
975150000.0 -0.4247242578 0.2699943185
980125000.0 -0.3923571708 0.3344877931
985100000.0 -0.3475256549 0.3973849977
990075000.0 -0.2898635671 0.4555484792
995050000.0 -0.2204099084 0.5054933873
1000025000.0 -0.1526710978 0.5507614075
1005000000.0 -0.0708890449 0.5788446428
1009975000.0 0.0156043457 0.5955258375
1014950000.0 0.1062876599 0.6002802031
1019925000.0 0.2008266262 0.5921628021
1024900000.0 0.2972723169 0.5677071204
1029875000.0 0.3916206588 0.5240172054
1034850000.0 0.4793198438 0.4607630482
1039825000.0 0.5554345978 0.3787536603
1044800000.0 0.6159095132 0.2815316232
1049775000.0 0.6574418217 0.1733455797
1054750000.0 0.6779101587 0.0614735101
1059725000.0 0.6867339019 -0.0463936635
1064700000.0 0.6857897704 -0.1594046634
1069675000.0 0.662005832 -0.2706337507
1074650000.0 0.622117342 -0.3715425921
1079625000.0 0.5703936975 -0.4590461232
1084600000.0 0.5234450801 -0.5369808582
1089575000.0 0.4562304487 -0.6163236915
1094550000.0 0.3739579965 -0.6788365658
1099525000.0 0.2850290015 -0.7244884799
1104500000.0 0.1932804697 -0.7530351111
1109475000.0 0.1015201996 -0.7676064563
1114450000.0 0.0117515007 -0.7688224207
1119425000.0 -0.0740489939 -0.7592434483
1124400000.0 -0.1546207171 -0.7398122738
1129375000.0 -0.2298208152 -0.7117109889
1134350000.0 -0.2992382489 -0.6767130686
1139325000.0 -0.362171378 -0.6352451975
1144300000.0 -0.4052304886 -0.5931618363
1149275000.0 -0.4543622856 -0.5411597167
1154250000.0 -0.4956221532 -0.4863936714
1159225000.0 -0.5280375285 -0.430721655
1164200000.0 -0.5532905723 -0.3760750412
1169175000.0 -0.5740434562 -0.3232295636
1174150000.0 -0.590314447 -0.2699378481
1179125000.0 -0.6018558017 -0.216581219
1184100000.0 -0.6086038004 -0.1643617593
1189075000.0 -0.6114029971 -0.1139864408
1194050000.0 -0.6102591015 -0.0662836193
1199025000.0 -0.6062975839 -0.0212845223
1204000000.0 -0.6017786106 0.019778834
1208975000.0 -0.5929956397 0.0586172907
1213950000.0 -0.5823859103 0.0953394365
1218925000.0 -0.5709646968 0.1288666182
1223900000.0 -0.559398646 0.1588062062
1228875000.0 -0.5470786013 0.1862989541
1233850000.0 -0.5352552874 0.2120270521
1238825000.0 -0.5234792896 0.2358527827
1243800000.0 -0.5112990126 0.2582528071
1248775000.0 -0.4994461195 0.2806935515
1253750000.0 -0.487269907 0.3020867384
1258725000.0 -0.474496235 0.322443765
1263700000.0 -0.4612226961 0.3425776285
1268675000.0 -0.4481799731 0.3618258273
1273650000.0 -0.4345079681 0.3797707779
1278625000.0 -0.4206254377 0.3962912668
1283600000.0 -0.406951896 0.4112574718
1288575000.0 -0.393066631 0.4242437381
1293550000.0 -0.3791433519 0.4361268527
1298525000.0 -0.3652409073 0.4453493718
1303500000.0 -0.3522063258 0.452725733
1308475000.0 -0.3392953247 0.4586900802
1313450000.0 -0.3277052172 0.4620253114
1318425000.0 -0.3177398098 0.463770241
1323400000.0 -0.3098587178 0.4644268476
1328375000.0 -0.3044571567 0.4648928743
1333350000.0 -0.3009626123 0.466549965
1338325000.0 -0.2989847605 0.4701547986
1343300000.0 -0.2978692159 0.4759976379
1348275000.0 -0.2953127482 0.4843110622
1353250000.0 -0.2913560738 0.4940357734
1358225000.0 -0.2857439644 0.5049559752
1363200000.0 -0.2782759891 0.5163905457
1368175000.0 -0.2690925148 0.5274731155
1373150000.0 -0.2583326998 0.5373803548
1378125000.0 -0.2467454288 0.5465711001
1383100000.0 -0.2339441127 0.5547776346
1388075000.0 -0.2209100746 0.5612016311
1393050000.0 -0.2073368502 0.5655908332
1398025000.0 -0.1934433199 0.5682797558
1403000000.0 -0.1796607719 0.5689601979
1407975000.0 -0.1663522383 0.5681104017
1412950000.0 -0.1535591984 0.5655391083
1417925000.0 -0.1423552318 0.561628128
1422900000.0 -0.1342746493 0.5567405402
1427875000.0 -0.1283784704 0.5524982437
1432850000.0 -0.1247545837 0.5488048858
1437825000.0 -0.1233147894 0.5475130067
1442800000.0 -0.1225569789 0.5489362092
1447775000.0 -0.1203935405 0.5531929501
1452750000.0 -0.1157429538 0.5584880024
1457725000.0 -0.1085727552 0.5638507263
1462700000.0 -0.0987900413 0.5701827246
1467675000.0 -0.0708419233 0.5630175308
1472650000.0 -0.0558874218 0.5681150336
1477625000.0 -0.0399678593 0.5724039065
1482600000.0 -0.0228253911 0.5755129404
1487575000.0 -0.0051742891 0.5760676065
1492550000.0 0.0138324852 0.5752125915
1497525000.0 0.0330947688 0.5734302861
1502500000.0 0.0519354481 0.5706121477
1507475000.0 0.0712048713 0.5673905925
1512450000.0 0.0897991426 0.5628994217
1517425000.0 0.107362801 0.5578496374
1522400000.0 0.1235883887 0.5526034583
1527375000.0 0.139172275 0.547117528
1532350000.0 0.1535622155 0.5408181531
1537325000.0 0.1668050962 0.5347535506
1542300000.0 0.1800961975 0.528664453
1547275000.0 0.1939595775 0.5217443543
1552250000.0 0.2075600035 0.5146292202
1557225000.0 0.221009935 0.5067360112
1562200000.0 0.2358045657 0.4976027888
1567175000.0 0.250151223 0.4871150165
1572150000.0 0.2648724358 0.4756110317
1577125000.0 0.2798478742 0.4629946656
1582100000.0 0.2949131312 0.4497477662
1587075000.0 0.3098158681 0.4359374751
1592050000.0 0.3251264239 0.4215373093
1597025000.0 0.3395613542 0.4075560002
1602000000.0 0.3545137693 0.3934632117
1606975000.0 0.3687697451 0.3788961867
1611950000.0 0.3825371116 0.364803593
1616925000.0 0.395541307 0.3506868424
1621900000.0 0.4076677567 0.3369285678
1626875000.0 0.4193233022 0.3233430178
1631850000.0 0.4302620568 0.3092195937
1636825000.0 0.4402813165 0.2957020231
1641800000.0 0.4505649679 0.2820920492
1646775000.0 0.4603389749 0.2676876788
1651750000.0 0.4692985831 0.2532830849
1656725000.0 0.4778485155 0.2391919381
1661700000.0 0.486433135 0.2245166439
1666675000.0 0.4936466947 0.2099122876
1671650000.0 0.4998130027 0.1953748865
1676625000.0 0.5055030664 0.1813565179
1681600000.0 0.5099624041 0.1672516291
1686575000.0 0.5128751115 0.153476745
1691550000.0 0.5148816714 0.140522162
1696525000.0 0.5156922109 0.1281436725
1701500000.0 0.5151385772 0.1164685386
1706475000.0 0.5133166942 0.1051911722
1711450000.0 0.5105012943 0.0948296749
1716425000.0 0.5072661807 0.0858913811
1721400000.0 0.5042097784 0.0775525165
1726375000.0 0.502046572 0.069929737
1731350000.0 0.5011165143 0.06334061
1736325000.0 0.5020954029 0.0560501932
1741300000.0 0.5037460649 0.0477540481
1746275000.0 0.5082697352 0.0398618578
1751250000.0 0.5127552859 0.0308230099
1756225000.0 0.5172670593 0.0215123696
1761200000.0 0.5213392971 0.0121217719
1766175000.0 0.5246634515 0.0030883964
1771150000.0 0.5277244389 -0.005544749
1776125000.0 0.5288105099 -0.0138198416
1781100000.0 0.5276921034 -0.0213919644
1786075000.0 0.524584336 -0.027660962
1791050000.0 0.519646961 -0.0327647699
1796025000.0 0.5132804931 -0.0370631552
1801000000.0 0.5049321981 -0.0392719226
1805975000.0 0.4962199531 -0.0404039331
1810950000.0 0.4878537829 -0.0403410646
1815925000.0 0.4810421143 -0.0392915397
1820900000.0 0.4749306394 -0.0381319132
1825875000.0 0.4709011106 -0.0374199958
1830850000.0 0.4661207199 -0.0382487746
1835825000.0 0.4599110985 -0.0378456608
1840800000.0 0.4516757232 -0.0274206193
1845775000.0 0.4583330041 -0.0105230308
1850750000.0 0.4693978667 -0.0100607758
1855725000.0 0.4764601834 -0.0144839434
1860700000.0 0.4795901442 -0.0193361645
1865675000.0 0.481320944 -0.0241111614
1870650000.0 0.479316653 -0.0300659862
1875625000.0 0.473021925 -0.0346684146
1880600000.0 0.4654368474 -0.0389000466
1885575000.0 0.4545063745 -0.0428770462
1890550000.0 0.441039168 -0.0453953166
1895525000.0 0.4258728956 -0.0468192964
1900500000.0 0.4571296752 -0.0435992007
1905475000.0 0.4420852308 -0.040283669
1910450000.0 0.4283413355 -0.0373762699
1915425000.0 0.414615489 -0.0330444369
1920400000.0 0.4034925183 -0.0282771933
1925375000.0 0.3940992927 -0.0236759163
1930350000.0 0.3855966342 -0.0193824049
1935325000.0 0.3786923561 -0.0173197004
1940300000.0 0.3705610547 -0.0148207744
1945275000.0 0.3612347505 -0.0123249575
1950250000.0 0.3510842487 -0.0100145217
1955225000.0 0.3384921781 -0.0072524756
1960200000.0 0.323511309 -0.0039429078
1965175000.0 0.307790245 -0.0013218226
1970150000.0 0.2896294189 0.0018103959
1975125000.0 0.2697219223 0.0047004708
1980100000.0 0.2225468682 -0.010485716
1985075000.0 0.1981902192 -0.0080906456
1990050000.0 0.1724468154 -0.0064998098
1995025000.0 0.1432325032 -0.0033455551
2000000000.0 0.1116346087 0.0009862255
