!Created with skrf (http://scikit-rf.org).
# GHz S RI R 50.0 
!freq ReS11 ImS11
10000000.0 -0.8010888949 0.6024075563
19950000.0 -0.2888252354 0.9406452511
29900000.0 0.3208978578 0.9163595947
39850000.0 0.8071243715 0.5371894675
49800000.0 0.9787793488 -0.068373352
59750000.0 0.7416317289 -0.6703897581
69700000.0 0.1626499963 -0.9993782406
79650000.0 -0.5092867132 -0.869701615
89600000.0 -0.9367733845 -0.3116444528
99550000.0 -0.8751782113 0.4094622603
109500000.0 -0.3161238173 0.9072346185
119450000.0 0.4629729269 0.8588889261
129400000.0 0.9671339716 0.2047632402
139350000.0 0.8121005961 -0.5919768005
149300000.0 0.0744194512 -0.9819570581
159250000.0 -0.6762204862 -0.6722650865
169200000.0 -0.9351829685 0.0630447924
179150000.0 -0.5994869845 0.729813835
189100000.0 0.0801768995 0.9588159461
199050000.0 0.7073363869 0.6665339556
209000000.0 0.963297464 0.0455797194
218950000.0 0.7567151658 -0.5652771412
228900000.0 0.2228983135 -0.8959158173
238850000.0 -0.3906150618 -0.8228607423
248800000.0 -0.6471023901 -0.4207274796
258750000.0 -0.9104310549 0.1686910599
268700000.0 -0.6264512563 0.6992501643
278650000.0 -0.0793079729 0.9335601213
288600000.0 0.4890869789 0.7736548112
298550000.0 0.8293650047 0.2960942883
308500000.0 0.7953533017 -0.2863451225
318450000.0 0.4031984454 -0.710911704
328400000.0 -0.1626561306 -0.7794101548
338350000.0 -0.6169604482 -0.4589762007
348300000.0 -0.7176737342 0.0631608629
358250000.0 -0.4382703861 0.4726348574
368200000.0 0.0059214247 0.5476797754
378150000.0 0.3259597839 0.3099020687
388100000.0 0.3672833847 -0.0315932917
398050000.0 0.1804486868 -0.2531384363
408000000.0 -0.0587311638 -0.2616249399
417950000.0 -0.1946960839 -0.1181508703
427900000.0 -0.181025462 0.0468211849
437850000.0 -0.0693244283 0.1324943462
447800000.0 0.0506302496 0.1145635188
457750000.0 0.1120381964 0.0305149319
467700000.0 0.0963185446 -0.0560467385
477650000.0 0.0374221206 -0.0946289052
487600000.0 -0.0139892527 -0.07837605
497550000.0 -0.0577274112 -0.0994583563
507500000.0 -0.0488723435 -0.0054704525
517450000.0 -0.0175469538 0.0090027344
527400000.0 -0.0009591162 -0.0029266051
537350000.0 -0.0118797041 -0.0193252845
547300000.0 -0.042253215 -0.0150093102
557250000.0 -0.06541087 0.0216570029
567200000.0 -0.0551843181 0.0745431931
577150000.0 -0.0041692581 0.1134056434
587100000.0 0.0692290179 0.1086185615
597050000.0 0.1315408808 0.0509854484
607000000.0 0.1455503411 -0.0431914114
616950000.0 0.0963401439 -0.1335450903
626900000.0 -0.0010999587 -0.1788893522
636850000.0 -0.1086093873 -0.1572114058
646800000.0 -0.1822105796 -0.0731924812
656750000.0 -0.188439772 0.038184891
666700000.0 -0.1232519616 0.1288111413
676650000.0 -0.0153021189 0.159394806
686600000.0 0.0875121983 0.1142661903
696550000.0 0.1383328544 0.0165405802
706500000.0 0.1160769695 -0.0855931244
716450000.0 0.0370650635 -0.1434407234
726400000.0 -0.0539863289 -0.1288963583
736350000.0 -0.1025786932 -0.0538830464
746300000.0 -0.078282679 0.0359929516
756250000.0 0.010718154 0.0844050616
766200000.0 0.1150492723 0.0539056454
776150000.0 0.1719753102 -0.0480907172
786100000.0 0.1387873844 -0.170229917
796050000.0 0.0181655448 -0.2403686358
806000000.0 -0.1351913972 -0.2049127163
815950000.0 -0.2400158286 -0.0611921959
825900000.0 -0.2294033083 0.1351212904
835850000.0 -0.0900586239 0.2941513567
845800000.0 0.127915856 0.3358795547
855750000.0 0.3330711435 0.2303200183
865700000.0 0.4329116583 0.0128945966
875650000.0 0.3726900805 -0.2305581859
885600000.0 0.1631300841 -0.3895635049
895550000.0 -0.1128145682 -0.3832073836
905500000.0 -0.3337727357 -0.2004310086
915450000.0 -0.3930740227 0.0893883702
925400000.0 -0.2513622312 0.3520843225
935350000.0 0.0288613726 0.4559106584
945300000.0 0.3080355232 0.3397324262
955250000.0 0.430934538 0.0493939976
965200000.0 0.298083798 -0.26293805
975150000.0 -0.0518241466 -0.3843181306
985100000.0 -0.4003890167 -0.1729411077
995050000.0 -0.4501159857 0.2723310168
1005000000.0 -0.0878810331 0.6034669784
1014950000.0 0.4399620905 0.498122947
1024900000.0 0.6983018735 -0.0297824928
1034850000.0 0.4253244226 -0.5980981709
1044800000.0 -0.2094465497 -0.7458849008
1054750000.0 -0.7161739658 -0.3574789425
1064700000.0 -0.7667686055 0.2070823534
1074650000.0 -0.4609905799 0.6744965894
1084600000.0 0.0629343535 0.7963899152
1094550000.0 0.5825474781 0.5356818457
1104500000.0 0.7603144181 -0.0344680139
1114450000.0 0.4721692697 -0.5588713646
1124400000.0 -0.0887285011 -0.6983876011
1134350000.0 -0.538109772 -0.4017729101
1144300000.0 -0.6281827882 0.083046912
1154250000.0 -0.3740476995 0.4597044682
1164200000.0 0.0420517076 0.5499482908
1174150000.0 0.3947976525 0.3399308092
1184100000.0 0.5010867412 -0.0569539404
1194050000.0 0.295272525 -0.4048589163
1204000000.0 -0.07917745 -0.5053055442
1213950000.0 -0.4076207222 -0.3390105298
1223900000.0 -0.5502321836 -0.0175829747
1233850000.0 -0.4715463362 0.3150385311
1243800000.0 -0.20979582 0.536400754
1253750000.0 0.1419327509 0.5582447896
1263700000.0 0.4446214904 0.3547846092
1273650000.0 0.5631283987 0.0038203829
1283600000.0 0.4507742762 -0.3466850738
1293550000.0 0.1659102595 -0.5630883156
1303500000.0 -0.1769241535 -0.5867749857
1313450000.0 -0.470287466 -0.4299785738
1323400000.0 -0.637169117 -0.1468198515
1333350000.0 -0.6314546816 0.1870722015
1343300000.0 -0.4394739331 0.4766252928
1353250000.0 -0.103563011 0.6146264885
1363200000.0 0.2625972539 0.5343867274
1373150000.0 0.5209681803 0.2593131766
1383100000.0 0.5817510365 -0.1043581459
1393050000.0 0.4445607693 -0.4282153881
1403000000.0 0.1717996407 -0.6224664205
1412950000.0 -0.1496444533 -0.6457170232
1422900000.0 -0.4314491905 -0.4999114148
1432850000.0 -0.5948649004 -0.2228232322
1442800000.0 -0.5832655399 0.1092265621
1452750000.0 -0.3851504327 0.3898972191
1462700000.0 -0.0576993994 0.5162130533
1472650000.0 0.2817201624 0.4386113015
1482600000.0 0.5120625477 0.1943881865
1492550000.0 0.566170337 -0.1207636894
1502500000.0 0.443310375 -0.3998002413
1512450000.0 0.192693021 -0.558681266
1522400000.0 -0.102971981 -0.5468978031
1532350000.0 -0.341297493 -0.3636636827
1542300000.0 -0.4315121513 -0.0693236657
1552250000.0 -0.3309703303 0.2248280192
1562200000.0 -0.0799775018 0.3979632263
1572150000.0 0.2113999494 0.3869481576
1582100000.0 0.4254008648 0.2117753838
1592050000.0 0.4855293286 -0.0465532654
1602000000.0 0.3774828896 -0.2841199469
1611950000.0 0.14330942 -0.4098959572
1621900000.0 -0.1290423063 -0.36901581
1631850000.0 -0.3296492129 -0.1638424889
1641800000.0 -0.3631008647 0.1292512422
1651750000.0 -0.2075977617 0.3801499974
1661700000.0 0.0644761629 0.4787774158
1671650000.0 0.334719371 0.3937032676
1681600000.0 0.500967521 0.1673663251
1691550000.0 0.5077678506 -0.1174314403
1701500000.0 0.347978302 -0.3638910281
1711450000.0 0.0662760889 -0.4823398072
1721400000.0 -0.2449735316 -0.4144061906
1731350000.0 -0.4604034604 -0.174139763
1741300000.0 -0.4959766997 0.1372239326
1751250000.0 -0.3599109007 0.4053415028
1761200000.0 -0.1061732741 0.559582084
1771150000.0 0.1892207774 0.5542395907
1781100000.0 0.4361078377 0.3950677067
1791050000.0 0.5663486277 0.1295928473
1801000000.0 0.5409361891 -0.1727002325
1810950000.0 0.3550297812 -0.426286631
1820900000.0 0.0505655136 -0.5402813044
1830850000.0 -0.2712060518 -0.460366257
1840800000.0 -0.4882011163 -0.2152030271
1850750000.0 -0.5330637944 0.096086521
1860700000.0 -0.4125663612 0.3654580952
1870650000.0 -0.1868726512 0.524942251
1880600000.0 0.0745400077 0.5483520607
1890550000.0 0.3048262765 0.4384924367
1900500000.0 0.4426161427 0.2246545493
1910450000.0 0.4420060959 -0.0302887184
1920400000.0 0.3005781728 -0.2402513582
1930350000.0 0.0740571215 -0.3292672038
1940300000.0 -0.14587181 -0.279556401
1950250000.0 -0.2831502648 -0.1372107226
1960200000.0 -0.3149822264 0.0270759
1970150000.0 -0.2615121404 0.1516721723
1980100000.0 -0.1708147674 0.2010424825
1990050000.0 -0.1017326166 0.1764684249
2000000000.0 -0.10089537 0.1251175234
