!Created with skrf (http://scikit-rf.org).
# GHz S RI R 50.0 
!freq ReS11 ImS11
10000000.0 -0.7381973044 0.5606377506
19950000.0 -0.2691183341 0.8863300136
29900000.0 0.3053274455 0.8730632029
39850000.0 0.7711416243 0.5127655379
49800000.0 0.9315691237 -0.0728745286
59750000.0 0.6918525082 -0.6517522393
69700000.0 0.1263591671 -0.9573761369
79650000.0 -0.5169379252 -0.815757039
89600000.0 -0.9156597509 -0.2601318727
99550000.0 -0.8300175096 0.4513752274
109500000.0 -0.2450231232 0.9232442314
119450000.0 0.5374462784 0.813528427
129400000.0 0.9831785704 0.117798192
139350000.0 0.7206539155 -0.6783816181
149300000.0 -0.0559932366 -0.9628667715
159250000.0 -0.7419539149 -0.5605727232
169200000.0 -0.8936566067 0.1781077909
179150000.0 -0.4959928942 0.763819622
189100000.0 0.1543507885 0.8991179568
199050000.0 0.6990969881 0.5737510445
209000000.0 0.894092206 -0.0114399774
218950000.0 0.6829307379 -0.5653566588
228900000.0 0.1858025196 -0.8583721865
238850000.0 -0.3770363401 -0.7835523657
248800000.0 -0.7246746494 -0.3825582315
258750000.0 -0.8548569138 0.159122211
268700000.0 -0.5945190215 0.6486930659
278650000.0 -0.1001335 0.8788042186
288600000.0 0.4267685315 0.760368764
298550000.0 0.7735475991 0.3422976039
308500000.0 0.7940012041 -0.2061871971
318450000.0 0.469436424 -0.6494378807
328400000.0 -0.058301544 -0.7827430442
338350000.0 -0.5323517985 -0.5381734771
348300000.0 -0.7040789754 -0.0536099418
358250000.0 -0.501359749 0.3817722765
368200000.0 -0.0925851921 0.5254074643
378150000.0 0.2399293044 0.3539663834
388100000.0 0.3227238618 0.052517418
398050000.0 0.1871910518 -0.156412183
408000000.0 -0.0064694821 -0.1781335003
417950000.0 -0.1113152438 -0.069762172
427900000.0 -0.089632835 0.0494626722
437850000.0 0.0037274238 0.0910209975
447800000.0 0.0854422846 0.0402718435
457750000.0 0.098506661 -0.0511738963
467700000.0 0.04054345 -0.1223158943
477650000.0 -0.0459933761 -0.1301598232
487600000.0 -0.1100194248 -0.0759319362
497550000.0 -0.1182709358 -0.0026736548
507500000.0 -0.0828524674 0.0688414342
517450000.0 -0.0141243749 0.0913812746
527400000.0 0.0435458728 0.0683051238
537350000.0 0.0635908223 0.0197289484
547300000.0 0.044160496 -0.0200598481
557250000.0 0.0044926245 -0.029214682
567200000.0 -0.0231830178 -0.0067938868
577150000.0 -0.0185279261 0.0245171922
587100000.0 0.0143456613 0.0365381969
597050000.0 0.0527864442 0.0111376393
607000000.0 0.0640912146 -0.0439315097
616950000.0 0.0312346367 -0.0989183278
626900000.0 -0.034877087 -0.1212649472
636850000.0 -0.1043069974 -0.0913393644
646800000.0 -0.1411055611 -0.0177966185
656750000.0 -0.1231073279 0.0686431356
666700000.0 -0.0516179542 0.1287968447
676650000.0 0.045683399 0.1314279054
686600000.0 0.1270210873 0.0686561448
696550000.0 0.1527447001 -0.0339454153
706500000.0 0.1064558221 -0.1320042436
716450000.0 0.0094746409 -0.1789878295
726400000.0 -0.0933723045 -0.1483433935
736350000.0 -0.1463499108 -0.0551320814
746300000.0 -0.1191135949 0.0534059072
756250000.0 -0.0210953028 0.1190126658
766200000.0 0.0981964902 0.1007346329
776150000.0 0.1750874645 0.0062417781
786100000.0 0.1625799653 -0.1180801612
796050000.0 0.0608130251 -0.2003028756
806000000.0 -0.0798226665 -0.1837244035
815950000.0 -0.182536048 -0.0648594668
825900000.0 -0.1788359508 0.1053246837
835850000.0 -0.0573237693 0.2382242876
845800000.0 0.1238411223 0.2538592798
855750000.0 0.2721233488 0.1525025631
865700000.0 0.3374737435 -0.0275875905
875650000.0 0.268361891 -0.2273195578
885600000.0 0.0708621479 -0.3415662769
895550000.0 -0.1713641768 -0.2955517752
905500000.0 -0.3353197596 -0.089581434
915450000.0 -0.326145099 0.1881284711
925400000.0 -0.1338134031 0.3980106146
935350000.0 0.1538039226 0.4272055901
945300000.0 0.3936984 0.24651517
955250000.0 0.4484702714 -0.0723438242
965200000.0 0.2502010688 -0.3668264265
975150000.0 -0.1317519729 -0.4385374892
985100000.0 -0.4707977924 -0.1824776067
995050000.0 -0.501697087 0.2759131145
1005000000.0 -0.1453467083 0.6162376058
1014950000.0 0.3808660714 0.5514790593
1024900000.0 0.6880410849 0.0605989892
1034850000.0 0.4804087834 -0.5323969535
1044800000.0 -0.1451543716 -0.7366817817
1054750000.0 -0.6870861698 -0.3516166725
1064700000.0 -0.735023168 0.254452868
1074650000.0 -0.3553193888 0.7234176735
1084600000.0 0.2290370628 0.755378139
1094550000.0 0.6687878867 0.3637278283
1104500000.0 0.690298798 -0.2308318657
1114450000.0 0.2811732377 -0.6532271974
1124400000.0 -0.2780059422 -0.6457638441
1134350000.0 -0.6373455355 -0.2650921119
1144300000.0 -0.6340031009 0.2234259127
1154250000.0 -0.3237275853 0.5632779756
1164200000.0 0.1136158247 0.6109350332
1174150000.0 0.468882687 0.3654412632
1184100000.0 0.5719697684 -0.0577119107
1194050000.0 0.3626992471 -0.4332055637
1204000000.0 -0.0258751954 -0.5647545589
1213950000.0 -0.3856299917 -0.4232284415
1223900000.0 -0.5728946122 -0.1097123149
1233850000.0 -0.5414953821 0.2391466384
1243800000.0 -0.314974994 0.5004802815
1253750000.0 0.0272241889 0.5768927319
1263700000.0 0.3558053413 0.4262223677
1273650000.0 0.5288698573 0.1008710631
1283600000.0 0.4722748732 -0.2591399226
1293550000.0 0.2262134204 -0.5064044973
1303500000.0 -0.0974094395 -0.566617322
1313450000.0 -0.3842796345 -0.4459162436
1323400000.0 -0.5598059944 -0.1982428778
1333350000.0 -0.5838507521 0.1076231857
1343300000.0 -0.4373563485 0.3903911963
1353250000.0 -0.1425496453 0.5473150635
1363200000.0 0.2025157123 0.5009310808
1373150000.0 0.4600237581 0.254496333
1383100000.0 0.5268039416 -0.0879193581
1393050000.0 0.3969495694 -0.3949084339
1403000000.0 0.1373838889 -0.5695934917
1412950000.0 -0.1552355582 -0.5753321238
1422900000.0 -0.3969881743 -0.4276328118
1432850000.0 -0.5249359669 -0.1686790946
1442800000.0 -0.4953231594 0.1341072896
1452750000.0 -0.2934641168 0.3816329105
1462700000.0 0.0217416383 0.4688410262
1472650000.0 0.3262159764 0.3574693412
1482600000.0 0.5032498511 0.097623437
1492550000.0 0.4986565237 -0.204581168
1502500000.0 0.329736488 -0.4417338011
1512450000.0 0.0620113085 -0.5372839234
1522400000.0 -0.2110221219 -0.459522719
1532350000.0 -0.3888243609 -0.22884133
1542300000.0 -0.3971235386 0.0728975001
1552250000.0 -0.2205892846 0.3241116309
1562200000.0 0.0659302407 0.4157739514
1572150000.0 0.3375589809 0.3201227872
1582100000.0 0.4906186803 0.0896533271
1592050000.0 0.477360888 -0.1813538096
1602000000.0 0.3039950608 -0.3936166573
1611950000.0 0.027945657 -0.4656516684
1621900000.0 -0.2499395576 -0.3565496693
1631850000.0 -0.416008354 -0.0912164137
1641800000.0 -0.389764123 0.2262333357
1651750000.0 -0.1766983545 0.462080293
1661700000.0 0.129338558 0.5199875928
1671650000.0 0.4040787068 0.3905984082
1681600000.0 0.5543760762 0.1323083784
1691550000.0 0.5374071598 -0.1665993589
1701500000.0 0.3560809264 -0.4121161234
1711450000.0 0.0625854333 -0.5200112173
1721400000.0 -0.2530770613 -0.4420746435
1731350000.0 -0.4766658736 -0.1914235456
1741300000.0 -0.520231103 0.1429411286
1751250000.0 -0.3715657107 0.4350205869
1761200000.0 -0.0970956146 0.5868314435
1771150000.0 0.203575698 0.5660604322
1781100000.0 0.4419503978 0.3952792035
1791050000.0 0.557741657 0.1279371824
1801000000.0 0.5210814341 -0.1647123133
1810950000.0 0.3405818265 -0.3991306631
1820900000.0 0.062871186 -0.5032344598
1830850000.0 -0.2317642339 -0.4357159085
1840800000.0 -0.444380343 -0.2133096839
1850750000.0 -0.5023818311 0.0818735477
1860700000.0 -0.4014167221 0.3448421218
1870650000.0 -0.1935641624 0.5051401156
1880600000.0 0.0512673367 0.532641553
1890550000.0 0.265513807 0.4321623229
1900500000.0 0.3940096011 0.2373531303
1910450000.0 0.4052084299 0.0039393766
1920400000.0 0.2945327206 -0.2006770246
1930350000.0 0.0952548291 -0.3066273841
1940300000.0 -0.1164890916 -0.2830244299
1950250000.0 -0.2665130596 -0.1590233884
1960200000.0 -0.3187547716 0.0022960951
1970150000.0 -0.2813372042 0.1402190401
1980100000.0 -0.1892074506 0.2131691695
1990050000.0 -0.0973464789 0.2070915782
2000000000.0 -0.0611332425 0.1515685432
