!Created with skrf (http://scikit-rf.org).
# GHz S RI R 50.0 
!freq ReS11 ImS11
10000000.0 -0.7386235815 0.6733774636
19950000.0 -0.1034568356 0.9806237934
29900000.0 0.5761821659 0.7914271133
39850000.0 0.9617462933 0.1889757571
49800000.0 0.8356033422 -0.5271645272
59750000.0 0.2409021942 -0.9681652499
69700000.0 -0.5038444894 -0.8649153052
79650000.0 -0.9605682703 -0.2531949456
89600000.0 -0.8323108846 0.5138730348
99550000.0 -0.1636078752 0.9503905702
109500000.0 0.6323942338 0.7233406836
119450000.0 0.9668536873 -0.0710839795
129400000.0 0.5124449672 -0.8365795434
139350000.0 -0.3868231013 -0.9019513886
149300000.0 -0.9441276012 -0.2031924161
159250000.0 -0.7017305881 0.6356364681
169200000.0 0.096016436 0.9341614582
179150000.0 0.8036681171 0.4965944974
189100000.0 0.9051079505 -0.3080512246
199050000.0 0.372480985 -0.8861844656
209000000.0 -0.3862311175 -0.8722299316
218950000.0 -0.8779496181 -0.3324716494
228900000.0 -0.8445611148 0.3766743973
238850000.0 -0.3328249446 0.855137948
248800000.0 0.3910823777 0.6678768561
258750000.0 0.8356558741 0.4002775577
268700000.0 0.8848039034 -0.2891927975
278650000.0 0.4449336538 -0.8084757044
288600000.0 -0.2225863533 -0.8745324399
298550000.0 -0.7412824075 -0.4663564502
308500000.0 -0.8274423624 0.1795669204
318450000.0 -0.4369364506 0.6916466433
328400000.0 0.1940422937 0.7648333056
338350000.0 0.6604085225 0.3581467764
348300000.0 0.6577071285 -0.2319274402
358250000.0 0.2352466705 -0.5780826125
368200000.0 -0.2478222193 -0.4791517492
378150000.0 -0.4444195069 -0.0950534372
388100000.0 -0.2857813546 0.2410592888
398050000.0 0.0242214227 0.3091685544
408000000.0 0.2211025007 0.1366478196
417950000.0 0.1965088513 -0.0834294551
427900000.0 0.034782968 -0.1799802476
437850000.0 -0.1100317017 -0.1175855896
447800000.0 -0.1412834232 0.0177523936
457750000.0 -0.0661633976 0.1141313302
467700000.0 0.0394448098 0.1137626632
477650000.0 0.0951228306 0.0436370141
487600000.0 0.076504687 -0.03074975
497550000.0 0.0589729116 -0.0136029445
507500000.0 -0.0143896153 -0.0691070803
517450000.0 -0.0312937251 -0.0275712233
527400000.0 -0.0170363366 -0.0108222623
537350000.0 -0.0076889131 -0.0237296044
547300000.0 -0.0281658674 -0.0454161556
557250000.0 -0.0695780364 -0.0316059879
567200000.0 -0.0933079632 0.021628057
577150000.0 -0.0697210507 0.0853325257
587100000.0 0.0081826723 0.1188615341
597050000.0 0.0969729206 0.091466635
607000000.0 0.1458353159 -0.0031473197
616950000.0 0.1211013312 -0.1153084226
626900000.0 0.0244121876 -0.1841050464
636850000.0 -0.0993128256 -0.1679531863
646800000.0 -0.184719776 -0.0721578687
656750000.0 -0.1802075616 0.0554941245
666700000.0 -0.0890376621 0.1481133373
676650000.0 0.0386771427 0.1520361816
686600000.0 0.1321599855 0.067023598
696550000.0 0.1411633606 -0.0547334588
706500000.0 0.0650407142 -0.1401734328
716450000.0 -0.0430711426 -0.1409452782
726400000.0 -0.1105307211 -0.0660089956
736350000.0 -0.0903388442 0.0286672035
746300000.0 -0.0012853082 0.0692979775
756250000.0 0.0878754616 0.0193419155
766200000.0 0.0996225023 -0.0908081227
776150000.0 0.0123662303 -0.1786391332
786100000.0 -0.1260134549 -0.1647931999
796050000.0 -0.2189453636 -0.0365420412
806000000.0 -0.184054188 0.1410929924
815950000.0 -0.016280696 0.2502906358
825900000.0 0.2020121227 0.2045779038
835850000.0 0.335187419 0.0070607944
845800000.0 0.2917590959 -0.2440616957
855750000.0 0.0760133283 -0.4035065415
865700000.0 -0.201749701 -0.3705172562
875650000.0 -0.3873209409 -0.144809278
885600000.0 -0.3644646781 0.1543970293
895550000.0 -0.1401337727 0.362681433
905500000.0 0.1749806617 0.3588593629
915450000.0 0.4022288931 0.1301482721
925400000.0 0.3984280981 -0.197999095
935350000.0 0.1546024212 -0.4226931261
945300000.0 -0.1835748427 -0.3932042591
955250000.0 -0.3852618927 -0.1069573997
965200000.0 -0.2779878885 0.2462459934
975150000.0 0.0997460911 0.3664947806
985100000.0 0.4282200903 0.0864761659
995050000.0 0.3433565299 -0.3850315677
1005000000.0 -0.1602915658 -0.5664808754
1014950000.0 -0.6222843117 -0.1843315325
1024900000.0 -0.5313585516 0.4707053674
1034850000.0 0.1169693183 0.763158424
1044800000.0 0.7356658885 0.370211834
1054750000.0 0.7691334456 -0.3545924982
1064700000.0 0.2384099164 -0.7722898639
1074650000.0 -0.3597968122 -0.7329739186
1084600000.0 -0.7732986725 -0.2221994675
1094550000.0 -0.651754371 0.424855724
1104500000.0 -0.0833130117 0.7412103656
1114450000.0 0.5017923379 0.5064569882
1124400000.0 0.6778230634 -0.0621519149
1134350000.0 0.3737682748 -0.5245993439
1144300000.0 -0.1378858881 -0.5889700254
1154250000.0 -0.4986679125 -0.2640826484
1164200000.0 -0.4858356215 0.1994621596
1174150000.0 -0.1296436425 0.4764640754
1184100000.0 0.2955004398 0.3788449435
1194050000.0 0.4856941381 0.0017501384
1204000000.0 0.3332600742 -0.3751042757
1213950000.0 -0.0345015342 -0.5222385065
1223900000.0 -0.3934495982 -0.3680726747
1233850000.0 -0.5464675756 -0.0096874179
1243800000.0 -0.4085519425 0.3623137557
1253750000.0 -0.0504860862 0.5425251765
1263700000.0 0.3376019131 0.4313023332
1273650000.0 0.5524906359 0.0904303701
1283600000.0 0.495207321 -0.3033982786
1293550000.0 0.207579951 -0.5687956729
1303500000.0 -0.1803235851 -0.5979687683
1313450000.0 -0.5045173617 -0.3827622804
1323400000.0 -0.6296460329 -0.0075798296
1333350000.0 -0.4897252485 0.3710320631
1343300000.0 -0.1360624112 0.5797896458
1353250000.0 0.273085486 0.5143776518
1363200000.0 0.5471061425 0.2068726189
1373150000.0 0.5687883643 -0.1968861858
1383100000.0 0.3455317152 -0.5204470733
1393050000.0 -0.0204315869 -0.6410437904
1403000000.0 -0.3823290902 -0.5187653485
1412950000.0 -0.5975672267 -0.2033025772
1422900000.0 -0.5759336912 0.1794779391
1432850000.0 -0.3167024406 0.4678674618
1442800000.0 0.0670436397 0.5300963148
1452750000.0 0.400585851 0.3411488232
1462700000.0 0.539342732 -0.0071539355
1472650000.0 0.4331610272 -0.3581336174
1482600000.0 0.1384734754 -0.5625664854
1492550000.0 -0.2118475797 -0.5410447721
1502500000.0 -0.4699867048 -0.3073258064
1512450000.0 -0.5187001399 0.038197273
1522400000.0 -0.330003071 0.3362591761
1532350000.0 0.0071996164 0.4348549544
1542300000.0 0.3168468452 0.2836299309
1552250000.0 0.4395270867 -0.0275532115
1562200000.0 0.3266901287 -0.3306963398
1572150000.0 0.052880568 -0.4746905777
1582100000.0 -0.2380065627 -0.4007154619
1592050000.0 -0.4052309 -0.153252566
1602000000.0 -0.3636840727 0.1454791355
1611950000.0 -0.1292567687 0.3328627217
1621900000.0 0.1733089097 0.3033875946
1631850000.0 0.3705517517 0.0720787135
1641800000.0 0.3539989829 -0.2286422983
1651750000.0 0.1376775383 -0.4324891918
1661700000.0 -0.1642759106 -0.4397635624
1671650000.0 -0.4006241396 -0.2432139882
1681600000.0 -0.4512122645 0.0665489035
1691550000.0 -0.2760490388 0.3413567084
1701500000.0 0.0507516742 0.427722684
1711450000.0 0.3309307113 0.2686185757
1721400000.0 0.474374597 0.0153744353
1731350000.0 0.4070683128 -0.3364284418
1741300000.0 0.1158428313 -0.5437151302
1751250000.0 -0.2345258843 -0.5197301506
1761200000.0 -0.4945570765 -0.2859699524
1771150000.0 -0.5590011615 0.0627446371
1781100000.0 -0.3938900286 0.3838365974
1791050000.0 -0.0603874397 0.5353360767
1801000000.0 0.298933904 0.4393912434
1810950000.0 0.5124620831 0.1348870458
1820900000.0 0.4864380545 -0.2289579364
1830850000.0 0.2469016827 -0.4887476216
1840800000.0 -0.0896139694 -0.5480278825
1850750000.0 -0.3865667981 -0.3992567565
1860700000.0 -0.5368010641 -0.1101745372
1870650000.0 -0.4876381211 0.2063915826
1880600000.0 -0.2588277478 0.4265583218
1890550000.0 0.0540251253 0.4586574097
1900500000.0 0.3120908916 0.2918702721
1910450000.0 0.4035178674 0.0132429826
1920400000.0 0.3073181043 -0.2458722807
1930350000.0 0.0896674347 -0.3808462858
1940300000.0 -0.1433496224 -0.3590487103
1950250000.0 -0.2990014914 -0.2164405719
1960200000.0 -0.3296719934 -0.0324214126
1970150000.0 -0.2506572729 0.1057560988
1980100000.0 -0.1305311178 0.1475786684
1990050000.0 -0.0494312014 0.1065006387
2000000000.0 -0.0490659311 0.0648128704
