!Created with skrf (http://scikit-rf.org).
# GHz S RI R 50.0 
!freq ReS11 ImS11
10000000.0 -0.9985725892 0.1635047173
19950000.0 -0.9443052145 0.3120325146
29900000.0 -0.8675528458 0.4539666207
39850000.0 -0.7685571843 0.5935061578
49800000.0 -0.6484891516 0.7253509469
59750000.0 -0.50360417 0.8429322791
69700000.0 -0.3269335155 0.9354632811
79650000.0 -0.115527678 0.9853417645
89600000.0 0.1288719838 0.9765867717
99550000.0 0.3932147428 0.891694322
109500000.0 0.6565765654 0.7182594787
119450000.0 0.8805407963 0.4434076947
129400000.0 1.003928633 0.0732176611
139350000.0 0.9681844107 -0.3277128233
149300000.0 0.7567073361 -0.6809646684
159250000.0 0.4261997538 -0.903711022
169200000.0 0.063522394 -0.9825507494
179150000.0 -0.2694601766 -0.9430602803
189100000.0 -0.5410190461 -0.8228896467
199050000.0 -0.738939984 -0.6539389169
209000000.0 -0.8623828034 -0.4591915954
218950000.0 -0.9256920281 -0.2588450211
228900000.0 -0.9412298809 -0.0630143669
238850000.0 -0.920688578 0.1278287216
248800000.0 -0.8372949422 0.1521033994
258750000.0 -0.8240934816 0.4295410397
268700000.0 -0.734892927 0.5749767001
278650000.0 -0.6201760757 0.6916607601
288600000.0 -0.479298581 0.7775802766
298550000.0 -0.3166642727 0.8298646991
308500000.0 -0.1375510825 0.8499998516
318450000.0 0.051971681 0.8328228295
328400000.0 0.2417059876 0.7716209032
338350000.0 0.4095962258 0.6591269582
348300000.0 0.5312800656 0.496036721
358250000.0 0.581605952 0.2950370716
368200000.0 0.5526660069 0.0908817814
378150000.0 0.4579093818 -0.0816771835
388100000.0 0.326894554 -0.1996068487
398050000.0 0.1891812245 -0.2560585822
408000000.0 0.0689199664 -0.2580529217
417950000.0 -0.0223146206 -0.2191077792
427900000.0 -0.0820248136 -0.1585313548
437850000.0 -0.1158574786 -0.0908479355
447800000.0 -0.1288377026 -0.028912058
457750000.0 -0.125730418 0.0199625669
467700000.0 -0.1107866874 0.0516282443
477650000.0 -0.0864060587 0.0635119091
487600000.0 -0.0514711875 0.0537036043
497550000.0 -0.0945837794 0.0495597644
507500000.0 -0.0239962023 0.0441892691
517450000.0 0.0007467221 0.0231159432
527400000.0 0.0115136884 0.0038251695
537350000.0 0.009554208 -0.0140479467
547300000.0 -0.0072935678 -0.0360712105
557250000.0 -0.0372713592 -0.0486877163
567200000.0 -0.06802418 -0.0597340142
577150000.0 -0.0993943705 -0.0670835611
587100000.0 -0.1254058528 -0.0689286555
597050000.0 -0.1447029884 -0.0621106164
607000000.0 -0.1560040408 -0.0456320863
616950000.0 -0.1639994286 -0.0196391086
626900000.0 -0.1677127189 0.0125803021
636850000.0 -0.1679768448 0.0471556985
646800000.0 -0.1643540302 0.0793035763
656750000.0 -0.1554142544 0.1067297451
666700000.0 -0.1391052506 0.1260443607
676650000.0 -0.1134876154 0.1366556095
686600000.0 -0.0791499103 0.139485548
696550000.0 -0.0379462747 0.1354669144
706500000.0 0.0051415668 0.1254703703
716450000.0 0.045613524 0.109418387
726400000.0 0.0781106971 0.0851890746
736350000.0 0.099945299 0.0512890041
746300000.0 0.1075732989 0.0082786695
756250000.0 0.1028934461 -0.0448843646
766200000.0 0.0851817153 -0.1033046668
776150000.0 0.0581056697 -0.1606082364
786100000.0 0.0210655275 -0.2115302311
796050000.0 -0.024512002 -0.249138202
806000000.0 -0.0786990471 -0.2684621137
815950000.0 -0.1382710524 -0.2678734556
825900000.0 -0.2024142981 -0.2489971547
835850000.0 -0.2685531104 -0.2150513867
845800000.0 -0.3311654002 -0.1698984647
855750000.0 -0.3851131986 -0.115589647
865700000.0 -0.4231902032 -0.0535091933
875650000.0 -0.4417496875 0.016160736
885600000.0 -0.4369576357 0.0942392159
895550000.0 -0.4127405198 0.1808046477
905500000.0 -0.3673706546 0.2633305638
915450000.0 -0.3033148453 0.2852388768
925400000.0 -0.2220052495 0.3535463175
935350000.0 -0.1222738066 0.4133488228
945300000.0 -0.0046656984 0.4395035582
955250000.0 0.1287121359 0.4203325916
965200000.0 0.2684643544 0.3451738089
975150000.0 0.3962781308 0.2070499662
985100000.0 0.4768237742 0.0035124226
995050000.0 0.4726678404 -0.2496575488
1005000000.0 0.3488238979 -0.5067621169
1014950000.0 0.1004143366 -0.686953579
1024900000.0 -0.2187442097 -0.7286770285
1034850000.0 -0.5260223668 -0.6189685534
1044800000.0 -0.7558378669 -0.3868449209
1054750000.0 -0.8452884299 -0.0845676348
1064700000.0 -0.8151910477 0.1207085084
1074650000.0 -0.7065928522 0.3584209694
1084600000.0 -0.661401301 0.479458584
1094550000.0 -0.4701120187 0.6706465463
1104500000.0 -0.2268929281 0.7653599347
1114450000.0 0.0266414171 0.7760468523
1124400000.0 0.263122764 0.7022508817
1134350000.0 0.4501748894 0.5527557944
1144300000.0 0.5653580939 0.3527735276
1154250000.0 0.60566211 0.1353668342
1164200000.0 0.583339719 -0.0694942371
1174150000.0 0.5248241038 -0.2473038815
1184100000.0 0.432058844 -0.3980742065
1194050000.0 0.3098972388 -0.505981741
1204000000.0 0.1734669964 -0.5661305012
1213950000.0 0.0354830066 -0.5857169667
1223900000.0 -0.095302583 -0.5765691722
1233850000.0 -0.2145193192 -0.5506360511
1243800000.0 -0.3197218163 -0.5132846027
1253750000.0 -0.4098530915 -0.4690180502
1263700000.0 -0.482045524 -0.416520288
1273650000.0 -0.5381033386 -0.356336136
1283600000.0 -0.5768989262 -0.2884669193
1293550000.0 -0.6034660313 -0.2141462837
1303500000.0 -0.6221459074 -0.1375181915
1313450000.0 -0.6371303451 -0.0616062639
1323400000.0 -0.6491606377 0.0111537684
1333350000.0 -0.6579793083 0.0794609921
1343300000.0 -0.6595066424 0.1432472087
1353250000.0 -0.6502047687 0.2015835839
1363200000.0 -0.6280014451 0.2570018118
1373150000.0 -0.5925257494 0.3100858557
1383100000.0 -0.5486613227 0.3627636661
1393050000.0 -0.5003299677 0.4144087714
1403000000.0 -0.4512132556 0.464216582
1412950000.0 -0.4024761824 0.5094154906
1422900000.0 -0.3541752656 0.5469747942
1432850000.0 -0.3053977508 0.5729930292
1442800000.0 -0.254765021 0.5887254167
1452750000.0 -0.1995334233 0.5978507781
1462700000.0 -0.1367861388 0.6022600504
1472650000.0 -0.0649616129 0.6032910471
1482600000.0 0.0116876419 0.6009255308
1492550000.0 0.0888478033 0.5933310317
1502500000.0 0.1635957109 0.5774482737
1512450000.0 0.2327064189 0.5500484875
1522400000.0 0.2935917575 0.5089261639
1532350000.0 0.3463644048 0.4508876774
1542300000.0 0.3913806476 0.378411329
1552250000.0 0.4299948977 0.2951640971
1562200000.0 0.4632769671 0.2062914885
1572150000.0 0.4878992578 0.1161416374
1582100000.0 0.5007317966 0.0257791241
1592050000.0 0.4966698273 -0.0631145095
1602000000.0 0.4717632329 -0.1486070188
1611950000.0 0.4263928553 -0.2268751272
1621900000.0 0.3642911479 -0.2993030579
1631850000.0 0.2908679719 -0.3656213165
1641800000.0 0.2123441438 -0.4252968432
1651750000.0 0.1315828381 -0.4746554834
1661700000.0 0.0502272687 -0.5092690476
1671650000.0 -0.029623187 -0.5256551079
1681600000.0 -0.1081848437 -0.5227274711
1691550000.0 -0.1849767032 -0.5036299687
1701500000.0 -0.260191999 -0.4728722517
1711450000.0 -0.3328523972 -0.4349785864
1721400000.0 -0.4017359925 -0.3941135098
1731350000.0 -0.4639579807 -0.3521757966
1741300000.0 -0.5152763762 -0.3075830282
1751250000.0 -0.5532651699 -0.2584492922
1761200000.0 -0.5767886972 -0.204034923
1771150000.0 -0.58760743 -0.1446829793
1781100000.0 -0.5914990709 -0.0815218975
1791050000.0 -0.592313546 -0.0179925593
1801000000.0 -0.5930462357 0.0440262725
1810950000.0 -0.5940922448 0.1025630647
1820900000.0 -0.5923209224 0.1558850151
1830850000.0 -0.5832286411 0.203011915
1840800000.0 -0.5628387208 0.2444259159
1850750000.0 -0.5302111648 0.2812074183
1860700000.0 -0.4864484175 0.3135935787
1870650000.0 -0.4380442892 0.343763749
1880600000.0 -0.389195031 0.3705388899
1890550000.0 -0.3444136073 0.3948605816
1900500000.0 -0.3039228638 0.4120994368
1910450000.0 -0.2673018479 0.4220571101
1920400000.0 -0.230191077 0.4209427171
1930350000.0 -0.1911270127 0.4071998574
1940300000.0 -0.1486358287 0.3805766331
1950250000.0 -0.1050001687 0.3431767061
1960200000.0 -0.0635033962 0.2993493741
1970150000.0 -0.0324870537 0.249392217
1980100000.0 -0.018182665 0.195354698
1990050000.0 -0.0276104484 0.1357382794
2000000000.0 -0.0696095549 0.0720971888
