!Created with skrf (http://scikit-rf.org).
# GHz S RI R 50.0 
!freq ReS11 ImS11
10000000.0 -0.7414669426 0.6700104482
19950000.0 -0.1123923629 0.9795771127
29900000.0 0.5654099406 0.7992878926
39850000.0 0.9583141453 0.2058590149
49800000.0 0.8461482627 -0.5095470149
59750000.0 0.2624819235 -0.9619508909
69700000.0 -0.4841747937 -0.8755848821
79650000.0 -0.9550992482 -0.2725134924
89600000.0 -0.839751756 0.5014934773
99550000.0 -0.1680016708 0.9497412164
109500000.0 0.6404961775 0.7162823707
119450000.0 0.9638914376 -0.1021786196
129400000.0 0.4641516868 -0.8636508392
139350000.0 -0.4566603549 -0.866825504
149300000.0 -0.9568496374 -0.1094218507
159250000.0 -0.6263472985 0.7072196669
169200000.0 0.199239019 0.9176500578
179150000.0 0.8517360076 0.4111004377
189100000.0 0.8741308178 -0.3887411792
199050000.0 0.3056735777 -0.9110647627
209000000.0 -0.4344588824 -0.8486285634
218950000.0 -0.8899585503 -0.2989947093
228900000.0 -0.8387381863 0.3920285696
238850000.0 -0.3401961594 0.8548432699
248800000.0 0.3393089252 0.8519505818
258750000.0 0.8336567704 0.4148363418
268700000.0 0.9007939401 -0.2538383302
278650000.0 0.4974001214 -0.7859803426
288600000.0 -0.1531214744 -0.9000250383
298550000.0 -0.6986404512 -0.5466333925
308500000.0 -0.8551903576 0.0767121372
318450000.0 -0.5404892257 0.6295431924
328400000.0 0.0645478794 0.7968755007
338350000.0 0.5883893983 0.4785592032
348300000.0 0.6925129045 -0.0976678237
358250000.0 0.3479014289 -0.5120625352
368200000.0 -0.1304762176 -0.5028644676
378150000.0 -0.3748614283 -0.1744241654
388100000.0 -0.2786208975 0.1480676712
398050000.0 -0.0221193924 0.2304004543
408000000.0 0.140701735 0.0954432387
417950000.0 0.111776126 -0.0706417603
427900000.0 -0.0237022611 -0.1187417672
437850000.0 -0.1216543576 -0.0344486491
447800000.0 -0.1082605579 0.0893506181
457750000.0 -0.0014435952 0.1523396422
467700000.0 0.1115615041 0.1109216589
477650000.0 0.1552204974 0.0011269087
487600000.0 0.109036393 -0.1009494163
497550000.0 0.0160328937 -0.1373771056
507500000.0 -0.0707766071 -0.1021692622
517450000.0 -0.0995091004 -0.0294836637
527400000.0 -0.0754720984 0.0273205387
537350000.0 -0.0331814865 0.0419165926
547300000.0 -0.0098440387 0.0263892384
557250000.0 -0.014787355 0.0117761596
567200000.0 -0.0284173295 0.0215766605
577150000.0 -0.0189245394 0.0500436791
587100000.0 0.0271168575 0.0674134092
597050000.0 0.084733081 0.0410195475
607000000.0 0.1136079462 -0.0361810922
616950000.0 0.0801932055 -0.1257199883
626900000.0 -0.0155718751 -0.1728181577
636850000.0 -0.1287051548 -0.1404543217
646800000.0 -0.1956041403 -0.0339062257
656750000.0 -0.1705404375 0.096277988
666700000.0 -0.0605890878 0.1783138305
676650000.0 0.0806103647 0.1625905618
686600000.0 0.1755493085 0.055795106
696550000.0 0.1725262439 -0.0876620098
706500000.0 0.0747036709 -0.1855985707
716450000.0 -0.0613594126 -0.1866141966
726400000.0 -0.1515560844 -0.0951099872
736350000.0 -0.1433707322 0.0291604878
746300000.0 -0.0461571717 0.1006502373
756250000.0 0.0671216062 0.0634760524
766200000.0 0.1003452219 -0.0309825201
776150000.0 0.0516812033 -0.1186925428
786100000.0 -0.0533830039 -0.1467811836
796050000.0 -0.1501824584 -0.0679851511
806000000.0 -0.1465842775 0.076934951
815950000.0 -0.0228387467 0.1774608381
825900000.0 0.155374608 0.1515259729
835850000.0 0.2666257462 -0.0110194104
845800000.0 0.2249826623 -0.220770518
855750000.0 0.0316196711 -0.3470849652
865700000.0 -0.2120945869 -0.2943931279
875650000.0 -0.3529111072 -0.0767443474
885600000.0 -0.2950651857 0.1984268089
895550000.0 -0.0481591725 0.3593711896
905500000.0 0.2530887569 0.2940253581
915450000.0 0.420666004 0.0227608405
925400000.0 0.3384706944 -0.2961969951
935350000.0 0.0405634284 -0.4582552965
945300000.0 -0.2938366147 -0.3417091635
955250000.0 -0.4284191014 0.0075169185
965200000.0 -0.2269937499 0.3544148426
975150000.0 0.2066793077 0.3993557869
985100000.0 0.5082742676 0.0341920212
995050000.0 0.3474019485 -0.4618588117
1005000000.0 -0.2080390628 -0.6010235816
1014950000.0 -0.6627453592 -0.1602708763
1024900000.0 -0.5181556966 0.5147983082
1034850000.0 0.1735133352 0.7658965223
1044800000.0 0.7724617267 0.3123467671
1054750000.0 0.7446602783 -0.4265782007
1064700000.0 0.1609899612 -0.8399854879
1074650000.0 -0.4987126795 -0.6533139717
1084600000.0 -0.7911650859 -0.090314982
1094550000.0 -0.5709837512 0.532590493
1104500000.0 0.0447842402 0.7568778386
1114450000.0 0.5921664851 0.43887049
1124400000.0 0.6994711613 -0.1523133228
1134350000.0 0.3494480419 -0.595569462
1144300000.0 -0.1819031504 -0.6365551509
1154250000.0 -0.5600552064 -0.2914116594
1164200000.0 -0.5613508415 0.2048338524
1174150000.0 -0.2020361578 0.5325637885
1184100000.0 0.2688193281 0.4802824834
1194050000.0 0.5334739938 0.1061370168
1204000000.0 0.4438691542 -0.3234810008
1213950000.0 0.0866869554 -0.5522976124
1223900000.0 -0.316939603 -0.4690790837
1233850000.0 -0.5508870574 -0.1357829907
1243800000.0 -0.4925252046 0.2697633157
1253750000.0 -0.1714650902 0.5262132715
1263700000.0 0.2396129614 0.4933445363
1273650000.0 0.5184848746 0.1932500911
1283600000.0 0.5307171855 -0.2082762744
1293550000.0 0.2867517657 -0.5177567448
1303500000.0 -0.0928176651 -0.6027644059
1313450000.0 -0.442004858 -0.4337979125
1323400000.0 -0.6112440602 -0.0786696226
1333350000.0 -0.5159762121 0.3090539382
1343300000.0 -0.1871075985 0.5508663887
1353250000.0 0.2234437487 0.5217084533
1363200000.0 0.5173470653 0.2373191107
1373150000.0 0.5642915132 -0.161710786
1383100000.0 0.3568960612 -0.4939592185
1393050000.0 -0.0026810076 -0.6277316183
1403000000.0 -0.3660883809 -0.5156275487
1412950000.0 -0.5843488658 -0.2037417908
1422900000.0 -0.5626251316 0.1808057352
1432850000.0 -0.2976700623 0.4687183642
1442800000.0 0.0904285993 0.5201263529
1452750000.0 0.419286816 0.3119607923
1462700000.0 0.5345332099 -0.0506889612
1472650000.0 0.3983534946 -0.3932734051
1482600000.0 0.0866268619 -0.5686943355
1492550000.0 -0.2601924652 -0.5096548905
1502500000.0 -0.4895643574 -0.2458360714
1512450000.0 -0.4945219037 0.1049082264
1522400000.0 -0.265680646 0.3741719719
1532350000.0 0.083598399 0.4209924115
1542300000.0 0.3688335608 0.2235860708
1552250000.0 0.4435409644 -0.1051438389
1562200000.0 0.284010614 -0.3891962511
1572150000.0 -0.0135648015 -0.4934682937
1582100000.0 -0.3018500241 -0.3770166519
1592050000.0 -0.4426879834 -0.0986242174
1602000000.0 -0.3607971846 0.2085623391
1611950000.0 -0.0863828389 0.3822679021
1621900000.0 0.2384198688 0.3191426235
1631850000.0 0.4294601946 0.0472800313
1641800000.0 0.3823412666 -0.2798697431
1651750000.0 0.1300689422 -0.4887108115
1661700000.0 -0.1980934905 -0.4794674257
1671650000.0 -0.4460743142 -0.2573796186
1681600000.0 -0.4942371394 0.0812669615
1691550000.0 -0.3044731091 0.38042872
1701500000.0 0.0447525933 0.4839066421
1711450000.0 0.3816714148 0.3261192037
1721400000.0 0.5311042031 -0.0157112839
1731350000.0 0.4231407729 -0.3682037593
1741300000.0 0.1200893784 -0.5696534176
1751250000.0 -0.2390388063 -0.5420036748
1761200000.0 -0.5078993133 -0.3029051261
1771150000.0 -0.5803586299 0.0533701113
1781100000.0 -0.418542087 0.3872993867
1791050000.0 -0.0769303686 0.5524445335
1801000000.0 0.297046042 0.4631159824
1810950000.0 0.5289367131 0.1568682997
1820900000.0 0.5136668907 -0.2201610072
1830850000.0 0.274003711 -0.497895495
1840800000.0 -0.072385059 -0.5714864187
1850750000.0 -0.3867856027 -0.4291776793
1860700000.0 -0.5527874646 -0.1348206368
1870650000.0 -0.5130818023 0.1978317493
1880600000.0 -0.2821136924 0.4371505185
1890550000.0 0.0420206581 0.4818176629
1900500000.0 0.3190242767 0.3178393451
1910450000.0 0.4272690684 0.0282762183
1920400000.0 0.3366148647 -0.2488728386
1930350000.0 0.1129132656 -0.4027263575
1940300000.0 -0.136884973 -0.3929411854
1950250000.0 -0.314447232 -0.2493290047
1960200000.0 -0.3657513381 -0.0469807164
1970150000.0 -0.290166135 0.1236353168
1980100000.0 -0.1458261663 0.1934484624
1990050000.0 -0.0205666462 0.1577620732
2000000000.0 0.0228777738 0.0724367007
