!Created with skrf (http://scikit-rf.org).
# GHz S RI R 50.0 
!freq ReS11 ImS11
10000000.0 -0.9729787388 0.1790896369
19950000.0 -0.9390846297 0.3458822402
29900000.0 -0.8796438369 0.5017510264
39850000.0 -0.7816755816 0.6420038451
49800000.0 -0.6475878318 0.7595688405
59750000.0 -0.4788722043 0.8526516177
69700000.0 -0.2794984384 0.920313524
79650000.0 -0.0539482676 0.9573110556
89600000.0 0.1937550375 0.9492487662
99550000.0 0.4522714041 0.8738194317
109500000.0 0.6948021128 0.7046586266
119450000.0 0.8803835983 0.4316611028
129400000.0 0.9643669509 0.0744648301
139350000.0 0.913169213 -0.3161787961
149300000.0 0.7195730819 -0.6721996349
159250000.0 0.4122963866 -0.9211397246
169200000.0 0.053856794 -1.017216776
179150000.0 -0.2851242907 -0.9641138005
189100000.0 -0.5601416805 -0.8087783551
199050000.0 -0.7602052802 -0.5999956496
209000000.0 -0.8912340329 -0.3721924736
218950000.0 -0.964937312 -0.1465329866
228900000.0 -0.9807354783 0.066634212
238850000.0 -0.9407990656 0.2620519688
248800000.0 -0.7208320034 0.465215557
258750000.0 -0.7590144993 0.544340411
268700000.0 -0.6184269054 0.6732529195
278650000.0 -0.463403187 0.7767199966
288600000.0 -0.2953271387 0.8534419014
298550000.0 -0.1176591596 0.8925327691
308500000.0 0.0635569037 0.8835358552
318450000.0 0.2394344994 0.8178928759
328400000.0 0.3986163022 0.6973888887
338350000.0 0.5263909636 0.530345007
348300000.0 0.6070794604 0.3304274072
358250000.0 0.62431411 0.1186661984
368200000.0 0.5697904514 -0.0725233168
378150000.0 0.4513539232 -0.2101750413
388100000.0 0.2983499322 -0.2826687848
398050000.0 0.1445069169 -0.2929211815
408000000.0 0.0126338125 -0.2597455344
417950000.0 -0.0852920119 -0.2043775254
427900000.0 -0.1428239337 -0.1433963247
437850000.0 -0.161413273 -0.0834127358
447800000.0 -0.150868104 -0.0304509312
457750000.0 -0.1224485681 0.0142280842
467700000.0 -0.0876409005 0.0464797425
477650000.0 -0.0547636115 0.064558197
487600000.0 -0.0264072822 0.0650924899
497550000.0 -0.0165500311 0.0277815951
507500000.0 -0.0295439004 0.0674038009
517450000.0 -0.0202189769 0.0291545209
527400000.0 -0.0228555663 -0.0049704717
537350000.0 -0.0286867859 -0.0337140925
547300000.0 -0.041541993 -0.0559098631
557250000.0 -0.0601202513 -0.059470974
567200000.0 -0.0798830286 -0.0492472011
577150000.0 -0.1053671186 -0.0301569004
587100000.0 -0.1354152299 -0.0061085183
597050000.0 -0.1630623595 0.0191417659
607000000.0 -0.1813037313 0.0435493071
616950000.0 -0.1808599629 0.0706683179
626900000.0 -0.1640912446 0.0764782421
636850000.0 -0.1572783326 0.0895243349
646800000.0 -0.1327852875 0.1158325307
656750000.0 -0.1017797361 0.1451137307
666700000.0 -0.0708750255 0.1684546012
676650000.0 -0.0388034059 0.1837087676
686600000.0 -0.0115310436 0.1883647007
696550000.0 0.0134637927 0.1752219156
706500000.0 0.0378291608 0.1453387069
716450000.0 0.0640646951 0.1033575094
726400000.0 0.0877973507 0.0546563137
736350000.0 0.1055282407 0.0045590756
746300000.0 0.1118044816 -0.0426818434
756250000.0 0.1008757759 -0.0842926255
766200000.0 0.071908802 -0.118647963
776150000.0 0.0218185623 -0.1450162015
786100000.0 -0.0420529618 -0.1655530962
796050000.0 -0.1125411797 -0.1774280545
806000000.0 -0.1844919287 -0.1808192998
815950000.0 -0.2462092237 -0.1692897871
825900000.0 -0.2955649622 -0.1383104622
835850000.0 -0.3307047684 -0.0892253516
845800000.0 -0.3529942723 -0.0213404508
855750000.0 -0.3635491546 0.0582654744
865700000.0 -0.3645616651 0.1439072575
875650000.0 -0.3522166488 0.2285071719
885600000.0 -0.3239464902 0.3035146123
895550000.0 -0.2746359112 0.36350699
905500000.0 -0.2004756948 0.4039664568
915450000.0 -0.1065757741 0.4232553296
925400000.0 0.0022052547 0.4216122368
935350000.0 0.121898523 0.4005864971
945300000.0 0.244050797 0.3497581807
955250000.0 0.3543206086 0.2579460065
965200000.0 0.4303325665 0.1168587011
975150000.0 0.4457499282 -0.0715844155
985100000.0 0.3774765072 -0.2897354198
995050000.0 0.2089093995 -0.4942517933
1005000000.0 -0.0563107149 -0.6277008233
1014950000.0 -0.3702232497 -0.619873038
1024900000.0 -0.6450558357 -0.4536183285
1034850000.0 -0.8034127986 -0.1756090529
1044800000.0 -0.8322406557 0.1338213487
1054750000.0 -0.7465173687 0.4188731607
1064700000.0 -0.5552965519 0.6139265324
1074650000.0 -0.4414039337 0.7192632345
1084600000.0 -0.2145304035 0.8371724267
1094550000.0 0.0347538147 0.8331901569
1104500000.0 0.2646556456 0.7480856326
1114450000.0 0.4566558089 0.6059780742
1124400000.0 0.5973678622 0.4226728079
1134350000.0 0.6729422904 0.2155564651
1144300000.0 0.6727239793 0.0007817969
1154250000.0 0.5946085458 -0.194879434
1164200000.0 0.4601941339 -0.3529141702
1174150000.0 0.2946661273 -0.4647283533
1184100000.0 0.121769128 -0.5279205374
1194050000.0 -0.0395689205 -0.5488642173
1204000000.0 -0.1839426773 -0.5281730417
1213950000.0 -0.3011825685 -0.472855268
1223900000.0 -0.3976700169 -0.3885952065
1233850000.0 -0.4699808647 -0.2879073279
1243800000.0 -0.5261012362 -0.1791990197
1253750000.0 -0.5673041135 -0.0767018416
1263700000.0 -0.5957942335 0.0182649437
1273650000.0 -0.6075624343 0.1007623149
1283600000.0 -0.6033091851 0.1725649763
1293550000.0 -0.5812689397 0.2380121298
1303500000.0 -0.5428631612 0.3010004615
1313450000.0 -0.4949299992 0.3655368156
1323400000.0 -0.4419187706 0.4312640443
1333350000.0 -0.3898598607 0.4948077548
1343300000.0 -0.3399130323 0.5531736645
1353250000.0 -0.2913586657 0.5979799862
1363200000.0 -0.2417894897 0.628678629
1373150000.0 -0.1889233788 0.642567596
1383100000.0 -0.1282666491 0.6432782633
1393050000.0 -0.060601038 0.6381714552
1403000000.0 0.0141815919 0.6303441337
1412950000.0 0.0902558445 0.6229170076
1422900000.0 0.1643407317 0.6161947334
1432850000.0 0.2301659401 0.604805312
1442800000.0 0.2856322061 0.5855147429
1452750000.0 0.328953049 0.5550050676
1462700000.0 0.3668513825 0.5124910126
1472650000.0 0.4039119708 0.4572468924
1482600000.0 0.4432605155 0.3922945702
1492550000.0 0.4836314325 0.3220440049
1502500000.0 0.5226253378 0.2503564145
1512450000.0 0.5548507535 0.1779182824
1522400000.0 0.5723817762 0.1040423328
1532350000.0 0.5716743601 0.0316841147
1542300000.0 0.5510857764 -0.0428271722
1552250000.0 0.5126710855 -0.1168494243
1562200000.0 0.4639096423 -0.1918480934
1572150000.0 0.4076205173 -0.2661065043
1582100000.0 0.3464953691 -0.3344888552
1592050000.0 0.2782397545 -0.392013427
1602000000.0 0.202630744 -0.433844253
1611950000.0 0.11749674 -0.4543958501
1621900000.0 0.0267333458 -0.4535385482
1631850000.0 -0.0678942218 -0.4383759888
1641800000.0 -0.1603992682 -0.4116787204
1651750000.0 -0.246442488 -0.3788937736
1661700000.0 -0.3251269747 -0.3381601925
1671650000.0 -0.3900620239 -0.2869001865
1681600000.0 -0.4388087767 -0.2233392211
1691550000.0 -0.4702327863 -0.1446134986
1701500000.0 -0.4865789995 -0.0587446409
1711450000.0 -0.4934825754 0.030932211
1721400000.0 -0.4897081323 0.1183327859
1731350000.0 -0.4671706304 0.1953491689
1741300000.0 -0.4410963302 0.191952688
1751250000.0 -0.496781488 0.2544040175
1761200000.0 -0.4747153409 0.3264257268
1771150000.0 -0.4300700808 0.3822208702
1781100000.0 -0.3730568788 0.4302448595
1791050000.0 -0.3100442759 0.475690282
1801000000.0 -0.2496984064 0.5170204244
1810950000.0 -0.1958748615 0.553814739
1820900000.0 -0.1501137244 0.5811861104
1830850000.0 -0.1090232468 0.5961657874
1840800000.0 -0.0675138691 0.5965667335
1850750000.0 -0.0217900692 0.5823180179
1860700000.0 0.0314821393 0.5583446193
1870650000.0 0.090722044 0.5294550035
1880600000.0 0.1514908393 0.5024472762
1890550000.0 0.206072322 0.4792093125
1900500000.0 0.2500276324 0.4585045818
1910450000.0 0.2785121987 0.4375764243
1920400000.0 0.2917625514 0.4092589422
1930350000.0 0.2909657681 0.369447732
1940300000.0 0.2832752109 0.3167115017
1950250000.0 0.2729945333 0.2552516082
1960200000.0 0.2611576911 0.1911310684
1970150000.0 0.2481378732 0.1326956795
1980100000.0 0.2281240331 0.0885314434
1990050000.0 0.1935449291 0.0632197286
2000000000.0 0.1375879083 0.0603113813
