!Created with skrf (http://scikit-rf.org).
# GHz S RI R 50.0 
!freq ReS11 ImS11
10000000.0 -0.7391353294 0.6724603167
19950000.0 -0.1053811965 0.9803573686
29900000.0 0.5735933799 0.7933211969
39850000.0 0.9609356626 0.1930515239
49800000.0 0.8382547873 -0.5229296348
59750000.0 0.246699379 -0.9664438479
69700000.0 -0.497806958 -0.86785537
79650000.0 -0.9583157734 -0.2598646801
89600000.0 -0.8357205121 0.5075010722
99550000.0 -0.1708659115 0.9488938978
109500000.0 0.6267017915 0.7279215799
119450000.0 0.9668457691 -0.0644956027
129400000.0 0.5170010761 -0.8329448084
139350000.0 -0.3826184241 -0.9031356757
149300000.0 -0.9427187257 -0.2062182834
159250000.0 -0.7034600963 0.633100069
169200000.0 0.0925922146 0.9341198397
179150000.0 0.8013258217 0.499687905
189100000.0 0.9059340191 -0.3038376211
199050000.0 0.3763148864 -0.8839384468
209000000.0 -0.3822278369 -0.8736119589
218950000.0 -0.8761480261 -0.3359747189
228900000.0 -0.8456007295 0.3736572029
238850000.0 -0.3347123034 0.8542146044
248800000.0 0.4208015444 0.6960795834
258750000.0 0.8323230091 0.4046886434
268700000.0 0.8844620503 -0.2865829252
278650000.0 0.4443371487 -0.8074255605
288600000.0 -0.2247075444 -0.8730701474
298550000.0 -0.7428960376 -0.4609541853
308500000.0 -0.8241195367 0.1873458743
318450000.0 -0.4255871804 0.6961538487
328400000.0 0.2082869654 0.758984141
338350000.0 0.6657033086 0.3403470299
348300000.0 0.6467876349 -0.250698866
358250000.0 0.2124888324 -0.5830786787
368200000.0 -0.2676224337 -0.4657228946
378150000.0 -0.4486392998 -0.072809492
388100000.0 -0.2753688347 0.25785205
398050000.0 0.0389706706 0.3131315859
408000000.0 0.2332650451 0.1330966589
417950000.0 0.2047024548 -0.0886845003
427900000.0 0.0404456342 -0.1868728734
437850000.0 -0.106855111 -0.1277471976
447800000.0 -0.1459051624 0.0052385464
457750000.0 -0.0793686526 0.1041189483
467700000.0 0.0211957278 0.1130732093
477650000.0 0.0804180669 0.0551229131
487600000.0 0.0716373627 -0.0130832154
497550000.0 0.0278807013 0.0060907424
507500000.0 0.0143210761 -0.0599931036
517450000.0 -0.0077191101 -0.0352388875
527400000.0 -0.0034490227 -0.0282974878
537350000.0 -0.0050969604 -0.0419958324
547300000.0 -0.0312631534 -0.0666292146
557250000.0 -0.0888019237 -0.0453759779
567200000.0 -0.1164558544 0.0233009581
577150000.0 -0.0886989248 0.1002032582
587100000.0 0.0008610354 0.1404971483
597050000.0 0.1054602829 0.1138022893
607000000.0 0.1661519553 0.0115779978
616950000.0 0.1452279921 -0.1144245175
626900000.0 0.0432909836 -0.1972649592
636850000.0 -0.0920076708 -0.188839996
646800000.0 -0.1895750233 -0.0921111228
656750000.0 -0.1943885369 0.042661365
666700000.0 -0.1056857518 0.146318597
676650000.0 0.0239251677 0.1603003485
686600000.0 0.1238918702 0.0817056284
696550000.0 0.1408596905 -0.038822952
706500000.0 0.0719032767 -0.1266453889
716450000.0 -0.0302505 -0.1314164301
726400000.0 -0.0944891968 -0.0630837363
736350000.0 -0.0745816299 0.0233427496
746300000.0 0.008610418 0.0557783855
756250000.0 0.0881014578 0.0014796603
766200000.0 0.0897153062 -0.105836786
776150000.0 -0.0052535106 -0.1843880551
786100000.0 -0.1436874662 -0.1584648076
796050000.0 -0.2288506098 -0.0208165264
806000000.0 -0.1815594711 0.1586288657
815950000.0 -0.0051832428 0.2633220374
825900000.0 0.2152406124 0.2083012515
835850000.0 0.346119469 0.0047093833
845800000.0 0.2994251141 -0.2484199284
855750000.0 0.0826834935 -0.4085253649
865700000.0 -0.1980575891 -0.3774378786
875650000.0 -0.3872618862 -0.1564131982
885600000.0 -0.373013156 0.1469721623
895550000.0 -0.147561583 0.3623572416
905500000.0 0.1711942435 0.3577076247
915450000.0 0.3939503003 0.1255326668
925400000.0 0.3799128736 -0.1981246204
935350000.0 0.1302554868 -0.4050291624
945300000.0 -0.1957877908 -0.3477243607
955250000.0 -0.353356621 -0.0449713765
965200000.0 -0.183502376 0.271873384
975150000.0 0.1995593782 0.2844936474
985100000.0 0.4125653763 -0.0534878818
995050000.0 0.2207542359 -0.4582428642
1005000000.0 -0.2973632585 -0.5149494761
1014950000.0 -0.6608050745 -0.0414832157
1024900000.0 -0.4366419143 0.5756278643
1034850000.0 0.2417040052 0.7389167823
1044800000.0 0.7690155599 0.2610542108
1054750000.0 0.6680136572 -0.4271964193
1064700000.0 0.158859391 -0.6004408562
1074650000.0 -0.2055623717 -0.7272027671
1084600000.0 -0.7255568504 -0.3192001328
1094550000.0 -0.6968439488 0.340681617
1104500000.0 -0.1665204521 0.726706762
1114450000.0 0.4469197348 0.553438377
1124400000.0 0.6747931127 -0.0045814949
1134350000.0 0.3990181022 -0.492048769
1144300000.0 -0.1124197087 -0.5786684272
1154250000.0 -0.4787481371 -0.2575219507
1164200000.0 -0.4580583066 0.2059141534
1174150000.0 -0.092346448 0.464853258
1184100000.0 0.3220342495 0.3382355017
1194050000.0 0.4774771451 -0.0516435809
1204000000.0 0.2908166503 -0.4102719917
1213950000.0 -0.0888291728 -0.520979357
1223900000.0 -0.4326924598 -0.3319810817
1233850000.0 -0.5531489909 0.0427405455
1243800000.0 -0.3822358184 0.4057712589
1253750000.0 -0.0054220555 0.5586997612
1263700000.0 0.3789385818 0.4169061581
1273650000.0 0.5749110021 0.0600022114
1283600000.0 0.496891137 -0.3349089497
1293550000.0 0.1959241076 -0.5915290869
1303500000.0 -0.1982706531 -0.6097529614
1313450000.0 -0.5230509164 -0.3844155601
1323400000.0 -0.6455383203 -0.0009368428
1333350000.0 -0.500225898 0.3837001108
1343300000.0 -0.1388277642 0.596067865
1353250000.0 0.2785519256 0.5307430426
1363200000.0 0.5606631681 0.2204403034
1373150000.0 0.588250008 -0.1891327695
1383100000.0 0.3672689797 -0.5226033889
1393050000.0 -0.0013392281 -0.6547622265
1403000000.0 -0.3716025572 -0.5414399742
1412950000.0 -0.5994225965 -0.2293520375
1422900000.0 -0.5909841297 0.1588794804
1432850000.0 -0.3406928842 0.4604110837
1442800000.0 0.041946627 0.538427687
1452750000.0 0.3843578463 0.3626322347
1462700000.0 0.538406318 0.0191853757
1472650000.0 0.4477069497 -0.336419612
1482600000.0 0.1629149619 -0.5511487051
1492550000.0 -0.1842119404 -0.5422856108
1502500000.0 -0.4457462789 -0.3196356217
1512450000.0 -0.5035999256 0.0161236975
1522400000.0 -0.326846001 0.3087662485
1532350000.0 -0.0034009065 0.4066207298
1542300000.0 0.293419514 0.2614959033
1552250000.0 0.4071384316 -0.033765915
1562200000.0 0.2934550291 -0.3159544778
1572150000.0 0.0303764254 -0.4404226252
1582100000.0 -0.241329164 -0.3536680026
1592050000.0 -0.3791531617 -0.1080773184
1602000000.0 -0.3078659404 0.1694161792
1611950000.0 -0.0582270023 0.3186547803
1621900000.0 0.2270906938 0.2436681087
1631850000.0 0.3753570705 -0.0122171591
1641800000.0 0.300342479 -0.3007846137
1651750000.0 0.0471779221 -0.4571950031
1661700000.0 -0.2508693786 -0.403304251
1671650000.0 -0.4442583045 -0.1589171053
1681600000.0 -0.4296238534 0.1640339536
1691550000.0 -0.1965969204 0.4045199922
1701500000.0 0.1441757222 0.4293996632
1711450000.0 0.4155876062 0.2304149114
1721400000.0 0.5077286992 -0.1036645499
1731350000.0 0.3581442414 -0.4261050055
1741300000.0 0.0370757196 -0.5803825745
1751250000.0 -0.3103484161 -0.5044002784
1761200000.0 -0.5440660084 -0.2341791433
1771150000.0 -0.5703773011 0.1288482316
1781100000.0 -0.3665355589 0.4406025346
1791050000.0 -0.0065343165 0.5632974827
1801000000.0 0.3567369499 0.4304149532
1810950000.0 0.5538743079 0.0990865743
1820900000.0 0.5003417437 -0.2750055716
1830850000.0 0.2373031756 -0.5299078705
1840800000.0 -0.1156100377 -0.5764581397
1850750000.0 -0.4192366016 -0.4125787283
1860700000.0 -0.5694455016 -0.1076415639
1870650000.0 -0.5133185623 0.2249871982
1880600000.0 -0.269700697 0.4563178713
1890550000.0 0.062328765 0.491159088
1900500000.0 0.3368722325 0.3148663399
1910450000.0 0.4383089922 0.0183949925
1920400000.0 0.3390504624 -0.2615024593
1930350000.0 0.1086391287 -0.4103744551
1940300000.0 -0.1417314584 -0.3921167578
1950250000.0 -0.3115137084 -0.2431384663
1960200000.0 -0.3501123288 -0.0478702359
1970150000.0 -0.2727277397 0.0988238249
1980100000.0 -0.1532314653 0.1493407938
1990050000.0 -0.0740714447 0.1199914634
2000000000.0 -0.0648583937 0.0936313676
