!Created with skrf (http://scikit-rf.org).
# GHz S RI R 50.0 
!freq ReS11 ImS11
10000000.0 -0.7566496613 0.5811109262
19950000.0 -0.2714375132 0.9184141308
29900000.0 0.3201971265 0.9064809491
39850000.0 0.7977740793 0.5399118648
49800000.0 0.9631973141 -0.0543556812
59750000.0 0.7257909497 -0.6405608768
69700000.0 0.1636119794 -0.9573652529
79650000.0 -0.4835113173 -0.8383792055
89600000.0 -0.9074848518 -0.3097835313
99550000.0 -0.8725335947 0.3928279292
109500000.0 -0.3461870253 0.900532044
119450000.0 0.4159777447 0.8803977658
129400000.0 0.9353283737 0.2799484999
139350000.0 0.8188198666 -0.5252771618
149300000.0 0.1261664982 -0.9532537397
159250000.0 -0.6328146997 -0.703519577
169200000.0 -0.9373404518 0.00706131
179150000.0 -0.639518651 0.6841015134
189100000.0 0.01811192 0.9336905317
199050000.0 0.6382604594 0.6676895238
209000000.0 0.9116650447 0.071369689
218950000.0 0.7385417589 -0.535711966
228900000.0 0.2308261287 -0.8811673179
238850000.0 -0.3713903812 -0.8254756195
248800000.0 -0.7577451957 -0.2861700126
258750000.0 -0.8815593575 0.1419530312
268700000.0 -0.6028371844 0.6601690134
278650000.0 -0.0740122753 0.889587781
288600000.0 0.476834921 0.7402805151
298550000.0 0.8130477355 0.2786579749
308500000.0 0.7845398321 -0.2924500549
318450000.0 0.4003570465 -0.7093984988
328400000.0 -0.153802387 -0.7718065536
338350000.0 -0.5949458214 -0.4535575639
348300000.0 -0.6927098916 0.0598958097
358250000.0 -0.4209401701 0.4677784393
368200000.0 0.0170264909 0.551100817
378150000.0 0.3385035249 0.322414839
388100000.0 0.385875651 -0.0144506208
398050000.0 0.2049665862 -0.2371166237
408000000.0 -0.0336807283 -0.2516484469
417950000.0 -0.1762785306 -0.114875746
427900000.0 -0.1738373608 0.0479804485
437850000.0 -0.0734696046 0.1361017003
447800000.0 0.0378495731 0.1205196023
457750000.0 0.0911515027 0.0407387578
467700000.0 0.0730147346 -0.0395995957
477650000.0 0.0153875101 -0.0748820534
487600000.0 -0.0348346362 -0.0559989148
497550000.0 0.0010591915 -0.0274618065
507500000.0 -0.057058916 0.0020074236
517450000.0 -0.0204664129 0.0175319062
527400000.0 0.0006778384 -0.0003833145
537350000.0 -0.0074891722 -0.026632646
547300000.0 -0.0432098725 -0.0353219439
557250000.0 -0.0748252795 -0.0026868241
567200000.0 -0.0729916403 0.0482578067
577150000.0 -0.030399262 0.0892659305
587100000.0 0.0393625088 0.0917636295
597050000.0 0.1037287373 0.0434481442
607000000.0 0.1278509 -0.0422060379
616950000.0 0.0923487335 -0.1287645338
626900000.0 0.0099954874 -0.1756000818
636850000.0 -0.0858766458 -0.1590171821
646800000.0 -0.1515266244 -0.0831480303
656750000.0 -0.1564690908 0.0201754819
666700000.0 -0.0964907468 0.1067712183
676650000.0 0.0030352235 0.1365712698
686600000.0 0.0970600945 0.0961807894
696550000.0 0.1411804904 0.0059763157
706500000.0 0.1160832299 -0.0873002491
716450000.0 0.0367250333 -0.1363517166
726400000.0 -0.052896579 -0.1160266873
736350000.0 -0.0996743718 -0.0351440924
746300000.0 -0.0712547726 0.0598139661
756250000.0 0.0219281205 0.1094076826
766200000.0 0.1295443031 0.0780400022
776150000.0 0.1898063154 -0.0260706097
786100000.0 0.1577574781 -0.1517048433
796050000.0 0.0370479719 -0.228781082
806000000.0 -0.1222645251 -0.202493139
815950000.0 -0.2383307838 -0.0657272253
825900000.0 -0.2412459678 0.1277117492
835850000.0 -0.1159214837 0.2886006689
845800000.0 0.0903685326 0.3366099806
855750000.0 0.289691297 0.2409955951
865700000.0 0.3920200628 0.0328407846
875650000.0 0.3424403375 -0.2015631844
885600000.0 0.1520706344 -0.3595876617
895550000.0 -0.1038273727 -0.3618036713
905500000.0 -0.3107278189 -0.1958562202
915450000.0 -0.3658315749 0.0718562387
925400000.0 -0.2319497951 0.3163578963
935350000.0 0.0316694907 0.4100678078
945300000.0 0.2917546801 0.2934152597
955250000.0 0.3985696833 0.012585738
965200000.0 0.2561269814 -0.2815953527
975150000.0 -0.0919047401 -0.3766495309
985100000.0 -0.4119506706 -0.1388101727
995050000.0 -0.4203223314 0.2949062579
1005000000.0 -0.0546756579 0.5985529098
1014950000.0 0.4572822402 0.4889956835
1024900000.0 0.7181088142 -0.0245403277
1034850000.0 0.4672700076 -0.5957758476
1044800000.0 -0.1593643704 -0.7688422759
1054750000.0 -0.695184671 -0.3938165298
1064700000.0 -0.7477252413 0.2222342923
1074650000.0 -0.4552888968 0.6408471199
1084600000.0 0.0287601266 0.7632470345
1094550000.0 0.5349332521 0.5734211299
1104500000.0 0.7439028439 0.0320085588
1114450000.0 0.4951589044 -0.4931149849
1124400000.0 -0.0369504511 -0.6650242193
1134350000.0 -0.4933068797 -0.4112871097
1144300000.0 -0.6204741 0.053973553
1154250000.0 -0.4016085421 0.443572248
1164200000.0 0.0025295351 0.5619010985
1174150000.0 0.362045894 0.3728666796
1184100000.0 0.4869642974 -0.0122966428
1194050000.0 0.3075441333 -0.3690620466
1204000000.0 -0.054319386 -0.497191621
1213950000.0 -0.3918878294 -0.3595197734
1223900000.0 -0.557542318 -0.0540992631
1233850000.0 -0.5047723206 0.2790153652
1243800000.0 -0.2620691744 0.5121220308
1253750000.0 0.080161728 0.554270258
1263700000.0 0.3899271636 0.3767669992
1273650000.0 0.5366057938 0.0428195768
1283600000.0 0.4601775202 -0.3118782891
1293550000.0 0.2022327089 -0.5501134921
1303500000.0 -0.1294364386 -0.6014156207
1313450000.0 -0.4244628643 -0.469199837
1323400000.0 -0.6031882352 -0.2051653132
1333350000.0 -0.6202964199 0.1176610562
1343300000.0 -0.4600600567 0.409082672
1353250000.0 -0.1550456459 0.5752390572
1363200000.0 0.2041549867 0.5385903813
1373150000.0 0.4844978043 0.3018815468
1383100000.0 0.582087643 -0.0455445506
1393050000.0 0.4780433536 -0.3752599693
1403000000.0 0.2281661211 -0.5867238034
1412950000.0 -0.0794803829 -0.6322412997
1422900000.0 -0.3574040928 -0.5133890949
1432850000.0 -0.5350121521 -0.2633173747
1442800000.0 -0.5576736594 0.0538423123
1452750000.0 -0.4022273918 0.3424065968
1462700000.0 -0.1078556432 0.49905405
1472650000.0 0.2216153504 0.4639301867
1482600000.0 0.4664193825 0.2548966583
1492550000.0 0.5484649541 -0.0432397281
1502500000.0 0.4547003075 -0.3243800917
1512450000.0 0.2302685416 -0.5006383283
1522400000.0 -0.0487773977 -0.521896835
1532350000.0 -0.2917554877 -0.3793066831
1542300000.0 -0.4105295215 -0.114116001
1552250000.0 -0.3468226966 0.1760719969
1562200000.0 -0.1214513696 0.3656287747
1572150000.0 0.1612825006 0.3761126413
1582100000.0 0.3786537277 0.2196766805
1592050000.0 0.4528897471 -0.0245888843
1602000000.0 0.365041574 -0.2583907307
1611950000.0 0.1513766223 -0.3957300375
1621900000.0 -0.1123026501 -0.3738189362
1631850000.0 -0.315641771 -0.1846928888
1641800000.0 -0.3568119214 0.0986570423
1651750000.0 -0.2104979232 0.3455699252
1661700000.0 0.0529211933 0.4471534741
1671650000.0 0.3180946451 0.3711076285
1681600000.0 0.4863104242 0.1568527524
1691550000.0 0.4980946824 -0.1161350899
1701500000.0 0.3472540882 -0.3381695863
1711450000.0 0.1286752531 -0.4536956984
1721400000.0 -0.1750487906 -0.442448192
1731350000.0 -0.4231491273 -0.2270546761
1741300000.0 -0.4977495008 0.0965344315
1751250000.0 -0.3769481908 0.3958653048
1761200000.0 -0.1205555903 0.5697554166
1771150000.0 0.1790544244 0.5778243193
1781100000.0 0.4333579934 0.4299904016
1791050000.0 0.5750588751 0.1704111362
1801000000.0 0.5616919923 -0.1327169431
1810950000.0 0.3857986688 -0.3925357137
1820900000.0 0.0892822244 -0.5196948692
1830850000.0 -0.2330631895 -0.458611038
1840800000.0 -0.465827821 -0.2309512641
1850750000.0 -0.5357943191 0.073111705
1860700000.0 -0.4415251554 0.3498716636
1870650000.0 -0.2330245466 0.5270991245
1880600000.0 0.0227724429 0.5705355798
1890550000.0 0.2571255869 0.4786729955
1900500000.0 0.4092447965 0.2783870364
1910450000.0 0.4347198107 0.0246290564
1920400000.0 0.3230455088 -0.2037581299
1930350000.0 0.1115808628 -0.3285647135
1940300000.0 -0.1180368262 -0.3169030223
1950250000.0 -0.2832717641 -0.1955370667
1960200000.0 -0.3451187554 -0.0296860108
1970150000.0 -0.3122570955 0.1134462512
1980100000.0 -0.223261227 0.1921577828
1990050000.0 -0.1344316863 0.1956378653
2000000000.0 -0.0954197413 0.1527133921
