!Created with skrf (http://scikit-rf.org).
# GHz S RI R 50.0 
!freq ReS11 ImS11
10000000.0 -0.7393248074 0.6747464674
19950000.0 -0.1025477015 0.9812285924
29900000.0 0.5773825504 0.7902047847
39850000.0 0.9619584044 0.1858301787
49800000.0 0.8331284409 -0.5312170024
59750000.0 0.2353410285 -0.970514241
69700000.0 -0.5106822361 -0.8624018475
79650000.0 -0.9639434428 -0.2450707496
89600000.0 -0.8269981439 0.5234185437
99550000.0 -0.1497523188 0.9524985041
109500000.0 0.6456184534 0.7111861646
119450000.0 0.9656176924 -0.0930185475
129400000.0 0.492247217 -0.8505895983
139350000.0 -0.4106169326 -0.8932309057
149300000.0 -0.9494064933 -0.1794759115
159250000.0 -0.686368864 0.6517429094
169200000.0 0.1158162333 0.9311867098
179150000.0 0.8126092936 0.4817654291
189100000.0 0.9013914143 -0.3213281818
199050000.0 0.3635776499 -0.8909957993
209000000.0 -0.3926250421 -0.8700800599
218950000.0 -0.8792375971 -0.3286778892
228900000.0 -0.8427967865 0.3783394613
238850000.0 -0.3320765704 0.8544045939
248800000.0 0.3868077317 0.6915277043
258750000.0 0.8378538429 0.3965268718
268700000.0 0.8848097297 -0.2916947844
278650000.0 0.4444342234 -0.8096037189
288600000.0 -0.2232917384 -0.874797505
298550000.0 -0.7413942053 -0.4649881548
308500000.0 -0.8257449222 0.1817401699
318450000.0 -0.4325470037 0.6928347654
328400000.0 0.1993778429 0.7628250547
338350000.0 0.6636219643 0.351670213
348300000.0 0.6553987268 -0.2398343666
358250000.0 0.2270850494 -0.5809691525
368200000.0 -0.256032426 -0.4743462038
378150000.0 -0.4473583393 -0.0855544243
388100000.0 -0.2824271063 0.2502876879
398050000.0 0.0325493165 0.3133670637
408000000.0 0.2293862376 0.1364845726
417950000.0 0.2020402741 -0.0862286952
427900000.0 0.0375822046 -0.1842987156
437850000.0 -0.1092767061 -0.1223446337
447800000.0 -0.1428614013 0.0125349173
457750000.0 -0.0712654136 0.1105323891
467700000.0 0.0308727743 0.1140879477
477650000.0 0.0865113167 0.0496961546
487600000.0 0.0731917631 -0.0196279671
497550000.0 0.0539718373 -0.0030193722
507500000.0 -0.0024788329 -0.0623026216
517450000.0 -0.0186564588 -0.0288348384
527400000.0 -0.0092995131 -0.0194573275
537350000.0 -0.0076532829 -0.0351276321
547300000.0 -0.0346395675 -0.054103728
557250000.0 -0.079009358 -0.0347754037
567200000.0 -0.1023833154 0.0245325144
577150000.0 -0.076859542 0.0931896307
587100000.0 0.0041020706 0.127433878
597050000.0 0.0981752184 0.1001975737
607000000.0 0.1518989416 0.0043289615
616950000.0 0.1307830642 -0.1125209986
626900000.0 0.0333096252 -0.1876330244
636850000.0 -0.0945779556 -0.1763040164
646800000.0 -0.1864542949 -0.0813399914
656750000.0 -0.1877670627 0.0478668846
666700000.0 -0.099375473 0.1452544882
676650000.0 0.0292519013 0.1553436502
686600000.0 0.1260085378 0.0743031986
696550000.0 0.1395278348 -0.0465268159
706500000.0 0.0668835422 -0.1331858186
716450000.0 -0.0392185767 -0.1361783964
726400000.0 -0.1048998628 -0.0635900861
736350000.0 -0.0834589879 0.027909831
746300000.0 0.0050058182 0.0634660069
756250000.0 0.0910120771 0.0097155796
766200000.0 0.0972146204 -0.100689967
776150000.0 0.002950281 -0.1862140703
786100000.0 -0.1385979934 -0.166541648
796050000.0 -0.2300374921 -0.0316860665
806000000.0 -0.1895705876 0.1508838328
815950000.0 -0.0150193362 0.2619881818
825900000.0 0.2094378024 0.2130485467
835850000.0 0.3462499007 0.0108120708
845800000.0 0.3035949956 -0.2463546965
855750000.0 0.0869812878 -0.4121460213
865700000.0 -0.1959324566 -0.3855087106
875650000.0 -0.3934034597 -0.1647131344
885600000.0 -0.3841391331 0.1440292051
895550000.0 -0.1598654295 0.3703367994
905500000.0 0.1660771484 0.3753733661
915450000.0 0.4040064596 0.1470291703
925400000.0 0.4084791574 -0.1860854071
935350000.0 0.1709586228 -0.4183405603
945300000.0 -0.1652802139 -0.3965679189
955250000.0 -0.3711299656 -0.1213590091
965200000.0 -0.2793489651 0.222241404
975150000.0 0.0783901372 0.3483792595
985100000.0 0.4024705887 0.0974412959
995050000.0 0.3414521385 -0.3520508982
1005000000.0 -0.1294758987 -0.5494663363
1014950000.0 -0.5907059203 -0.2096834049
1024900000.0 -0.5421427006 0.4253183838
1034850000.0 0.0644510269 0.7535096443
1044800000.0 0.6977397634 0.419432995
1054750000.0 0.7920786909 -0.2917721816
1064700000.0 0.2970723114 -0.7600316549
1074650000.0 -0.2964256269 -0.7584004185
1084600000.0 -0.7595642284 -0.2890025679
1094550000.0 -0.691721389 0.3722024666
1104500000.0 -0.1480878382 0.7390907841
1114450000.0 0.462511804 0.5520450201
1124400000.0 0.6862217718 -0.0101962748
1134350000.0 0.4090349421 -0.5003575751
1144300000.0 -0.1072593621 -0.5948924799
1154250000.0 -0.4872563351 -0.281294075
1164200000.0 -0.4858870872 0.1892495302
1174150000.0 -0.1300449542 0.4724541204
1184100000.0 0.2977768814 0.375188318
1194050000.0 0.4844242089 -0.0059891638
1204000000.0 0.3243626086 -0.3822142001
1213950000.0 -0.0487342471 -0.522850499
1223900000.0 -0.4047017295 -0.3593833579
1233850000.0 -0.5492226405 0.0053386647
1243800000.0 -0.403233408 0.3761214122
1253750000.0 -0.0402980149 0.5503546252
1263700000.0 0.3468200868 0.4314005827
1273650000.0 0.558192294 0.0862856012
1283600000.0 0.4987196041 -0.3083239145
1293550000.0 0.209598608 -0.5736197018
1303500000.0 -0.1791979401 -0.6026917183
1313450000.0 -0.5064537697 -0.388172119
1323400000.0 -0.6368070394 -0.0120662747
1333350000.0 -0.5010142049 0.3697576243
1343300000.0 -0.148284715 0.5844794561
1353250000.0 0.266126777 0.5253924333
1363200000.0 0.549219377 0.2210273577
1373150000.0 0.5798261225 -0.183798277
1383100000.0 0.3617117478 -0.5158084101
1393050000.0 -0.0061675839 -0.6471984103
1403000000.0 -0.3749228166 -0.534428045
1412950000.0 -0.600143921 -0.2227510874
1422900000.0 -0.5869169096 0.1653136846
1432850000.0 -0.3311999263 0.463560952
1442800000.0 0.0527803836 0.5360496627
1452750000.0 0.3894319252 0.3538383226
1462700000.0 0.5353569887 0.0079649783
1472650000.0 0.4383508208 -0.3451713118
1482600000.0 0.1520986722 -0.5564361705
1492550000.0 -0.1952173959 -0.5433659974
1502500000.0 -0.4543592757 -0.3149579148
1512450000.0 -0.5086729076 0.0251079366
1522400000.0 -0.331072108 0.3189148575
1532350000.0 -0.0064462328 0.4179655035
1542300000.0 0.29632992 0.2745579065
1552250000.0 0.4228313381 -0.0256290209
1562200000.0 0.3191548227 -0.3183036
1572150000.0 0.0535551152 -0.4576116857
1582100000.0 -0.2338141161 -0.3840840311
1592050000.0 -0.3977643291 -0.1410944833
1602000000.0 -0.3486452138 0.1488600313
1611950000.0 -0.1074587451 0.3257430235
1621900000.0 0.1955048685 0.2855817766
1631850000.0 0.3805230925 0.0468246765
1641800000.0 0.3431183524 -0.2532043817
1651750000.0 0.1077717081 -0.4471988013
1661700000.0 -0.1991481195 -0.4354441647
1671650000.0 -0.4235197423 -0.2213588988
1681600000.0 -0.4509170583 0.1000510812
1691550000.0 -0.2525491032 0.3735619058
1701500000.0 0.0852694145 0.4493081135
1711450000.0 0.3903106955 0.2753800188
1721400000.0 0.5017000055 -0.0644668596
1731350000.0 0.3640052316 -0.3931253058
1741300000.0 0.0506143915 -0.5435898358
1751250000.0 -0.2327880114 -0.4488448897
1761200000.0 -0.4744665544 -0.2917991773
1771150000.0 -0.5609230154 0.0630259646
1781100000.0 -0.3983307419 0.3906198661
1791050000.0 -0.061382723 0.5433600939
1801000000.0 0.3036005596 0.4449272741
1810950000.0 0.5240557517 0.1389250067
1820900000.0 0.501851339 -0.2277334959
1830850000.0 0.261499917 -0.4928231067
1840800000.0 -0.0814532105 -0.5579883514
1850750000.0 -0.3879516115 -0.4141274288
1860700000.0 -0.5470193748 -0.1253669249
1870650000.0 -0.5036067252 0.1984078917
1880600000.0 -0.2739389973 0.4309486466
1890550000.0 0.0466803006 0.4742835701
1900500000.0 0.3118544697 0.3118976956
1910450000.0 0.4113950324 0.0287367731
1920400000.0 0.3188215333 -0.2390204211
1930350000.0 0.1033348497 -0.3823320925
1940300000.0 -0.1295606691 -0.3658085227
1950250000.0 -0.2876279603 -0.2274522698
1960200000.0 -0.3241009262 -0.047966618
1970150000.0 -0.2551254653 0.0888838227
1980100000.0 -0.1473934298 0.132874982
1990050000.0 -0.0786682157 0.1037837819
2000000000.0 -0.0761045466 0.0759868405
