!Created with skrf (http://scikit-rf.org).
# GHz S RI R 50.0 
!freq ReS11 ImS11
10000000.0 -0.7594747898 0.6825815827
19950000.0 -0.1156667994 0.9883315294
29900000.0 0.5665472808 0.7947913666
39850000.0 0.9544280099 0.1916211435
49800000.0 0.8357682272 -0.5280738148
59750000.0 0.2445063546 -0.98193074
69700000.0 -0.5109591578 -0.8897157027
79650000.0 -0.9811344609 -0.2735382977
89600000.0 -0.8539350907 0.5049343161
99550000.0 -0.1792037281 0.9470121784
109500000.0 0.6234926954 0.7225945673
119450000.0 0.9694120429 -0.0747515708
129400000.0 0.5178307107 -0.8560495342
139350000.0 -0.3975920019 -0.9262081364
149300000.0 -0.9599498866 -0.2106029093
159250000.0 -0.7024263089 0.6359569087
169200000.0 0.1060521886 0.9267416538
179150000.0 0.8155044372 0.4806984454
189100000.0 0.9148215696 -0.3321689266
199050000.0 0.372207449 -0.914334469
209000000.0 -0.3956263209 -0.8921541211
218950000.0 -0.8847348976 -0.341237622
228900000.0 -0.8438197305 0.3713811105
238850000.0 -0.3290574275 0.8501404795
248800000.0 0.3023534434 0.6724622971
258750000.0 0.8565778575 0.3913431283
268700000.0 0.9047931881 -0.3054207525
278650000.0 0.457802845 -0.8303328446
288600000.0 -0.2176328115 -0.8927507615
298550000.0 -0.7376213689 -0.4777337221
308500000.0 -0.8244299002 0.1733364526
318450000.0 -0.4349780323 0.6933659846
328400000.0 0.2027935517 0.7735951947
338350000.0 0.6824011542 0.361551871
348300000.0 0.6833052105 -0.2391108142
358250000.0 0.2533641792 -0.5868259918
368200000.0 -0.2397717912 -0.4870561739
378150000.0 -0.4449195843 -0.1023679154
388100000.0 -0.2890466925 0.241611455
398050000.0 0.0276888821 0.3221570821
408000000.0 0.2344432646 0.1569707401
417950000.0 0.2148873284 -0.0653960968
427900000.0 0.0546412079 -0.1722562407
437850000.0 -0.0905986082 -0.1212192572
447800000.0 -0.1277408715 0.0076624039
457750000.0 -0.0633141279 0.1071168991
467700000.0 0.029403984 0.1152896347
477650000.0 0.078480955 0.0550243047
487600000.0 0.0629637576 -0.0112342077
497550000.0 0.0228798556 -0.0055866409
507500000.0 0.000259498 -0.0454615938
517450000.0 -0.0121157734 -0.0076504223
527400000.0 0.0006319983 -0.0022505474
537350000.0 0.0021623104 -0.0279520388
547300000.0 -0.0280274196 -0.060660272
557250000.0 -0.0837501352 -0.0466872355
567200000.0 -0.1201651589 0.0172580653
577150000.0 -0.1051590954 0.0983855751
587100000.0 -0.0246267339 0.1473472913
597050000.0 0.0809186467 0.12914352
607000000.0 0.1502574421 0.030896083
616950000.0 0.1408291017 -0.0975204853
626900000.0 0.045403666 -0.1872847482
636850000.0 -0.0919841851 -0.1901055386
646800000.0 -0.2005022968 -0.101710412
656750000.0 -0.2178716609 0.031604238
666700000.0 -0.1365120595 0.1426644899
676650000.0 -0.0042084422 0.1680091719
686600000.0 0.1052867666 0.0964455977
696550000.0 0.1338572391 -0.0261698822
706500000.0 0.0719321473 -0.1250122748
716450000.0 -0.0323785897 -0.1443625297
726400000.0 -0.106645278 -0.0846603897
736350000.0 -0.0971498169 0.0033575621
746300000.0 -0.0192359577 0.0447092146
756250000.0 0.0623508228 -0.0014382245
766200000.0 0.0694440876 -0.1047902814
776150000.0 -0.0219083535 -0.1800543802
786100000.0 -0.144639727 -0.1508946876
796050000.0 -0.2158567719 -0.0305484174
806000000.0 -0.1776008321 0.1275636798
815950000.0 -0.0206013132 0.228902254
825900000.0 0.1876928201 0.186540364
835850000.0 0.3219053498 -0.0013311765
845800000.0 0.2872430377 -0.2469201222
855750000.0 0.0827626009 -0.410653876
865700000.0 -0.1921692973 -0.3880488366
875650000.0 -0.3852967114 -0.1775234681
885600000.0 -0.3801433256 0.1228766895
895550000.0 -0.1649129606 0.3482121467
905500000.0 0.1556982042 0.36217505
915450000.0 0.3987908663 0.1439261084
925400000.0 0.4143455773 -0.1872612789
935350000.0 0.1836156208 -0.4275882988
945300000.0 -0.1557756854 -0.4169741651
955250000.0 -0.3744949084 -0.1461416548
965200000.0 -0.297129671 0.2114725114
975150000.0 0.0604940331 0.3665938718
985100000.0 0.4152274682 0.1308669042
995050000.0 0.3888916065 -0.3403840133
1005000000.0 -0.0803395324 -0.5776131966
1014950000.0 -0.575917846 -0.2638205768
1024900000.0 -0.5777784499 0.3830771829
1034850000.0 0.0120708987 0.7686093779
1044800000.0 0.6924601629 0.47199402
1054750000.0 0.8282745614 -0.2653051075
1064700000.0 0.3186230872 -0.7712242085
1074650000.0 -0.2882087642 -0.748261626
1084600000.0 -0.7519624623 -0.2708981419
1094550000.0 -0.6647475013 0.3939203624
1104500000.0 -0.10010045 0.7398961758
1114450000.0 0.4998124433 0.5099404711
1124400000.0 0.6627273627 -0.0740576835
1134350000.0 0.3250540654 -0.5190280615
1144300000.0 -0.185707264 -0.5321206506
1154250000.0 -0.4973837441 -0.1724131907
1164200000.0 -0.4232067434 0.2743704334
1174150000.0 -0.03971183 0.4912698297
1184100000.0 0.3596501739 0.3285876202
1194050000.0 0.483268334 -0.0747304382
1204000000.0 0.272634422 -0.4229304857
1213950000.0 -0.1152405005 -0.5148606905
1223900000.0 -0.454859299 -0.3139927366
1233850000.0 -0.571448811 0.0642953667
1243800000.0 -0.3989683202 0.4282794625
1253750000.0 -0.0196179754 0.5844080697
1263700000.0 0.3710336097 0.4438865419
1273650000.0 0.572976222 0.0810280312
1283600000.0 0.4956005472 -0.3212691432
1293550000.0 0.1892955348 -0.5841795069
1303500000.0 -0.2099912597 -0.6053470308
1313450000.0 -0.5411990303 -0.3807706421
1323400000.0 -0.6686197726 0.0051628168
1333350000.0 -0.5244843511 0.394036646
1343300000.0 -0.1612095571 0.6102106678
1353250000.0 0.2613848959 0.5466842899
1363200000.0 0.5480880256 0.2332225862
1373150000.0 0.5782333527 -0.1825435234
1383100000.0 0.3552022946 -0.5240272685
1393050000.0 -0.0200895856 -0.6608735994
1403000000.0 -0.3970388201 -0.5460390372
1412950000.0 -0.6286356598 -0.227756076
1422900000.0 -0.6177537033 0.1696321891
1432850000.0 -0.3599082161 0.4758400506
1442800000.0 0.0344218812 0.5527567937
1452750000.0 0.387837579 0.3670923857
1462700000.0 0.5454087112 0.0079418126
1472650000.0 0.4462342865 -0.3611953501
1482600000.0 0.1457503124 -0.5811004725
1492550000.0 -0.2185924707 -0.5639828903
1502500000.0 -0.4856522313 -0.3228937926
1512450000.0 -0.5340577105 0.0298773677
1522400000.0 -0.3398760908 0.3269907086
1532350000.0 -0.0016212733 0.4221844592
1542300000.0 0.3068808985 0.272699973
1552250000.0 0.4312201208 -0.0343168583
1562200000.0 0.3192772471 -0.3345897498
1572150000.0 0.0466737105 -0.4774340977
1582100000.0 -0.2450523451 -0.403741448
1592050000.0 -0.4094781378 -0.1505023299
1602000000.0 -0.3575567093 0.1529183455
1611950000.0 -0.1115209533 0.3414996381
1621900000.0 0.19976504 0.3036433661
1631850000.0 0.4009125983 0.0572049299
1641800000.0 0.3744600711 -0.2615935238
1651750000.0 0.1353991947 -0.4704810088
1661700000.0 -0.1874694671 -0.4627255432
1671650000.0 -0.4293012033 -0.2403087237
1681600000.0 -0.4693715264 0.0916289563
1691550000.0 -0.2769823368 0.3802253044
1701500000.0 0.0677164918 0.4770321295
1711450000.0 0.3976937528 0.3200409445
1721400000.0 0.5431774295 -0.0215335152
1731350000.0 0.4281211479 -0.3756410092
1741300000.0 0.114933007 -0.5704800667
1751250000.0 -0.247359157 -0.5295480207
1761200000.0 -0.510565538 -0.2789692518
1771150000.0 -0.5727576804 0.080551486
1781100000.0 -0.4055180546 0.4107472872
1791050000.0 -0.0637919594 0.5749672831
1801000000.0 0.3124841324 0.488774768
1810950000.0 0.549639314 0.1797471819
1820900000.0 0.5339977123 -0.2073608751
1830850000.0 0.2841951589 -0.4923148674
1840800000.0 -0.0757952615 -0.5606301753
1850750000.0 -0.3894278998 -0.4020295661
1860700000.0 -0.531455073 -0.1030400624
1870650000.0 -0.4985079319 0.1894338405
1880600000.0 -0.293742185 0.4292712069
1890550000.0 -0.0163702467 0.4964587509
1900500000.0 0.2791295402 0.3849754043
1910450000.0 0.4329638431 0.1074880132
1920400000.0 0.3748559875 -0.1898123992
1930350000.0 0.1593234071 -0.3769265888
1940300000.0 -0.1042577863 -0.3974331642
1950250000.0 -0.3082090143 -0.2694590058
1960200000.0 -0.3853753082 -0.0686279384
1970150000.0 -0.3289426656 0.113127675
1980100000.0 -0.1966916334 0.2040323091
1990050000.0 -0.0787233361 0.1917257572
2000000000.0 -0.0339218442 0.1385767761
