!Created with skrf (http://scikit-rf.org).
# GHz S RI R 50.0 
!freq ReS11 ImS11
10000000.0 -0.7676495392 0.6723278212
19950000.0 -0.1433207479 0.9866935769
29900000.0 0.5294636818 0.82410545
39850000.0 0.9408298832 0.2602037011
49800000.0 0.8811204597 -0.4481824631
59750000.0 0.346105354 -0.9479198127
69700000.0 -0.4106231773 -0.9378951778
79650000.0 -0.948148282 -0.3737330475
89600000.0 -0.8994510544 0.4252120898
99550000.0 -0.2550356002 0.9346826947
109500000.0 0.575699492 0.7671800158
119450000.0 0.9741229685 -0.0209275731
129400000.0 0.5488804963 -0.8354029673
139350000.0 -0.3787474598 -0.9329308151
149300000.0 -0.9589159214 -0.2152671667
159250000.0 -0.7077018527 0.6357597934
169200000.0 0.0814050452 0.9378377503
179150000.0 0.7873599375 0.5405033518
189100000.0 0.9536201982 -0.2260056045
199050000.0 0.5171451 -0.8501592424
209000000.0 -0.2135338468 -0.9656052202
218950000.0 -0.7929716849 -0.5496960287
228900000.0 -0.9286906404 0.1298823347
238850000.0 -0.5848809164 0.7147785179
248800000.0 0.0718094005 0.9021137192
258750000.0 0.6589430718 0.6781444418
268700000.0 0.9602445952 0.0818841681
278650000.0 0.7866341432 -0.5625535294
288600000.0 0.2275009766 -0.9208346633
298550000.0 -0.4194193424 -0.809704753
308500000.0 -0.8155389011 -0.2967268893
318450000.0 -0.7552880667 0.3409604555
328400000.0 -0.2765399902 0.7513417598
338350000.0 0.3353293981 0.6950879605
348300000.0 0.6862053357 0.2252529473
358250000.0 0.5648865604 -0.3005606111
368200000.0 0.1350253547 -0.5073853533
378150000.0 -0.226589832 -0.3269625737
388100000.0 -0.2845967683 -0.0015184676
398050000.0 -0.0999209344 0.1848391116
408000000.0 0.1007378186 0.1410210338
417950000.0 0.1508657708 -0.0162670542
427900000.0 0.0542484127 -0.1195448798
437850000.0 -0.0735270578 -0.0941480897
447800000.0 -0.1254778799 0.0200654997
457750000.0 -0.0689691523 0.1293612807
467700000.0 0.0471648053 0.1556133076
477650000.0 0.1394528219 0.0883630364
487600000.0 0.1522285007 -0.0191354587
497550000.0 0.0866237292 -0.0932471685
507500000.0 -0.0020349181 -0.0982446817
517450000.0 -0.0522718653 -0.0318868355
527400000.0 0.047719289 0.0226809108
537350000.0 -0.0671568775 -0.0308777253
547300000.0 -0.0333245514 0.011077525
557250000.0 -0.0246819627 0.0022902136
567200000.0 -0.0444298207 0.003459106
577150000.0 -0.0613010304 0.0365938779
587100000.0 -0.0398811131 0.0866567818
597050000.0 0.0271675252 0.1132940389
607000000.0 0.109809541 0.0815253391
616950000.0 0.1557170644 -0.0101428512
626900000.0 0.1278296897 -0.1213710879
636850000.0 0.027162492 -0.1939707078
646800000.0 -0.1015041296 -0.1828199921
656750000.0 -0.1928876578 -0.085992411
666700000.0 -0.1961520318 0.0499156432
676650000.0 -0.1066142078 0.153095841
686600000.0 0.0283085459 0.1675016281
696550000.0 0.1358262364 0.0866284893
706500000.0 0.1580178249 -0.0417908016
716450000.0 0.0868621418 -0.1422408783
726400000.0 -0.0269191714 -0.1487217344
736350000.0 -0.0510554229 -0.0951881216
746300000.0 -0.1029113672 -0.0333216204
756250000.0 -0.0439297842 0.0410599732
766200000.0 0.0485173667 0.027250205
776150000.0 0.0904685018 -0.0620534868
786100000.0 0.0374295453 -0.157159228
796050000.0 -0.0851619425 -0.1749110286
806000000.0 -0.1907811083 -0.0776590812
815950000.0 -0.1884454374 0.0894723848
825900000.0 -0.048167343 0.2197776228
835850000.0 0.1658610109 0.2114150385
845800000.0 0.3294131013 0.0423556336
855750000.0 0.3335852367 -0.2107959768
865700000.0 0.1526338144 -0.411044921
875650000.0 -0.1323240059 -0.4364615595
885600000.0 -0.3708612813 -0.2509292915
895550000.0 -0.4209344347 0.0634942914
905500000.0 -0.2340066003 0.3403643669
915450000.0 0.1030915719 0.4151139179
925400000.0 0.4035211217 0.2288050772
935350000.0 0.4883795781 -0.1220015916
945300000.0 0.2953100403 -0.4344580344
955250000.0 -0.0731478723 -0.5111985901
965200000.0 -0.3890518253 -0.2800981741
975150000.0 -0.4182463619 0.1347724272
985100000.0 -0.0858320261 0.4326761334
995050000.0 0.3808869696 0.3221107519
1005000000.0 0.5586920264 -0.1665240398
1014950000.0 0.2176555761 -0.6180212236
1024900000.0 -0.4009749994 -0.5706164236
1034850000.0 -0.7284945212 0.0282656446
1044800000.0 -0.3743008606 0.6851283072
1054750000.0 0.4040447995 0.7415680088
1064700000.0 0.8634205165 0.1228364688
1074650000.0 0.6874413544 -0.570968115
1084600000.0 0.055659532 -0.874295328
1094550000.0 -0.5705474007 -0.6231895782
1104500000.0 -0.8048969432 0.0075487652
1114450000.0 -0.4846197466 0.6023700997
1124400000.0 0.1650027304 0.733276714
1134350000.0 0.6481548657 0.325735898
1144300000.0 0.6446249286 -0.2626683275
1154250000.0 0.2392991176 -0.6191892398
1164200000.0 -0.2615314419 -0.5688826001
1174150000.0 -0.5577031634 -0.1887412255
1184100000.0 -0.482766503 0.2849724584
1194050000.0 -0.0809753502 0.5416256229
1204000000.0 0.3627012142 0.4043366651
1213950000.0 0.5490468638 -0.0043584686
1223900000.0 0.3956579348 -0.4031180253
1233850000.0 0.0321888418 -0.5756212367
1243800000.0 -0.3494456388 -0.4757624755
1253750000.0 -0.5798899584 -0.1410258826
1263700000.0 -0.5269299397 0.2730886123
1273650000.0 -0.2009320634 0.5488545816
1283600000.0 0.2285115218 0.5308665792
1293550000.0 0.5333737292 0.2340854372
1303500000.0 0.5756758976 -0.1780285852
1313450000.0 0.3602009809 -0.5184588725
1323400000.0 -0.0100799311 -0.6593860985
1333350000.0 -0.3928024326 -0.5525702388
1343300000.0 -0.639835288 -0.2304305401
1353250000.0 -0.6351778012 0.1903643124
1363200000.0 -0.3575427213 0.525261668
1373150000.0 0.0742245831 0.6054455125
1383100000.0 0.4525528136 0.391304214
1393050000.0 0.6113904512 -0.0023706369
1403000000.0 0.5055767401 -0.3979838297
1412950000.0 0.1981964069 -0.6461478443
1422900000.0 -0.1899341528 -0.6669284919
1432850000.0 -0.5180226237 -0.4536381703
1442800000.0 -0.6559457658 -0.0808159668
1452750000.0 -0.5324553373 0.3046338664
1462700000.0 -0.1874299305 0.5284399995
1472650000.0 0.221129944 0.481540767
1482600000.0 0.5000536264 0.1915943321
1492550000.0 0.5310699029 -0.1958348988
1502500000.0 0.3219586812 -0.5067522949
1512450000.0 -0.022103423 -0.6205373559
1522400000.0 -0.354918785 -0.4994127588
1532350000.0 -0.5354858871 -0.1964724442
1542300000.0 -0.4797713248 0.1557549324
1552250000.0 -0.2102834252 0.3870332196
1562200000.0 0.135618631 0.3787483483
1572150000.0 0.3833237272 0.1454649594
1582100000.0 0.4142619561 -0.1896329033
1592050000.0 0.2172277152 -0.4488451753
1602000000.0 -0.0964080424 -0.5032635768
1611950000.0 -0.3679381634 -0.3343522338
1621900000.0 -0.4609553683 -0.0265676305
1631850000.0 -0.320274345 0.2701293485
1641800000.0 -0.0049496496 0.3964730128
1651750000.0 0.3189258113 0.2701094522
1661700000.0 0.4640504643 -0.0478085408
1671650000.0 0.3432032339 -0.3743307192
1681600000.0 0.0895861843 -0.5420330467
1691550000.0 -0.2727710813 -0.5065088309
1701500000.0 -0.5129269907 -0.2426292043
1711450000.0 -0.5365623964 0.1201923904
1721400000.0 -0.3207265956 0.4315505116
1731350000.0 0.0549069496 0.5379776521
1741300000.0 0.4174271296 0.3689392399
1751250000.0 0.5847984381 -0.0014014104
1761200000.0 0.4792543398 -0.3873115054
1771150000.0 0.1658502032 -0.6152245951
1781100000.0 -0.2114931989 -0.6084920602
1791050000.0 -0.5121354996 -0.3889463812
1801000000.0 -0.6343835493 -0.0366986262
1810950000.0 -0.5283303835 0.3284149841
1820900000.0 -0.214787403 0.5666265373
1830850000.0 0.1896046896 0.5599535897
1840800000.0 0.5002519028 0.2965043984
1850750000.0 0.5707552428 -0.0987073269
1860700000.0 0.390395141 -0.4379726951
1870650000.0 0.0633654819 -0.5949253058
1880600000.0 -0.2744079266 -0.5407339506
1890550000.0 -0.5156547757 -0.316887599
1900500000.0 -0.5896941581 -0.0029375523
1910450000.0 -0.4740604618 0.2958519702
1920400000.0 -0.2062352753 0.4669964661
1930350000.0 0.1038848426 0.437027024
1940300000.0 0.3190559355 0.2268728921
1950250000.0 0.3555407595 -0.0515786248
1960200000.0 0.2289018953 -0.2715719709
1970150000.0 0.0220614872 -0.3625538059
1980100000.0 -0.1712310956 -0.3227449014
1990050000.0 -0.2846032469 -0.2000243114
2000000000.0 -0.2987632727 -0.0661791415
