!Created with skrf (http://scikit-rf.org).
# GHz S RI R 50.0 
!freq ReS11 ImS11
10000000.0 -0.7302511678 0.5627887019
19950000.0 -0.2659902114 0.8904743467
29900000.0 0.3052655942 0.878487869
39850000.0 0.7694025206 0.5178198105
49800000.0 0.9281922781 -0.0694288488
59750000.0 0.6871403665 -0.6499514168
69700000.0 0.1227237506 -0.9566012496
79650000.0 -0.5169262653 -0.8159839046
89600000.0 -0.9124083918 -0.2603644513
99550000.0 -0.8256887439 0.4524202857
109500000.0 -0.2411195324 0.9246076326
119450000.0 0.5380110191 0.8132744178
129400000.0 0.9784024163 0.1182327664
139350000.0 0.7160599123 -0.6756287741
149300000.0 -0.0541477906 -0.9596570973
159250000.0 -0.7375936806 -0.5612388947
169200000.0 -0.8935853944 0.1756102845
179150000.0 -0.5029432764 0.7636256172
189100000.0 0.1414343407 0.9030215363
199050000.0 0.6852214578 0.5811476036
209000000.0 0.886759458 -0.0037354611
218950000.0 0.6855604498 -0.5621831569
228900000.0 0.1954671591 -0.8628437468
238850000.0 -0.3659260304 -0.7952533088
248800000.0 -0.7325556283 -0.4153424123
258750000.0 -0.8518211951 0.1452543189
268700000.0 -0.5973762717 0.6400712968
278650000.0 -0.1087090891 0.8784458498
288600000.0 0.4161741276 0.768211968
298550000.0 0.7660205229 0.3547699159
308500000.0 0.7928873545 -0.194937846
318450000.0 0.473911517 -0.6433129511
328400000.0 -0.0500941545 -0.7828519109
338350000.0 -0.5224936938 -0.5442517308
348300000.0 -0.6951034081 -0.0640500265
358250000.0 -0.4973550079 0.3711514787
368200000.0 -0.0937517006 0.5184011621
378150000.0 0.2369691379 0.3524088117
388100000.0 0.3208985249 0.0552257255
398050000.0 0.1877420177 -0.1518217137
408000000.0 -0.0038460142 -0.1732288752
417950000.0 -0.110239843 -0.0650538851
427900000.0 -0.0912408497 0.0555381424
437850000.0 0.0010774436 0.0988243212
447800000.0 0.0829984301 0.0490414978
457750000.0 0.0984601086 -0.0444521428
467700000.0 0.043161112 -0.119654266
477650000.0 -0.0419630003 -0.1329157495
487600000.0 -0.1074406554 -0.0831559341
497550000.0 -0.1211157458 -0.00953692
507500000.0 -0.0865334517 0.0619870334
517450000.0 -0.0210476641 0.0891507577
527400000.0 0.0362703043 0.0711331941
537350000.0 0.0583905262 0.027258241
547300000.0 0.0434690549 -0.0119561348
557250000.0 0.0063497458 -0.0231687112
567200000.0 -0.0206745394 -0.0045273192
577150000.0 -0.0171635807 0.0227732215
587100000.0 0.0133601069 0.0315734367
597050000.0 0.0491793355 0.0046356546
607000000.0 0.058789826 -0.0500467952
616950000.0 0.0266472061 -0.1034351279
626900000.0 -0.0372804472 -0.1239815428
636850000.0 -0.1030021894 -0.0923246078
646800000.0 -0.1364371181 -0.0178310911
656750000.0 -0.116386417 0.0694421686
666700000.0 -0.0440832809 0.1297282756
676650000.0 0.0522857342 0.1314898362
686600000.0 0.1311613304 0.0675999836
696550000.0 0.1540962485 -0.0359631156
706500000.0 0.1050254248 -0.1345506999
716450000.0 0.0051168233 -0.1807847388
726400000.0 -0.0992401943 -0.1481249324
736350000.0 -0.1519462442 -0.0520912512
746300000.0 -0.1227998971 0.0604006182
756250000.0 -0.0193632274 0.1284344005
766200000.0 0.1064062979 0.1100489
776150000.0 0.1885481536 0.01216746
786100000.0 0.1790830988 -0.1179015202
796050000.0 0.0761270924 -0.2077343228
806000000.0 -0.0759336602 -0.1967321154
815950000.0 -0.189641758 -0.0793768063
825900000.0 -0.1994078386 0.096191538
835850000.0 -0.0885706227 0.2439499709
845800000.0 0.0972497313 0.2845244201
855750000.0 0.2743716255 0.1895918656
865700000.0 0.3568631864 -0.0084997544
875650000.0 0.2921988481 -0.226039647
885600000.0 0.0919487642 -0.3559153959
895550000.0 -0.1594465746 -0.3200324421
905500000.0 -0.3364140415 -0.1169266903
915450000.0 -0.3395252312 0.1672125344
925400000.0 -0.1537017316 0.3901965297
935350000.0 0.1339860091 0.4340875978
945300000.0 0.3822312389 0.2612902935
955250000.0 0.4468560153 -0.0587810424
965200000.0 0.2525757216 -0.3603991746
975150000.0 -0.132673095 -0.4351565884
985100000.0 -0.471709147 -0.1711949092
995050000.0 -0.4886297392 0.2930312316
1005000000.0 -0.1168063584 0.6243785803
1014950000.0 0.4149907445 0.5347908888
1024900000.0 0.7024862114 0.0180607587
1034850000.0 0.4592197807 -0.5735437656
1044800000.0 -0.1819157605 -0.7413390448
1054750000.0 -0.6887641812 -0.3212585413
1064700000.0 -0.7321455891 0.2433924579
1074650000.0 -0.3741043798 0.7212833359
1084600000.0 0.2105955001 0.7783124669
1094550000.0 0.6586812433 0.4018450249
1104500000.0 0.7082345095 -0.1863846962
1114450000.0 0.3288610795 -0.6321071486
1124400000.0 -0.2263334242 -0.6669967157
1134350000.0 -0.6134920178 -0.3169500782
1144300000.0 -0.6512820409 0.1684860381
1154250000.0 -0.3741637216 0.534288639
1164200000.0 0.0546012615 0.6241272429
1174150000.0 0.4327607377 0.414969175
1184100000.0 0.5756740605 0.0023624188
1194050000.0 0.4028181886 -0.3927155866
1204000000.0 0.0267333775 -0.562459017
1213950000.0 -0.3470322422 -0.4544005806
1223900000.0 -0.5637065275 -0.1563319485
1233850000.0 -0.562952753 0.1968336122
1243800000.0 -0.3594564781 0.4777399471
1253750000.0 -0.0255664047 0.583674691
1263700000.0 0.3157389407 0.4618808971
1273650000.0 0.5189819931 0.1510355658
1283600000.0 0.4961650326 -0.2167633419
1293550000.0 0.2714792175 -0.4901283003
1303500000.0 -0.0489375142 -0.580563953
1313450000.0 -0.3476039405 -0.4837448555
1323400000.0 -0.5439849813 -0.2487014771
1333350000.0 -0.5944212916 0.0565019539
1343300000.0 -0.4762232815 0.3522400398
1353250000.0 -0.2027381366 0.5387360618
1363200000.0 0.1431984509 0.5322162215
1373150000.0 0.427566364 0.318427643
1383100000.0 0.5373883906 -0.015750358
1393050000.0 0.4463487805 -0.3421229077
1403000000.0 0.2077409855 -0.5544042496
1412950000.0 -0.085728202 -0.6016503153
1422900000.0 -0.347902389 -0.4878898618
1432850000.0 -0.5120112696 -0.2467403708
1442800000.0 -0.5279184509 0.0618371142
1452750000.0 -0.3655163158 0.341921443
1462700000.0 -0.0643678769 0.4812332611
1472650000.0 0.2597046153 0.4199348225
1482600000.0 0.4797504878 0.1878268528
1492550000.0 0.5246472066 -0.1159026867
1502500000.0 0.3961030392 -0.3813715276
1512450000.0 0.1491776576 -0.5241196366
1522400000.0 -0.1299676085 -0.5004543569
1532350000.0 -0.3439172431 -0.3135679144
1542300000.0 -0.4094056761 -0.0252033799
1552250000.0 -0.2876574412 0.2506096399
1562200000.0 -0.031334988 0.3958322196
1572150000.0 0.2496263081 0.3601882542
1582100000.0 0.4433407684 0.1694969127
1592050000.0 0.4822012101 -0.0937119025
1602000000.0 0.355149131 -0.3266202863
1611950000.0 0.1072576206 -0.4420783737
1621900000.0 -0.1714194099 -0.3847396134
1631850000.0 -0.3681785182 -0.1604681577
1641800000.0 -0.3910451295 0.1443643328
1651750000.0 -0.2221748523 0.3995610375
1661700000.0 0.0604655502 0.4975524384
1671650000.0 0.3393067861 0.4098290147
1681600000.0 0.5145361462 0.1805124169
1691550000.0 0.5331490651 -0.1082702294
1701500000.0 0.3871075506 -0.3644912939
1711450000.0 0.1180178551 -0.5006521189
1721400000.0 -0.193539105 -0.4580198073
1731350000.0 -0.4348341994 -0.2360609829
1741300000.0 -0.5107360848 0.0882197132
1751250000.0 -0.3950095716 0.3914581763
1761200000.0 -0.1406987631 0.5693607672
1771150000.0 0.1579668933 0.5789417455
1781100000.0 0.4102357625 0.4328179888
1791050000.0 0.5514720515 0.177447342
1801000000.0 0.5443804452 -0.120525857
1810950000.0 0.3833645947 -0.3793620918
1820900000.0 0.1048780106 -0.5138416145
1830850000.0 -0.2068275132 -0.4668070294
1840800000.0 -0.4404850155 -0.2501502566
1850750000.0 -0.5154279964 0.0505382577
1860700000.0 -0.4257360065 0.3272563284
1870650000.0 -0.2211945304 0.5047213336
1880600000.0 0.0277950366 0.548152741
1890550000.0 0.2505815432 0.4583126379
1900500000.0 0.3904264803 0.2664848437
1910450000.0 0.4108899858 0.0245166116
1920400000.0 0.3000308583 -0.1927385597
1930350000.0 0.0937066772 -0.3045661634
1940300000.0 -0.1109945821 -0.2604129644
1950250000.0 -0.2248214097 -0.1613324996
1960200000.0 -0.2956706456 -0.0317743095
1970150000.0 -0.274647093 0.1004874984
1980100000.0 -0.1964951386 0.1751332276
1990050000.0 -0.11773211 0.1772440994
2000000000.0 -0.0913619079 0.1336471078
