!Created with skrf (http://scikit-rf.org).
# GHz S RI R 50.0 
!freq ReS11 ImS11
10000000.0 -0.7730207043 0.6812310612
19950000.0 -0.1360509712 0.9916116401
29900000.0 0.5410834857 0.8138369968
39850000.0 0.9433451237 0.2355887292
49800000.0 0.865664194 -0.4769670391
59750000.0 0.3133676179 -0.9665448073
69700000.0 -0.4486939017 -0.93371639
79650000.0 -0.971301681 -0.3472254063
89600000.0 -0.8949420038 0.4527152305
99550000.0 -0.2362643703 0.9402698518
109500000.0 0.5840777821 0.756801828
119450000.0 0.9745911545 -0.0214622596
129400000.0 0.5733521441 -0.8294209178
139350000.0 -0.3416167546 -0.9621357317
149300000.0 -0.9558263737 -0.2798830366
159250000.0 -0.7567513914 0.5855663289
169200000.0 0.0164279492 0.9384773237
179150000.0 0.7542783195 0.5820835658
189100000.0 0.9660718866 -0.1856461009
199050000.0 0.5498587686 -0.8413097517
209000000.0 -0.1938494818 -0.9807406708
218950000.0 -0.7930856074 -0.5608631856
228900000.0 -0.928909748 0.1372406151
238850000.0 -0.5597503394 0.7311684238
248800000.0 0.0033020372 0.8885526981
258750000.0 0.6971174025 0.6432769849
268700000.0 0.9712193683 0.0116328302
278650000.0 0.7393670042 -0.6341055016
288600000.0 0.1313270475 -0.9401762442
298550000.0 -0.5116660881 -0.7464748084
308500000.0 -0.8393817521 -0.1710152652
318450000.0 -0.6769490973 0.4614289925
328400000.0 -0.1227991236 0.7866303415
338350000.0 0.4768406353 0.6089677595
348300000.0 0.7245634161 0.0685866968
358250000.0 0.4871107072 -0.4247484447
368200000.0 0.0107979908 -0.5369761299
378150000.0 -0.3247949396 -0.2751776162
388100000.0 -0.3264662546 0.0877094801
398050000.0 -0.0862194388 0.2745335705
408000000.0 0.1554431691 0.2060050268
417950000.0 0.2255730702 0.0103499266
427900000.0 0.1267033203 -0.1351827001
437850000.0 -0.0250963562 -0.1415741065
447800000.0 -0.1129324778 -0.0410981194
457750000.0 -0.0938974878 0.073386921
467700000.0 -0.0077220711 0.1220801371
477650000.0 0.0675975331 0.0922633666
487600000.0 0.0768420913 0.0344877555
497550000.0 0.1034345901 -0.0265237433
507500000.0 0.0350319225 -0.0476321498
517450000.0 -0.0006395958 -0.0269996575
527400000.0 -0.0010093537 -0.0036526737
537350000.0 0.0149551306 -0.004990165
547300000.0 0.0120124185 -0.0361532951
557250000.0 -0.0303916898 -0.0556883197
567200000.0 -0.0857205536 -0.0344634769
577150000.0 -0.1153811006 0.0315049037
587100000.0 -0.0860710947 0.1113039008
597050000.0 0.0012848704 0.1536290215
607000000.0 0.1051335204 0.1212810253
616950000.0 0.1663684766 0.0191925952
626900000.0 0.1450098958 -0.1056870315
636850000.0 0.044592532 -0.1891849761
646800000.0 -0.0875666706 -0.1863884737
656750000.0 -0.1838267029 -0.09741473
666700000.0 -0.1932647104 0.0307272795
676650000.0 -0.1132838868 0.1273069631
686600000.0 0.0083838306 0.139926824
696550000.0 0.1003149714 0.0664556316
706500000.0 0.1120865988 -0.0433739518
716450000.0 0.0453799375 -0.1205995516
726400000.0 -0.0480978079 -0.1188852615
736350000.0 -0.0972978682 -0.0462620069
746300000.0 -0.0624425077 0.0360431598
756250000.0 0.0346891903 0.0558343051
766200000.0 0.1204885653 -0.019786281
776150000.0 0.1175937959 -0.1523973277
786100000.0 0.0010793028 -0.2515810721
796050000.0 -0.1742608567 -0.2309091422
806000000.0 -0.2969209763 -0.0653296162
815950000.0 -0.2526770079 0.1735655661
825900000.0 -0.0159396797 0.2923411994
835850000.0 0.2002287059 0.2327695476
845800000.0 0.3634214867 0.0548671076
855750000.0 0.3747174897 -0.2147310065
865700000.0 0.1921029154 -0.4370258049
875650000.0 -0.1062778174 -0.4823152884
885600000.0 -0.3693938714 -0.3071069878
895550000.0 -0.4491031977 0.012018772
905500000.0 -0.2858036567 0.3109855552
915450000.0 0.0461859689 0.4201755882
925400000.0 0.3645793111 0.2659258503
935350000.0 0.4819672055 -0.0697174032
945300000.0 0.3203432525 -0.3877498259
955250000.0 -0.0279729315 -0.4829143267
965200000.0 -0.3349817736 -0.2731983424
975150000.0 -0.3597648592 0.1189715462
985100000.0 -0.0274593746 0.3829618274
995050000.0 0.408784453 0.2268478152
1005000000.0 0.5035936773 -0.2745994282
1014950000.0 0.079909717 -0.6470346118
1024900000.0 -0.5173510653 -0.4690805388
1034850000.0 -0.7174566124 0.1874218186
1044800000.0 -0.2440531401 0.7641051924
1054750000.0 0.5160484912 0.6717551603
1064700000.0 0.8928769617 0.0598581984
1074650000.0 0.649631196 -0.6273777642
1084600000.0 0.0156114889 -0.8647129104
1094550000.0 -0.5859056649 -0.582724004
1104500000.0 -0.782165836 0.0489339675
1114450000.0 -0.4315908683 0.6121354439
1124400000.0 0.2161981588 0.6856022552
1134350000.0 0.6404099362 0.2394354134
1144300000.0 0.5553172622 -0.3170962109
1154250000.0 0.1170951305 -0.5796644724
1164200000.0 -0.3319368759 -0.4352208675
1174150000.0 -0.5210366628 -0.0243461339
1184100000.0 -0.3333376533 0.3882575535
1194050000.0 0.1047010702 0.5031286597
1204000000.0 0.4652107678 0.2447893628
1213950000.0 0.5117696306 -0.1796035609
1223900000.0 0.254790569 -0.5011366046
1233850000.0 -0.1413914055 -0.5664174866
1243800000.0 -0.4846908832 -0.357766343
1253750000.0 -0.6132582173 0.0333215437
1263700000.0 -0.4474499016 0.4253818985
1273650000.0 -0.0512286176 0.610749197
1283600000.0 0.3706621708 0.4822086333
1293550000.0 0.6023892781 0.1139893912
1303500000.0 0.5526298066 -0.3054073078
1313450000.0 0.2680182752 -0.600211364
1323400000.0 -0.1279510474 -0.6709163598
1333350000.0 -0.4931064499 -0.4977502182
1343300000.0 -0.6912134586 -0.1331603135
1353250000.0 -0.6226867508 0.2910209894
1363200000.0 -0.2929279024 0.5865093825
1373150000.0 0.1541633541 0.6053064473
1383100000.0 0.5076654827 0.3421483649
1393050000.0 0.6215307391 -0.0682325379
1403000000.0 0.4755914423 -0.4501526637
1412950000.0 0.1457117956 -0.6689602639
1422900000.0 -0.2420910087 -0.6577555868
1432850000.0 -0.5491791588 -0.4240280943
1442800000.0 -0.6596672505 -0.0502540976
1452750000.0 -0.5206601399 0.3205369058
1462700000.0 -0.1756540019 0.5290701837
1472650000.0 0.2273692013 0.4741587968
1482600000.0 0.5011807304 0.1821196341
1492550000.0 0.5298506025 -0.2031282498
1502500000.0 0.3211258174 -0.5108710375
1512450000.0 -0.0215811714 -0.6219410421
1522400000.0 -0.3515069387 -0.5002584229
1532350000.0 -0.5287434903 -0.2003063018
1542300000.0 -0.4725018809 0.1439052458
1552250000.0 -0.2063928247 0.3671724404
1562200000.0 0.1345258925 0.35646386
1572150000.0 0.3735804052 0.1228781224
1582100000.0 0.3893886702 -0.1996939945
1592050000.0 0.1882844552 -0.4355908174
1602000000.0 -0.1115907934 -0.469593138
1611950000.0 -0.3547029468 -0.2921116177
1621900000.0 -0.4147271974 0.0047774578
1631850000.0 -0.2519846667 0.2693076331
1641800000.0 0.0568506433 0.3528497493
1651750000.0 0.343323681 0.1963467688
1661700000.0 0.440205257 -0.1193280339
1671650000.0 0.2911189093 -0.41758793
1681600000.0 -0.0188450467 -0.5385722539
1691550000.0 -0.3347063538 -0.4279912692
1701500000.0 -0.5129532692 -0.1373315333
1711450000.0 -0.4723054917 0.2114033365
1721400000.0 -0.2123056296 0.4684811317
1731350000.0 0.1672198688 0.5018282407
1741300000.0 0.4870121444 0.2745323787
1751250000.0 0.5817333634 -0.109116479
1761200000.0 0.4099181841 -0.4583726751
1771150000.0 0.0668090136 -0.6217677842
1781100000.0 -0.2968674909 -0.5515164549
1791050000.0 -0.5499196141 -0.2892130245
1801000000.0 -0.6087075178 0.0727018496
1810950000.0 -0.4437963967 0.4102241119
1820900000.0 -0.0992196907 0.587140637
1830850000.0 0.2906134581 0.5088503006
1840800000.0 0.5421232201 0.1992785325
1850750000.0 0.5402794221 -0.1903556469
1860700000.0 0.3104244516 -0.4810817114
1870650000.0 -0.0259042891 -0.5747992969
1880600000.0 -0.3386197457 -0.4678062033
1890550000.0 -0.5305623047 -0.2141935756
1900500000.0 -0.5353083048 0.0925946763
1910450000.0 -0.3896144974 0.3334017546
1920400000.0 -0.1169898575 0.4483809729
1930350000.0 0.1583804375 0.3649261404
1940300000.0 0.3050592481 0.1392391136
1950250000.0 0.2781368804 -0.1018784528
1960200000.0 0.1314700658 -0.2510471602
1970150000.0 -0.039495279 -0.2757507759
1980100000.0 -0.155475121 -0.2110297125
1990050000.0 -0.1865953074 -0.130114161
2000000000.0 -0.1699647337 -0.1046630711
