!Created with skrf (http://scikit-rf.org).
# GHz S RI R 50.0 
!freq ReS11 ImS11
10000000.0 -0.9999490348 0.1627162138
19950000.0 -0.9451460585 0.3106805477
29900000.0 -0.8681200305 0.4520547108
39850000.0 -0.7691683125 0.5914695524
49800000.0 -0.6503626518 0.7232275766
59750000.0 -0.5073110967 0.8412452277
69700000.0 -0.3332499166 0.9345811829
79650000.0 -0.1252064276 0.9856595733
89600000.0 0.1155651976 0.9792044207
99550000.0 0.3771711962 0.8984785056
109500000.0 0.6396812081 0.7322829807
119450000.0 0.8673376716 0.4672638559
129400000.0 1.002078337 0.1110427843
139350000.0 0.9811979692 -0.2922579601
149300000.0 0.7841199593 -0.652117194
159250000.0 0.4607919204 -0.8881502917
169200000.0 0.0974407959 -0.9798610406
179150000.0 -0.2413017569 -0.95040959
189100000.0 -0.5205697448 -0.8365889196
199050000.0 -0.7261698657 -0.6704326825
209000000.0 -0.8552682479 -0.4756474008
218950000.0 -0.9222274301 -0.2736886397
228900000.0 -0.9397237291 -0.0757807779
238850000.0 -0.921400304 0.1155862183
248800000.0 -0.8264583734 0.3432184115
258750000.0 -0.8276876118 0.4198045421
268700000.0 -0.7389861508 0.5697016661
278650000.0 -0.6253704799 0.6878674733
288600000.0 -0.4855191838 0.7743277512
298550000.0 -0.324017311 0.8276839129
308500000.0 -0.1461273582 0.8488692679
318450000.0 0.0418289318 0.8337374199
328400000.0 0.2298241736 0.7762093424
338350000.0 0.3976257047 0.6682491074
348300000.0 0.5211086997 0.5089280108
358250000.0 0.5754870185 0.3126207678
368200000.0 0.552183793 0.1107492378
378150000.0 0.4637552591 -0.0616700565
388100000.0 0.3375921937 -0.1817136056
398050000.0 0.2032799663 -0.2422625793
408000000.0 0.0846315824 -0.2481098944
417950000.0 -0.0065493792 -0.2130577215
427900000.0 -0.0674125617 -0.1548883613
437850000.0 -0.103125431 -0.0891045441
447800000.0 -0.1178755178 -0.0277189123
457750000.0 -0.1169106975 0.0207969039
467700000.0 -0.1042033391 0.05219253
477650000.0 -0.0819824791 0.0642757611
487600000.0 -0.0516266775 0.0584045994
497550000.0 -0.0220498503 0.0091810963
507500000.0 -0.0196819627 0.0301474273
517450000.0 -0.0122528776 0.02823116
527400000.0 0.0082411286 0.0129930188
537350000.0 0.0115881998 -0.0047647068
547300000.0 0.001047197 -0.0233654208
557250000.0 -0.0265321824 -0.0406616792
567200000.0 -0.0573287911 -0.0533016794
577150000.0 -0.0879902845 -0.0623775365
587100000.0 -0.1143842055 -0.0657888736
597050000.0 -0.1340407554 -0.0605439842
607000000.0 -0.1474903578 -0.0446731918
616950000.0 -0.1557917836 -0.0191332565
626900000.0 -0.160631607 0.0135944468
636850000.0 -0.1621682843 0.0484982401
646800000.0 -0.1598592435 0.0813511517
656750000.0 -0.1524529565 0.1094280265
666700000.0 -0.1370518933 0.129270703
676650000.0 -0.1116000416 0.1399093522
686600000.0 -0.0767579942 0.1432573702
696550000.0 -0.0347444962 0.1399822997
706500000.0 0.0097280911 0.1306830937
716450000.0 0.0520951579 0.1163037835
726400000.0 0.0868177421 0.0937200262
736350000.0 0.109778309 0.0609998216
746300000.0 0.1193831706 0.0183081694
756250000.0 0.1159238301 -0.0356135347
766200000.0 0.1000742775 -0.0955517968
776150000.0 0.0738142137 -0.1558713923
786100000.0 0.0376581072 -0.210185937
796050000.0 -0.0077666248 -0.2516593214
806000000.0 -0.0616983509 -0.2749413029
815950000.0 -0.1242998674 -0.2776438144
825900000.0 -0.1931834058 -0.2607782254
835850000.0 -0.265397965 -0.2259975194
845800000.0 -0.3353786091 -0.173611985
855750000.0 -0.3978853448 -0.0949855806
865700000.0 -0.4447806338 -0.0142769141
875650000.0 -0.4485954454 0.0072357861
885600000.0 -0.3834700089 0.0595025246
895550000.0 -0.3812732136 0.1313301981
905500000.0 -0.3594448636 0.2116106075
915450000.0 -0.3121137803 0.2933887341
925400000.0 -0.2444437273 0.3677908453
935350000.0 -0.1571311324 0.4265811095
945300000.0 -0.0507162248 0.4572965205
955250000.0 0.0739439181 0.4492334922
965200000.0 0.2104563546 0.3918557536
975150000.0 0.3467168389 0.2783263046
985100000.0 0.4584947919 0.1051901324
995050000.0 0.5105301796 -0.119176496
1005000000.0 0.4681912246 -0.370001479
1014950000.0 0.3011313059 -0.5953328838
1024900000.0 0.0247988565 -0.7252161247
1034850000.0 -0.2993771681 -0.7200998817
1044800000.0 -0.5968046032 -0.5795687193
1054750000.0 -0.8019543548 -0.3294341077
1064700000.0 -0.8192309149 -0.0496857307
1074650000.0 -0.849272505 0.1380103797
1084600000.0 -0.7399006163 0.3868777539
1094550000.0 -0.6180383819 0.5608578112
1104500000.0 -0.4042320449 0.7138908356
1114450000.0 -0.1575293113 0.7858781108
1124400000.0 0.092576188 0.7722378868
1134350000.0 0.313129699 0.6727732707
1144300000.0 0.4776042902 0.5043050546
1154250000.0 0.5729907898 0.2967417581
1164200000.0 0.5999417967 0.0784378418
1174150000.0 0.5709557543 -0.119830825
1184100000.0 0.5061702865 -0.2885270593
1194050000.0 0.4053890435 -0.4250367078
1204000000.0 0.2763557122 -0.5150788264
1213950000.0 0.1358956136 -0.5597662854
1223900000.0 -0.0028137255 -0.5702305257
1233850000.0 -0.1318983664 -0.5585778765
1243800000.0 -0.2474706983 -0.5331598435
1253750000.0 -0.3473609421 -0.4973395475
1263700000.0 -0.4291927845 -0.4523261086
1273650000.0 -0.4931225962 -0.3973735456
1283600000.0 -0.5391185971 -0.3317375725
1293550000.0 -0.5728312707 -0.2581425189
1303500000.0 -0.5991824027 -0.18017874
1313450000.0 -0.620547231 -0.1018207639
1323400000.0 -0.6391770863 -0.0267016338
1333350000.0 -0.6535040995 0.0439614706
1343300000.0 -0.6597539575 0.1100311846
1353250000.0 -0.6554581057 0.1698643504
1363200000.0 -0.6368519969 0.2264920217
1373150000.0 -0.6044669307 0.2812342125
1383100000.0 -0.5629531394 0.3356678944
1393050000.0 -0.5168362917 0.3893616366
1403000000.0 -0.4704783969 0.4420870037
1412950000.0 -0.4244443616 0.4904820263
1422900000.0 -0.3793249922 0.5316791893
1432850000.0 -0.3333022139 0.5617679594
1442800000.0 -0.2847644662 0.5818762311
1452750000.0 -0.2310788421 0.5949929095
1462700000.0 -0.1690198215 0.6021211702
1472650000.0 -0.0984506083 0.6057637319
1482600000.0 -0.0229467568 0.6066265024
1492550000.0 0.0532580119 0.6042080586
1502500000.0 0.1273547574 0.5945473656
1512450000.0 0.1961810635 0.5751477755
1522400000.0 0.2581820602 0.5413884808
1532350000.0 0.3133629161 0.4912656412
1542300000.0 0.3625217336 0.4259121249
1552250000.0 0.407226766 0.3483258448
1562200000.0 0.4487117978 0.264725341
1572150000.0 0.4831913769 0.1782346977
1582100000.0 0.5060792285 0.0916576645
1592050000.0 0.5128641924 0.0053622401
1602000000.0 0.4985140464 -0.0800898697
1611950000.0 0.4633198736 -0.1615545824
1621900000.0 0.4102541551 -0.2396197621
1631850000.0 0.3448350453 -0.3135759551
1641800000.0 0.272960433 -0.3813306191
1651750000.0 0.1973443536 -0.440092916
1661700000.0 0.119741887 -0.4846097909
1671650000.0 0.0400742563 -0.5099543745
1681600000.0 -0.0420164543 -0.5073985554
1691550000.0 -0.0773888571 -0.5076305292
1701500000.0 -0.1837533359 -0.4962585915
1711450000.0 -0.2680807773 -0.4625978948
1721400000.0 -0.3454996967 -0.4252261432
1731350000.0 -0.4150425263 -0.3866936569
1741300000.0 -0.4736089746 -0.3458655804
1751250000.0 -0.5186901575 -0.2984275411
1761200000.0 -0.5485787177 -0.2449900042
1771150000.0 -0.5655681708 -0.1851770628
1781100000.0 -0.5745770212 -0.1204460458
1791050000.0 -0.5796103192 -0.0542381788
1801000000.0 -0.5847531504 0.0102787941
1810950000.0 -0.5899960838 0.0709719834
1820900000.0 -0.5929503851 0.1267015351
1830850000.0 -0.5876609019 0.1755344842
1840800000.0 -0.5712211329 0.2198739658
1850750000.0 -0.5417040772 0.2589904902
1860700000.0 -0.5004774442 0.2945533216
1870650000.0 -0.4535652203 0.3284415695
1880600000.0 -0.406700515 0.3600845886
1890550000.0 -0.3642658251 0.3892863497
1900500000.0 -0.3264876272 0.4129883445
1910450000.0 -0.2912212469 0.4297230865
1920400000.0 -0.2556220365 0.4351894887
1930350000.0 -0.2156601665 0.4283091288
1940300000.0 -0.1708360835 0.4091348111
1950250000.0 -0.122166699 0.3797868904
1960200000.0 -0.0733549549 0.3446542094
1970150000.0 -0.0315438037 0.3050949986
1980100000.0 -0.0011914127 0.2618946901
1990050000.0 0.0115093424 0.2116691405
2000000000.0 0.0019429085 0.1531878208
