!Created with skrf (http://scikit-rf.org).
# GHz S RI R 50.0 
!freq ReS11 ImS11
10000000.0 -0.7704950283 0.5856029203
19950000.0 -0.2794554771 0.922867937
29900000.0 0.3163461139 0.9084138004
39850000.0 0.7973470336 0.5387297407
49800000.0 0.9653294936 -0.0608722643
59750000.0 0.7246006654 -0.6554215607
69700000.0 0.1476368952 -0.9740532606
79650000.0 -0.5154076726 -0.8355611428
89600000.0 -0.9297991781 -0.2685643939
99550000.0 -0.8423414124 0.4591383004
109500000.0 -0.241141365 0.9333239072
119450000.0 0.5502672788 0.8059671055
129400000.0 0.9801204112 0.0892790279
139350000.0 0.6893038045 -0.7003165028
149300000.0 -0.1000955502 -0.9586475386
159250000.0 -0.7763226096 -0.5329170967
169200000.0 -0.9077676112 0.2150399594
179150000.0 -0.4899421579 0.7992126395
189100000.0 0.1796697631 0.9244210525
199050000.0 0.7358277565 0.5803853343
209000000.0 0.9286948195 -0.0248476621
218950000.0 0.705978326 -0.593085289
228900000.0 0.1936305857 -0.8938339747
238850000.0 -0.3856692709 -0.8213487766
248800000.0 -0.772108311 -0.4366132782
258750000.0 -0.8955046844 0.1386389747
268700000.0 -0.6405723361 0.6498749848
278650000.0 -0.1354959505 0.9036312738
288600000.0 0.4160532023 0.799142379
298550000.0 0.7895372082 0.3794357286
308500000.0 0.8285816853 -0.1832893824
318450000.0 0.5104695977 -0.645848862
328400000.0 -0.0221264238 -0.7966907789
338350000.0 -0.5091593276 -0.5642610941
348300000.0 -0.6977813278 -0.0825359375
358250000.0 -0.5090823419 0.3604617222
368200000.0 -0.1054087678 0.5148466693
378150000.0 0.2291198405 0.3517002799
388100000.0 0.3138198174 0.0536574187
398050000.0 0.1773340189 -0.1539719727
408000000.0 -0.0176418156 -0.1721985598
417950000.0 -0.1236446791 -0.0581276707
427900000.0 -0.098370755 0.0686668351
437850000.0 0.0043009452 0.1150277801
447800000.0 0.0967485481 0.0645640544
457750000.0 0.1209923116 -0.0339233945
467700000.0 0.0685410277 -0.1174074593
477650000.0 -0.0208172342 -0.1401424967
487600000.0 -0.0958536978 -0.0972427792
497550000.0 -0.1227741471 -0.0261017539
507500000.0 -0.0956458073 0.0466081755
517450000.0 -0.037671704 0.075307337
527400000.0 0.0142265288 0.0607347464
537350000.0 0.0328245787 0.0229175156
547300000.0 0.0185939509 -0.0061945625
557250000.0 -0.010823481 -0.0078943367
567200000.0 -0.0254547397 0.0174404038
577150000.0 -0.0071483033 0.0464310324
587100000.0 0.0374096338 0.0503029363
597050000.0 0.081714222 0.0129144005
607000000.0 0.0937643983 -0.055488583
616950000.0 0.0554966181 -0.1239784227
626900000.0 -0.023813542 -0.1559942457
636850000.0 -0.1102764929 -0.1284590366
646800000.0 -0.1641770834 -0.0478004659
656750000.0 -0.1576299976 0.0542290433
666700000.0 -0.0870008155 0.1344001321
676650000.0 0.0202173684 0.1545481002
686600000.0 0.1181933962 0.1023809895
696550000.0 0.163618815 0.0010924369
706500000.0 0.1349123184 -0.1041558849
716450000.0 0.0479393525 -0.1658324349
726400000.0 -0.0541277931 -0.1526138502
736350000.0 -0.116475411 -0.0739531286
746300000.0 -0.1048186642 0.0278345359
756250000.0 -0.0223557374 0.0951074748
766200000.0 0.0854488453 0.0856651958
776150000.0 0.1576170377 0.0015230412
786100000.0 0.1463201383 -0.1137145092
796050000.0 0.04817414 -0.1918235967
806000000.0 -0.0901122351 -0.1762241673
815950000.0 -0.1938750307 -0.0579195324
825900000.0 -0.1945635095 0.1152111785
835850000.0 -0.0748248419 0.2589240389
845800000.0 0.1189030847 0.2936752789
855750000.0 0.3001777752 0.1909422362
865700000.0 0.3804758933 -0.0154912491
875650000.0 0.308860946 -0.2391449736
885600000.0 0.0988795328 -0.3736841235
895550000.0 -0.1633452938 -0.3399216806
905500000.0 -0.3523629004 -0.1376997201
915450000.0 -0.3702825748 0.1489727185
925400000.0 -0.1981126821 0.3854229686
935350000.0 0.0901907081 0.4535265431
945300000.0 0.3572367513 0.307495285
955250000.0 0.4597483917 0.0021838151
965200000.0 0.3122559615 -0.312638045
975150000.0 -0.0428748947 -0.4396509885
985100000.0 -0.4047265917 -0.2482266456
995050000.0 -0.5042484702 0.1838051094
1005000000.0 -0.2159279518 0.5641268414
1014950000.0 0.2995854627 0.584021853
1024900000.0 0.6733264732 0.1586207904
1034850000.0 0.5655148941 -0.4570063592
1044800000.0 -0.027834425 -0.7677578502
1054750000.0 -0.647313818 -0.470816592
1064700000.0 -0.8002197345 0.1785177614
1074650000.0 -0.4198351736 0.6988482062
1084600000.0 0.0815395866 0.7273672033
1094550000.0 0.5729606922 0.5048858024
1104500000.0 0.7458708916 -0.0603759397
1114450000.0 0.4329104282 -0.5834074204
1124400000.0 -0.1436678321 -0.6947976278
1134350000.0 -0.5842046404 -0.3697488819
1144300000.0 -0.6578939205 0.1299615977
1154250000.0 -0.3898227926 0.5143048046
1164200000.0 0.0387916125 0.612909039
1174150000.0 0.417389473 0.410172187
1184100000.0 0.5613115863 -0.0002181144
1194050000.0 0.3854977458 -0.3928690724
1204000000.0 0.0053093293 -0.5559996403
1213950000.0 -0.366456635 -0.4373979267
1223900000.0 -0.5729861627 -0.1294868161
1233850000.0 -0.5547351468 0.225902371
1243800000.0 -0.3327371823 0.4983021172
1253750000.0 0.0143726816 0.5871597006
1263700000.0 0.3524746903 0.445521831
1273650000.0 0.5410580664 0.122015514
1283600000.0 0.5003255738 -0.2482185396
1293550000.0 0.2602620504 -0.5167357231
1303500000.0 -0.0723589676 -0.5995257208
1313450000.0 -0.3822728531 -0.4911315215
1323400000.0 -0.5833161653 -0.239250129
1333350000.0 -0.6230961764 0.0833745627
1343300000.0 -0.4799814969 0.3872470648
1353250000.0 -0.181111331 0.566111033
1363200000.0 0.1798620884 0.540282957
1373150000.0 0.4631574453 0.3083722031
1383100000.0 0.5636109852 -0.0377631073
1393050000.0 0.4604692934 -0.367274672
1403000000.0 0.2101723759 -0.5772988493
1412950000.0 -0.0981474482 -0.6194066925
1422900000.0 -0.3738534342 -0.4924889169
1432850000.0 -0.5416444419 -0.2339776088
1442800000.0 -0.5441714938 0.088121033
1452750000.0 -0.3598376925 0.36561826
1462700000.0 -0.0451616491 0.4899759376
1472650000.0 0.2795063693 0.4101389148
1482600000.0 0.4894467678 0.1671186822
1492550000.0 0.5220120899 -0.1366487628
1502500000.0 0.3829728529 -0.3941682534
1512450000.0 0.1297912751 -0.5234595971
1522400000.0 -0.1500652499 -0.482242737
1532350000.0 -0.3563496447 -0.2801873835
1542300000.0 -0.4028604627 0.0156734732
1552250000.0 -0.2584197573 0.2822824732
1562200000.0 0.015452764 0.4026524909
1572150000.0 0.2933200041 0.3315458507
1582100000.0 0.4633986728 0.1150139958
1592050000.0 0.4656606179 -0.1541376788
1602000000.0 0.3062775883 -0.3718333014
1611950000.0 0.0381228412 -0.4537732813
1621900000.0 -0.2395408446 -0.3545893078
1631850000.0 -0.4087141306 -0.0966687424
1641800000.0 -0.3859000365 0.2197239166
1651750000.0 -0.1762603874 0.4554928474
1661700000.0 0.1275817692 0.5179380132
1671650000.0 0.4047767144 0.3939588446
1681600000.0 0.5617526251 0.1376837814
1691550000.0 0.5527515525 -0.1663382376
1701500000.0 0.3735668798 -0.4230036391
1711450000.0 0.0717213819 -0.5441618366
1721400000.0 -0.2598867711 -0.470686665
1731350000.0 -0.4986621576 -0.2142775536
1741300000.0 -0.5514146315 0.1333402259
1751250000.0 -0.4042904829 0.4425291476
1761200000.0 -0.1243422131 0.6129315682
1771150000.0 0.1913729399 0.6091475029
1781100000.0 0.4544205167 0.4479332022
1791050000.0 0.6012479395 0.174246773
1801000000.0 0.5881781389 -0.1441909942
1810950000.0 0.4064675442 -0.4194602592
1820900000.0 0.0965710837 -0.5555180162
1830850000.0 -0.2416348973 -0.4906544918
1840800000.0 -0.473044472 -0.2409289418
1850750000.0 -0.5181225966 0.0229468338
1860700000.0 -0.4771053414 0.3125438712
1870650000.0 -0.2722869071 0.5217277701
1880600000.0 -0.0059406994 0.5876172277
1890550000.0 0.245753394 0.5100498765
1900500000.0 0.418631874 0.3147825821
1910450000.0 0.4640148598 0.0549621529
1920400000.0 0.3646476124 -0.1894800422
1930350000.0 0.1545339178 -0.3337572219
1940300000.0 -0.0832166568 -0.3370442297
1950250000.0 -0.2635565182 -0.2235459419
1960200000.0 -0.3426752712 -0.0569440307
1970150000.0 -0.3234340816 0.0961667025
1980100000.0 -0.2416456293 0.1891206492
1990050000.0 -0.1493781793 0.2068962027
2000000000.0 -0.0994529797 0.1687140057
