!Created with skrf (http://scikit-rf.org).
# GHz S RI R 50.0 
!freq ReS11 ImS11
10000000.0 -0.7480824294 0.6776127418
19950000.0 -0.1086066041 0.9842553346
29900000.0 0.5724415847 0.7925869416
39850000.0 0.9589283994 0.1888908638
49800000.0 0.8346363764 -0.5294596692
59750000.0 0.2392829527 -0.9751591911
69700000.0 -0.5112151254 -0.8733482998
79650000.0 -0.9714037015 -0.2553837321
89600000.0 -0.836694891 0.5179422368
99550000.0 -0.1576656095 0.950924583
109500000.0 0.6414338649 0.7113166409
119450000.0 0.9661792691 -0.0954851502
129400000.0 0.49089556 -0.859492109
139350000.0 -0.4200367111 -0.8990579437
149300000.0 -0.95620901 -0.1731992249
159250000.0 -0.6786999095 0.6586396219
169200000.0 0.1313933946 0.9263698793
179150000.0 0.8232628911 0.4644681575
189100000.0 0.9003751779 -0.3428085352
199050000.0 0.3520700962 -0.9061481931
209000000.0 -0.406044813 -0.8730506301
218950000.0 -0.8847533113 -0.3236174903
228900000.0 -0.8399220452 0.3826210066
238850000.0 -0.3273582916 0.8542248059
248800000.0 0.2829887273 0.7473637004
258750000.0 0.8493550603 0.3865320408
268700000.0 0.8916501844 -0.3011542411
278650000.0 0.4487076407 -0.8183030642
288600000.0 -0.2195092817 -0.8820852495
298550000.0 -0.7380564278 -0.4742824004
308500000.0 -0.8277405237 0.1708914903
318450000.0 -0.4421582251 0.6881258274
328400000.0 0.1898210696 0.7714279774
338350000.0 0.6655906052 0.3688635157
348300000.0 0.6712103356 -0.2268587454
358250000.0 0.2486853311 -0.579524972
368200000.0 -0.2381269462 -0.4831199907
378150000.0 -0.4380322268 -0.0990742757
388100000.0 -0.2819689552 0.2374887464
398050000.0 0.024674807 0.3056230813
408000000.0 0.218680809 0.1359922903
417950000.0 0.1939462942 -0.077074185
427900000.0 0.0364822461 -0.1681575473
437850000.0 -0.1015065284 -0.1072226958
447800000.0 -0.1305156595 0.0215401964
457750000.0 -0.0592155998 0.1118274353
467700000.0 0.0396995072 0.1103927588
477650000.0 0.0913712604 0.0457598696
487600000.0 0.0754278934 -0.021525568
497550000.0 0.0877319421 -0.0700296075
507500000.0 -0.0207953479 -0.0533905304
517450000.0 -0.0297546338 -0.0150313974
527400000.0 -0.0120410639 -0.0025592842
537350000.0 -0.0018104187 -0.0203747682
547300000.0 -0.0240599251 -0.0438766689
557250000.0 -0.0686329184 -0.0360117285
567200000.0 -0.1010694566 0.0155184129
577150000.0 -0.0852993216 0.0849155743
587100000.0 -0.0089870459 0.1263456338
597050000.0 0.0873238162 0.1071035278
607000000.0 0.1460610847 0.0143124659
616950000.0 0.1292281138 -0.1049864256
626900000.0 0.0331305855 -0.1845095845
636850000.0 -0.0965444924 -0.1780164589
646800000.0 -0.1913861979 -0.0853726936
656750000.0 -0.1962604271 0.0451208224
666700000.0 -0.1093129766 0.1460931676
676650000.0 0.0191786499 0.1592759951
686600000.0 0.119268991 0.0799123171
696550000.0 0.1367217994 -0.0416176704
706500000.0 0.0679479096 -0.1322629449
716450000.0 -0.0361263528 -0.1412626747
726400000.0 -0.105775465 -0.0747134695
736350000.0 -0.0917215 0.0142339019
746300000.0 -0.0111251901 0.0533461014
756250000.0 0.0709051641 0.0077277869
766200000.0 0.0806989328 -0.0937172922
776150000.0 -0.0039648902 -0.1742337174
786100000.0 -0.13416839 -0.1561169944
796050000.0 -0.2179928794 -0.0295958477
806000000.0 -0.1761056519 0.1412107318
815950000.0 -0.0081917985 0.2419870021
825900000.0 0.2044149043 0.1890052061
835850000.0 0.331103768 -0.0092212571
845800000.0 0.2818880155 -0.2567501418
855750000.0 0.0658368056 -0.4100502011
865700000.0 -0.2109595996 -0.3731724681
875650000.0 -0.3930549921 -0.1479338019
885600000.0 -0.3709626623 0.1550343313
895550000.0 -0.1398101823 0.3692138804
905500000.0 0.184406725 0.3614294875
915450000.0 0.4149001248 0.1242282501
925400000.0 0.407694473 -0.2110634949
935350000.0 0.1586662161 -0.4385399376
945300000.0 -0.1852539099 -0.4083566249
955250000.0 -0.3925442433 -0.121944031
965200000.0 -0.2955006448 0.2369460818
975150000.0 0.0752386131 0.375592681
985100000.0 0.4188014096 0.1219751477
995050000.0 0.369679183 -0.3429143209
1005000000.0 -0.0988869491 -0.5502917645
1014950000.0 -0.5457067441 -0.229616694
1024900000.0 -0.527863753 0.3539363047
1034850000.0 -0.0006261887 0.7112804985
1044800000.0 0.6481121119 0.4528049729
1054750000.0 0.7971324816 -0.2558213002
1064700000.0 0.3057922316 -0.7680855719
1074650000.0 -0.3592921462 -0.6860064806
1084600000.0 -0.6373899321 -0.3001229976
1094550000.0 -0.6878312015 0.3596077213
1104500000.0 -0.1180071237 0.7451456953
1114450000.0 0.5019260156 0.5190338993
1124400000.0 0.6778236329 -0.0745205531
1134350000.0 0.3424814407 -0.5361403413
1144300000.0 -0.1828341714 -0.563343585
1154250000.0 -0.514989544 -0.200343254
1164200000.0 -0.4492382736 0.264047144
1174150000.0 -0.0585777763 0.4952936767
1184100000.0 0.3523426754 0.3409563234
1194050000.0 0.4917452952 -0.0627712324
1204000000.0 0.2894557958 -0.4203786863
1213950000.0 -0.0983577622 -0.5239359296
1223900000.0 -0.4425283962 -0.3287975883
1233850000.0 -0.5624950473 0.0482597743
1243800000.0 -0.3918167739 0.4129261838
1253750000.0 -0.0140213206 0.5668781753
1263700000.0 0.3720124114 0.4254754774
1273650000.0 0.5681317727 0.0655668738
1283600000.0 0.4864825464 -0.3301655631
1293550000.0 0.1808459032 -0.5845130974
1303500000.0 -0.2133619267 -0.5963364742
1313450000.0 -0.5335267572 -0.3658994379
1323400000.0 -0.6470579106 0.0190420097
1333350000.0 -0.4929130648 0.3971550412
1343300000.0 -0.1272804051 0.5981116778
1353250000.0 0.2860865695 0.5192170472
1363200000.0 0.5565278389 0.1994793184
1373150000.0 0.5684287387 -0.2107352196
1383100000.0 0.3331281335 -0.5359135034
1393050000.0 -0.0436855176 -0.6512145584
1403000000.0 -0.4101288918 -0.5177668062
1412950000.0 -0.6206829302 -0.190151614
1422900000.0 -0.5861075244 0.2021156165
1432850000.0 -0.3100439941 0.4883219855
1442800000.0 0.0864459599 0.5370367658
1452750000.0 0.4194322184 0.3253784325
1462700000.0 0.5417991931 -0.0410257994
1472650000.0 0.4099408105 -0.3925009111
1482600000.0 0.0967146878 -0.5767362048
1492550000.0 -0.2539914557 -0.5266090896
1502500000.0 -0.4911607241 -0.2667705662
1512450000.0 -0.5046978844 0.0810371691
1522400000.0 -0.2876884035 0.3534650288
1532350000.0 0.0526862927 0.4127997198
1542300000.0 0.3385127616 0.2306884183
1552250000.0 0.4232200617 -0.0849509153
1562200000.0 0.2787963973 -0.3614513677
1572150000.0 0.0005649938 -0.4690973334
1582100000.0 -0.2777393125 -0.3671895727
1592050000.0 -0.4170604409 -0.1020871215
1602000000.0 -0.3355447207 0.1938451755
1611950000.0 -0.0689660001 0.3539283493
1621900000.0 0.2375628951 0.2825954631
1631850000.0 0.4090865215 0.0164166157
1641800000.0 0.3472770791 -0.2949456716
1651750000.0 0.0904626409 -0.4787152206
1661700000.0 -0.2269570042 -0.4442375429
1671650000.0 -0.4475965776 -0.2063020117
1681600000.0 -0.4614321037 0.126720147
1691550000.0 -0.2495667081 0.3987834696
1701500000.0 0.1000811788 0.4664291588
1711450000.0 0.4130585477 0.2838544157
1721400000.0 0.5293695126 -0.0641489345
1731350000.0 0.3905514677 -0.4029100569
1741300000.0 0.0705442324 -0.5734976212
1751250000.0 -0.2837164708 -0.5096959671
1761200000.0 -0.5260523778 -0.2433633983
1771150000.0 -0.5551371732 0.1204078303
1781100000.0 -0.3422319185 0.4217204644
1791050000.0 -0.0306751347 0.4829229586
1801000000.0 0.2726065992 0.4581940871
1810950000.0 0.5286585174 0.1674553803
1820900000.0 0.5177218741 -0.2164226831
1830850000.0 0.2719653891 -0.4967424116
1840800000.0 -0.0815869061 -0.5652564975
1850750000.0 -0.3954232219 -0.4146950649
1860700000.0 -0.5574137089 -0.1148263209
1870650000.0 -0.5120762187 0.2176660849
1880600000.0 -0.2775542105 0.4542251548
1890550000.0 0.0501865403 0.4955516059
1900500000.0 0.3238560002 0.3254193986
1910450000.0 0.4260710223 0.0331864177
1920400000.0 0.3278593174 -0.2416791861
1930350000.0 0.1010830188 -0.3860881555
1940300000.0 -0.1421620199 -0.366116353
1950250000.0 -0.3051925148 -0.2204471211
1960200000.0 -0.3397327744 -0.0325861758
1970150000.0 -0.2637965209 0.1073998772
1980100000.0 -0.1482237426 0.1519672341
1990050000.0 -0.0750121481 0.1180863771
2000000000.0 -0.073736412 0.089362944
