!Created with skrf (http://scikit-rf.org).
# GHz S RI R 50.0 
!freq ReS11 ImS11
10000000.0 -0.8023021389 0.5989153993
19950000.0 -0.2951289892 0.9436548833
29900000.0 0.3158982361 0.9286842019
39850000.0 0.8086880156 0.5545010605
49800000.0 0.9860081614 -0.0523829533
59750000.0 0.7501034443 -0.6583713796
69700000.0 0.168384641 -0.9902198833
79650000.0 -0.5095369722 -0.859800817
89600000.0 -0.9405796777 -0.2912462506
99550000.0 -0.8626059821 0.4451757363
109500000.0 -0.2616981296 0.9313153999
119450000.0 0.5398228485 0.8141880404
129400000.0 0.9843139357 0.0970872334
139350000.0 0.6964132483 -0.7035351139
149300000.0 -0.101951265 -0.9681086178
159250000.0 -0.7870949256 -0.5393420341
169200000.0 -0.9211792067 0.2188354778
179150000.0 -0.4935553433 0.8157090334
189100000.0 0.1975991198 0.9439909081
199050000.0 0.7709095693 0.586986762
209000000.0 0.9621284445 -0.036720903
218950000.0 0.7240466536 -0.614933573
228900000.0 0.1952424138 -0.9160020246
238850000.0 -0.3970357451 -0.8393012858
248800000.0 -0.7984839122 -0.4366432045
258750000.0 -0.9238580859 0.1453823905
268700000.0 -0.6621030682 0.670670656
278650000.0 -0.139122427 0.9303961456
288600000.0 0.4302149523 0.81988689
298550000.0 0.8119116126 0.3885381238
308500000.0 0.8500679192 -0.1837236475
318450000.0 0.5262554078 -0.6530292774
328400000.0 -0.0169727546 -0.8072088158
338350000.0 -0.5156523075 -0.5697638441
348300000.0 -0.7074056935 -0.0785815435
358250000.0 -0.5122621265 0.3684416764
368200000.0 -0.1041144169 0.5190796913
378150000.0 0.2299172461 0.349364372
388100000.0 0.3092285986 0.0476754551
398050000.0 0.1654231258 -0.1587447834
408000000.0 -0.0326897107 -0.170801556
417950000.0 -0.1350514642 -0.0498640871
427900000.0 -0.1019346865 0.0790531083
437850000.0 0.0084392854 0.1240432974
447800000.0 0.107071772 0.0697592463
457750000.0 0.1327676754 -0.0352775013
467700000.0 0.0793173824 -0.1237899293
477650000.0 -0.0155154046 -0.1493053945
487600000.0 -0.0964294573 -0.106326923
497550000.0 -0.1250748815 -0.0337850643
507500000.0 -0.100989217 0.0414580452
517450000.0 -0.0435609668 0.0713493537
527400000.0 0.0068188378 0.0572367318
537350000.0 0.0245406181 0.0214351671
547300000.0 0.0099127244 -0.0044554894
557250000.0 -0.0170268635 -0.0018507884
567200000.0 -0.0257870312 0.0273339351
577150000.0 -1.85696e-05 0.0579760751
587100000.0 0.0515814815 0.059486304
597050000.0 0.0998726814 0.0174429666
607000000.0 0.1113126629 -0.0572374843
616950000.0 0.0683641141 -0.1311982109
626900000.0 -0.0177251968 -0.1663086475
636850000.0 -0.1135929433 -0.1399034943
646800000.0 -0.1760734293 -0.05610139
656750000.0 -0.174068127 0.0528608364
666700000.0 -0.1032647698 0.140035548
676650000.0 0.007648293 0.1656162346
686600000.0 0.1108584328 0.1168040261
696550000.0 0.1616198582 0.0159733129
706500000.0 0.1382419115 -0.0900020863
716450000.0 0.0559436913 -0.1526048859
726400000.0 -0.0421707387 -0.1435912182
736350000.0 -0.1030772186 -0.0711534104
746300000.0 -0.0936415393 0.0223654672
756250000.0 -0.0182482265 0.0814311002
766200000.0 0.0793003649 0.0679276966
776150000.0 0.1386174456 -0.0164547199
786100000.0 0.1166808696 -0.1246737172
796050000.0 0.0132263032 -0.1896712619
806000000.0 -0.1219141577 -0.1586974503
815950000.0 -0.2113943499 -0.0277821717
825900000.0 -0.1900452657 0.1481375177
835850000.0 -0.0484984227 0.278064697
845800000.0 0.1517956214 0.2896824273
855750000.0 0.3269823581 0.1700782902
865700000.0 0.3942352428 -0.0467355231
875650000.0 0.3046790339 -0.2710404335
885600000.0 0.079244416 -0.3969317229
895550000.0 -0.1904377504 -0.3503902917
905500000.0 -0.3797532112 -0.1331792432
915450000.0 -0.387961246 0.1659371557
925400000.0 -0.1975003325 0.4058841624
935350000.0 0.1090705277 0.4633538145
945300000.0 0.3823100327 0.2959509586
955250000.0 0.4708527962 -0.0279530257
965200000.0 0.2952042207 -0.3416753452
975150000.0 -0.0845794595 -0.4388356983
985100000.0 -0.4365919285 -0.1927241784
995050000.0 -0.4604557362 0.2712432265
1005000000.0 -0.0850450637 0.563537846
1014950000.0 0.3423958159 0.4752048145
1024900000.0 0.6403624073 0.0961976761
1034850000.0 0.5237361362 -0.4835023601
1044800000.0 -0.0771259165 -0.7709612586
1054750000.0 -0.6957101459 -0.4454015876
1064700000.0 -0.8194379336 0.2110834869
1074650000.0 -0.456545429 0.7406588876
1084600000.0 0.1663253806 0.8444975153
1094550000.0 0.6767716155 0.4813298308
1104500000.0 0.7795446632 -0.1380247952
1114450000.0 0.4027587504 -0.6397336547
1124400000.0 -0.1999822583 -0.7001037987
1134350000.0 -0.6229815671 -0.3291764552
1144300000.0 -0.6545034601 0.1841545399
1154250000.0 -0.3503260833 0.5471691607
1164200000.0 0.0922340761 0.6083264986
1174150000.0 0.4590972833 0.3617593805
1184100000.0 0.5562774857 -0.0738773428
1194050000.0 0.3260611749 -0.4495435933
1204000000.0 -0.0809870944 -0.5611285949
1213950000.0 -0.4394608863 -0.3892127761
1223900000.0 -0.6031566734 -0.0503320404
1233850000.0 -0.5331391915 0.3072017224
1243800000.0 -0.265045996 0.5542635754
1253750000.0 0.1061244763 0.5949352612
1263700000.0 0.4366981613 0.3986291662
1273650000.0 0.5838296612 0.0375884625
1283600000.0 0.4877822777 -0.3367428591
1293550000.0 0.2038524185 -0.5783044113
1303500000.0 -0.1508282824 -0.6195860363
1313450000.0 -0.460943961 -0.4684445781
1323400000.0 -0.6425583705 -0.1792935824
1333350000.0 -0.6429001356 0.1670769316
1343300000.0 -0.4492303952 0.4687876858
1353250000.0 -0.1072575105 0.6165273136
1363200000.0 0.2675902119 0.5419644514
1373150000.0 0.5339471507 0.2673534283
1383100000.0 0.5995593512 -0.099025835
1393050000.0 0.4616891412 -0.4275672252
1403000000.0 0.1828722973 -0.6239805279
1412950000.0 -0.1476905316 -0.6429484757
1422900000.0 -0.4366836235 -0.4853106684
1432850000.0 -0.5981521164 -0.1913112448
1442800000.0 -0.5705178275 0.1533042164
1452750000.0 -0.3493716734 0.4293153719
1462700000.0 -0.0091783012 0.5313423981
1472650000.0 0.3214354245 0.4249816069
1482600000.0 0.5258341034 0.1616467894
1492550000.0 0.5466541504 -0.1560080974
1502500000.0 0.3917892478 -0.4201063639
1512450000.0 0.1196720811 -0.5471835194
1522400000.0 -0.1759345991 -0.4926346801
1532350000.0 -0.3849983311 -0.270041729
1542300000.0 -0.4190530235 0.0384686192
1552250000.0 -0.258717224 0.3036789801
1562200000.0 0.0239426202 0.4119265491
1572150000.0 0.3022840046 0.3271765059
1582100000.0 0.4635271779 0.0983662629
1592050000.0 0.4514909946 -0.174701743
1602000000.0 0.2738728049 -0.3854218046
1611950000.0 -0.0032379811 -0.4473301893
1621900000.0 -0.2724536668 -0.3230149391
1631850000.0 -0.4160887074 -0.0495257715
1641800000.0 -0.3603436435 0.2624477255
1651750000.0 -0.1248739745 0.4762428453
1661700000.0 0.1882861563 0.5043234023
1671650000.0 0.4539514678 0.345018584
1681600000.0 0.5804023117 0.0640383317
1691550000.0 0.5283267058 -0.244990988
1701500000.0 0.3077938142 -0.4819233018
1711450000.0 -0.0208537105 -0.5604491605
1721400000.0 -0.3516905106 -0.4344030574
1731350000.0 -0.5572685874 -0.1346110293
1741300000.0 -0.5546203315 0.2289592206
1751250000.0 -0.3531287025 0.5205318762
1761200000.0 -0.0378658639 0.6500865308
1771150000.0 0.2870160001 0.5972165933
1781100000.0 0.5353982186 0.3905011214
1791050000.0 0.6472163434 0.0847728214
1801000000.0 0.5860335158 -0.2455155106
1810950000.0 0.3518541234 -0.5061550214
1820900000.0 0.0011545521 -0.6006661824
1830850000.0 -0.3468975576 -0.4821848241
1840800000.0 -0.5660248167 -0.1963920772
1850750000.0 -0.594461953 0.1445011171
1860700000.0 -0.4514866657 0.4305336731
1870650000.0 -0.2010651544 0.5962953683
1880600000.0 0.0858529544 0.6160526377
1890550000.0 0.3409292467 0.4924632857
1900500000.0 0.4996777552 0.2531152366
1910450000.0 0.5077260357 -0.0400946671
1920400000.0 0.3532238394 -0.2907916224
1930350000.0 0.0935282605 -0.409244637
1940300000.0 -0.1685326133 -0.3676725335
1950250000.0 -0.3458858341 -0.2102214955
1960200000.0 -0.4032564539 -0.0136669795
1970150000.0 -0.3583793745 0.1509626933
1980100000.0 -0.2559592864 0.2504297619
1990050000.0 -0.1371100974 0.2706696709
2000000000.0 -0.0557590051 0.2228988666
