!Created with skrf (http://scikit-rf.org).
# GHz S RI R 50.0 
!freq ReS11 ImS11
10000000.0 -0.7561631251 0.5780599966
19950000.0 -0.2738349621 0.9135727462
29900000.0 0.3147371989 0.9018015717
39850000.0 0.7912736431 0.5365408203
49800000.0 0.9571561221 -0.0577332882
59750000.0 0.7182320576 -0.6459295919
69700000.0 0.1497237208 -0.9613006626
79650000.0 -0.5029913717 -0.8297597271
89600000.0 -0.9177207458 -0.278296687
99550000.0 -0.8477501444 0.4396320622
109500000.0 -0.2703310699 0.9246830521
119450000.0 0.5140453886 0.8281631787
129400000.0 0.9698631634 0.1411085417
139350000.0 0.7231617715 -0.6567161444
149300000.0 -0.0464280643 -0.9588748006
159250000.0 -0.7451941382 -0.5717296365
169200000.0 -0.9143847272 0.1712006009
179150000.0 -0.5194576771 0.7737524498
189100000.0 0.1449410293 0.919733866
199050000.0 0.707540574 0.5905299525
209000000.0 0.9128109017 -0.0083823466
218950000.0 0.7021808714 -0.5785499538
228900000.0 0.1972251713 -0.884859239
238850000.0 -0.3781582545 -0.8172919962
248800000.0 -0.7754749077 -0.4232115096
258750000.0 -0.882391796 0.1404009713
268700000.0 -0.6253145786 0.644399426
278650000.0 -0.1244414364 0.8911406163
288600000.0 0.4188258175 0.7840071996
298550000.0 0.78523001 0.3666156584
308500000.0 0.8207496021 -0.1914898948
318450000.0 0.5026461322 -0.6481599011
328400000.0 -0.025774468 -0.7945871845
338350000.0 -0.5077104632 -0.5625697509
348300000.0 -0.6959471204 -0.0847747473
358250000.0 -0.512846698 0.3586853319
368200000.0 -0.1123006179 0.5206945149
378150000.0 0.2270860903 0.36541184
388100000.0 0.3212936845 0.0696605654
398050000.0 0.1929092882 -0.1428611393
408000000.0 0.0002456074 -0.169578101
417950000.0 -0.1098367147 -0.0624400252
427900000.0 -0.0911247226 0.0605985242
437850000.0 0.0049538895 0.1054596934
447800000.0 0.0907762816 0.0564690175
457750000.0 0.1097193727 -0.0399626056
467700000.0 0.0543078349 -0.1192216727
477650000.0 -0.0355927287 -0.1374043477
487600000.0 -0.109800094 -0.0907315898
497550000.0 -0.1346740974 -0.0104800248
507500000.0 -0.0979990806 0.0630002927
517450000.0 -0.0329974901 0.0908767071
527400000.0 0.0252600346 0.0712560017
537350000.0 0.0476131284 0.0255212946
547300000.0 0.0321801646 -0.012434208
557250000.0 -0.000842033 -0.0224901455
567200000.0 -0.0234232508 -0.0027485958
577150000.0 -0.0150689855 0.0258860366
587100000.0 0.0214602564 0.0342508148
597050000.0 0.0616249312 0.0051938445
607000000.0 0.0750550339 -0.0541971556
616950000.0 0.0423030062 -0.1154285534
626900000.0 -0.0282741875 -0.1432506593
636850000.0 -0.1058377885 -0.1152700163
646800000.0 -0.1516284625 -0.0379210559
656750000.0 -0.1403068812 0.0585285215
666700000.0 -0.0688687923 0.132270944
676650000.0 0.035990969 0.1470391826
686600000.0 0.1292094511 0.091017515
696550000.0 0.168701285 -0.0120565636
706500000.0 0.1345506899 -0.1166989971
716450000.0 0.0423919234 -0.1754349855
726400000.0 -0.0632427659 -0.1575899067
736350000.0 -0.1266145805 -0.0736875416
746300000.0 -0.1152636295 0.0316134378
756250000.0 -0.0335621544 0.1045542013
766200000.0 0.0773300114 0.1027152485
776150000.0 0.1574460261 0.0234873847
786100000.0 0.1570819185 -0.0916326424
796050000.0 0.0683023901 -0.1763924849
806000000.0 -0.0661657073 -0.1727385009
815950000.0 -0.1732119823 -0.0678182165
825900000.0 -0.1846843895 0.096036573
835850000.0 -0.0786547977 0.2364480843
845800000.0 0.1018493107 0.2749910333
855750000.0 0.2745201077 0.1815477539
865700000.0 0.3527568256 -0.0140517828
875650000.0 0.2855117533 -0.227368948
885600000.0 0.0839387223 -0.3559360673
895550000.0 -0.1687339388 -0.3202886702
905500000.0 -0.3487446817 -0.117981622
915450000.0 -0.3557548778 0.1659710244
925400000.0 -0.1726677005 0.39292033
935350000.0 0.1193130867 0.4435106568
945300000.0 0.3776323802 0.2791521671
955250000.0 0.4600051441 -0.0373476069
965200000.0 0.2873859274 -0.3475891822
975150000.0 -0.0857100947 -0.4498814264
985100000.0 -0.4400997501 -0.2221533038
995050000.0 -0.5025817614 0.2269263925
1005000000.0 -0.1810207986 0.5902872602
1014950000.0 0.3451866736 0.5725689114
1024900000.0 0.6939330663 0.1094526068
1034850000.0 0.5343218691 -0.5062851244
1044800000.0 -0.0849955989 -0.765948348
1054750000.0 -0.6745214879 -0.4247454041
1064700000.0 -0.7870771853 0.2279814814
1074650000.0 -0.4035201341 0.7258547106
1084600000.0 0.1752666215 0.7927225902
1094550000.0 0.6509764352 0.4453187526
1104500000.0 0.734778776 -0.1450659196
1114450000.0 0.375245409 -0.6130950508
1124400000.0 -0.1840553105 -0.6778304344
1134350000.0 -0.5947311329 -0.3485435973
1144300000.0 -0.6614216214 0.1359226163
1154250000.0 -0.4057397561 0.516078886
1164200000.0 0.0158372443 0.6279841415
1174150000.0 0.4007205312 0.4404280098
1184100000.0 0.5634921745 0.0407948879
1194050000.0 0.4149507024 -0.3593239752
1204000000.0 0.0504614574 -0.5505094329
1213950000.0 -0.3277921212 -0.4630632983
1223900000.0 -0.5574150152 -0.1745100984
1233850000.0 -0.5679377397 0.1778420833
1243800000.0 -0.3700589719 0.4634763239
1253750000.0 -0.0371174677 0.5754476929
1263700000.0 0.3047748955 0.4607205681
1273650000.0 0.5131212623 0.1558605554
1283600000.0 0.497717221 -0.2116495135
1293550000.0 0.2770422578 -0.4900773395
1303500000.0 -0.0447918405 -0.5880913669
1313450000.0 -0.3522354501 -0.4950570441
1323400000.0 -0.5573641139 -0.2563481272
1333350000.0 -0.6074014159 0.057545442
1343300000.0 -0.4784448042 0.3596771105
1353250000.0 -0.1919248416 0.5448200836
1363200000.0 0.1633181735 0.5291686134
1373150000.0 0.4486050012 0.3079130381
1383100000.0 0.5542241904 -0.0327169872
1393050000.0 0.4564040044 -0.3602208633
1403000000.0 0.2108899655 -0.5698053668
1412950000.0 -0.092854825 -0.612510699
1422900000.0 -0.3640488159 -0.489035695
1432850000.0 -0.5323269081 -0.2348119874
1442800000.0 -0.5394341616 0.0848112769
1452750000.0 -0.3610961308 0.3651472398
1462700000.0 -0.0483381478 0.4956713682
1472650000.0 0.2786003148 0.4211686263
1482600000.0 0.4944886465 0.1798618291
1492550000.0 0.5331556344 -0.1265389763
1502500000.0 0.3991735952 -0.3909249217
1512450000.0 0.1476755927 -0.5319931118
1522400000.0 -0.1372708483 -0.5049669177
1532350000.0 -0.3589617352 -0.3140652508
1542300000.0 -0.4293896556 -0.0189404262
1552250000.0 -0.3073089162 0.2661665711
1562200000.0 -0.0394398652 0.4182255603
1572150000.0 0.2539828652 0.3773060749
1582100000.0 0.4547070611 0.1770671504
1592050000.0 0.4935981214 -0.0929541755
1602000000.0 0.3671819984 -0.3347789602
1611950000.0 0.1155891386 -0.4582530692
1621900000.0 -0.1724330339 -0.4066156977
1631850000.0 -0.3815064154 -0.1833551243
1641800000.0 -0.4124473772 0.1298894336
1651750000.0 -0.2464467703 0.3973755781
1661700000.0 0.0423628136 0.5085326051
1671650000.0 0.3338645673 0.4304200794
1681600000.0 0.5254392802 0.2044867107
1691550000.0 0.559365455 -0.0915062831
1701500000.0 0.4212193824 -0.3626877528
1711450000.0 0.1455184375 -0.5175186266
1721400000.0 -0.1838094057 -0.4865399185
1731350000.0 -0.4448747599 -0.2645250585
1741300000.0 -0.5335787406 0.0690332382
1751250000.0 -0.4212837872 0.3861677611
1761200000.0 -0.1629500441 0.5792232695
1771150000.0 0.1458924066 0.6022952564
1781100000.0 0.4155468973 0.4643731957
1791050000.0 0.5762728757 0.2070218706
1801000000.0 0.5808995584 -0.1039889887
1810950000.0 0.4191292989 -0.3801337643
1820900000.0 0.1262382534 -0.5289462334
1830850000.0 -0.2053473139 -0.4879189798
1840800000.0 -0.4565890034 -0.269198899
1850750000.0 -0.5443615955 0.0387058246
1860700000.0 -0.460889271 0.3275740499
1870650000.0 -0.2550823302 0.5190052648
1880600000.0 0.0043281809 0.5749954756
1890550000.0 0.2472792017 0.4919051915
1900500000.0 0.4092931807 0.2947889673
1910450000.0 0.4442946433 0.0387260814
1920400000.0 0.3390406436 -0.1961483113
1930350000.0 0.1287247515 -0.3306776925
1940300000.0 -0.1057560538 -0.3250260819
1950250000.0 -0.2795714592 -0.2062578023
1960200000.0 -0.3508721282 -0.0356005657
1970150000.0 -0.3213823874 0.1198702176
1980100000.0 -0.2247543251 0.2111154711
1990050000.0 -0.1169183899 0.2174454676
2000000000.0 -0.0597173559 0.1562588852
