!Created with skrf (http://scikit-rf.org).
# GHz S RI R 50.0 
!freq ReS11 ImS11
10000000.0 -0.8788325259 0.5307982177
19950000.0 -0.4787058588 0.8886616215
29900000.0 0.0470469786 0.9915522818
39850000.0 0.5581068178 0.8073669403
49800000.0 0.9047911011 0.3750598703
59750000.0 0.9686479235 -0.1931656717
69700000.0 0.6968315913 -0.7217901315
79650000.0 0.1470683072 -1.008666083
89600000.0 -0.4925323148 -0.901160345
99550000.0 -0.9404634245 -0.3935208624
109500000.0 -0.9486825651 0.3113792467
119450000.0 -0.4628388794 0.8575327186
129400000.0 0.2903570659 0.9171025149
139350000.0 0.8756006504 0.4155970963
149300000.0 0.9223157291 -0.3576622899
159250000.0 0.4133475715 -0.9159575879
169200000.0 -0.3043256107 -0.9569014675
179150000.0 -0.8291229603 -0.5362850463
189100000.0 -0.9619986221 0.0782256908
199050000.0 -0.7176019609 0.6187287961
209000000.0 -0.2295359848 0.9122266907
218950000.0 0.3212970664 0.8890334681
228900000.0 0.7656382759 0.5764814312
238850000.0 0.9702770639 0.0769754395
248800000.0 0.8800413648 -0.4179492805
258750000.0 0.5251098034 -0.8307325079
268700000.0 0.0214735805 -0.9703526448
278650000.0 -0.470555849 -0.8234505418
288600000.0 -0.8069161746 -0.4448584357
298550000.0 -0.8940633871 0.0489978049
308500000.0 -0.7056145534 0.5122924975
318450000.0 -0.2952341063 0.7980480845
328400000.0 0.203780305 0.8017382387
338350000.0 0.6024673467 0.5127158267
348300000.0 0.7310733504 0.0562356429
358250000.0 0.5476975259 -0.345613474
368200000.0 0.1869307434 -0.5052340822
378150000.0 -0.1334468157 -0.3982463461
388100000.0 -0.2651988737 -0.1527753997
398050000.0 -0.2021188124 0.0620901655
408000000.0 -0.046409264 0.1431682466
417950000.0 0.0832403881 0.0917002953
427900000.0 0.1182602797 -0.0187106131
437850000.0 0.0633547927 -0.1064467164
447800000.0 -0.0329563941 -0.1254593965
457750000.0 -0.1153790809 -0.0741102992
467700000.0 -0.1451134802 0.0161451848
477650000.0 -0.1142067733 0.1016251616
487600000.0 -0.0402323629 0.147934145
497550000.0 0.0332180984 0.1440639598
507500000.0 0.092088134 0.0990166432
517450000.0 0.1084295027 0.0376526177
527400000.0 0.0872174873 -0.0125467613
537350000.0 0.0491176285 -0.0339642652
547300000.0 0.0156354812 -0.0271163092
557250000.0 0.0055727127 -0.0034144809
567200000.0 0.0218864813 0.0127461123
577150000.0 0.0493252689 0.0046909596
587100000.0 0.0661471326 -0.0307549419
597050000.0 0.0542544225 -0.0798773956
607000000.0 0.0074336989 -0.1200861013
616950000.0 -0.0632432955 -0.1282613602
626900000.0 -0.1335391526 -0.0916583054
636850000.0 -0.1753181943 -0.0155124322
646800000.0 -0.1666620158 0.0784398565
656750000.0 -0.1010823043 0.1574279263
666700000.0 0.0142103469 0.175452949
676650000.0 0.0789161767 0.1323204858
686600000.0 0.1452065377 0.0723397632
696550000.0 0.1665383299 -0.024756128
706500000.0 0.1283671495 -0.1175810172
716450000.0 0.0451692016 -0.1709919273
726400000.0 -0.0515313955 -0.1652476058
736350000.0 -0.1224923815 -0.1032670341
746300000.0 -0.1387260742 -0.0118755889
756250000.0 -0.0909936662 0.0686708224
766200000.0 9.9534e-05 0.0998268395
776150000.0 0.0940570252 0.0620272454
786100000.0 0.1457702879 -0.0336723669
796050000.0 0.1231907231 -0.1486084147
806000000.0 0.026175035 -0.2313382551
815950000.0 -0.1139602094 -0.2360098879
825900000.0 -0.2391600954 -0.1464590634
835850000.0 -0.2908078974 0.0139218087
845800000.0 -0.2341597979 0.1886278798
855750000.0 -0.0754012043 0.3080452758
865700000.0 0.1375498829 0.3158400939
875650000.0 0.328334615 0.1928882563
885600000.0 0.4132731199 -0.0283171708
895550000.0 0.3479410044 -0.2435809437
905500000.0 0.2062101192 -0.4018078957
915450000.0 -0.0303484476 -0.4732673902
925400000.0 -0.2812894842 -0.3803154553
935350000.0 -0.4344852544 -0.1445127363
945300000.0 -0.414274388 0.1500335039
955250000.0 -0.2068368491 0.3824229792
965200000.0 0.1212682528 0.4345865767
975150000.0 0.4239062985 0.2453752536
985100000.0 0.5239448943 -0.1277920454
995050000.0 0.3182898068 -0.4919353979
1005000000.0 -0.1222525287 -0.6148438196
1014950000.0 -0.5611169644 -0.3576299152
1024900000.0 -0.6833278244 0.1946738703
1034850000.0 -0.3207244287 0.7004142307
1044800000.0 0.3402422601 0.7605221774
1054750000.0 0.8101923157 0.2866527196
1064700000.0 0.8249218607 -0.2927899566
1074650000.0 0.4465841052 -0.777850102
1084600000.0 -0.1438320167 -0.8640942604
1094550000.0 -0.6261622804 -0.5611122824
1104500000.0 -0.8022033679 -0.0375805258
1114450000.0 -0.6094859266 0.4687324196
1124400000.0 -0.1456496789 0.7254985074
1134350000.0 0.3542573614 0.6209328043
1144300000.0 0.6469693967 0.2401761625
1154250000.0 0.6331312916 -0.2009075325
1164200000.0 0.3834422563 -0.518018653
1174150000.0 0.016057324 -0.632376187
1184100000.0 -0.3408583761 -0.5179919005
1194050000.0 -0.5643051596 -0.2252319678
1204000000.0 -0.5805180313 0.139784048
1213950000.0 -0.3843647897 0.447222973
1223900000.0 -0.0479188879 0.5843210764
1233850000.0 0.2998442535 0.5045864361
1243800000.0 0.5367221641 0.251429166
1253750000.0 0.5980806199 -0.0772862518
1263700000.0 0.4855704204 -0.3801609403
1273650000.0 0.2453022379 -0.5814632014
1283600000.0 -0.0558498982 -0.6413593044
1293550000.0 -0.348720846 -0.5521993849
1303500000.0 -0.5663955843 -0.3327027064
1313450000.0 -0.6539485095 -0.0293548289
1323400000.0 -0.5789106433 0.2846546382
1333350000.0 -0.3527378629 0.5224234162
1343300000.0 -0.0350487134 0.6147303516
1353250000.0 0.2845759103 0.5347429754
1363200000.0 0.518434121 0.3121664286
1373150000.0 0.6142029937 0.0126645755
1383100000.0 0.5598214694 -0.2875116547
1393050000.0 0.3791174264 -0.5241168001
1403000000.0 0.1145847216 -0.6517171314
1412950000.0 -0.1780481403 -0.6457632197
1422900000.0 -0.4362605776 -0.5046371192
1432850000.0 -0.5988416375 -0.2565413787
1442800000.0 -0.6226245004 0.0428869007
1452750000.0 -0.4961514362 0.3184662582
1462700000.0 -0.2485033376 0.4955828382
1472650000.0 0.0527439686 0.5249891778
1482600000.0 0.3244398076 0.4013697587
1492550000.0 0.4949887765 0.1639079609
1502500000.0 0.5246057052 -0.1194538295
1512450000.0 0.4127267231 -0.3745613641
1522400000.0 0.192538889 -0.5374906268
1532350000.0 -0.0770239501 -0.5675095191
1542300000.0 -0.3236723329 -0.4572093983
1552250000.0 -0.4781890268 -0.2353423124
1562200000.0 -0.4945101843 0.035148857
1572150000.0 -0.3646003268 0.2748151054
1582100000.0 -0.1259156181 0.4096145286
1592050000.0 0.1469451038 0.3961774138
1602000000.0 0.3703983 0.2402463606
1611950000.0 0.4724097711 -0.0117304314
1621900000.0 0.4249408366 -0.2769786047
1631850000.0 0.2464022188 -0.4772698253
1641800000.0 -0.0095413432 -0.5560924382
1651750000.0 -0.2715372396 -0.4922993102
1661700000.0 -0.4681385391 -0.3021011489
1671650000.0 -0.5425760548 -0.0330876348
1681600000.0 -0.4528387885 0.2355400173
1691550000.0 -0.3240118518 0.4240978098
1701500000.0 -0.0296102451 0.5420413437
1711450000.0 0.2730757047 0.4848908109
1721400000.0 0.5066520408 0.2777620817
1731350000.0 0.6026639408 -0.017826004
1741300000.0 0.5382445951 -0.3188040943
1751250000.0 0.3378956745 -0.5462905731
1761200000.0 0.059536216 -0.6494872903
1771150000.0 -0.2290684881 -0.6152688955
1781100000.0 -0.4683183969 -0.4596116068
1791050000.0 -0.6142234096 -0.2177817207
1801000000.0 -0.6401593306 0.063300575
1810950000.0 -0.5396261032 0.3300532321
1820900000.0 -0.3267371586 0.5269378495
1830850000.0 -0.0433736453 0.6043527641
1840800000.0 0.2455172733 0.5375978309
1850750000.0 0.4657874822 0.3397728704
1860700000.0 0.5605558196 0.0650593681
1870650000.0 0.5141909216 -0.2114581952
1880600000.0 0.3530700102 -0.4234603074
1890550000.0 0.1275174327 -0.5327984932
1900500000.0 -0.1083180736 -0.5316566361
1910450000.0 -0.3082499472 -0.4346844335
1920400000.0 -0.4392134218 -0.2711181014
1930350000.0 -0.4822022849 -0.0787302889
1940300000.0 -0.4358629869 0.1011213038
1950250000.0 -0.31932334 0.227806043
1960200000.0 -0.1696232334 0.2767516376
1970150000.0 -0.0353701571 0.2457363564
1980100000.0 0.0441944715 0.1631765445
1990050000.0 0.0532414732 0.0752838795
2000000000.0 0.0099598165 0.030978623
