!Created with skrf (http://scikit-rf.org).
# GHz S RI R 50.0 
!freq ReS11 ImS11
10000000.0 -1.00297367 0.1576525972
19950000.0 -0.9493277612 0.3014991863
29900000.0 -0.8746608342 0.4399907303
39850000.0 -0.7789438632 0.5786578187
49800000.0 -0.6634510384 0.7120549739
59750000.0 -0.5226913459 0.8342229453
69700000.0 -0.3479059028 0.9328027186
79650000.0 -0.1338008191 0.9880809844
89600000.0 0.1192101093 0.9803908537
99550000.0 0.3974178625 0.887370169
109500000.0 0.6751608752 0.6923748715
119450000.0 0.9047809816 0.3794756008
129400000.0 1.012785212 -0.0181217843
139350000.0 0.9349795526 -0.4421358605
149300000.0 0.6748585701 -0.7783606847
159250000.0 0.3172636499 -0.9526488496
169200000.0 -0.0432634145 -0.9801671621
179150000.0 -0.3558522541 -0.9050223892
189100000.0 -0.6010363573 -0.7691922417
199050000.0 -0.7741448887 -0.6006911729
209000000.0 -0.8786155574 -0.4146386062
218950000.0 -0.9304125612 -0.2308297161
228900000.0 -0.9428025837 -0.053528472
238850000.0 -0.928831625 0.1164025246
248800000.0 -0.8940850368 0.2535469113
258750000.0 -0.8503430655 0.4117613458
268700000.0 -0.7822750005 0.5471287851
278650000.0 -0.6904687071 0.6612303178
288600000.0 -0.5727024426 0.750854316
298550000.0 -0.4314797468 0.8134647908
308500000.0 -0.2718718786 0.8504722763
318450000.0 -0.0937144541 0.8572597215
328400000.0 0.093460791 0.8248695758
338350000.0 0.271319777 0.7379962431
348300000.0 0.4156540918 0.585527
358250000.0 0.4960648904 0.3727443109
368200000.0 0.4964665794 0.1308989645
378150000.0 0.4241354297 -0.091573414
388100000.0 0.3062368996 -0.256651923
398050000.0 0.1750744922 -0.3421317435
408000000.0 0.0581450851 -0.3584495327
417950000.0 -0.0305411788 -0.3019552052
427900000.0 -0.0888991713 -0.2116408654
437850000.0 -0.1220057748 -0.1084826506
447800000.0 -0.135617034 -0.0081486356
457750000.0 -0.1343319344 0.0813610775
467700000.0 -0.1218665023 0.1544364294
477650000.0 -0.1001223356 0.2071972829
487600000.0 -0.0711778596 0.2409919085
497550000.0 -0.0391501226 0.2486591427
507500000.0 -0.0080810734 0.3038065655
517450000.0 0.0172258579 0.3033973948
527400000.0 0.0312512591 0.3116845077
537350000.0 0.0306718589 0.3025653192
547300000.0 0.0179142838 0.1260788448
557250000.0 -0.0072944043 0.0769755491
567200000.0 -0.0362037862 0.0537076912
577150000.0 -0.0671279922 0.0212952738
587100000.0 -0.0950269672 -0.0156529599
597050000.0 -0.1165248656 -0.0492738413
607000000.0 -0.1306844119 -0.0753182036
616950000.0 -0.1401564418 -0.0921946836
626900000.0 -0.1484919925 -0.0974488884
636850000.0 -0.1539301752 -0.0966410832
646800000.0 -0.1562620653 -0.0923020799
656750000.0 -0.1544377825 -0.0883035255
666700000.0 -0.1419393108 -0.0857346527
676650000.0 -0.120446837 -0.0843788504
686600000.0 -0.0893007167 -0.082783048
696550000.0 -0.0499747512 -0.0787260104
706500000.0 -0.0070317208 -0.0715297022
716450000.0 0.034100913 -0.0604062406
726400000.0 0.0683558138 -0.0481461879
736350000.0 0.092065511 -0.0360305402
746300000.0 0.1026646861 -0.0264415915
756250000.0 0.1007051672 -0.0190438396
766200000.0 0.0879268131 -0.0110721654
776150000.0 0.0655712066 -2.04915e-05
786100000.0 0.0341765183 0.0162672212
796050000.0 -0.0060042994 0.0388774123
806000000.0 -0.0546906081 0.069072005
815950000.0 -0.112781039 0.1108206635
825900000.0 -0.177304526 0.1493025074
835850000.0 -0.2454966549 0.1473849022
845800000.0 -0.3115893297 0.0618149519
855750000.0 -0.3696788169 -0.0017982021
865700000.0 -0.4136046139 0.0156670898
875650000.0 -0.436571784 0.0609848682
885600000.0 -0.4358503877 0.1106954255
895550000.0 -0.4124121796 0.1586099491
905500000.0 -0.3678629904 0.2045538362
915450000.0 -0.3057514072 0.2446253967
925400000.0 -0.2272446986 0.2738823253
935350000.0 -0.1307374741 0.2842855931
945300000.0 -0.0175618949 0.2667734284
955250000.0 0.1107617374 0.2161739026
965200000.0 0.2483747101 0.1281754946
975150000.0 0.3826512431 0.0094356892
985100000.0 0.4905369101 -0.1353119757
995050000.0 0.5427861792 -0.2902499379
1005000000.0 0.4957203651 -0.4422284827
1014950000.0 0.3327374499 -0.5370928117
1024900000.0 0.0682787972 -0.5721803065
1034850000.0 -0.2400041252 -0.536961951
1044800000.0 -0.5387617874 -0.4332254692
1054750000.0 -0.7659337151 -0.2730238059
1064700000.0 -0.8876304115 -0.0760349953
1074650000.0 -0.8906223356 0.1311181463
1084600000.0 -0.7925676833 0.2999837971
1094550000.0 -0.6184514615 0.4829078589
1104500000.0 -0.3821288401 0.5833856219
1114450000.0 -0.1174214282 0.6195042576
1124400000.0 0.1499624934 0.5882566312
1134350000.0 0.3828530994 0.4949955551
1144300000.0 0.5493198362 0.3567648973
1154250000.0 0.6339673936 0.1987689691
1164200000.0 0.647678688 0.0473489345
1174150000.0 0.6134248212 -0.0971839025
1184100000.0 0.5335885181 -0.2170767046
1194050000.0 0.4205021242 -0.3051045616
1204000000.0 0.2870865134 -0.3456033468
1213950000.0 0.1454164686 -0.3668780373
1223900000.0 0.0067573194 -0.3733635415
1233850000.0 -0.1225579042 -0.373671503
1243800000.0 -0.2388484285 -0.3714168077
1253750000.0 -0.3401142206 -0.3684052803
1263700000.0 -0.4240655316 -0.3609514284
1273650000.0 -0.4914295877 -0.3491821075
1283600000.0 -0.5411876778 -0.3287973944
1293550000.0 -0.5779756908 -0.2987541389
1303500000.0 -0.6073479639 -0.2613761582
1313450000.0 -0.632634182 -0.2208614798
1323400000.0 -0.6559742679 -0.1799338701
1333350000.0 -0.6767058068 -0.141482785
1343300000.0 -0.6903620341 -0.1032584952
1353250000.0 -0.6928585983 -0.0660569221
1363200000.0 -0.6811548566 -0.025731581
1373150000.0 -0.6550732956 0.0207491256
1383100000.0 -0.6186571272 0.0739656303
1393050000.0 -0.5772720055 0.1337614381
1403000000.0 -0.5355394042 0.1639325777
1412950000.0 -0.4935457777 0.2303313928
1422900000.0 -0.4511645827 0.2943760557
1432850000.0 -0.4057182506 0.3506083629
1442800000.0 -0.3537462424 0.3919420103
1452750000.0 -0.292409232 0.4116758077
1462700000.0 -0.2205743324 0.4141914652
1472650000.0 -0.1410369613 0.4395164814
1482600000.0 -0.0577404289 0.5041969977
1492550000.0 0.0257733863 0.5771637002
1502500000.0 0.1064733881 0.6351666032
1512450000.0 0.1821127861 0.6693357552
1522400000.0 0.2493910586 0.6726943427
1532350000.0 0.3080276728 0.6414275106
1542300000.0 0.3588930483 0.5765676589
1552250000.0 0.4027208749 0.4843265711
1562200000.0 0.438949538 0.378299956
1572150000.0 0.4648474321 0.2761457727
1582100000.0 0.4749710656 0.1973849302
1592050000.0 0.4651963049 0.136667397
1602000000.0 0.4313481916 0.0794658979
1611950000.0 0.375538676 -0.0600907173
1621900000.0 0.303712373 -0.2190689479
1631850000.0 0.2218222253 -0.3650092595
1641800000.0 0.1356515064 -0.486207881
1651750000.0 0.0496253283 -0.5792955233
1661700000.0 -0.0343694304 -0.6424778438
1671650000.0 -0.1144544944 -0.6716557525
1681600000.0 -0.1908504783 -0.6734573742
1691550000.0 -0.2642520496 -0.6658603421
1701500000.0 -0.3365298817 -0.6273807364
1711450000.0 -0.405560163 -0.5822624284
1721400000.0 -0.4710507839 -0.5358110358
1731350000.0 -0.5301632576 -0.4906757751
1741300000.0 -0.5793642799 -0.4435898882
1751250000.0 -0.6154637456 -0.3920842887
1761200000.0 -0.6379257514 -0.334576475
1771150000.0 -0.6468594358 -0.2709370672
1781100000.0 -0.6510280544 -0.2041922681
1791050000.0 -0.6521227342 -0.1372663056
1801000000.0 -0.6580019323 -0.0729380878
1810950000.0 -0.6658233091 -0.0140806745
1820900000.0 -0.6683373242 0.039072917
1830850000.0 -0.6644708776 0.0866364403
1840800000.0 -0.6457051148 0.1310751629
1850750000.0 -0.6126471555 0.1734583653
1860700000.0 -0.5915852823 0.2147766123
1870650000.0 -0.5356759328 0.2566131783
1880600000.0 -0.4971802049 0.296706888
1890550000.0 -0.4997649727 0.3345474486
1900500000.0 -0.475473277 0.3680850039
1910450000.0 -0.4307844911 0.3955742794
1920400000.0 -0.4162496518 0.415065357
1930350000.0 -0.3914294927 0.4288771169
1940300000.0 -0.3523055102 0.4385019003
1950250000.0 -0.3082823086 0.4471664181
1960200000.0 -0.2589916339 0.458080481
1970150000.0 -0.2114301224 0.4698767087
1980100000.0 -0.1716460799 0.4807433653
1990050000.0 -0.1435082316 0.484010661
2000000000.0 -0.1290029745 0.4711283807
