!Created with skrf (http://scikit-rf.org).
# GHz S RI R 50.0 
!freq ReS11 ImS11
10000000.0 -0.865165155 0.4339442683
19950000.0 -0.5861415725 0.7651148367
29900000.0 -0.1890873507 0.9443255655
39850000.0 0.2552861077 0.930489843
49800000.0 0.6566541844 0.7115774516
59750000.0 0.9198364482 0.3180404004
69700000.0 0.9638109329 -0.1710791418
79650000.0 0.7516219993 -0.6348351268
89600000.0 0.3146045829 -0.9345563701
99550000.0 -0.2368149905 -0.9546688703
109500000.0 -0.7280026249 -0.6519038401
119450000.0 -0.9662791482 -0.0957400941
129400000.0 -0.8015639015 0.5291152163
139350000.0 -0.3047863118 0.9208935091
149300000.0 0.358238132 0.9029657017
159250000.0 0.8481088153 0.4706793359
169200000.0 0.9522640768 -0.1482960605
179150000.0 0.6765862065 -0.6723348398
189100000.0 0.1810630528 -0.9241930457
199050000.0 -0.3407258808 -0.8665243208
209000000.0 -0.737524392 -0.5570459176
218950000.0 -0.9146608803 -0.1089154833
228900000.0 -0.8495668711 0.3574363109
238850000.0 -0.5693994263 0.7274138829
248800000.0 -0.0679566788 0.8516992098
258750000.0 0.2620361906 0.8823066579
268700000.0 0.6395526539 0.649986108
278650000.0 0.8572394738 0.2726394641
288600000.0 0.8707336393 -0.1601877584
298550000.0 0.6771638419 -0.5465895947
308500000.0 0.3194219627 -0.790103796
318450000.0 -0.1131918362 -0.8219510138
328400000.0 -0.4986362713 -0.6250367002
338350000.0 -0.713975857 -0.255584732
348300000.0 -0.6858586671 0.1580654177
358250000.0 -0.4383096621 0.4612549726
368200000.0 -0.091034463 0.5516521774
378150000.0 0.2049964998 0.4316264616
388100000.0 0.3489491388 0.1948932656
398050000.0 0.327850968 -0.0409320235
408000000.0 0.195030235 -0.1886252007
417950000.0 0.0327800581 -0.2218924445
427900000.0 -0.0923515014 -0.1630193536
437850000.0 -0.146775049 -0.0621771215
447800000.0 -0.1339478811 0.0322450617
457750000.0 -0.0789659767 0.0885262199
467700000.0 -0.0158853857 0.0981370791
477650000.0 0.0290438069 0.0725184972
487600000.0 0.0416001794 0.032893381
497550000.0 0.005910955 0.0139683999
507500000.0 0.0330641137 -0.0076077998
517450000.0 0.0019431989 -0.0046324293
527400000.0 -0.0066456925 0.0162077559
537350000.0 0.0068912921 0.036022651
547300000.0 0.0387608881 0.0440755519
557250000.0 0.0769804241 0.0219413222
567200000.0 0.0983140948 -0.0230981661
577150000.0 0.0936497526 -0.0794596976
587100000.0 0.0586068218 -0.1322354441
597050000.0 -0.0018957633 -0.1638789158
607000000.0 -0.0746237102 -0.1631654779
616950000.0 -0.1411431867 -0.1265065275
626900000.0 -0.1835044356 -0.0609990816
636850000.0 -0.1904664461 0.0189923997
646800000.0 -0.1582653132 0.0939789817
656750000.0 -0.0940856049 0.1453053354
666700000.0 -0.013120437 0.1598979435
676650000.0 0.0641364344 0.1342952347
686600000.0 0.1178660331 0.0757772452
696550000.0 0.1348894944 0.0012952818
706500000.0 0.1116211004 -0.0671157652
716450000.0 0.0576420997 -0.1085640935
726400000.0 -0.0085487339 -0.1101595208
736350000.0 -0.0611753567 -0.070653931
746300000.0 -0.0792970123 -0.0034788448
756250000.0 -0.050972643 0.0676511761
766200000.0 0.0197586499 0.1137033308
776150000.0 0.1129736748 0.1128507467
786100000.0 0.1986263896 0.0569255914
796050000.0 0.2455363577 -0.0441930619
806000000.0 0.232333513 -0.1638669408
815950000.0 0.1523609078 -0.2686737356
825900000.0 0.0201945592 -0.3240164064
835850000.0 -0.1343194914 -0.3065573249
845800000.0 -0.2714029635 -0.210503156
855750000.0 -0.3521128823 -0.0519599859
865700000.0 -0.3492454829 0.1336403238
875650000.0 -0.2578040065 0.3018301382
885600000.0 -0.0958812656 0.408991402
895550000.0 0.1000822761 0.4269934698
905500000.0 0.2830799017 0.3474195525
915450000.0 0.4061857044 0.1846762247
925400000.0 0.4319438841 -0.024784794
935350000.0 0.3417840493 -0.2259962342
945300000.0 0.1472901418 -0.3541049976
955250000.0 -0.1015550134 -0.349174324
965200000.0 -0.3134142421 -0.1857838785
975150000.0 -0.381960834 0.0958347707
985100000.0 -0.2399439868 0.3785315702
995050000.0 0.0817868327 0.5066896828
1005000000.0 0.4402432617 0.3757021175
1014950000.0 0.6402900184 0.005649786
1024900000.0 0.5413882789 -0.4415725148
1034850000.0 0.1518804352 -0.7366657615
1044800000.0 -0.3539154637 -0.7132573757
1054750000.0 -0.7367691194 -0.3741574923
1064700000.0 -0.8126923224 0.1158391179
1074650000.0 -0.655090327 0.4996667791
1084600000.0 -0.2807123094 0.7551943297
1094550000.0 0.1157331046 0.8072624595
1104500000.0 0.5248697662 0.5988481308
1114450000.0 0.7293595268 0.1844314096
1124400000.0 0.6433772887 -0.2682659881
1134350000.0 0.3048106934 -0.56444871
1144300000.0 -0.1213456118 -0.5822245706
1154250000.0 -0.4387510984 -0.3494276908
1164200000.0 -0.5392947099 -0.0069970027
1174150000.0 -0.4369558829 0.2998366061
1184100000.0 -0.1951340164 0.4896006213
1194050000.0 0.1029946297 0.510996459
1204000000.0 0.3597741435 0.3693010455
1213950000.0 0.5007530941 0.1158576054
1223900000.0 0.4913604797 -0.1706171997
1233850000.0 0.3439920127 -0.4098243554
1243800000.0 0.1084054838 -0.5459782236
1253750000.0 -0.153792424 -0.560789569
1263700000.0 -0.3873954658 -0.4649821027
1273650000.0 -0.5546656312 -0.2884873993
1283600000.0 -0.6362140097 -0.0661718886
1293550000.0 -0.6257240998 0.1683082841
1303500000.0 -0.5260416048 0.3820483458
1313450000.0 -0.3480951041 0.5438677411
1323400000.0 -0.114353922 0.6255369831
1333350000.0 0.1400449947 0.6070197325
1343300000.0 0.3718284397 0.4859589612
1353250000.0 0.5378934743 0.2805825977
1363200000.0 0.6096102565 0.028459559
1373150000.0 0.5788956436 -0.226188261
1383100000.0 0.4570163299 -0.4425074734
1393050000.0 0.270673938 -0.5909863264
1403000000.0 0.0511376882 -0.6572456323
1412950000.0 -0.1700088408 -0.6380810424
1422900000.0 -0.3652168251 -0.5406452424
1432850000.0 -0.5101365638 -0.3772115563
1442800000.0 -0.585055913 -0.1677860152
1452750000.0 -0.5747332026 0.0597919761
1462700000.0 -0.4741392488 0.2716378632
1472650000.0 -0.2927805554 0.429818855
1482600000.0 -0.0600660595 0.5002634539
1492550000.0 0.1782973749 0.4665107639
1502500000.0 0.373780799 0.3383540966
1512450000.0 0.4902688022 0.146548136
1522400000.0 0.511729002 -0.0667331854
1532350000.0 0.4403903113 -0.259813731
1542300000.0 0.2952530918 -0.3974907162
1552250000.0 0.1049013354 -0.4540667797
1562200000.0 -0.0907706672 -0.4168346992
1572150000.0 -0.2493629781 -0.2911800957
1582100000.0 -0.3316020869 -0.1021371554
1592050000.0 -0.3131521818 0.1051411195
1602000000.0 -0.198650559 0.2774194813
1611950000.0 -0.0167952191 0.3695566943
1621900000.0 0.1793964396 0.3655937913
1631850000.0 0.3545109878 0.2722654723
1641800000.0 0.4626259707 0.1046186516
1651750000.0 0.4819563115 -0.0943584341
1661700000.0 0.4098443155 -0.2851893368
1671650000.0 0.2569697725 -0.4306439322
1681600000.0 0.0488080046 -0.4987602173
1691550000.0 -0.1771653715 -0.4709253745
1701500000.0 -0.3760679254 -0.34588966
1711450000.0 -0.5063126446 -0.1448473745
1721400000.0 -0.5423089022 0.0938739878
1731350000.0 -0.4767823437 0.3238989119
1741300000.0 -0.3271756052 0.504550672
1751250000.0 -0.1234968665 0.6098156211
1761200000.0 0.0995954245 0.6295919281
1771150000.0 0.3107491437 0.5672210488
1781100000.0 0.4834180009 0.4344417032
1791050000.0 0.5977089542 0.2491825858
1801000000.0 0.6385851849 0.0331833024
1810950000.0 0.598879259 -0.1866963039
1820900000.0 0.4801566201 -0.3804086714
1830850000.0 0.2955560155 -0.5189236931
1840800000.0 0.0694255089 -0.5781322464
1850750000.0 -0.1630582305 -0.5468784536
1860700000.0 -0.3635023723 -0.4298377901
1870650000.0 -0.5012699139 -0.2506593426
1880600000.0 -0.5604883188 -0.0426575506
1890550000.0 -0.5414571413 0.1611721687
1900500000.0 -0.4564882919 0.3336873857
1910450000.0 -0.3244678182 0.4570584095
1920400000.0 -0.1669873419 0.5212423492
1930350000.0 -0.0063377481 0.5234088774
1940300000.0 0.1353286179 0.4680116984
1950250000.0 0.2390690145 0.3676516269
1960200000.0 0.2913092294 0.2429693058
1970150000.0 0.2903063005 0.1186065177
1980100000.0 0.2459491473 0.0180684634
1990050000.0 0.1787403368 -0.0434989525
2000000000.0 0.1151888314 -0.0634898308
