!Created with skrf (http://scikit-rf.org).
# GHz S RI R 50.0 
!freq ReS11 ImS11
10000000.0 -0.7481128169 0.572294365
19950000.0 -0.2722633543 0.9019151141
29900000.0 0.307480112 0.8872381806
39850000.0 0.776920146 0.5235924497
49800000.0 0.9400609409 -0.0665496243
59750000.0 0.7019652529 -0.6522574321
69700000.0 0.134981786 -0.9659434669
79650000.0 -0.5131911455 -0.8290955177
89600000.0 -0.9174574126 -0.2728608409
99550000.0 -0.8363868783 0.4427507675
109500000.0 -0.2559123614 0.9210394808
119450000.0 0.5260298035 0.8213934928
129400000.0 0.9805133212 0.1321947605
139350000.0 0.7308566099 -0.6676651961
149300000.0 -0.0413987989 -0.9651815543
159250000.0 -0.7351332024 -0.5726454566
169200000.0 -0.9004871996 0.167009578
179150000.0 -0.5123141355 0.7648711201
189100000.0 0.1408884747 0.9141081482
199050000.0 0.6975677727 0.5929221905
209000000.0 0.9148060045 -0.0026233382
218950000.0 0.7045881019 -0.5711452377
228900000.0 0.2015254902 -0.875415395
238850000.0 -0.3712687038 -0.8077307612
248800000.0 -0.737664136 -0.4128356932
258750000.0 -0.8770765295 0.1412701069
268700000.0 -0.6249663418 0.6472296367
278650000.0 -0.1267021685 0.8963472781
288600000.0 0.4146005249 0.7894737479
298550000.0 0.7778390209 0.3712569545
308500000.0 0.8108034791 -0.1856192572
318450000.0 0.4931525063 -0.6423347157
328400000.0 -0.0349503083 -0.7904173768
338350000.0 -0.5169593988 -0.5588486221
348300000.0 -0.7035754798 -0.0797258262
358250000.0 -0.5134353862 0.3627673849
368200000.0 -0.1104593436 0.5189853127
378150000.0 0.225663161 0.357641655
388100000.0 0.3167152918 0.0607160582
398050000.0 0.1863062881 -0.151355181
408000000.0 -0.0075813256 -0.1778108583
417950000.0 -0.1151579217 -0.0679482975
427900000.0 -0.0944548784 0.0550636547
437850000.0 0.0016711318 0.0998228732
447800000.0 0.0901271515 0.0527521544
457750000.0 0.1095673282 -0.0433841554
467700000.0 0.0574020438 -0.1221244235
477650000.0 -0.0294999235 -0.1405090515
487600000.0 -0.1016663082 -0.0929749478
497550000.0 -0.1108093791 -0.0161797108
507500000.0 -0.0888786109 0.053344484
517450000.0 -0.0254277642 0.0846734901
527400000.0 0.0296602111 0.0683481729
537350000.0 0.0509470623 0.0270135441
547300000.0 0.0363853155 -0.010270198
557250000.0 0.0010096057 -0.0186865551
567200000.0 -0.0210603442 0.0037636326
577150000.0 -0.0111729763 0.033830577
587100000.0 0.0263631788 0.0417268638
597050000.0 0.0658285585 0.0123370058
607000000.0 0.0776813343 -0.0475164233
616950000.0 0.0435216548 -0.1091664284
626900000.0 -0.0276401133 -0.1364626731
636850000.0 -0.1057081157 -0.1098184456
646800000.0 -0.1519075853 -0.0333390318
656750000.0 -0.1407003862 0.0624859048
666700000.0 -0.0706135034 0.1344259351
676650000.0 0.0315632806 0.1475852977
686600000.0 0.121891149 0.0920081694
696550000.0 0.1592613123 -0.0125051625
706500000.0 0.1249107926 -0.1172390508
716450000.0 0.0325001455 -0.1742436399
726400000.0 -0.0715654057 -0.1561614526
736350000.0 -0.1330145294 -0.0709204837
746300000.0 -0.1167999211 0.0361946776
756250000.0 -0.0268558412 0.1057241086
766200000.0 0.0890610373 0.0959383113
776150000.0 0.1652440102 0.0051834219
786100000.0 0.1529474528 -0.1132557049
796050000.0 0.053515155 -0.185786938
806000000.0 -0.0684540187 -0.1679898117
815950000.0 -0.1660365415 -0.0700901549
825900000.0 -0.1805703407 0.088365511
835850000.0 -0.0802584564 0.2308434159
845800000.0 0.0987462431 0.2772731008
855750000.0 0.2753516949 0.190907757
865700000.0 0.3620916872 -0.001492615
875650000.0 0.3032190501 -0.2175779249
885600000.0 0.1077630613 -0.354476892
895550000.0 -0.1462031517 -0.3298818158
905500000.0 -0.3363423689 -0.1359515556
915450000.0 -0.3591222517 0.1465249731
925400000.0 -0.1926332207 0.3843627388
935350000.0 0.0911410281 0.4561623503
945300000.0 0.3562638214 0.3136280454
955250000.0 0.4602496424 0.0109127174
965200000.0 0.3179942018 -0.3057554079
975150000.0 -0.0329161692 -0.4424446858
985100000.0 -0.3998838778 -0.2651692863
995050000.0 -0.517510654 0.1596017667
1005000000.0 -0.253720395 0.5509112355
1014950000.0 0.250303555 0.6016466351
1024900000.0 0.6431821277 0.2079772217
1034850000.0 0.5785098943 -0.4028126528
1044800000.0 0.0214008554 -0.7478306356
1054750000.0 -0.6012045849 -0.4952167112
1064700000.0 -0.7654387205 0.1099260609
1074650000.0 -0.5073277594 0.6408210514
1084600000.0 0.0640120359 0.8025868426
1094550000.0 0.5888633636 0.5238524896
1104500000.0 0.7487016341 -0.0640174651
1114450000.0 0.4353879731 -0.5835023066
1124400000.0 -0.1312956294 -0.7041886508
1134350000.0 -0.575384967 -0.3969992274
1144300000.0 -0.6688426596 0.0951180451
1154250000.0 -0.4229704151 0.4926017035
1164200000.0 -0.0004737701 0.6197540795
1174150000.0 0.3923342963 0.4426226934
1184100000.0 0.5635534468 0.0424122522
1194050000.0 0.4163376615 -0.3626189731
1204000000.0 0.0508420489 -0.5521836984
1213950000.0 -0.326101521 -0.4602879921
1223900000.0 -0.5500345138 -0.1697615084
1233850000.0 -0.5567146537 0.1831160388
1243800000.0 -0.3570097177 0.4681973702
1253750000.0 -0.0239057264 0.5776337428
1263700000.0 0.3158929846 0.4591939945
1273650000.0 0.5177458554 0.1515153028
1283600000.0 0.4950255893 -0.215251649
1293550000.0 0.271199059 -0.489072665
1303500000.0 -0.0507951499 -0.5818888714
1313450000.0 -0.3547397604 -0.4871910666
1323400000.0 -0.5569266587 -0.2492317731
1333350000.0 -0.6067940881 0.0639045325
1343300000.0 -0.4797885041 0.3653577701
1353250000.0 -0.1928240989 0.5501423489
1363200000.0 0.1597881386 0.533371226
1373150000.0 0.4422231583 0.3100458918
1383100000.0 0.5452804958 -0.0292536056
1393050000.0 0.448345711 -0.3548782393
1403000000.0 0.2072394232 -0.5659908314
1412950000.0 -0.0913657577 -0.6122934411
1422900000.0 -0.3603312329 -0.4956637247
1432850000.0 -0.5289572433 -0.2475909395
1442800000.0 -0.5398329533 0.0678551593
1452750000.0 -0.368676389 0.3486368331
1462700000.0 -0.0613364153 0.4836633549
1472650000.0 0.2640618724 0.4180822119
1482600000.0 0.4854681759 0.1855066954
1492550000.0 0.5330270925 -0.1181142587
1502500000.0 0.4074911416 -0.3846776797
1512450000.0 0.1611170092 -0.5300066163
1522400000.0 -0.1208992172 -0.5084847342
1532350000.0 -0.3417155501 -0.3214495911
1542300000.0 -0.4114153353 -0.0288766292
1552250000.0 -0.2919575582 0.2539038355
1562200000.0 -0.0306064462 0.4038770992
1572150000.0 0.2560641118 0.3677859787
1582100000.0 0.4534588456 0.1728803081
1592050000.0 0.4913944288 -0.0937102929
1602000000.0 0.3625160401 -0.3296335514
1611950000.0 0.1112609349 -0.4462991348
1621900000.0 -0.1720598783 -0.3869004712
1631850000.0 -0.3723156488 -0.1594251587
1641800000.0 -0.3940202137 0.1502883851
1651750000.0 -0.2243945469 0.4090486385
1661700000.0 0.0611106059 0.5096186349
1671650000.0 0.342979126 0.4229840892
1681600000.0 0.521984766 0.1930290541
1691550000.0 0.5427972697 -0.1004905076
1701500000.0 0.3971705669 -0.363253531
1711450000.0 0.1220711286 -0.5075484979
1721400000.0 -0.1994289022 -0.4686030254
1731350000.0 -0.4495320786 -0.2449482326
1741300000.0 -0.5296195203 0.0849482718
1751250000.0 -0.4124663998 0.3947538057
1761200000.0 -0.1540315904 0.5790498074
1771150000.0 0.1501959616 0.5932935282
1781100000.0 0.4113222806 0.4498998988
1791050000.0 0.5632730378 0.1922143426
1801000000.0 0.5628673494 -0.1143451725
1810950000.0 0.4017290993 -0.3849719349
1820900000.0 0.115253449 -0.5303069716
1830850000.0 -0.2089664583 -0.4887263901
1840800000.0 -0.4540295986 -0.2711235819
1850750000.0 -0.5375767519 0.0351668566
1860700000.0 -0.4524498094 0.3215040016
1870650000.0 -0.2477218177 0.5109962494
1880600000.0 0.008476512 0.5677151763
1890550000.0 0.2470770852 0.4883100946
1900500000.0 0.4087148403 0.2963946047
1910450000.0 0.4476416837 0.0440415172
1920400000.0 0.34712479 -0.1928622896
1930350000.0 0.139468469 -0.3321324717
1940300000.0 -0.0966127877 -0.3314485157
1950250000.0 -0.2756198861 -0.2132102039
1960200000.0 -0.3519139754 -0.0407093878
1970150000.0 -0.3271416409 0.1194093912
1980100000.0 -0.2346844024 0.2182987422
1990050000.0 -0.12746896 0.2362717772
2000000000.0 -0.0594749466 0.1884690323
