!Created with skrf (http://scikit-rf.org).
# GHz S RI R 50.0 
!freq ReS11 ImS11
10000000.0 -0.9983525701 0.1663194849
19950000.0 -0.9415329566 0.3175427129
29900000.0 -0.8618095634 0.4615611391
39850000.0 -0.7585813917 0.6030196987
49800000.0 -0.6343001337 0.7362831246
59750000.0 -0.4841203709 0.8541211982
69700000.0 -0.3012770426 0.944659686
79650000.0 -0.0833543208 0.9891775507
89600000.0 0.166660166 0.9709271336
99550000.0 0.4340243385 0.872161662
109500000.0 0.6948628755 0.6817682313
119450000.0 0.9080291551 0.3897301862
129400000.0 0.9863736043 0.0193281194
139350000.0 0.9484935372 -0.3889470348
149300000.0 0.715407663 -0.7247385146
159250000.0 0.3768719867 -0.9232287215
169200000.0 0.0197155247 -0.9814453138
179150000.0 -0.3026920348 -0.9302852135
189100000.0 -0.5631954595 -0.8054763775
199050000.0 -0.75156765 -0.6367893845
209000000.0 -0.8672406986 -0.4453223771
218950000.0 -0.9255060299 -0.2491899044
228900000.0 -0.9378726838 -0.057777542
238850000.0 -0.9169044338 0.1273810087
248800000.0 -0.7060099166 0.2191282255
258750000.0 -0.8197340027 0.4307650162
268700000.0 -0.7331555382 0.5734749683
278650000.0 -0.6213454436 0.6884314213
288600000.0 -0.4834162079 0.7734324948
298550000.0 -0.3237164872 0.8261535604
308500000.0 -0.1471256092 0.8477315008
318450000.0 0.0400949805 0.8333466321
328400000.0 0.2285803635 0.7764047099
338350000.0 0.3971370941 0.6683429298
348300000.0 0.5212543286 0.5089540589
358250000.0 0.5763316984 0.3117752513
368200000.0 0.5528801208 0.1085481216
378150000.0 0.4632089352 -0.0643893177
388100000.0 0.3363795238 -0.1845739951
398050000.0 0.2016807739 -0.2447304102
408000000.0 0.0833103759 -0.2506331182
417950000.0 -0.0075377682 -0.2158991339
427900000.0 -0.0679029609 -0.1582960063
437850000.0 -0.1031559861 -0.0932209458
447800000.0 -0.1179225713 -0.0330258951
457750000.0 -0.1169941036 0.0145469162
467700000.0 -0.104913411 0.0449128477
477650000.0 -0.0842347941 0.0564998442
487600000.0 -0.0565777653 0.0508867027
497550000.0 -0.0293291804 -0.0022055486
507500000.0 -0.0259050522 0.0383884902
517450000.0 -0.0001893668 0.0171414023
527400000.0 0.0100178154 -0.000499095
537350000.0 0.0076285377 -0.0156743516
547300000.0 -0.0045291553 -0.0335696556
557250000.0 -0.0328089389 -0.0481470089
567200000.0 -0.0621901637 -0.0596333311
577150000.0 -0.0917960867 -0.0683980521
587100000.0 -0.1175534526 -0.0720997682
597050000.0 -0.1373560331 -0.067834861
607000000.0 -0.1509947645 -0.0530618308
616950000.0 -0.159983369 -0.0287322534
626900000.0 -0.1657475039 0.002636673
636850000.0 -0.1688135506 0.0364756944
646800000.0 -0.1678803145 0.0683273356
656750000.0 -0.1620391805 0.0955917996
666700000.0 -0.1489323407 0.1154856272
676650000.0 -0.1258757053 0.1264417823
686600000.0 -0.0926994568 0.1304856324
696550000.0 -0.0522922087 0.128432285
706500000.0 -0.0092877243 0.1207844556
716450000.0 0.0319618325 0.1076611657
726400000.0 0.0652633388 0.086833767
736350000.0 0.0884106458 0.0565063614
746300000.0 0.0978258379 0.0154955968
756250000.0 0.0949661172 -0.0355094931
766200000.0 0.0798170663 -0.0930598197
776150000.0 0.0551643757 -0.1516311752
786100000.0 0.0206413549 -0.2043389607
796050000.0 -0.0227634001 -0.2443255647
806000000.0 -0.0738514515 -0.2675263826
815950000.0 -0.1336389919 -0.2708293612
825900000.0 -0.1991455449 -0.2564266443
835850000.0 -0.2676322005 -0.2272153809
845800000.0 -0.3336652064 -0.1875119241
855750000.0 -0.3923307983 -0.1396357731
865700000.0 -0.4377008835 -0.0851893552
875650000.0 -0.4638260162 -0.0231267119
885600000.0 -0.4696394684 0.0459176143
895550000.0 -0.4557636957 0.1213056557
905500000.0 -0.4239503282 0.2023764519
915450000.0 -0.3778087078 0.2843405799
925400000.0 -0.3178376416 0.3615362221
935350000.0 -0.2431604502 0.4269104177
945300000.0 -0.1522353845 0.4714356176
955250000.0 -0.0436138995 0.4876374029
965200000.0 0.0811658797 0.4666778978
975150000.0 0.2166634607 0.4045019433
985100000.0 0.3501065491 0.2947919198
995050000.0 0.4607807117 0.1333322356
1005000000.0 0.5153727159 -0.0772939642
1014950000.0 0.4752111194 -0.3150739278
1024900000.0 0.316040906 -0.5340594347
1034850000.0 0.0495486336 -0.6748637875
1044800000.0 -0.272362681 -0.6902619522
1054750000.0 -0.5769977223 -0.560992692
1064700000.0 -0.7591499958 -0.2994602675
1074650000.0 -0.8149497399 -0.1074918189
1084600000.0 -0.8364585523 0.1676082268
1094550000.0 -0.7243986421 0.4190863335
1104500000.0 -0.5431445133 0.6314776946
1114450000.0 -0.2960813257 0.7614687256
1124400000.0 -0.024531727 0.7966783249
1134350000.0 0.2342077401 0.7263734957
1144300000.0 0.4384130172 0.5607915765
1154250000.0 0.5609237398 0.3375771157
1164200000.0 0.5995571462 0.0977772211
1174150000.0 0.5667367038 -0.1198533463
1184100000.0 0.4916666209 -0.2971220512
1194050000.0 0.3800817626 -0.4365667324
1204000000.0 0.2411328089 -0.5239367379
1213950000.0 0.0939166821 -0.5619859837
1223900000.0 -0.0475590493 -0.5644975524
1233850000.0 -0.1768666155 -0.5445062321
1243800000.0 -0.2907052659 -0.5112764622
1253750000.0 -0.3879894611 -0.4690651314
1263700000.0 -0.4656329245 -0.417599107
1273650000.0 -0.5251032258 -0.3575768594
1283600000.0 -0.566071557 -0.2889205713
1293550000.0 -0.5938157804 -0.2136362133
1303500000.0 -0.6132300591 -0.1353701008
1313450000.0 -0.6286441522 -0.0585278053
1323400000.0 -0.6420300097 0.0150128476
1333350000.0 -0.6519433777 0.0832816704
1343300000.0 -0.6546884766 0.1468957783
1353250000.0 -0.6471751072 0.2041810663
1363200000.0 -0.6261183849 0.2584390188
1373150000.0 -0.5918576547 0.3103054372
1383100000.0 -0.5490837027 0.3619941958
1393050000.0 -0.5023761179 0.4132472934
1403000000.0 -0.4553438255 0.4632999168
1412950000.0 -0.4089777096 0.510224796
1422900000.0 -0.3633333253 0.5501201536
1432850000.0 -0.3158372658 0.5789274442
1442800000.0 -0.264773261 0.5967041296
1452750000.0 -0.209275818 0.6047773422
1462700000.0 -0.1473889464 0.6070301535
1472650000.0 -0.0782578229 0.6071338722
1482600000.0 -0.0040910321 0.6057120207
1492550000.0 0.0714194282 0.6014791702
1502500000.0 0.1447214812 0.5892717999
1512450000.0 0.2128798003 0.5664428306
1522400000.0 0.2741121383 0.52924039
1532350000.0 0.3276267588 0.4749644153
1542300000.0 0.3748741463 0.4060062589
1552250000.0 0.4165254245 0.3251441415
1562200000.0 0.4549211921 0.2379104901
1572150000.0 0.4853919685 0.1479031087
1582100000.0 0.5030012263 0.0571497901
1592050000.0 0.5027085216 -0.0323396405
1602000000.0 0.480632446 -0.1185847718
1611950000.0 0.4379252082 -0.1990087976
1621900000.0 0.3774062325 -0.2747345683
1631850000.0 0.3053804272 -0.3448707817
1641800000.0 0.2272901846 -0.4084270783
1651750000.0 0.1459865382 -0.4619961998
1661700000.0 0.0641715647 -0.5007484911
1671650000.0 -0.0167304829 -0.5194915771
1681600000.0 -0.0964827189 -0.5183416373
1691550000.0 -0.175083407 -0.5004206289
1701500000.0 -0.2528638124 -0.4699868408
1711450000.0 -0.3284778686 -0.4320528765
1721400000.0 -0.3998127724 -0.3907956163
1731350000.0 -0.4635865651 -0.3484973477
1741300000.0 -0.5169036356 -0.3043546668
1751250000.0 -0.5561825291 -0.2558561275
1761200000.0 -0.5806001266 -0.2017111608
1771150000.0 -0.5921914404 -0.1422789053
1781100000.0 -0.5967387595 -0.0786944707
1791050000.0 -0.5981766743 -0.0146012465
1801000000.0 -0.6001895132 0.0476281125
1810950000.0 -0.6035669366 0.1060215528
1820900000.0 -0.6048964176 0.1593010738
1830850000.0 -0.5985394695 0.2059248572
1840800000.0 -0.5815609972 0.2470871512
1850750000.0 -0.5524053648 0.28391364
1860700000.0 -0.5118926379 0.3171114333
1870650000.0 -0.4668404932 0.3492575186
1880600000.0 -0.4217691276 0.379201761
1890550000.0 -0.3818286167 0.4073410668
1900500000.0 -0.3466021165 0.4301239474
1910450000.0 -0.3148027581 0.4463973081
1920400000.0 -0.2842892058 0.4527517071
1930350000.0 -0.2499970535 0.4492424021
1940300000.0 -0.2101319612 0.435581582
1950250000.0 -0.1651743426 0.4138668726
1960200000.0 -0.1184061899 0.3880646909
1970150000.0 -0.0766735517 0.3592782655
1980100000.0 -0.0446557538 0.328841323
1990050000.0 -0.0256237386 0.2941822369
2000000000.0 -0.0230207484 0.2526001591
