!Created with skrf (http://scikit-rf.org).
# GHz S RI R 50.0 
!freq ReS11 ImS11
10000000.0 -0.9665945737 0.1762238761
19950000.0 -0.9362845392 0.3436228033
29900000.0 -0.8775748105 0.5053339919
39850000.0 -0.7691827356 0.6561945273
49800000.0 -0.6042342875 0.7873583441
59750000.0 -0.3734485291 0.8881154035
69700000.0 -0.0675471029 0.9370871511
79650000.0 0.3119320195 0.8823095873
89600000.0 0.7123881232 0.6277252735
99550000.0 0.9479144745 0.1119498284
109500000.0 0.7961490972 -0.4892916737
119450000.0 0.3331554493 -0.8585545181
129400000.0 -0.1632459644 -0.9225242618
139350000.0 -0.5397174798 -0.8032290717
149300000.0 -0.776414557 -0.6072670808
159250000.0 -0.8985475334 -0.3950115662
169200000.0 -0.942841476 -0.1910534462
179150000.0 -0.9415692922 -0.0013025927
189100000.0 -0.9100815637 0.1787905889
199050000.0 -0.8784196426 0.2770864726
209000000.0 -0.8407268571 0.4420800768
218950000.0 -0.7783689791 0.567640031
228900000.0 -0.6954602597 0.6689913433
238850000.0 -0.5888742095 0.7466816175
248800000.0 -0.4600930222 0.8060770376
258750000.0 -0.3117146277 0.8511103872
268700000.0 -0.1449714087 0.88357989
278650000.0 0.0388100391 0.8949826594
288600000.0 0.2356534781 0.8675630551
298550000.0 0.432376787 0.7764215366
308500000.0 0.6021896064 0.6006919482
318450000.0 0.7061322541 0.3393645625
328400000.0 0.7028596911 0.0239205043
338350000.0 0.5673939904 -0.2776645281
348300000.0 0.3229871763 -0.4774846763
358250000.0 0.0531263818 -0.508428352
368200000.0 -0.1587271349 -0.4296758363
378150000.0 -0.2884202067 -0.2836350241
388100000.0 -0.3442365751 -0.1303420965
398050000.0 -0.3471544462 -0.0037636404
408000000.0 -0.3167601418 0.0836168854
417950000.0 -0.2674072744 0.1283796039
427900000.0 -0.2144166424 0.1345619599
437850000.0 -0.1652832505 0.1100628387
447800000.0 -0.1297020756 0.0719574237
457750000.0 -0.1123641486 0.0317840592
467700000.0 -0.1174946355 0.0005507393
477650000.0 -0.1532145608 -0.0257792421
487600000.0 -0.2019180583 -0.0169664123
497550000.0 -0.2499534632 -0.009601213
507500000.0 -0.2997553425 0.0086939527
517450000.0 -0.3412611661 0.0320327037
527400000.0 -0.3661046617 0.0610387229
537350000.0 -0.3722589977 0.0971206707
547300000.0 -0.3617099239 0.1392972734
557250000.0 -0.3434522547 0.1876281261
567200000.0 -0.3195269462 0.2351777361
577150000.0 -0.2952413429 0.2792344743
587100000.0 -0.2709137243 0.3136842291
597050000.0 -0.2460267102 0.3338337251
607000000.0 -0.2194609025 0.3377422691
616950000.0 -0.186231466 0.3258122977
626900000.0 -0.1488485542 0.3060725447
636850000.0 -0.1108798358 0.2822124688
646800000.0 -0.0778049681 0.2595782398
656750000.0 -0.0546017796 0.2409586782
666700000.0 -0.046416391 0.2300455382
676650000.0 -0.0566255747 0.2214275778
686600000.0 -0.0777066484 0.2113841998
696550000.0 -0.1050382409 0.2021265419
706500000.0 -0.1304521618 0.1939433289
716450000.0 -0.1466542566 0.1886849221
726400000.0 -0.1503544021 0.1918820453
736350000.0 -0.1403414011 0.2063151874
746300000.0 -0.1196255791 0.2313570269
756250000.0 -0.0942206395 0.2633129702
766200000.0 -0.0668899309 0.2944489156
776150000.0 -0.0375119973 0.315778833
786100000.0 -0.0075925079 0.3210229304
796050000.0 0.02500207 0.3041417402
806000000.0 0.0633728127 0.2662105429
815950000.0 0.1021588252 0.2095820909
825900000.0 0.1385729846 0.1384373683
835850000.0 0.1610994417 0.0606861245
845800000.0 0.1599567141 -0.0202202122
855750000.0 0.1229358529 -0.0942881944
865700000.0 0.0493158388 -0.1532407046
875650000.0 -0.0599018843 -0.1891252817
885600000.0 -0.1876659828 -0.1932766611
895550000.0 -0.3170084075 -0.160039303
905500000.0 -0.4236889413 -0.0830692321
915450000.0 -0.4777517392 0.0438303422
925400000.0 -0.3862818566 0.2256373064
935350000.0 -0.1293306798 -0.0054227227
945300000.0 -0.4336999467 0.029073573
955250000.0 -0.3853431668 0.2507479926
965200000.0 -0.0575113322 0.0936679787
975150000.0 -0.5890770329 -0.0279044376
985100000.0 -0.6619551872 0.2541731166
995050000.0 -0.6182694888 0.4086537575
1005000000.0 -0.5479896289 0.5045293998
1014950000.0 -0.4666110371 0.5689657307
1024900000.0 -0.3809081535 0.6203026968
1034850000.0 -0.2968626801 0.6641512806
1044800000.0 -0.2166811695 0.7049947136
1054750000.0 -0.1431294801 0.738001653
1064700000.0 -0.0743524152 0.76117127
1074650000.0 -0.006836298 0.7691801962
1084600000.0 0.0666284342 0.7597081835
1094550000.0 0.1460229173 0.7322731718
1104500000.0 0.229778698 0.6928939622
1114450000.0 0.3156157341 0.6468626212
1124400000.0 0.4005694111 0.5968952492
1134350000.0 0.4796831193 0.5415711808
1144300000.0 0.5463184829 0.4729007741
1154250000.0 0.594950255 0.3888939863
1164200000.0 0.6214619816 0.2822278208
1174150000.0 0.6244023053 0.1580333398
1184100000.0 0.6053599137 0.0217551582
1194050000.0 0.5665698123 -0.1174995137
1204000000.0 0.5048852775 -0.2487847042
1213950000.0 0.4189336341 -0.3608273655
1223900000.0 0.3037984447 -0.4424899406
1233850000.0 0.1654772533 -0.4818114755
1243800000.0 0.0102390662 -0.4784437337
1253750000.0 -0.1446172549 -0.44074385
1263700000.0 -0.2882518067 -0.3795864745
1273650000.0 -0.4083799442 -0.3035767812
1283600000.0 -0.4976124649 -0.2203300179
1293550000.0 -0.554209714 -0.128416065
1303500000.0 -0.5779030681 -0.0296281913
1313450000.0 -0.5765276119 0.0760932686
1323400000.0 -0.5591260556 0.1850684116
1333350000.0 -0.5347064538 0.2922918375
1343300000.0 -0.5076436455 0.3917810507
1353250000.0 -0.4772774247 0.476243572
1363200000.0 -0.4410313854 0.5434892031
1373150000.0 -0.3964921075 0.5905996581
1383100000.0 -0.3398345244 0.6204910802
1393050000.0 -0.2731857741 0.6416212274
1403000000.0 -0.1984000372 0.6604591614
1412950000.0 -0.1200006411 0.6810785033
1422900000.0 -0.0431637312 0.7047778694
1432850000.0 0.0279860815 0.7250113321
1442800000.0 0.092841951 0.7351675172
1452750000.0 0.1492590298 0.7279660754
1462700000.0 0.2007028009 0.699710238
1472650000.0 0.2480605482 0.6532024021
1482600000.0 0.2913606804 0.5951135124
1492550000.0 0.3285991146 0.5393409224
1502500000.0 0.3667673566 0.5014979287
1512450000.0 0.4167593786 0.4759087799
1522400000.0 0.4720846513 0.4431194711
1532350000.0 0.5162600983 0.3955241302
1542300000.0 0.5395800145 0.3302868616
1552250000.0 0.5393612119 0.2509660971
1562200000.0 0.5221863272 0.1613881062
1572150000.0 0.4940504182 0.0655740037
1582100000.0 0.4544947475 -0.029688658
1592050000.0 0.3989661071 -0.1155353978
1602000000.0 0.3242323055 -0.1811426687
1611950000.0 0.2276829022 -0.2153529814
1621900000.0 0.1154784701 -0.2144829918
1631850000.0 -0.0030315526 -0.1796538646
1641800000.0 -0.1117020823 -0.1194982239
1651750000.0 -0.1995484327 -0.0433279649
1661700000.0 -0.2583879437 0.0416032126
1671650000.0 -0.2813630515 0.1302183207
1681600000.0 -0.2728894931 0.2198700499
1691550000.0 -0.2358064054 0.3065961862
1701500000.0 -0.1844525131 0.386242625
1711450000.0 -0.1275178299 0.4566577562
1721400000.0 -0.0703736085 0.5135999939
1731350000.0 -0.0155602448 0.553609932
1741300000.0 0.0412279936 0.5712004866
1751250000.0 0.1005444744 0.5645944341
1761200000.0 0.1638541651 0.5365091219
1771150000.0 0.2276871955 0.4937720783
1781100000.0 0.2843577582 0.445176174
1791050000.0 0.3297327114 0.3983503545
1801000000.0 0.3588225493 0.3574631794
1810950000.0 0.3699588507 0.3053094741
1820900000.0 0.3350205403 0.2332269165
1830850000.0 0.2295383925 0.1725507155
1840800000.0 0.0780141645 0.1756808589
1850750000.0 -0.0444738667 0.2724074469
1860700000.0 -0.0592875121 0.4184770321
1870650000.0 0.0323175615 0.5386155781
1880600000.0 0.1716139357 0.6020639522
1890550000.0 0.3085824558 0.6216729603
1900500000.0 0.4212077378 0.6165932287
1910450000.0 0.5034596552 0.600932171
1920400000.0 0.5702891373 0.5773298151
1930350000.0 0.6274824145 0.5213446527
1940300000.0 0.6615300226 0.43605325
1950250000.0 0.6863719565 0.3402020125
1960200000.0 0.7105193085 0.2390984167
1970150000.0 0.7341828184 0.140094354
1980100000.0 0.7523753247 0.0506426903
1990050000.0 0.7567548316 -0.0274337098
2000000000.0 0.7417078609 -0.0965183183
