!Created with skrf (http://scikit-rf.org).
# GHz S RI R 50.0 
!freq ReS11 ImS11
10000000.0 -0.7422300566 0.6713264954
19950000.0 -0.1111034761 0.9804401628
29900000.0 0.5677931481 0.7973642312
39850000.0 0.9588705959 0.2003726947
49800000.0 0.8417046095 -0.5172003246
59750000.0 0.2509215461 -0.9661517185
69700000.0 -0.4996106919 -0.8684684667
79650000.0 -0.9622410596 -0.2508329075
89600000.0 -0.8240099286 0.5275982688
99550000.0 -0.1279149106 0.9555991305
109500000.0 0.6784506825 0.6798013386
119450000.0 0.95580586 -0.1670206074
129400000.0 0.3985495707 -0.8977895777
139350000.0 -0.5234868707 -0.8286116858
149300000.0 -0.9616101661 -0.03573397
159250000.0 -0.5754551019 0.7486575498
169200000.0 0.2536404787 0.9040113682
179150000.0 0.8714736653 0.3698290799
189100000.0 0.8615011897 -0.4209699888
199050000.0 0.2838525551 -0.9201641802
209000000.0 -0.447255753 -0.8433669472
218950000.0 -0.8924972877 -0.293755269
228900000.0 -0.8393586272 0.3918033391
238850000.0 -0.3453354801 0.8532665418
248800000.0 0.3211540574 0.8499400129
258750000.0 0.8294379985 0.426281336
268700000.0 0.9068208948 -0.2393247162
278650000.0 0.5141732409 -0.7776414474
288600000.0 -0.1327729058 -0.9043123986
298550000.0 -0.6862134001 -0.5632780952
308500000.0 -0.8568426116 0.0562977556
318450000.0 -0.5548420709 0.6165048623
328400000.0 0.0472916115 0.7970871708
338350000.0 0.5783656855 0.4888082807
348300000.0 0.6918868014 -0.0853613525
358250000.0 0.3522913028 -0.5036389904
368200000.0 -0.1246242645 -0.4981079147
378150000.0 -0.3681480471 -0.1727761862
388100000.0 -0.2716016407 0.1465350878
398050000.0 -0.0178297226 0.2275521149
408000000.0 0.143911599 0.0924871795
417950000.0 0.1143192904 -0.0738767444
427900000.0 -0.0227606431 -0.1233271199
437850000.0 -0.1251992638 -0.0397561853
447800000.0 -0.1146334238 0.0863027548
457750000.0 -0.0084448809 0.1537851637
467700000.0 0.1075304549 0.1164518895
477650000.0 0.1548515661 0.0083740594
487600000.0 0.1108948811 -0.0936681405
497550000.0 0.0201275298 -0.1335829493
507500000.0 -0.0658246954 -0.098105898
517450000.0 -0.0926964678 -0.0285592331
527400000.0 -0.067755605 0.0244265492
537350000.0 -0.0274064909 0.0345420879
547300000.0 -0.0084264093 0.0166381797
557250000.0 -0.0200330297 0.002642459
567200000.0 -0.0397191009 0.0173962423
577150000.0 -0.0323278792 0.0525600543
587100000.0 0.0162498222 0.0753490665
597050000.0 0.0800809315 0.0532592063
607000000.0 0.1155675268 -0.0221621111
616950000.0 0.0885977201 -0.1138791548
626900000.0 -0.0013470281 -0.1671412292
636850000.0 -0.1124691168 -0.1439858022
646800000.0 -0.1828520503 -0.0476493329
656750000.0 -0.1672497283 0.0749270318
666700000.0 -0.0703664573 0.1571820368
676650000.0 0.0583121253 0.1495463467
686600000.0 0.1483563483 0.0573970954
696550000.0 0.1491825437 -0.0698446019
706500000.0 0.0654667612 -0.1573424765
716450000.0 -0.051298344 -0.1577315063
726400000.0 -0.1260622286 -0.0781086814
736350000.0 -0.1115539661 0.026267921
746300000.0 -0.0229844806 0.0795202578
756250000.0 0.073330081 0.0418984662
766200000.0 0.1011584973 -0.0625317856
776150000.0 0.0305840486 -0.1562154232
786100000.0 -0.0976274799 -0.1572377747
796050000.0 -0.1919986498 -0.0475405162
806000000.0 -0.1671369628 0.1168226551
815950000.0 -0.0154044548 0.2212663744
825900000.0 0.1877849477 0.1799852891
835850000.0 0.3107163859 -0.0073823855
845800000.0 0.2629404173 -0.2440402238
855750000.0 0.0504512028 -0.386275001
865700000.0 -0.2165310851 -0.3369666555
875650000.0 -0.3810240374 -0.1058284157
885600000.0 -0.3320047121 0.1782698123
895550000.0 -0.0928770751 0.3634894226
905500000.0 0.2110544455 0.3364632678
915450000.0 0.4154079981 0.0901419403
925400000.0 0.3851061783 -0.2414937089
935350000.0 0.1213518563 -0.4513966384
945300000.0 -0.225054953 -0.3964117783
955250000.0 -0.4197388008 -0.08640792
965200000.0 -0.2992372053 0.2818628684
975150000.0 0.0924886394 0.4118533459
985100000.0 0.4485688623 0.1433867305
995050000.0 0.4151083698 -0.3406118833
1005000000.0 -0.0515520272 -0.5924804125
1014950000.0 -0.5622093004 -0.3045387059
1024900000.0 -0.6018728558 0.3394411622
1034850000.0 -0.034786246 0.7495151275
1044800000.0 0.6471997188 0.4837635097
1054750000.0 0.8145872766 -0.2333272636
1064700000.0 0.3497611145 -0.7743118155
1074650000.0 -0.338754205 -0.7731727874
1084600000.0 -0.7793957666 -0.2461587759
1094550000.0 -0.6710917472 0.423801299
1104500000.0 -0.0857608734 0.7621616942
1114450000.0 0.5258613667 0.5227336132
1124400000.0 0.7114025798 -0.0729767361
1134350000.0 0.3916967387 -0.5614205757
1144300000.0 -0.1506810371 -0.6349831922
1154250000.0 -0.543897513 -0.2927003167
1164200000.0 -0.5462100337 0.2095824818
1174150000.0 -0.1748747943 0.5310078309
1184100000.0 0.2960867496 0.4562548012
1194050000.0 0.5388797532 0.0647556469
1204000000.0 0.4195594801 -0.3604949926
1213950000.0 0.0440071198 -0.5649341964
1223900000.0 -0.3573863545 -0.4535186018
1233850000.0 -0.5740598184 -0.100696274
1243800000.0 -0.491515524 0.3076817079
1253750000.0 -0.152075809 0.5542607262
1263700000.0 0.2665456812 0.5051071
1273650000.0 0.5440803629 0.1915477149
1283600000.0 0.5509386982 -0.2200254087
1293550000.0 0.2992240493 -0.5364235401
1303500000.0 -0.0883062411 -0.6264866476
1313450000.0 -0.4493925535 -0.4599250332
1323400000.0 -0.6329581365 -0.1022412942
1333350000.0 -0.5513156484 0.2979887144
1343300000.0 -0.2280790538 0.5614876577
1353250000.0 0.1921973538 0.5571766101
1363200000.0 0.5117641363 0.2876286332
1373150000.0 0.5891354474 -0.114404954
1383100000.0 0.4070812581 -0.4692821704
1393050000.0 0.0547835637 -0.6370852158
1403000000.0 -0.3206731527 -0.5591457888
1412950000.0 -0.5735470173 -0.2703522473
1422900000.0 -0.5945618499 0.1164323054
1432850000.0 -0.3662861739 0.4339794441
1442800000.0 0.0140962683 0.5350841322
1452750000.0 0.3673912048 0.3695892349
1462700000.0 0.5297502898 0.0250844185
1472650000.0 0.4384033428 -0.3322514176
1482600000.0 0.1527561288 -0.5443064846
1492550000.0 -0.1941374555 -0.5283577468
1502500000.0 -0.4474563076 -0.2990543881
1512450000.0 -0.4920499575 0.0386729507
1522400000.0 -0.3007245152 0.3206574792
1532350000.0 0.0276676594 0.3990906268
1542300000.0 0.3161511737 0.2362628813
1552250000.0 0.4105453696 -0.069731668
1562200000.0 0.2755534733 -0.3475074624
1572150000.0 -0.0042492674 -0.4563512145
1582100000.0 -0.2779021062 -0.3482415951
1592050000.0 -0.4059646031 -0.0835375191
1602000000.0 -0.3173788521 0.2038693741
1611950000.0 -0.0479685196 0.3534977216
1621900000.0 0.2553071537 0.2704198162
1631850000.0 0.4145341885 -0.0052052296
1641800000.0 0.3390250372 -0.3153959696
1651750000.0 0.0725841505 -0.4930171248
1661700000.0 -0.2476449153 -0.4497252455
1671650000.0 -0.4690574138 -0.2033459213
1681600000.0 -0.4803417557 0.1395833772
1691550000.0 -0.2592053275 0.4195344315
1701500000.0 0.1035914283 0.48816653
1711450000.0 0.4286853727 0.2961493323
1721400000.0 0.5496704882 -0.0639278383
1731350000.0 0.4112993428 -0.4136219318
1741300000.0 0.0886442209 -0.596938432
1751250000.0 -0.2755915831 -0.546381309
1761200000.0 -0.5384873057 -0.2892778735
1771150000.0 -0.5985088918 0.0783794008
1781100000.0 -0.4218758599 0.4150845777
1791050000.0 -0.0690950324 0.5765474323
1801000000.0 0.3141149701 0.4818499717
1810950000.0 0.5511886296 0.1671066285
1820900000.0 0.5385896746 -0.2193188697
1830850000.0 0.2978252035 -0.5080516302
1840800000.0 -0.0553256347 -0.5933565069
1850750000.0 -0.3819040666 -0.4593170582
1860700000.0 -0.5666315226 -0.1671879005
1870650000.0 -0.546070425 0.1753449449
1880600000.0 -0.3261004613 0.4368184578
1890550000.0 0.0033420233 0.5093233291
1900500000.0 0.3002448056 0.3671443471
1910450000.0 0.440285031 0.0817684714
1920400000.0 0.3776820571 -0.2131866981
1930350000.0 0.1661485723 -0.3966244371
1940300000.0 -0.0893710172 -0.4173272167
1950250000.0 -0.2892296734 -0.2960821038
1960200000.0 -0.3699204703 -0.0996018268
1970150000.0 -0.3241463377 0.0816012914
1980100000.0 -0.1985648823 0.1758858096
1990050000.0 -0.0771811274 0.1689116745
2000000000.0 -0.0232318612 0.1103602632
