!Created with skrf (http://scikit-rf.org).
# GHz S RI R 50.0 
!freq ReS11 ImS11
10000000.0 -0.8937427065 0.4459466115
19950000.0 -0.6057538979 0.7847403703
29900000.0 -0.1987084316 0.9667361193
39850000.0 0.2542551712 0.9526990096
49800000.0 0.6624564808 0.7325692461
59750000.0 0.9321127754 0.3373659441
69700000.0 0.9830683498 -0.1550961254
79650000.0 0.7771711831 -0.6256582471
89600000.0 0.342516877 -0.9356593647
99550000.0 -0.2130364902 -0.9671420949
109500000.0 -0.7147572419 -0.672350965
119450000.0 -0.965777841 -0.1170911424
129400000.0 -0.8247748737 0.5071959574
139350000.0 -0.3132481243 0.9177051501
149300000.0 0.3583213028 0.9049694855
159250000.0 0.8567675698 0.467246948
169200000.0 0.9589376929 -0.1625736674
179150000.0 0.671614704 -0.6928325268
189100000.0 0.1620444494 -0.9414845442
199050000.0 -0.3688996187 -0.8733104976
209000000.0 -0.7677839278 -0.5505611895
218950000.0 -0.9402190316 -0.0899729394
228900000.0 -0.864468957 0.386076257
238850000.0 -0.5659292834 0.7610838913
248800000.0 -0.1944502471 0.6780429359
258750000.0 0.278552555 0.9016531351
268700000.0 0.6652158898 0.6574956907
278650000.0 0.8823529207 0.2679467119
288600000.0 0.888970192 -0.1727515252
298550000.0 0.6867026603 -0.561391071
308500000.0 0.321614065 -0.8027090198
318450000.0 -0.1152851195 -0.8300335318
328400000.0 -0.5017119576 -0.6285307366
338350000.0 -0.7154383064 -0.2562467175
348300000.0 -0.6845334444 0.1575637605
358250000.0 -0.4345862698 0.458182998
368200000.0 -0.0876195583 0.5441478549
378150000.0 0.2046571347 0.4205225981
388100000.0 0.3422677694 0.182419763
398050000.0 0.3138450387 -0.0507327401
408000000.0 0.1755220306 -0.1921847839
417950000.0 0.0116616995 -0.2169432872
427900000.0 -0.1105324712 -0.1500693727
437850000.0 -0.1585296137 -0.043982943
447800000.0 -0.1381524242 0.0520492995
457750000.0 -0.0766739389 0.1071213491
467700000.0 -0.0085933041 0.1142694097
477650000.0 0.0392637176 0.0857800739
487600000.0 0.0508989702 0.0463315906
497550000.0 0.1092612308 0.0384136218
507500000.0 0.04569831 -0.0192108109
517450000.0 0.0161640641 -0.0159058774
527400000.0 0.0049215788 0.0018987841
537350000.0 0.014777145 0.0196441919
547300000.0 0.0426854711 0.0220128056
557250000.0 0.0697422066 0.0004774985
567200000.0 0.0835532279 -0.0405033397
577150000.0 0.0730684227 -0.0913377874
587100000.0 0.0340654036 -0.1367507696
597050000.0 -0.028073147 -0.1601795734
607000000.0 -0.0991425953 -0.1510373438
616950000.0 -0.1610694562 -0.1066084905
626900000.0 -0.1958815795 -0.0352357944
636850000.0 -0.1928433381 0.0473060287
646800000.0 -0.1498908723 0.1204812044
656750000.0 -0.0760262967 0.1658463612
666700000.0 0.0115563904 0.1712276308
676650000.0 0.0910212894 0.1348682447
686600000.0 0.1423987842 0.0662097525
696550000.0 0.1532716101 -0.0160286166
706500000.0 0.1217873752 -0.0881823698
716450000.0 0.0594805092 -0.1295650615
726400000.0 -0.0132549962 -0.1279692083
736350000.0 -0.0698283707 -0.083719828
746300000.0 -0.0898686686 -0.0116785092
756250000.0 -0.0613108886 0.0631783843
766200000.0 0.0101704321 0.1116705075
776150000.0 0.1043248377 0.1118163306
786100000.0 0.1894748086 0.0560504368
796050000.0 0.2343226533 -0.0446853047
806000000.0 0.218201461 -0.1623065855
815950000.0 0.1353410149 -0.2626986859
825900000.0 0.0023566958 -0.3111453904
835850000.0 -0.1494667912 -0.2851453979
845800000.0 -0.278487442 -0.1810265759
855750000.0 -0.3459788837 -0.0176095293
865700000.0 -0.3256211665 0.1663895047
875650000.0 -0.2156794923 0.3240527861
885600000.0 -0.0390002314 0.4097071823
895550000.0 0.1615155238 0.3971211144
905500000.0 0.3319270817 0.2826444926
915450000.0 0.4210390257 0.0901792404
925400000.0 0.3918222239 -0.1302840784
935350000.0 0.2348351502 -0.3079864881
945300000.0 -0.0164428973 -0.3652035783
955250000.0 -0.2729442179 -0.2426118194
965200000.0 -0.3987672848 0.0465839955
975150000.0 -0.2836860646 0.3747194015
985100000.0 0.0593047274 0.5563382119
995050000.0 0.4792919308 0.4341618321
1005000000.0 0.7201922797 0.0167200283
1014950000.0 0.6055992433 -0.4883094072
1024900000.0 0.1675541888 -0.8038599687
1034850000.0 -0.3765535043 -0.7625091254
1044800000.0 -0.766414982 -0.3975453275
1054750000.0 -0.8434367415 0.1015144319
1064700000.0 -0.6717066653 0.4919868743
1074650000.0 -0.3307676329 0.7697399167
1084600000.0 0.1100827219 0.810774801
1094550000.0 0.4923810552 0.6086106929
1104500000.0 0.698464809 0.2366818298
1114450000.0 0.6621593285 -0.181206462
1124400000.0 0.3993751815 -0.4955227225
1134350000.0 0.0189504228 -0.5940686067
1144300000.0 -0.3261133647 -0.4611708724
1154250000.0 -0.5170021282 -0.1778168878
1164200000.0 -0.5209575735 0.1362619645
1174150000.0 -0.3690019905 0.3913235744
1184100000.0 -0.1125995926 0.5246537497
1194050000.0 0.1711222378 0.5033588628
1204000000.0 0.4014608036 0.3401512215
1213950000.0 0.5173289222 0.083212944
1223900000.0 0.4907773013 -0.1962586966
1233850000.0 0.3350964081 -0.4255464742
1243800000.0 0.0969395089 -0.5536572554
1253750000.0 -0.1657616458 -0.5630741121
1263700000.0 -0.3997295312 -0.4629817807
1273650000.0 -0.5669948024 -0.2817081119
1283600000.0 -0.6462699649 -0.0535934504
1293550000.0 -0.629722815 0.1861990697
1303500000.0 -0.5195467543 0.4021340297
1313450000.0 -0.3304480066 0.5604848455
1323400000.0 -0.087653708 0.6334584367
1333350000.0 0.1702688926 0.6028477667
1343300000.0 0.3992459463 0.469514219
1353250000.0 0.5570477059 0.2546317659
1363200000.0 0.6176843789 -0.0022791363
1373150000.0 0.5752045758 -0.2568960406
1383100000.0 0.442937032 -0.469358859
1393050000.0 0.247726441 -0.6113772102
1403000000.0 0.0209434146 -0.6692177163
1412950000.0 -0.2061764487 -0.6393051748
1422900000.0 -0.4042108842 -0.5283259146
1432850000.0 -0.5460971552 -0.3497482669
1442800000.0 -0.6103885005 -0.1272496555
1452750000.0 -0.5833228622 0.1082088062
1462700000.0 -0.4627674542 0.3199373628
1472650000.0 -0.2635237293 0.4682060245
1482600000.0 -0.0199604181 0.5223665087
1492550000.0 0.2201607523 0.471314708
1502500000.0 0.4112660226 0.3294922507
1512450000.0 0.5202313902 0.1286919081
1522400000.0 0.534503427 -0.089400685
1532350000.0 0.4573408963 -0.2851136546
1542300000.0 0.3073494146 -0.4252085691
1552250000.0 0.1123663394 -0.4848653241
1562200000.0 -0.0891008159 -0.4523506435
1572150000.0 -0.258406103 -0.3324038388
1582100000.0 -0.357214286 -0.1447628349
1592050000.0 -0.3581535432 0.0695598803
1602000000.0 -0.2605711683 0.2593051211
1611950000.0 -0.0860301198 0.3784235792
1621900000.0 0.1187365485 0.4011059533
1631850000.0 0.3058306258 0.3276351074
1641800000.0 0.4367230936 0.1782453907
1651750000.0 0.4860747233 -0.0141831062
1661700000.0 0.4444613844 -0.2116518157
1671650000.0 0.3174479158 -0.3760564424
1681600000.0 0.124798526 -0.472634389
1691550000.0 -0.0993898651 -0.477385372
1701500000.0 -0.3103627528 -0.3812768645
1711450000.0 -0.4620663128 -0.1997564174
1721400000.0 -0.5218447609 0.0314548207
1731350000.0 -0.47754438 0.2638850074
1741300000.0 -0.343169527 0.4533678037
1751250000.0 -0.1486671645 0.569661725
1761200000.0 0.0703669946 0.5996047119
1771150000.0 0.2799027789 0.5451219146
1781100000.0 0.4511142207 0.4176908637
1791050000.0 0.5620395698 0.2366951265
1801000000.0 0.5955205432 0.0273390007
1810950000.0 0.5470745374 -0.1777594187
1820900000.0 0.4282741122 -0.3457715351
1830850000.0 0.2624549254 -0.4611985514
1840800000.0 0.0620259221 -0.5154731113
1850750000.0 -0.1524728513 -0.4898256699
1860700000.0 -0.3404345955 -0.379316265
1870650000.0 -0.4658999349 -0.2063417555
1880600000.0 -0.5118734954 -0.0075322388
1890550000.0 -0.4800710908 0.1823047832
1900500000.0 -0.3851196328 0.3352545229
1910450000.0 -0.2484729993 0.433462447
1920400000.0 -0.0955771897 0.4679881502
1930350000.0 0.0480752657 0.4387395469
1940300000.0 0.1569700671 0.3569768475
1950250000.0 0.2116107602 0.2445270884
1960200000.0 0.2051551042 0.1326396302
1970150000.0 0.1480556675 0.0552472959
1980100000.0 0.071946865 0.0374990679
1990050000.0 0.0228918843 0.0849058144
2000000000.0 0.0606150192 0.1738487017
