!Created with skrf (http://scikit-rf.org).
# GHz S RI R 50.0 
!freq ReS11 ImS11
10000000.0 -0.885076846 0.439293866
19950000.0 -0.6040189427 0.7745952399
29900000.0 -0.2044845673 0.9576934439
39850000.0 0.2431855396 0.9485805973
49800000.0 0.6504964407 0.7346724353
59750000.0 0.92315799 0.3436960468
69700000.0 0.9783811891 -0.1489449482
79650000.0 0.7729353835 -0.6237419012
89600000.0 0.3317519426 -0.9366032434
99550000.0 -0.2353052716 -0.9604755879
109500000.0 -0.7407757655 -0.6418324949
119450000.0 -0.9702614007 -0.0555866714
129400000.0 -0.7779024231 0.576609508
139350000.0 -0.209606101 0.946731439
149300000.0 0.4678947372 0.8523332963
159250000.0 0.9065630889 0.3520603567
169200000.0 0.9271075145 -0.2775523174
179150000.0 0.5888276974 -0.7573633156
189100000.0 0.0758101932 -0.9462771935
199050000.0 -0.4265553148 -0.8391287997
209000000.0 -0.7869348528 -0.5066064068
218950000.0 -0.9327479396 -0.0612386802
228900000.0 -0.8526723317 0.3890248223
238850000.0 -0.5769742447 0.7431187781
248800000.0 -0.1624947513 0.8827305748
258750000.0 0.2478876603 0.9067612126
268700000.0 0.6203499895 0.6963235876
278650000.0 0.8543992964 0.3440642623
288600000.0 0.9039787078 -0.0736134971
298550000.0 0.7591583047 -0.4672419296
308500000.0 0.4478932906 -0.7489788783
318450000.0 0.0390707667 -0.848144593
328400000.0 -0.3647602603 -0.7313809439
338350000.0 -0.6457899439 -0.4242836
348300000.0 -0.7109235396 -0.0252286523
358250000.0 -0.546002513 0.3176762834
368200000.0 -0.241194544 0.4799502443
378150000.0 0.0557485061 0.4311086342
388100000.0 0.2269047893 0.2440775421
398050000.0 0.2389832883 0.0367392258
408000000.0 0.137540791 -0.0960174963
417950000.0 0.0058330904 -0.1208641821
427900000.0 -0.0876177645 -0.0613275087
437850000.0 -0.1114821509 0.0313257665
447800000.0 -0.0726949784 0.1087893275
457750000.0 0.0015771865 0.1423470837
467700000.0 0.0776504933 0.1253174613
477650000.0 0.1281764352 0.0700972241
487600000.0 0.1391344913 -0.0001076881
497550000.0 0.1118981743 -0.0575705789
507500000.0 0.0654680789 -0.0976854249
517450000.0 0.0104240237 -0.1011551793
527400000.0 -0.0306035413 -0.0783376605
537350000.0 -0.047205823 -0.0437043593
547300000.0 -0.0397486685 -0.014156421
557250000.0 -0.0172220507 -0.0009793606
567200000.0 0.0065265071 -0.011521861
577150000.0 0.0155854816 -0.0397774513
587100000.0 0.0015009107 -0.0733044825
597050000.0 -0.0354456226 -0.0949012404
607000000.0 -0.0854185625 -0.092780147
616950000.0 -0.1321060434 -0.0608224177
626900000.0 -0.1585988607 -0.0040259472
636850000.0 -0.1533978897 0.0649438628
646800000.0 -0.1122037545 0.1273058083
656750000.0 -0.0421520652 0.1651742128
666700000.0 0.0416528107 0.1656966253
676650000.0 0.1185475233 0.1260060776
686600000.0 0.1689838544 0.0540257178
696550000.0 0.1801347067 -0.0331187833
706500000.0 0.148377478 -0.1134711119
716450000.0 0.0825158333 -0.1662582647
726400000.0 -0.0001512711 -0.1771002113
736350000.0 -0.074481154 -0.1422194094
746300000.0 -0.1179183659 -0.0717011723
756250000.0 -0.1142317527 0.0134341818
766200000.0 -0.0621997863 0.0839772943
776150000.0 0.0234114365 0.1143617088
786100000.0 0.1148740866 0.0907553137
796050000.0 0.1800329377 0.016718773
806000000.0 0.1934796173 -0.0867977746
815950000.0 0.1423062782 -0.1870085126
825900000.0 0.0354848996 -0.2485901647
835850000.0 -0.0998104234 -0.2432702256
845800000.0 -0.2237988256 -0.1617227076
855750000.0 -0.2955055556 -0.0173295664
865700000.0 -0.2855325725 0.1545823393
875650000.0 -0.1868722018 0.3074230719
885600000.0 -0.0192672835 0.3946667623
895550000.0 0.1766458044 0.3871036065
905500000.0 0.3485494854 0.2791407771
915450000.0 0.4468026771 0.0912431303
925400000.0 0.4358304604 -0.131885907
935350000.0 0.3037550541 -0.3288763327
945300000.0 0.0732199019 -0.4343308459
955250000.0 -0.1968689854 -0.3945074988
965200000.0 -0.4119988043 -0.1964927717
975150000.0 -0.4758277597 0.1113662926
985100000.0 -0.3303456804 0.416836022
995050000.0 -0.0044745865 0.5780722532
1005000000.0 0.3821073747 0.4931984686
1014950000.0 0.6503852938 0.1488900864
1024900000.0 0.6296611585 -0.3316079627
1034850000.0 0.2675126358 -0.7097729777
1044800000.0 -0.2836442101 -0.7514735385
1054750000.0 -0.7308137921 -0.4094286276
1064700000.0 -0.8413348791 0.1298487539
1074650000.0 -0.6067384132 0.5937858537
1084600000.0 -0.2104657687 0.7718742076
1094550000.0 0.2556593394 0.7957087673
1104500000.0 0.6400249638 0.5004208952
1114450000.0 0.7745195013 0.0445574527
1124400000.0 0.6205136723 -0.39469392
1134350000.0 0.2514245404 -0.6516988639
1144300000.0 -0.1750269387 -0.6452223867
1154250000.0 -0.4967643077 -0.4132222847
1164200000.0 -0.6260029579 -0.0717988359
1174150000.0 -0.5633033807 0.2599463419
1184100000.0 -0.35114655 0.502175547
1194050000.0 -0.0539538804 0.5977381171
1204000000.0 0.2440236901 0.5310162652
1213950000.0 0.4660394593 0.3254199879
1223900000.0 0.5554590021 0.0391856936
1233850000.0 0.4943551073 -0.2498598609
1243800000.0 0.3075757162 -0.4690556802
1253750000.0 0.0499407507 -0.5740819561
1263700000.0 -0.2168507157 -0.554665798
1273650000.0 -0.4404537436 -0.4285927548
1283600000.0 -0.586860664 -0.2280144524
1293550000.0 -0.6382297333 0.0102876034
1303500000.0 -0.5910686676 0.2483417295
1313450000.0 -0.4506793521 0.4490875766
1323400000.0 -0.2371729426 0.5786254321
1333350000.0 0.0164941778 0.6107967557
1343300000.0 0.2668173744 0.5345825913
1353250000.0 0.466175577 0.3600983481
1363200000.0 0.5773475545 0.120589778
1373150000.0 0.5834186936 -0.1387692706
1383100000.0 0.4896052732 -0.3724339337
1393050000.0 0.319043975 -0.5452430093
1403000000.0 0.1025547401 -0.636541543
1412950000.0 -0.1264148204 -0.6378943872
1422900000.0 -0.335679558 -0.5527554617
1432850000.0 -0.4955506986 -0.3924740514
1442800000.0 -0.5810346883 -0.1783877749
1452750000.0 -0.5743325317 0.0576782214
1462700000.0 -0.4692765352 0.2766182619
1472650000.0 -0.2801393153 0.4356901856
1482600000.0 -0.0408735573 0.5013797094
1492550000.0 0.2000834127 0.4605883684
1502500000.0 0.3951922313 0.324843086
1512450000.0 0.5087273273 0.1267122035
1522400000.0 0.526586012 -0.0927537771
1532350000.0 0.449662914 -0.2910273793
1542300000.0 0.2969295847 -0.4338264079
1552250000.0 0.0962943648 -0.4940298775
1562200000.0 -0.1132364403 -0.4584579854
1572150000.0 -0.2891022566 -0.3287021137
1582100000.0 -0.3888860473 -0.1279832059
1592050000.0 -0.3850452841 0.0998404905
1602000000.0 -0.2769692568 0.3004293083
1611950000.0 -0.0873111159 0.4251702935
1621900000.0 0.1331461074 0.4468996449
1631850000.0 0.3345024007 0.3668063297
1641800000.0 0.4761233191 0.207516666
1651750000.0 0.5335783808 0.0036809799
1661700000.0 0.498083837 -0.2072974213
1671650000.0 0.3747415385 -0.3884427359
1681600000.0 0.1808437456 -0.5052399891
1691550000.0 -0.0523929336 -0.5316677686
1701500000.0 -0.2821178864 -0.4554596876
1711450000.0 -0.4621610616 -0.2857347793
1721400000.0 -0.5559617511 -0.053858891
1731350000.0 -0.5451851939 0.1943635027
1741300000.0 -0.4366010482 0.4127903264
1751250000.0 -0.255132178 0.5665487754
1761200000.0 -0.034845858 0.6368408661
1771150000.0 0.1907566406 0.6204312565
1781100000.0 0.3913274861 0.5246798396
1791050000.0 0.5437387457 0.3650503381
1801000000.0 0.629612331 0.1601423562
1810950000.0 0.6365116234 -0.0660722842
1820900000.0 0.5577980885 -0.2835539989
1830850000.0 0.3997712499 -0.4596862029
1840800000.0 0.183842975 -0.5632191545
1850750000.0 -0.0559217533 -0.5752525081
1860700000.0 -0.2788556743 -0.494599179
1870650000.0 -0.4494319673 -0.3378931762
1880600000.0 -0.5448081655 -0.1369944266
1890550000.0 -0.5588451242 0.0736589519
1900500000.0 -0.4998198452 0.263291787
1910450000.0 -0.3844393505 0.409788966
1920400000.0 -0.2336961612 0.4996611601
1930350000.0 -0.0702045592 0.5269211784
1940300000.0 0.0834662071 0.4930179093
1950250000.0 0.2070490592 0.4069511253
1960200000.0 0.2824262375 0.2850817835
1970150000.0 0.3006382618 0.1520698373
1980100000.0 0.2650744824 0.0340506738
1990050000.0 0.192591943 -0.04565199
2000000000.0 0.1098672506 -0.0756790228
