!Created with skrf (http://scikit-rf.org).
# GHz S RI R 50.0 
!freq ReS11 ImS11
10000000.0 -0.9954043731 0.0694467356
14975000.0 -0.9917384674 0.1042843314
19950000.0 -0.9869439833 0.1396238605
24925000.0 -0.9804568363 0.1759264275
29900000.0 -0.973001127 0.2126835232
34875000.0 -0.9630887093 0.2512271352
39850000.0 -0.9509043101 0.2914911669
44825000.0 -0.9362014652 0.3335634536
49800000.0 -0.9193521029 0.3778045514
54775000.0 -0.8985575967 0.4239781209
59750000.0 -0.8744696642 0.4726373907
64725000.0 -0.8460428594 0.5231747989
69700000.0 -0.8119027748 0.5758914409
74675000.0 -0.7711038805 0.6300299223
79650000.0 -0.7219990221 0.6855743492
84625000.0 -0.6643546845 0.7414615065
89600000.0 -0.5965540074 0.7967649907
94575000.0 -0.5177253237 0.8500711467
99550000.0 -0.426870306 0.8990406726
104525000.0 -0.323614704 0.9412123193
109500000.0 -0.207674459 0.9732782185
114475000.0 -0.0796576687 0.9913012172
119450000.0 0.0580542758 0.9920944259
124425000.0 0.2018122332 0.9724828885
129400000.0 0.3407924871 0.931541371
134375000.0 0.4847234111 0.865890145
139350000.0 0.6145217674 0.7780767341
144325000.0 0.7289318312 0.6706397101
149300000.0 0.823633719 0.5479448283
154275000.0 0.8963179077 0.4156908546
159250000.0 0.9464824736 0.2792246342
164225000.0 0.9751078802 0.14371659
169200000.0 0.9845471405 0.0131149286
174175000.0 0.9772091689 -0.109836285
179150000.0 0.9566576914 -0.2228813698
184125000.0 0.9260545533 -0.3250382078
189100000.0 0.8881340396 -0.4165895941
194075000.0 0.8453418053 -0.4974352721
199050000.0 0.7992072588 -0.5684482265
204025000.0 0.7511520227 -0.630333806
209000000.0 0.7020047473 -0.6843803899
213975000.0 0.6522821423 -0.7311871642
218950000.0 0.6026634403 -0.7716085747
223925000.0 0.5534723868 -0.8069218337
228900000.0 0.5040694206 -0.8373410683
233875000.0 0.4548241125 -0.8639657994
238850000.0 0.4039610681 -0.887298011
243825000.0 0.3458580254 -0.9081808208
248800000.0 0.3245954769 -0.7425440021
253775000.0 0.2935639035 -0.9235252657
258750000.0 0.237939159 -0.9390138139
263725000.0 0.1878976527 -0.9485208265
268700000.0 0.1391119795 -0.9544189859
273675000.0 0.0906171063 -0.9572511459
278650000.0 0.0414225764 -0.9567212546
283625000.0 -0.0081230149 -0.9522399374
288600000.0 -0.0580256022 -0.9445634513
293575000.0 -0.1088124802 -0.9332313257
298550000.0 -0.1604496997 -0.9170520949
303525000.0 -0.2126380831 -0.8962264032
308500000.0 -0.2649029506 -0.869967074
313475000.0 -0.3163848166 -0.8377908832
318450000.0 -0.3668756279 -0.798976981
323425000.0 -0.4154661064 -0.7535008494
328400000.0 -0.4608792398 -0.7014403708
333375000.0 -0.5023932055 -0.6410777119
338350000.0 -0.5382319554 -0.5750513302
343325000.0 -0.5664822504 -0.5029140854
348300000.0 -0.5844190094 -0.4266786192
353275000.0 -0.5937214999 -0.3469388812
358250000.0 -0.591000525 -0.2667712312
363225000.0 -0.5765039961 -0.1874077178
368200000.0 -0.5528531721 -0.1113304046
373175000.0 -0.5195320648 -0.0423579917
378150000.0 -0.4775668339 0.0188633726
383125000.0 -0.4304341619 0.0718897414
388100000.0 -0.3802205282 0.1153981613
393075000.0 -0.3271662817 0.1496450368
398050000.0 -0.2742052331 0.1752912095
403025000.0 -0.2239338218 0.1924129068
408000000.0 -0.1751519521 0.2018478992
412975000.0 -0.1289235861 0.2057538967
417950000.0 -0.0874370692 0.2047933737
422925000.0 -0.0513156707 0.1992433553
427900000.0 -0.0189132298 0.1904441315
432875000.0 0.0091772481 0.1789724624
437850000.0 0.032960595 0.16477251
442825000.0 0.0530163459 0.1505843093
447800000.0 0.0689038976 0.1366766312
452775000.0 0.0810101724 0.1214041458
457750000.0 0.0893390628 0.1063527245
462725000.0 0.0939573561 0.0925299646
467700000.0 0.0956080131 0.0787240384
472675000.0 0.0946407795 0.0655400931
477650000.0 0.0898308014 0.0532866949
482625000.0 0.0825525727 0.0419033175
487600000.0 0.0704859728 0.0329490876
492575000.0 0.0396647676 0.0398771517
497550000.0 0.0999435486 0.0466270178
502525000.0 0.0757875766 0.0185701776
507500000.0 0.0593854906 0.0116307175
512475000.0 0.0449394485 0.0073166944
517450000.0 0.0312525926 0.0046207971
522425000.0 0.0177791109 0.0036706612
527400000.0 0.0052808998 0.004005507
532375000.0 -0.0069483619 0.0054375898
537350000.0 -0.0195333758 0.0078856357
542325000.0 -0.03191711 0.0117807819
547300000.0 -0.0440196342 0.0180721739
552275000.0 -0.0548243324 0.0250679251
557250000.0 -0.0646055343 0.0323788963
562225000.0 -0.0740203111 0.0405817858
567200000.0 -0.0829558809 0.0485978882
572175000.0 -0.0911174339 0.0564703829
577150000.0 -0.0979471157 0.0649904335
582125000.0 -0.104020913 0.0738699893
587100000.0 -0.1089968876 0.0827144288
592075000.0 -0.1133515388 0.091429305
597050000.0 -0.1171328564 0.1002484611
602025000.0 -0.1197995201 0.1086806456
607000000.0 -0.1211744571 0.116359645
611975000.0 -0.1217058422 0.1240366829
616950000.0 -0.1210594035 0.1313881503
621925000.0 -0.1195000454 0.1383860831
626900000.0 -0.1169512216 0.1452347007
631875000.0 -0.1142431501 0.1512752915
636850000.0 -0.1104643566 0.1563723747
641825000.0 -0.1054743784 0.1611808058
646800000.0 -0.099852398 0.1655167906
651775000.0 -0.0940288127 0.1688649265
656750000.0 -0.0868096806 0.1710687583
661725000.0 -0.0786773054 0.1727586785
666700000.0 -0.0699384356 0.1738449042
671675000.0 -0.0613915244 0.1739432084
676650000.0 -0.0523681095 0.1723259458
681625000.0 -0.0423025283 0.1695739613
686600000.0 -0.0317605067 0.1656140329
691575000.0 -0.0204465292 0.1603769267
696550000.0 -0.0087476514 0.1544715854
701525000.0 0.0035941143 0.1476699675
706500000.0 0.0156315036 0.1389352851
711475000.0 0.0280359329 0.1289169455
716450000.0 0.0403037078 0.1178716818
721425000.0 0.052355299 0.1052749494
726400000.0 0.0642944481 0.0914428652
731375000.0 0.0763571045 0.0761191892
736350000.0 0.0860877569 0.0603234122
741325000.0 0.097620359 0.0424595609
746300000.0 0.1066871267 0.0240124046
751275000.0 0.1157098683 0.0040720461
756250000.0 0.1228424476 -0.0167123915
761225000.0 0.1300853851 -0.0382751268
766200000.0 0.1337185249 -0.0611415594
771175000.0 0.1371134968 -0.0850489871
776150000.0 0.1394948467 -0.1083075283
781125000.0 0.140278822 -0.132003982
786100000.0 0.1392385772 -0.1557267034
791075000.0 0.1369152048 -0.1797993887
796050000.0 0.1331774881 -0.203536266
801025000.0 0.1281501746 -0.2270305478
806000000.0 0.1220061747 -0.2498048194
810975000.0 0.1145579283 -0.2715274047
815950000.0 0.1053144111 -0.2920424361
820925000.0 0.094281061 -0.3118935885
825900000.0 0.0824208623 -0.3312893107
830875000.0 0.0695105931 -0.3496490304
835850000.0 0.0557784438 -0.3661038966
840825000.0 0.0402508331 -0.3812071309
845800000.0 0.0237793356 -0.3959400331
850775000.0 0.0066340711 -0.4085477548
855750000.0 -0.0120392387 -0.419446291
860725000.0 -0.031321045 -0.4289152796
865700000.0 -0.0513130196 -0.4368154077
870675000.0 -0.0722229086 -0.442815726
875650000.0 -0.0934764494 -0.4472145675
880625000.0 -0.1156786199 -0.4492101874
885600000.0 -0.1382228072 -0.4487847476
890575000.0 -0.1611802273 -0.4462548461
895550000.0 -0.1847147998 -0.4410253656
900525000.0 -0.2087504813 -0.4335071974
905500000.0 -0.2327692936 -0.4230926138
910475000.0 -0.2572509016 -0.40939194
915450000.0 -0.281497585 -0.3930721709
920425000.0 -0.3059720169 -0.3724440893
925400000.0 -0.3304023293 -0.3481130127
930375000.0 -0.3543304214 -0.3196036358
935350000.0 -0.3771841375 -0.2866080452
940325000.0 -0.3985331359 -0.2477370981
945300000.0 -0.4173870863 -0.2032299627
950275000.0 -0.4333414342 -0.1531508216
955250000.0 -0.4451618095 -0.0968026918
960225000.0 -0.4510925458 -0.0337761528
965200000.0 -0.4492754842 0.0351218813
970175000.0 -0.4384834115 0.1098740613
975150000.0 -0.4170396159 0.189331785
980125000.0 -0.3820656791 0.2713909064
985100000.0 -0.3315867968 0.3531574628
990075000.0 -0.2657504011 0.430422707
995050000.0 -0.184606796 0.5006112576
1000025000.0 -0.0888213769 0.5602834826
1005000000.0 0.0205595931 0.6056577652
1009975000.0 0.140677428 0.6321984849
1014950000.0 0.266739378 0.6359970353
1019925000.0 0.3934516729 0.6167156917
1024900000.0 0.5155994466 0.5741846409
1029875000.0 0.6267397939 0.5105251272
1034850000.0 0.7239194769 0.4291998318
1039825000.0 0.8030713839 0.3331464234
1044800000.0 0.8633352423 0.2270089837
1049775000.0 0.9034063687 0.1139170404
1054750000.0 0.9205769151 -0.0022604881
1059725000.0 0.9104977572 -0.113101466
1064700000.0 0.8915478155 -0.1989000913
1069675000.0 0.8768123655 -0.2907152092
1074650000.0 0.8409409906 -0.3854231418
1079625000.0 0.7849110957 -0.4673276553
1084600000.0 0.7262920044 -0.5284259286
1089575000.0 0.6646101894 -0.5859000179
1094550000.0 0.6023167351 -0.6313898935
1099525000.0 0.543829705 -0.6807601166
1104500000.0 0.4703144539 -0.7316260987
1109475000.0 0.3810466158 -0.7700479978
1114450000.0 0.2846260292 -0.7918188328
1119425000.0 0.1870585369 -0.7981027163
1124400000.0 0.0910435026 -0.7908991592
1129375000.0 -0.001553486 -0.771649034
1134350000.0 -0.0888492156 -0.7413182598
1139325000.0 -0.1701845802 -0.701119004
1144300000.0 -0.2444960345 -0.6523047811
1149275000.0 -0.3109040375 -0.5967940099
1154250000.0 -0.3681545389 -0.5358569807
1159225000.0 -0.4167030021 -0.4717053557
1164200000.0 -0.456143547 -0.4068230539
1169175000.0 -0.487305158 -0.3425577974
1174150000.0 -0.513422864 -0.2810687482
1179125000.0 -0.5354824006 -0.2191657334
1184100000.0 -0.55227364 -0.1568795165
1189075000.0 -0.5633437035 -0.0961468788
1194050000.0 -0.5687387233 -0.0384838859
1199025000.0 -0.570030117 0.0160106063
1204000000.0 -0.5671945431 0.0675440091
1208975000.0 -0.5618627202 0.1150874978
1213950000.0 -0.5541798531 0.1596250592
1218925000.0 -0.5451041266 0.2007182488
1223900000.0 -0.5352212669 0.23895518
1228875000.0 -0.524516827 0.2741794672
1233850000.0 -0.512956955 0.3057567456
1238825000.0 -0.5015460829 0.335030194
1243800000.0 -0.4903683492 0.3623046205
1248775000.0 -0.4786554013 0.3866853467
1253750000.0 -0.4676616099 0.4090646224
1258725000.0 -0.4578345257 0.4301994152
1263700000.0 -0.447675361 0.4487069761
1268675000.0 -0.4388052491 0.4658522699
1273650000.0 -0.4309722728 0.4812709763
1278625000.0 -0.4233505657 0.4952455495
1283600000.0 -0.4165518527 0.5082108689
1288575000.0 -0.4099592786 0.5192223494
1293550000.0 -0.4034163053 0.5298606963
1298525000.0 -0.397900607 0.539801167
1303500000.0 -0.3930119881 0.5481253872
1308475000.0 -0.3879019938 0.5567677088
1313450000.0 -0.3834622655 0.5644199313
1318425000.0 -0.3797039959 0.5713206366
1323400000.0 -0.3753878934 0.5780896251
1328375000.0 -0.3719219029 0.5844097498
1333350000.0 -0.3681353241 0.5899740163
1338325000.0 -0.3648254156 0.5957209443
1343300000.0 -0.3613032409 0.6004321844
1348275000.0 -0.3575925792 0.6048717853
1353250000.0 -0.3548829402 0.6091358482
1358225000.0 -0.3520121196 0.6124017647
1363200000.0 -0.348778248 0.6155045488
1368175000.0 -0.3455726265 0.6183736908
1373150000.0 -0.3426559926 0.6202673333
1378125000.0 -0.3389552679 0.6222645893
1383100000.0 -0.3358464318 0.6240476185
1388075000.0 -0.3321047736 0.6250691698
1393050000.0 -0.3277922689 0.6253601153
1398025000.0 -0.3238913054 0.626164063
1403000000.0 -0.3204922697 0.6264406398
1407975000.0 -0.3156913216 0.6258087024
1412950000.0 -0.310602582 0.6256355033
1417925000.0 -0.3064350555 0.6250711989
1422900000.0 -0.3015565614 0.6238830924
1427875000.0 -0.2965940397 0.6233177726
1432850000.0 -0.2919882875 0.6212009814
1437825000.0 -0.2873460242 0.61932013
1442800000.0 -0.2826876675 0.6175310362
1447775000.0 -0.2786086474 0.6157880507
1452750000.0 -0.2734501008 0.6136210105
1457725000.0 -0.2681612095 0.6120472381
1462700000.0 -0.2618183078 0.6115437345
1467675000.0 -0.2548626445 0.6114712213
1472650000.0 -0.2460567876 0.6102947696
1477625000.0 -0.2360087678 0.6098259075
1482600000.0 -0.2262442864 0.6098507189
1487575000.0 -0.2145324593 0.607434217
1492550000.0 -0.2011380296 0.6051895334
1497525000.0 -0.1874129378 0.6031949048
1502500000.0 -0.1737267661 0.6010573034
1507475000.0 -0.157295557 0.5979890518
1512450000.0 -0.1413277994 0.5942042399
1517425000.0 -0.1255873215 0.5905875155
1522400000.0 -0.1085152999 0.5867287577
1527375000.0 -0.0912539016 0.5814057086
1532350000.0 -0.0735581815 0.5753184506
1537325000.0 -0.0560997221 0.5696786196
1542300000.0 -0.0379792056 0.5619689697
1547275000.0 -0.018539493 0.5536009302
1552250000.0 0.0004254364 0.5456349566
1557225000.0 0.0190772002 0.5363383985
1562200000.0 0.0391455892 0.526091309
1567175000.0 0.0594521973 0.516310519
1572150000.0 0.0788321055 0.504534216
1577125000.0 0.0999676735 0.4926635523
1582100000.0 0.1203848417 0.4810905042
1587075000.0 0.1412461302 0.4674630463
1592050000.0 0.1625915216 0.4542583535
1597025000.0 0.183872629 0.4409032768
1602000000.0 0.2057060731 0.4267881335
1606975000.0 0.2270675753 0.4119548649
1611950000.0 0.2482899431 0.3971078627
1616925000.0 0.269692021 0.3820833129
1621900000.0 0.2913267886 0.3663406806
1626875000.0 0.3125915493 0.3505433697
1631850000.0 0.3331841627 0.3350399968
1636825000.0 0.3526553141 0.3182988482
1641800000.0 0.3726410049 0.3011796733
1646775000.0 0.391845977 0.2844657611
1651750000.0 0.4095942388 0.2674245882
1656725000.0 0.4268030579 0.250384099
1661700000.0 0.4428561136 0.234013391
1666675000.0 0.4581373379 0.2167218223
1671650000.0 0.4730716841 0.2003547145
1676625000.0 0.4861814762 0.1854566018
1681600000.0 0.4977825597 0.1687070929
1686575000.0 0.5100707137 0.1525725351
1691550000.0 0.5205465904 0.1389281499
1696525000.0 0.5297502061 0.1241566559
1701500000.0 0.5400469179 0.1092186735
1706475000.0 0.5483901838 0.0961774217
1711450000.0 0.5554480324 0.0833715104
1716425000.0 0.5633426936 0.0704415586
1721400000.0 0.5703512669 0.0585617777
1726375000.0 0.5765488063 0.0475343653
1731350000.0 0.5828880893 0.0365079623
1736325000.0 0.5884500418 0.0255199832
1741300000.0 0.5939047649 0.0159071081
1746275000.0 0.5994414859 0.006977467
1751250000.0 0.6047645768 -0.0023215017
1756225000.0 0.6091842186 -0.0103936431
1761200000.0 0.6135352382 -0.0176914143
1766175000.0 0.6171851737 -0.0250699058
1771150000.0 0.6208990114 -0.0321733903
1776125000.0 0.6237607099 -0.0388959039
1781100000.0 0.6259979112 -0.0445526437
1786075000.0 0.6285733142 -0.0502722362
1791050000.0 0.6295785709 -0.0561532679
1796025000.0 0.6310038357 -0.0606709232
1801000000.0 0.6310777363 -0.0653583015
1805975000.0 0.6310194652 -0.0704371805
1810950000.0 0.6298957516 -0.0742069818
1815925000.0 0.6268545393 -0.0788536249
1820900000.0 0.6235938029 -0.0830955812
1825875000.0 0.618535424 -0.0873555863
1830850000.0 0.6075268108 -0.0915645243
1835825000.0 0.5936208808 -0.0938653413
1840800000.0 0.572443031 -0.0888354879
1845775000.0 0.5491453326 -0.0682559091
1850750000.0 0.5442896766 -0.0330491658
1855725000.0 0.5614798611 -0.0085164136
1860700000.0 0.5781157216 -0.0029609672
1865675000.0 0.5866305247 -0.0051407722
1870650000.0 0.5885554995 -0.0080178359
1875625000.0 0.5868465754 -0.0109290483
1880600000.0 0.5821705233 -0.0130103547
1885575000.0 0.5758650911 -0.0142484027
1890550000.0 0.5687279806 -0.0151648282
1895525000.0 0.5595954484 -0.0154223185
1900500000.0 0.550452283 -0.0153856647
1905475000.0 0.5402466234 -0.0155104456
1910450000.0 0.5286466304 -0.0150950192
1915425000.0 0.5172306035 -0.0140909187
1920400000.0 0.5043044565 -0.0133228284
1925375000.0 0.4906664971 -0.0121118816
1930350000.0 0.4756369885 -0.0105805816
1935325000.0 0.4592591438 -0.0088981903
1940300000.0 0.4413287882 -0.0069064252
1945275000.0 0.4223323859 -0.0047163771
1950250000.0 0.4011664736 -0.002257335
1955225000.0 0.3794153659 0.0014488001
1960200000.0 0.3565221124 0.0049322062
1965175000.0 0.3316823112 0.0086371472
1970150000.0 0.3053222095 0.0131964879
1975125000.0 0.2771199992 0.0176181108
1980100000.0 0.2458210811 0.0232394277
1985075000.0 0.2140301682 0.0300188176
1990050000.0 0.17870333 0.0371425135
1995025000.0 0.141321712 0.0471263126
2000000000.0 0.1016151686 0.0589492221
