!Created with skrf (http://scikit-rf.org).
# GHz S RI R 50.0 
!freq ReS11 ImS11
10000000.0 -0.9843234987 0.0709830103
19950000.0 -0.9749589668 0.1354518696
29900000.0 -0.9609549925 0.2022748759
39850000.0 -0.940636991 0.2733169833
49800000.0 -0.9103778247 0.3519776959
59750000.0 -0.8671895894 0.4402875348
69700000.0 -0.8060473299 0.5392379505
79650000.0 -0.7203318485 0.6493777795
89600000.0 -0.5987088484 0.7660573727
99550000.0 -0.4293983243 0.8774682474
109500000.0 -0.2018936312 0.9615779684
119450000.0 0.0835301717 0.9825775349
129400000.0 0.3969979622 0.9045772574
139350000.0 0.6804980351 0.7170511732
149300000.0 0.8812677906 0.4469347619
159250000.0 0.9747647176 0.1526778678
169200000.0 0.9749536842 -0.116808206
179150000.0 0.9141790053 -0.3353526836
189100000.0 0.8241056738 -0.5009581373
199050000.0 0.7264195231 -0.6222854305
209000000.0 0.6316385724 -0.7093719563
218950000.0 0.5450445993 -0.7730859161
228900000.0 0.468036247 -0.8192737679
238850000.0 0.3966218031 -0.852633291
248800000.0 0.323528759 -0.8594887158
258750000.0 0.2643728869 -0.8901838685
268700000.0 0.1969640728 -0.9007921721
278650000.0 0.1274134568 -0.9057629927
288600000.0 0.0554581717 -0.9050088536
298550000.0 -0.0192990764 -0.8960422685
308500000.0 -0.0989511919 -0.8758183511
318450000.0 -0.183352458 -0.838490219
328400000.0 -0.2710432789 -0.7779290377
338350000.0 -0.3565897837 -0.6882528771
348300000.0 -0.4274323323 -0.5670450545
358250000.0 -0.4673049966 -0.420904422
368200000.0 -0.4632768404 -0.2648809158
378150000.0 -0.4133808855 -0.1218085065
388100000.0 -0.3273522563 -0.0093528417
398050000.0 -0.2233857261 0.0647801547
408000000.0 -0.119881029 0.1038228009
417950000.0 -0.0289673139 0.1160050852
427900000.0 0.0437929265 0.1109964039
437850000.0 0.0970605677 0.0952086278
447800000.0 0.1330099392 0.0734175641
457750000.0 0.1544022144 0.0489075378
467700000.0 0.1643080556 0.024498989
477650000.0 0.1655913037 0.0026248875
487600000.0 0.1602601145 -0.0150270888
497550000.0 0.1500557361 -0.0290303241
507500000.0 0.1335532776 -0.0356443944
517450000.0 0.1131075448 -0.0376501637
527400000.0 0.0888712019 -0.0359146553
537350000.0 0.0627710806 -0.0302376791
547300000.0 0.0379044076 -0.0210053293
557250000.0 0.013850439 -0.0095655315
567200000.0 -0.0073242201 0.0058420547
577150000.0 -0.0250774567 0.0246227841
587100000.0 -0.0400165967 0.0458439171
597050000.0 -0.0521369832 0.0682835061
607000000.0 -0.0616865386 0.0907132835
616950000.0 -0.0685271037 0.1109663062
626900000.0 -0.0711946033 0.1290485104
636850000.0 -0.0698835165 0.1445544185
646800000.0 -0.0634885053 0.1574708794
656750000.0 -0.0536298153 0.1690306558
666700000.0 -0.0403824892 0.1792737837
676650000.0 -0.0262059969 0.1869729577
686600000.0 -0.0109192709 0.1912185865
696550000.0 0.0052001564 0.1905774818
706500000.0 0.0222346085 0.1835264438
716450000.0 0.0414221186 0.1701383994
726400000.0 0.0626673356 0.151039125
736350000.0 0.0852996336 0.1271106386
746300000.0 0.1073753993 0.1001753857
756250000.0 0.1269548049 0.0699521692
766200000.0 0.1412984352 0.0363824261
776150000.0 0.1489672793 -0.0015947857
786100000.0 0.150059509 -0.0435803617
796050000.0 0.1443365738 -0.0899454365
806000000.0 0.1334238941 -0.1391226019
815950000.0 0.1178052115 -0.1872278304
825900000.0 0.0981888367 -0.2315442631
835850000.0 0.0741252391 -0.2698113822
845800000.0 0.044108388 -0.3008961826
855750000.0 0.0067451349 -0.3243771905
865700000.0 -0.0376453013 -0.3417878136
875650000.0 -0.0880233996 -0.3525738958
885600000.0 -0.1424313933 -0.3566605419
895550000.0 -0.198428547 -0.3526119569
905500000.0 -0.2534106439 -0.3380952524
915450000.0 -0.3068992096 -0.3100058666
925400000.0 -0.3586272334 -0.2647276898
935350000.0 -0.4065702869 -0.1991468827
945300000.0 -0.4483727014 -0.1107547167
955250000.0 -0.4769895008 0.0022786282
965200000.0 -0.47955737 0.1399440149
975150000.0 -0.4386277783 0.2967541692
985100000.0 -0.3377302013 0.4514180327
995050000.0 -0.1785549885 0.5873040289
1005000000.0 0.0511068818 0.6772272308
1014950000.0 0.3221368948 0.6729876852
1024900000.0 0.5775750354 0.5614563876
1034850000.0 0.7636119045 0.3649953273
1044800000.0 0.8568213868 0.127217452
1054750000.0 0.8604019505 -0.1113340946
1064700000.0 0.7839594324 -0.3241219288
1074650000.0 0.6368852491 -0.4287355284
1084600000.0 0.6033113473 -0.5240380175
1094550000.0 0.497250405 -0.6365681317
1104500000.0 0.3598072572 -0.7274755054
1114450000.0 0.1958258644 -0.7695080518
1124400000.0 0.0337706604 -0.7686063809
1134350000.0 -0.1155270452 -0.735336663
1144300000.0 -0.2465697007 -0.6780730096
1154250000.0 -0.3558699026 -0.6025652285
1164200000.0 -0.4417297027 -0.5163655
1174150000.0 -0.508099565 -0.4247894827
1184100000.0 -0.558757468 -0.3285495485
1194050000.0 -0.5940037927 -0.2320855026
1204000000.0 -0.6156543874 -0.1413394962
1213950000.0 -0.6257277371 -0.0599903052
1223900000.0 -0.6281402438 0.0094798887
1233850000.0 -0.6241942328 0.068664645
1243800000.0 -0.6152938841 0.1195085633
1253750000.0 -0.6017539129 0.1655932154
1263700000.0 -0.5853855487 0.2093415945
1273650000.0 -0.5689493347 0.2494943062
1283600000.0 -0.5543144987 0.2862676217
1293550000.0 -0.5423040952 0.317133257
1303500000.0 -0.5336153345 0.3409064493
1313450000.0 -0.5268446842 0.3583064735
1323400000.0 -0.5205623081 0.3704996612
1333350000.0 -0.512230915 0.3806622617
1343300000.0 -0.50215857 0.3916346456
1353250000.0 -0.4909235765 0.4044762589
1363200000.0 -0.4801927147 0.4192623986
1373150000.0 -0.46953622 0.4338471465
1383100000.0 -0.4605643019 0.4466990112
1393050000.0 -0.453119511 0.4558524679
1403000000.0 -0.4452788412 0.4605676607
1412950000.0 -0.4356775603 0.4617539434
1422900000.0 -0.4225092791 0.4622457946
1432850000.0 -0.4056904234 0.4638671502
1442800000.0 -0.3860944424 0.4685647621
1452750000.0 -0.366174979 0.4762818277
1462700000.0 -0.345534311 0.4863419267
1472650000.0 -0.3250912934 0.4965812068
1482600000.0 -0.3038451531 0.5055019758
1492550000.0 -0.2807226652 0.5111541445
1502500000.0 -0.2531866004 0.5142391017
1512450000.0 -0.2211861999 0.5153451417
1522400000.0 -0.1842250728 0.5160257093
1532350000.0 -0.1433787444 0.5164812587
1542300000.0 -0.0990370352 0.5167366629
1552250000.0 -0.0535704611 0.5150164712
1562200000.0 -0.0092249265 0.5106579138
1572150000.0 0.0324603701 0.5049053815
1582100000.0 0.0759864841 0.4980660551
1592050000.0 0.121081025 0.487809368
1602000000.0 0.1660060419 0.4746962483
1611950000.0 0.2095986339 0.4600800586
1621900000.0 0.2514644779 0.444446353
1631850000.0 0.2910080144 0.4270452594
1641800000.0 0.3279290044 0.4078517544
1651750000.0 0.3626041947 0.385814475
1661700000.0 0.3955313711 0.3622142165
1671650000.0 0.4260865866 0.3389915506
1681600000.0 0.45465423 0.3175433446
1691550000.0 0.4806232516 0.2991092885
1701500000.0 0.504116042 0.2846277192
1711450000.0 0.523879501 0.2725543399
1721400000.0 0.5398221818 0.26212089
1731350000.0 0.5523814267 0.2508735387
1741300000.0 0.5629085842 0.2393615588
1751250000.0 0.5718702784 0.2279611964
1761200000.0 0.5798085859 0.2174971607
1771150000.0 0.5862068642 0.210208939
1781100000.0 0.5910731156 0.2066451181
1791050000.0 0.593263746 0.2079520564
1801000000.0 0.5930877381 0.2116638276
1810950000.0 0.5900229054 0.2156021877
1820900000.0 0.585318225 0.2176213997
1830850000.0 0.5804490547 0.2162471586
1840800000.0 0.5757902827 0.2128086505
1850750000.0 0.5707597959 0.2077789313
1860700000.0 0.5639235786 0.2029651991
1870650000.0 0.5538840434 0.2003878125
1880600000.0 0.5399420734 0.2004174651
1890550000.0 0.5202495487 0.2019503288
1900500000.0 0.4951506944 0.2027227549
1910450000.0 0.4659792574 0.2018157577
1920400000.0 0.4364282398 0.1982535834
1930350000.0 0.406877884 0.1902311398
1940300000.0 0.3761405525 0.1792945589
1950250000.0 0.3436661708 0.1669900681
1960200000.0 0.3074713034 0.1548012373
1970150000.0 0.2653851496 0.14267424
1980100000.0 0.2146605925 0.1316725931
1990050000.0 0.1538907029 0.1196537617
2000000000.0 0.0805357025 0.1078552723
