!Created with skrf (http://scikit-rf.org).
# GHz S RI R 50.0 
!freq ReS11 ImS11
10000000.0 -0.7678475775 0.6761975209
19950000.0 -0.1373362322 0.9880898617
29900000.0 0.5376402536 0.8171286034
39850000.0 0.9430743462 0.2446792625
49800000.0 0.8704806807 -0.4671127159
59750000.0 0.3198590536 -0.9591650269
69700000.0 -0.4443509075 -0.9262063203
79650000.0 -0.9663462535 -0.3331406522
89600000.0 -0.8771430009 0.4732925616
99550000.0 -0.1947479435 0.9484249718
109500000.0 0.6320228059 0.7203663714
119450000.0 0.9708721003 -0.105551568
129400000.0 0.4682598272 -0.8878412823
139350000.0 -0.4696803247 -0.8942646663
149300000.0 -0.976379382 -0.1207961678
159250000.0 -0.6472332685 0.6974346726
169200000.0 0.1565028517 0.9277623714
179150000.0 0.8238883754 0.4854023032
189100000.0 0.9410988708 -0.2817849141
199050000.0 0.4746763521 -0.8777463578
209000000.0 -0.2588297651 -0.9559176847
218950000.0 -0.8173563735 -0.5128355693
228900000.0 -0.9223002895 0.1710674434
238850000.0 -0.5558202133 0.7381657179
248800000.0 0.0702586195 0.9227125214
258750000.0 0.682470651 0.6576997786
268700000.0 0.9652063328 0.058065776
278650000.0 0.7779551402 -0.5799157341
288600000.0 0.2109486887 -0.927020384
298550000.0 -0.4361389339 -0.8017135794
308500000.0 -0.8234038112 -0.277718266
318450000.0 -0.7504619141 0.3596321385
328400000.0 -0.2655480448 0.7607646351
338350000.0 0.3439398642 0.6990901537
348300000.0 0.6938674646 0.2313824735
358250000.0 0.5761700212 -0.2944050542
368200000.0 0.1478822446 -0.5068879512
378150000.0 -0.2174170713 -0.3313894369
388100000.0 -0.2811133685 -0.0067306569
398050000.0 -0.1014267541 0.180136952
408000000.0 0.094465464 0.139236747
417950000.0 0.1417577453 -0.0108644721
427900000.0 0.045181569 -0.1061456858
437850000.0 -0.0771254858 -0.0729224137
447800000.0 -0.1180571964 0.0447113356
457750000.0 -0.0496191958 0.1489467533
467700000.0 0.0717942344 0.1641631632
477650000.0 0.1617876713 0.0863688394
487600000.0 0.1674844374 -0.0273049478
497550000.0 0.0974707269 -0.1093267515
507500000.0 -0.0005818458 -0.116151287
517450000.0 -0.0656788304 -0.0622757533
527400000.0 -0.0723144518 0.0070375038
537350000.0 -0.0363367254 0.0458113004
547300000.0 0.0008499313 0.0412904317
557250000.0 0.0087191398 0.0145947155
567200000.0 -0.0146931093 0.0029561608
577150000.0 -0.0383423337 0.0273846759
587100000.0 -0.0218064975 0.0692484615
597050000.0 0.0279089026 0.0926291135
607000000.0 0.0959092307 0.0659996726
616950000.0 0.1330808313 -0.0133642769
626900000.0 0.1052134274 -0.1083795275
636850000.0 0.0131209554 -0.1657508582
646800000.0 -0.1000978084 -0.1465625458
656750000.0 -0.1728282591 -0.0524124949
666700000.0 -0.16139274 0.0687214687
676650000.0 -0.0679774198 0.1498646707
686600000.0 0.0570344924 0.1448168738
696550000.0 0.1445426583 0.0562669139
706500000.0 0.1467846427 -0.0653193501
716450000.0 0.0672818063 -0.150493777
726400000.0 -0.043419925 -0.151497823
736350000.0 -0.1126167931 -0.0721538838
746300000.0 -0.0942510105 0.0290669775
756250000.0 -0.0002415698 0.0764083802
766200000.0 0.0990879983 0.0293794151
776150000.0 0.1268270551 -0.0859765432
786100000.0 0.0490800991 -0.1896767258
796050000.0 -0.0954620691 -0.1981138431
806000000.0 -0.2092425478 -0.0802692665
815950000.0 -0.1972761097 0.1054084233
825900000.0 -0.0376199789 0.2399209414
835850000.0 0.1915454767 0.2205155597
845800000.0 0.3556610086 0.0333145869
855750000.0 0.3454191304 -0.2332554126
865700000.0 0.1397908623 -0.4314035322
875650000.0 -0.1661961421 -0.424808734
885600000.0 -0.3695500369 -0.179120925
895550000.0 -0.3366814738 0.0814876751
905500000.0 -0.1908566284 0.3024335448
915450000.0 0.1143547328 0.3802664314
925400000.0 0.4007935774 0.2067970728
935350000.0 0.4821407142 -0.1285040785
945300000.0 0.2954041627 -0.4296283923
955250000.0 -0.0639296492 -0.504518188
965200000.0 -0.3756702689 -0.2776871172
975150000.0 -0.4070183896 0.130526044
985100000.0 -0.0852248545 0.4257285808
995050000.0 0.3705683811 0.3350492805
1005000000.0 0.5697633168 -0.1200830023
1014950000.0 0.2847545929 -0.5763399587
1024900000.0 -0.3096931072 -0.5971321675
1034850000.0 -0.6946984547 -0.0529694004
1044800000.0 -0.4082470004 0.6273388748
1054750000.0 0.3642730177 0.7357438389
1064700000.0 0.868340982 0.1553231719
1074650000.0 0.6950811212 -0.5773634119
1084600000.0 0.0370183502 -0.8717352249
1094550000.0 -0.6025688072 -0.5820664551
1104500000.0 -0.7883366727 0.1064034083
1114450000.0 -0.3618839736 0.6748677844
1124400000.0 0.3231079027 0.6764615976
1134350000.0 0.712369301 0.1748083184
1144300000.0 0.5879955779 -0.3913370929
1154250000.0 0.1240700965 -0.6565143792
1164200000.0 -0.3593710596 -0.5128739216
1174150000.0 -0.5898670239 -0.0725887072
1184100000.0 -0.4169865139 0.3972686468
1194050000.0 0.0471662459 0.5713950149
1204000000.0 0.4687175962 0.3472364068
1213950000.0 0.5905361455 -0.0886668262
1223900000.0 0.3899238438 -0.4688404528
1233850000.0 0.0007080607 -0.6185144588
1243800000.0 -0.3927151058 -0.4814695894
1253750000.0 -0.6073982036 -0.1133144144
1263700000.0 -0.5199293469 0.316670724
1273650000.0 -0.1571958782 0.577760499
1283600000.0 0.2839929239 0.5237676307
1293550000.0 0.5708935804 0.2018790279
1303500000.0 0.589068708 -0.2117446241
1313450000.0 0.3618620553 -0.5415671738
1323400000.0 -0.0105420199 -0.6726837943
1333350000.0 -0.3932632014 -0.5586112774
1343300000.0 -0.6383731316 -0.2264193298
1353250000.0 -0.6210852809 0.2034447877
1363200000.0 -0.3222183769 0.5294757622
1373150000.0 0.1184059406 0.5809156075
1383100000.0 0.4796120135 0.3434042085
1393050000.0 0.6100388975 -0.048459102
1403000000.0 0.4872226742 -0.4231744615
1412950000.0 0.1786971028 -0.6492252292
1422900000.0 -0.201360891 -0.6555266087
1432850000.0 -0.5154077822 -0.4331386271
1442800000.0 -0.6296769023 -0.0541037443
1452750000.0 -0.4727452196 0.3203587546
1462700000.0 -0.1071134607 0.5040275325
1472650000.0 0.2819884577 0.4065333908
1482600000.0 0.5078983318 0.0933537402
1492550000.0 0.4875522588 -0.2733335206
1502500000.0 0.2559911441 -0.5364484672
1512450000.0 -0.0803914147 -0.5988983744
1522400000.0 -0.3812283684 -0.4377983142
1532350000.0 -0.5092322788 -0.1182578407
1542300000.0 -0.3902046354 0.2100726862
1552250000.0 -0.0775415725 0.370759868
1562200000.0 0.2542760932 0.2749533229
1572150000.0 0.4225680463 -0.0126333782
1582100000.0 0.3521069094 -0.3266882746
1592050000.0 0.0971862277 -0.5089469968
1602000000.0 -0.2111863003 -0.4754841794
1611950000.0 -0.4244680156 -0.2387092597
1621900000.0 -0.4252015055 0.0918031836
1631850000.0 -0.1932297112 0.3443508243
1641800000.0 0.1593189246 0.3679316216
1651750000.0 0.4355857682 0.1407172245
1661700000.0 0.4846633901 -0.2108671931
1671650000.0 0.290773925 -0.5042656115
1681600000.0 -0.0446217471 -0.6053994841
1691550000.0 -0.3743313034 -0.4749501267
1701500000.0 -0.5590519598 -0.1610930986
1711450000.0 -0.5080409311 0.2156107266
1721400000.0 -0.2149807629 0.4873006489
1731350000.0 0.1966521121 0.5016687748
1741300000.0 0.5126203182 0.233850736
1751250000.0 0.546134317 -0.1635660684
1761200000.0 0.4014320362 -0.3758103274
1771150000.0 0.1590294291 -0.6312066886
1781100000.0 -0.2265632089 -0.6293335462
1791050000.0 -0.5276847336 -0.3999288511
1801000000.0 -0.6432121058 -0.0348805527
1810950000.0 -0.5182156333 0.3414637357
1820900000.0 -0.1756200879 0.5703321921
1830850000.0 0.2441042884 0.5290821622
1840800000.0 0.5339161964 0.2304090705
1850750000.0 0.5665164075 -0.1665398433
1860700000.0 0.3652829353 -0.4806716247
1870650000.0 0.0428377431 -0.6133987063
1880600000.0 -0.2809062528 -0.5506698654
1890550000.0 -0.5119548182 -0.3303425453
1900500000.0 -0.5827383861 -0.0223395178
1910450000.0 -0.4647854681 0.2722553882
1920400000.0 -0.1930348893 0.434372014
1930350000.0 0.1125838958 0.3912364539
1940300000.0 0.309604131 0.178042501
1950250000.0 0.3296032367 -0.084759493
1960200000.0 0.2048675984 -0.2811638695
1970150000.0 0.0196340771 -0.358919048
1980100000.0 -0.1460842516 -0.3271428227
1990050000.0 -0.2423319641 -0.2324972243
2000000000.0 -0.2635918171 -0.1380533648
