!Created with skrf (http://scikit-rf.org).
# GHz S RI R 50.0 
!freq ReS11 ImS11
10000000.0 -0.719599084 0.5562895138
19950000.0 -0.2612059211 0.8844308067
29900000.0 0.3064962938 0.8778595618
39850000.0 0.7701615917 0.5231397449
49800000.0 0.9294463434 -0.0586987038
59750000.0 0.6914740776 -0.632858391
69700000.0 0.135426041 -0.9374277309
79650000.0 -0.4973585598 -0.8068203249
89600000.0 -0.8998445978 -0.2690381135
99550000.0 -0.8351341863 0.4354019261
109500000.0 -0.2722042547 0.9195895676
119450000.0 0.5023667153 0.8338779363
129400000.0 0.9621966839 0.1622271327
139350000.0 0.7339601275 -0.6347901838
149300000.0 -0.0181175577 -0.9531038119
159250000.0 -0.719210127 -0.5886983006
169200000.0 -0.9051077876 0.1413081166
179150000.0 -0.5320392829 0.7418545407
189100000.0 0.1092489715 0.8970837474
199050000.0 0.6588369593 0.5896486814
209000000.0 0.8730234753 0.0138313929
218950000.0 0.6864892235 -0.5465364604
228900000.0 0.2049423415 -0.8576028233
238850000.0 -0.355490202 -0.801133624
248800000.0 -0.7531150328 -0.3943759212
258750000.0 -0.8482225277 0.1284050624
268700000.0 -0.5986671787 0.6193414457
278650000.0 -0.1156955162 0.8590887413
288600000.0 0.4072425232 0.7567661055
298550000.0 0.7619127409 0.3517207477
308500000.0 0.7961618264 -0.1936654411
318450000.0 0.4831424004 -0.6420390342
328400000.0 -0.0383274843 -0.7823983972
338350000.0 -0.5093761464 -0.5458319941
348300000.0 -0.6866646734 -0.0695768444
358250000.0 -0.495841141 0.3678093277
368200000.0 -0.0956482051 0.5246350225
378150000.0 0.2418220732 0.3660341986
388100000.0 0.3361601458 0.0680690579
398050000.0 0.2068833068 -0.1474897984
408000000.0 0.0101893316 -0.1788808501
417950000.0 -0.1055147963 -0.0732752693
427900000.0 -0.0962386064 0.050032231
437850000.0 -0.0102429912 0.1000062918
447800000.0 0.0720636835 0.0599982444
457750000.0 0.0897923431 -0.0288753389
467700000.0 0.0401639332 -0.1021924502
477650000.0 -0.0407091715 -0.118271924
487600000.0 -0.1049601744 -0.0734113997
497550000.0 -0.1166888121 -0.0032036801
507500000.0 -0.0846202886 0.0636997382
517450000.0 -0.0196708258 0.0865877611
527400000.0 0.0344420506 0.0630414461
537350000.0 0.0519980121 0.0147632835
547300000.0 0.0304150068 -0.0254804705
557250000.0 -0.0098346693 -0.0349988638
567200000.0 -0.0381730469 -0.0117460926
577150000.0 -0.0327252122 0.0225122459
587100000.0 0.0042540271 0.0361573337
597050000.0 0.0477114708 0.0125110976
607000000.0 0.067413235 -0.043609894
616950000.0 0.0427694699 -0.1044522065
626900000.0 -0.0188652045 -0.1338972591
636850000.0 -0.0891074991 -0.1117299652
646800000.0 -0.1304422686 -0.041435403
656750000.0 -0.119218542 0.0480272745
666700000.0 -0.054133587 0.1160448115
676650000.0 0.040670456 0.1298668521
686600000.0 0.1243981828 0.0786498412
696550000.0 0.1575386426 -0.0193305348
706500000.0 0.1216593106 -0.1175080737
716450000.0 0.0298423816 -0.1690669844
726400000.0 -0.0730159463 -0.1471566573
736350000.0 -0.1329188911 -0.0588456936
746300000.0 -0.1147212447 0.0503838455
756250000.0 -0.0229744523 0.1216096476
766200000.0 0.0953674992 0.1138434478
776150000.0 0.1772643385 0.0254603135
786100000.0 0.1788712703 -0.0959796115
796050000.0 0.084697762 -0.1868807097
806000000.0 -0.0617833898 -0.1848274296
815950000.0 -0.1760005536 -0.0783692858
825900000.0 -0.1946801274 0.0872390515
835850000.0 -0.0965593713 0.2316919294
845800000.0 0.0787863869 0.277082523
855750000.0 0.2501388954 0.1905011991
865700000.0 0.3320054673 0.000773102
875650000.0 0.2710163258 -0.2072884948
885600000.0 0.0814623659 -0.3285917163
895550000.0 -0.1467597801 -0.2913322647
905500000.0 -0.3064644446 -0.113181352
915450000.0 -0.317504549 0.1426382797
925400000.0 -0.1520853312 0.35556012
935350000.0 0.1191437367 0.4042183933
945300000.0 0.3589841093 0.2444281425
955250000.0 0.4260745443 -0.0623950092
965200000.0 0.239383078 -0.3565306278
975150000.0 -0.1394017234 -0.4275081142
985100000.0 -0.4679202893 -0.1604070924
995050000.0 -0.4750646809 0.2963616653
1005000000.0 -0.1066781962 0.6208871276
1014950000.0 0.4188150611 0.5345787002
1024900000.0 0.7092920302 0.0295208864
1034850000.0 0.4839599894 -0.5557382669
1044800000.0 -0.1335074794 -0.7435928267
1054750000.0 -0.6653828471 -0.3740439058
1064700000.0 -0.7338527411 0.252680791
1074650000.0 -0.3332373826 0.6886108747
1084600000.0 0.1037601604 0.69775054
1094550000.0 0.5869184991 0.4755450858
1104500000.0 0.7128556019 -0.0977251564
1114450000.0 0.3810687813 -0.5756960972
1124400000.0 -0.1654966535 -0.6581490985
1134350000.0 -0.5758616421 -0.3430314778
1144300000.0 -0.6479347288 0.1353619384
1154250000.0 -0.395159368 0.5141068245
1164200000.0 0.0267641029 0.6219525167
1174150000.0 0.4051431836 0.4264365791
1184100000.0 0.5567177224 0.026486963
1194050000.0 0.4003773438 -0.3675416129
1204000000.0 0.0369366232 -0.5489198269
1213950000.0 -0.3374526526 -0.4555572746
1223900000.0 -0.5612185474 -0.1683262076
1233850000.0 -0.571307825 0.1802208056
1243800000.0 -0.3776288261 0.4624616487
1253750000.0 -0.0504205777 0.5742601682
1263700000.0 0.2896823362 0.463800475
1273650000.0 0.5017465661 0.164922097
1283600000.0 0.4960815263 -0.1999525821
1293550000.0 0.2874116657 -0.4805790976
1303500000.0 -0.025237011 -0.5844001064
1313450000.0 -0.3247766452 -0.5021748772
1323400000.0 -0.5286120292 -0.2781521387
1333350000.0 -0.5915223161 0.0219107979
1343300000.0 -0.4885586242 0.3207651907
1353250000.0 -0.2257954692 0.5204186288
1363200000.0 0.1182874185 0.5322575292
1373150000.0 0.4131734618 0.3357694943
1383100000.0 0.5401592055 0.0088960364
1393050000.0 0.4650428427 -0.318721688
1403000000.0 0.2378114398 -0.5386248289
1412950000.0 -0.0500890455 -0.5961734144
1422900000.0 -0.3120241259 -0.495785157
1432850000.0 -0.4855301174 -0.2681688226
1442800000.0 -0.5186321517 0.032880828
1452750000.0 -0.3776488498 0.3176357034
1462700000.0 -0.0907409347 0.4731325786
1472650000.0 0.2307069015 0.4311880097
1482600000.0 0.4593608595 0.214666137
1492550000.0 0.517064245 -0.0813827142
1502500000.0 0.4025649336 -0.3466771415
1512450000.0 0.1675993717 -0.496693086
1522400000.0 -0.1047692311 -0.4876682607
1532350000.0 -0.3232631933 -0.319031418
1542300000.0 -0.402507117 -0.0422904572
1552250000.0 -0.2978274311 0.2350121128
1562200000.0 -0.0468781138 0.3891088594
1572150000.0 0.2364482474 0.3580563078
1582100000.0 0.4320086713 0.1673828292
1592050000.0 0.4714663101 -0.0941186679
1602000000.0 0.3474286499 -0.326950853
1611950000.0 0.1016931917 -0.4440503499
1621900000.0 -0.1778119473 -0.3878499573
1631850000.0 -0.376454294 -0.1632300866
1641800000.0 -0.3965072567 0.143473604
1651750000.0 -0.2246965757 0.3984789005
1661700000.0 0.0621608689 0.4950066844
1671650000.0 0.3445716151 0.4068491658
1681600000.0 0.5250039953 0.1783676502
1691550000.0 0.5480633165 -0.1125127775
1701500000.0 0.4056987384 -0.3725617927
1711450000.0 0.1337555221 -0.5134660066
1721400000.0 -0.182888698 -0.4724450396
1731350000.0 -0.430953487 -0.2505320791
1741300000.0 -0.5151123601 0.0770693983
1751250000.0 -0.4052688219 0.3868315435
1761200000.0 -0.1533582745 0.575094458
1771150000.0 0.1477336238 0.5960930897
1781100000.0 0.4091442073 0.4593334101
1791050000.0 0.5629779783 0.2078221342
1801000000.0 0.5674589611 -0.0933421939
1810950000.0 0.4157851683 -0.3612058193
1820900000.0 0.1408286215 -0.5109636734
1830850000.0 -0.1788901444 -0.4821321882
1840800000.0 -0.4322355354 -0.2780639829
1850750000.0 -0.5326572996 0.0224291709
1860700000.0 -0.4634522359 0.3121269614
1870650000.0 -0.2684948475 0.5093895804
1880600000.0 -0.01704337 0.5738290198
1890550000.0 0.2201175438 0.501372258
1900500000.0 0.3821187273 0.3171287447
1910450000.0 0.4296108027 0.0716950386
1920400000.0 0.3470490784 -0.167007217
1930350000.0 0.1549125781 -0.3208841151
1940300000.0 -0.07962456 -0.3401108416
1950250000.0 -0.2674633692 -0.2348067488
1960200000.0 -0.3553569543 -0.0655347293
1970150000.0 -0.338464752 0.0988986482
1980100000.0 -0.2471943888 0.2053970334
1990050000.0 -0.1353675855 0.2288468278
2000000000.0 -0.0626200852 0.1811421614
