!Created with skrf (http://scikit-rf.org).
# GHz S RI R 50.0 
!freq ReS11 ImS11
10000000.0 -0.8928047365 0.4447461143
19950000.0 -0.6058178136 0.7829383667
29900000.0 -0.1996793135 0.9653464557
39850000.0 0.2532150651 0.9518787316
49800000.0 0.6625692795 0.7312072331
59750000.0 0.9328117931 0.3325777349
69700000.0 0.9803034864 -0.1659509097
79650000.0 0.7629001008 -0.6411489504
89600000.0 0.3089699213 -0.9458509703
99550000.0 -0.2649719517 -0.9525858399
109500000.0 -0.7641134049 -0.6129281529
119450000.0 -0.9716217108 -0.0133024395
129400000.0 -0.7502056934 0.6125449881
139350000.0 -0.163948592 0.9561824633
149300000.0 0.5078085561 0.8306598338
159250000.0 0.9226389413 0.3144776697
169200000.0 0.9188175981 -0.3112838899
179150000.0 0.5672569908 -0.776865539
189100000.0 0.0519205687 -0.9517586864
199050000.0 -0.4464484991 -0.8350381858
209000000.0 -0.8022199808 -0.4983709976
218950000.0 -0.9428867961 -0.0515713564
228900000.0 -0.8586367677 0.3982445808
238850000.0 -0.5795675446 0.7512480874
248800000.0 -0.1638026951 0.9071895351
258750000.0 0.2546779335 0.9112850665
268700000.0 0.6293566252 0.6969514055
278650000.0 0.8632922148 0.3404703023
288600000.0 0.910049726 -0.0804029326
298550000.0 0.7606399973 -0.4749432946
308500000.0 0.4446391837 -0.754882636
318450000.0 0.0322563395 -0.849497271
328400000.0 -0.3720077897 -0.7265383706
338350000.0 -0.6495639237 -0.4135951841
348300000.0 -0.7070250806 -0.0119053137
358250000.0 -0.5334562297 0.3277186444
368200000.0 -0.2239642564 0.4813032875
378150000.0 0.0715350526 0.4229733116
388100000.0 0.2358774047 0.229227509
398050000.0 0.2390772039 0.0205193476
408000000.0 0.1306730747 -0.1090334105
417950000.0 -0.0048795637 -0.1290066646
427900000.0 -0.0997000209 -0.0650566699
437850000.0 -0.1235191024 0.0316532302
447800000.0 -0.0830704352 0.1124508899
457750000.0 -0.006324397 0.1483773082
467700000.0 0.0723730489 0.1331297588
477650000.0 0.1264884129 0.078895042
487600000.0 0.1412956659 0.0083148982
497550000.0 0.1213018515 -0.0521672563
507500000.0 0.0704424509 -0.0938218775
517450000.0 0.0171164424 -0.0990362194
527400000.0 -0.0234363214 -0.07835534
537350000.0 -0.0402097635 -0.0458380644
547300000.0 -0.0336347347 -0.0187257814
557250000.0 -0.0130487705 -0.0073651321
567200000.0 0.0079163582 -0.0181691506
577150000.0 0.0146558837 -0.0454863606
587100000.0 -0.00122248 -0.0769310274
597050000.0 -0.038567784 -0.0966619306
607000000.0 -0.0876797251 -0.0928210706
616950000.0 -0.1331579753 -0.0601098693
626900000.0 -0.1582730898 -0.0033516061
636850000.0 -0.1517203196 0.0645928654
646800000.0 -0.1098730902 0.125189453
656750000.0 -0.0398889203 0.1610881361
666700000.0 0.0428687897 0.1597527965
676650000.0 0.1174595135 0.1189716461
686600000.0 0.1650456748 0.0473543168
696550000.0 0.1732193111 -0.037953391
706500000.0 0.1391346967 -0.1148237521
716450000.0 0.0720227406 -0.1625384131
726400000.0 -0.0091691241 -0.167522442
736350000.0 -0.0791363272 -0.1275944565
746300000.0 -0.1162083351 -0.0539975207
756250000.0 -0.1049697631 0.0306606747
766200000.0 -0.0463252828 0.0975539132
776150000.0 0.0437115347 0.1214594367
786100000.0 0.1362411802 0.0899804803
796050000.0 0.1991169213 0.0080219206
806000000.0 0.207059618 -0.1013494093
815950000.0 0.1483752533 -0.2050903
825900000.0 0.0339666745 -0.2667086938
835850000.0 -0.1080633233 -0.2590068658
845800000.0 -0.2372088249 -0.1731717837
855750000.0 -0.3119479813 -0.0236317563
865700000.0 -0.3028683012 0.1535677258
875650000.0 -0.2034544027 0.3114165684
885600000.0 -0.0335054918 0.402956457
895550000.0 0.1663071245 0.3987176108
905500000.0 0.3428986746 0.2924001998
915450000.0 0.4458153334 0.1045617576
925400000.0 0.4383176659 -0.1201211201
935350000.0 0.3076226465 -0.3190611247
945300000.0 0.0767940867 -0.4248617084
955250000.0 -0.1928977916 -0.3834323427
965200000.0 -0.4060708078 -0.1802988145
975150000.0 -0.4598935935 0.1339363576
985100000.0 -0.293863085 0.4373385386
995050000.0 0.0539204301 0.576997174
1005000000.0 0.4451062845 0.4491412224
1014950000.0 0.6806741911 0.0584667035
1024900000.0 0.589805354 -0.4360922791
1034850000.0 0.1584354789 -0.7665227515
1044800000.0 -0.4054014681 -0.7197716013
1054750000.0 -0.7986420702 -0.3134265263
1064700000.0 -0.8406037624 0.2321926684
1074650000.0 -0.5485600154 0.6651637805
1084600000.0 -0.1250674441 0.8071597684
1094550000.0 0.3273634078 0.762457706
1104500000.0 0.6705617096 0.4406608339
1114450000.0 0.7638068854 -0.0128346243
1124400000.0 0.5819736241 -0.4283250769
1134350000.0 0.206103183 -0.6538489939
1144300000.0 -0.2081424432 -0.623048584
1154250000.0 -0.5096261185 -0.3811323902
1164200000.0 -0.6209592152 -0.0427253159
1174150000.0 -0.5466911539 0.2795323217
1184100000.0 -0.3297223646 0.5097237279
1194050000.0 -0.0331863844 0.5944543296
1204000000.0 0.2606859145 0.5187525031
1213950000.0 0.4750247563 0.3076303232
1223900000.0 0.5558317514 0.019834359
1233850000.0 0.4868026797 -0.2668569679
1243800000.0 0.294441022 -0.4809976602
1253750000.0 0.0342538931 -0.5799046761
1263700000.0 -0.2322657425 -0.5551692132
1273650000.0 -0.4541945537 -0.4251317317
1283600000.0 -0.5980956234 -0.2220391727
1293550000.0 -0.646921928 0.0175544812
1303500000.0 -0.5962204928 0.255950021
1313450000.0 -0.4525424355 0.4563829475
1323400000.0 -0.2359313619 0.5848977154
1333350000.0 0.0203124618 0.6148653496
1343300000.0 0.2718723823 0.536275446
1353250000.0 0.4712749765 0.3599508936
1363200000.0 0.5819524619 0.1197312509
1373150000.0 0.5879356517 -0.1395431857
1383100000.0 0.4945278938 -0.3729543063
1393050000.0 0.3249609386 -0.5458904566
1403000000.0 0.1096143897 -0.638172906
1412950000.0 -0.1187571448 -0.6414936178
1422900000.0 -0.3286412428 -0.5589354054
1432850000.0 -0.4906101215 -0.4012718532
1442800000.0 -0.579574252 -0.1894521538
1452750000.0 -0.5774603002 0.0455259993
1462700000.0 -0.4778715668 0.2653165335
1472650000.0 -0.2935994524 0.4279147653
1482600000.0 -0.0573924433 0.4992118323
1492550000.0 0.1833489366 0.4651193301
1502500000.0 0.381164524 0.3356912814
1512450000.0 0.4996235426 0.1425150825
1522400000.0 0.5236923777 -0.0736224996
1532350000.0 0.4544773334 -0.2716062337
1542300000.0 0.3091724268 -0.416790861
1552250000.0 0.1147503697 -0.4823579912
1562200000.0 -0.0905240272 -0.4542378535
1572150000.0 -0.2653455212 -0.3339776347
1582100000.0 -0.3685578633 -0.1427160197
1592050000.0 -0.3717385111 0.0783291596
1602000000.0 -0.2726182106 0.2760524392
1611950000.0 -0.0918454599 0.4024360885
1621900000.0 0.1221830784 0.4290940832
1631850000.0 0.3198881276 0.3553128658
1641800000.0 0.4606556004 0.2023952216
1651750000.0 0.5188527308 0.0038062166
1661700000.0 0.4851104244 -0.2028080479
1671650000.0 0.364098659 -0.380475204
1681600000.0 0.1728063857 -0.4943811266
1691550000.0 -0.0574412887 -0.5186949377
1701500000.0 -0.2840424582 -0.4408277379
1711450000.0 -0.460282609 -0.2700468586
1721400000.0 -0.5489927093 -0.0386551418
1731350000.0 -0.5323852487 0.2068178336
1741300000.0 -0.4189207389 0.4197646458
1751250000.0 -0.2355529481 0.5658680332
1761200000.0 -0.0170460273 0.6293966603
1771150000.0 0.2052419605 0.6081542222
1781100000.0 0.401820004 0.5087333997
1791050000.0 0.54929025 0.346074917
1801000000.0 0.6284295912 0.1393094195
1810950000.0 0.6271422207 -0.0858683358
1820900000.0 0.5404532478 -0.2989296264
1830850000.0 0.3764573513 -0.4669943213
1840800000.0 0.1570506729 -0.5599664017
1850750000.0 -0.0818665946 -0.5603161767
1860700000.0 -0.298619605 -0.4686372478
1870650000.0 -0.4585129752 -0.3055706649
1880600000.0 -0.541306763 -0.1039619884
1890550000.0 -0.5439148128 0.1017705515
1900500000.0 -0.4763466034 0.2823665302
1910450000.0 -0.356680243 0.4175267895
1920400000.0 -0.2062037265 0.495032463
1930350000.0 -0.0475018721 0.5107884076
1940300000.0 0.0978316971 0.4681289381
1950250000.0 0.2092789536 0.3770524805
1960200000.0 0.2710160141 0.2556575956
1970150000.0 0.2763938026 0.1293854427
1980100000.0 0.2319112501 0.0244592976
1990050000.0 0.1574482796 -0.037717832
2000000000.0 0.0827407066 -0.0488143357
