!Created with skrf (http://scikit-rf.org).
# GHz S RI R 50.0 
!freq ReS11 ImS11
10000000.0 -1.000546719 0.1598826324
19950000.0 -0.9471435397 0.3056439159
29900000.0 -0.8715031097 0.4459643627
39850000.0 -0.7739114428 0.5854918013
49800000.0 -0.6552019137 0.7189682514
59750000.0 -0.5101811992 0.8400513985
69700000.0 -0.3302375826 0.9361860273
79650000.0 -0.1104989942 0.9878734678
89600000.0 0.1473524348 0.9752369699
99550000.0 0.428391034 0.8753710829
109500000.0 0.7041965478 0.6722334032
119450000.0 0.9231135127 0.3537075409
129400000.0 1.010878549 -0.056151079
139350000.0 0.9083983212 -0.4750354861
149300000.0 0.6314267112 -0.7962574074
159250000.0 0.2693002925 -0.9581160586
169200000.0 -0.0877020553 -0.9772976187
179150000.0 -0.3913790247 -0.898019478
189100000.0 -0.6261487266 -0.7609579677
199050000.0 -0.7898917151 -0.5933829129
209000000.0 -0.8867090812 -0.4125984473
218950000.0 -0.9337680173 -0.2322545481
228900000.0 -0.942558519 -0.0593029244
238850000.0 -0.925896485 0.1051386643
248800000.0 -0.8773081048 0.2483127918
258750000.0 -0.8431737571 0.4010880732
268700000.0 -0.7743584254 0.53190716
278650000.0 -0.6818055961 0.6431640898
288600000.0 -0.5640182259 0.7314735473
298550000.0 -0.4234926667 0.793546064
308500000.0 -0.2635481976 0.8307562809
318450000.0 -0.0885091391 0.8383428041
328400000.0 0.0948415523 0.8091817046
338350000.0 0.2696217972 0.7306913134
348300000.0 0.411497626 0.5951640333
358250000.0 0.4910753788 0.411533475
368200000.0 0.4912862578 0.2104724414
378150000.0 0.4194442586 0.0317229417
388100000.0 0.3029375797 -0.0968382496
398050000.0 0.1743059708 -0.1628411306
408000000.0 0.060185709 -0.1724101494
417950000.0 -0.0264980818 -0.1398868879
427900000.0 -0.0830459829 -0.0840196984
437850000.0 -0.1143060709 -0.0209808879
447800000.0 -0.1269589459 0.0370269431
457750000.0 -0.1254845714 0.0825447696
467700000.0 -0.1131707061 0.1115750433
477650000.0 -0.0919529598 0.1233855261
487600000.0 -0.0651884639 0.1213211088
497550000.0 -0.0281219846 0.1163824165
507500000.0 -0.0014759751 0.0912439999
517450000.0 0.0213071499 0.0714636643
527400000.0 0.0343182961 0.0518844416
537350000.0 0.0337278565 0.0323634826
547300000.0 0.0197683977 0.0127628211
557250000.0 -0.0051349456 -0.0058652415
567200000.0 -0.0353811625 -0.0238443758
577150000.0 -0.0661768122 -0.0375130652
587100000.0 -0.094090085 -0.0455731338
597050000.0 -0.1156213008 -0.0437015241
607000000.0 -0.1311095734 -0.0307720149
616950000.0 -0.1418187964 -0.0077018146
626900000.0 -0.1485652018 0.0233956301
636850000.0 -0.15256604 0.0574678471
646800000.0 -0.1528449263 0.090155547
656750000.0 -0.1475282296 0.1172756293
666700000.0 -0.1347431247 0.1364458069
676650000.0 -0.1120633387 0.1469609026
686600000.0 -0.0802938152 0.1501238764
696550000.0 -0.0415229188 0.1481097565
706500000.0 0.000233139 0.1408806071
716450000.0 0.0405851248 0.1288052169
726400000.0 0.0736885456 0.1094787986
736350000.0 0.0962240469 0.0804929142
746300000.0 0.10591189 0.0410710142
756250000.0 0.1031844287 -0.0087907969
766200000.0 0.0889700211 -0.0654595867
776150000.0 0.0650376831 -0.1227667893
786100000.0 0.0318922494 -0.1749862009
796050000.0 -0.0103861532 -0.2144825176
806000000.0 -0.0609271307 -0.2365525125
815950000.0 -0.1203867466 -0.2381826155
825900000.0 -0.1859374513 -0.2209563223
835850000.0 -0.2536870291 -0.1875773855
845800000.0 -0.318384773 -0.1431149265
855750000.0 -0.3740520493 -0.0892407108
865700000.0 -0.4135339427 -0.027131308
875650000.0 -0.4321164086 0.0417397423
885600000.0 -0.4263066232 0.1180321264
895550000.0 -0.3964083632 0.2000480433
905500000.0 -0.3438171647 0.285308764
915450000.0 -0.270153163 0.3680039823
925400000.0 -0.1756452268 0.4383804771
935350000.0 -0.0581279502 0.4830781221
945300000.0 0.0797534947 0.4819631039
955250000.0 0.2266748856 0.409637681
965200000.0 0.3203545659 0.2413985151
975150000.0 0.2788054575 0.1171339119
985100000.0 0.3345722279 0.0881169889
995050000.0 0.4352354889 -0.0517765334
1005000000.0 0.450533454 -0.2653050391
1014950000.0 0.3511721876 -0.488934778
1024900000.0 0.1265363751 -0.6590856544
1034850000.0 -0.1804761954 -0.7124359343
1044800000.0 -0.494258627 -0.626866162
1054750000.0 -0.7440464898 -0.4187567148
1064700000.0 -0.8740945944 -0.136045105
1074650000.0 -0.8805070958 0.1608621027
1084600000.0 -0.7640167345 0.4328028498
1094550000.0 -0.5636030917 0.6347588147
1104500000.0 -0.3136395877 0.7668953882
1114450000.0 -0.0393889615 0.8122907131
1124400000.0 0.2260653997 0.7621892859
1134350000.0 0.4446623886 0.6225914872
1144300000.0 0.5906159291 0.418316966
1154250000.0 0.6560811848 0.187605998
1164200000.0 0.652553608 -0.0369718814
1174150000.0 0.5992963724 -0.232845101
1184100000.0 0.5111585381 -0.3958828776
1194050000.0 0.3940282282 -0.5171578573
1204000000.0 0.2593993631 -0.5914105802
1213950000.0 0.1196669353 -0.6237792624
1223900000.0 -0.0154905553 -0.6261435593
1233850000.0 -0.1408249651 -0.610141158
1243800000.0 -0.2529756194 -0.582793871
1253750000.0 -0.3504252767 -0.5471157306
1263700000.0 -0.4324590478 -0.5022557016
1273650000.0 -0.4977557662 -0.4474565831
1283600000.0 -0.5457778634 -0.3826197669
1293550000.0 -0.5808850216 -0.3096498941
1303500000.0 -0.6081762368 -0.232133176
1313450000.0 -0.6314503805 -0.1546785277
1323400000.0 -0.6522641643 -0.0802638009
1333350000.0 -0.669101184 -0.0100824176
1343300000.0 -0.6785713205 0.0557936464
1353250000.0 -0.6771758956 0.1166683898
1363200000.0 -0.661390425 0.1749730774
1373150000.0 -0.6308551995 0.2323019278
1383100000.0 -0.5910002538 0.2896024956
1393050000.0 -0.5456485605 0.3479266918
1403000000.0 -0.4997106849 0.4052585179
1412950000.0 -0.4532891531 0.4591957493
1422900000.0 -0.4061029131 0.5067416009
1432850000.0 -0.355953896 0.5440051826
1442800000.0 -0.2995681519 0.5696250931
1452750000.0 -0.2350556818 0.5830658559
1462700000.0 -0.1617258609 0.5866675025
1472650000.0 -0.0813119454 0.5834994032
1482600000.0 0.002659436 0.5760312683
1492550000.0 0.0865405857 0.5634026312
1502500000.0 0.1673006306 0.5426223951
1512450000.0 0.2412980493 0.5084629475
1522400000.0 0.3063854135 0.4589748767
1532350000.0 0.3602700416 0.3905211627
1542300000.0 0.4041072485 0.3059147158
1552250000.0 0.4374973715 0.2099427596
1562200000.0 0.4619428569 0.1102559408
1572150000.0 0.4745356093 0.010642581
1582100000.0 0.4731842316 -0.0867003015
1592050000.0 0.4536196502 -0.179842241
1602000000.0 0.4114092466 -0.2653339549
1611950000.0 0.3496031305 -0.3403228557
1621900000.0 0.2733928149 -0.4059269101
1631850000.0 0.189203822 -0.4631422897
1641800000.0 0.1016973277 -0.5113140568
1651750000.0 0.0140932024 -0.5470601388
1661700000.0 -0.0708538636 -0.5674477533
1671650000.0 -0.1514701517 -0.569795805
1681600000.0 -0.2268843455 -0.5529640217
1691550000.0 -0.2985768309 -0.5223076615
1701500000.0 -0.3682305457 -0.4823869571
1711450000.0 -0.4343262231 -0.439163921
1721400000.0 -0.4965420749 -0.3951668723
1731350000.0 -0.552232869 -0.3530476387
1741300000.0 -0.5981032717 -0.3101674587
1751250000.0 -0.6298360841 -0.2630944735
1761200000.0 -0.6482936241 -0.2117625682
1771150000.0 -0.6550396615 -0.1552626999
1781100000.0 -0.6566873729 -0.0947747334
1791050000.0 -0.6564141277 -0.0340521714
1801000000.0 -0.6583131873 0.024620452
1810950000.0 -0.6632139202 0.0800538101
1820900000.0 -0.6669212309 0.131113352
1830850000.0 -0.6649772009 0.1758434515
1840800000.0 -0.6513477227 0.2170662263
1850750000.0 -0.6254882779 0.2547629076
1860700000.0 -0.5874878281 0.2900964274
1870650000.0 -0.5437303145 0.324820318
1880600000.0 -0.4989718068 0.357875689
1890550000.0 -0.4575754003 0.3896675498
1900500000.0 -0.4204545927 0.4166492829
1910450000.0 -0.3846424339 0.4379553958
1920400000.0 -0.3425572974 0.4492409641
1930350000.0 -0.2806808699 0.4440172032
1940300000.0 -0.2029093348 0.3459361789
1950250000.0 -0.2767663932 0.3235433004
1960200000.0 -0.2360733421 0.3435640414
1970150000.0 -0.1866144263 0.3326820221
1980100000.0 -0.1459424147 0.3100916406
1990050000.0 -0.1187468261 0.2787427161
2000000000.0 -0.1078737514 0.234674352
