!Created with skrf (http://scikit-rf.org).
# GHz S RI R 50.0 
!freq ReS11 ImS11
10000000.0 -0.7818900712 0.5973336303
19950000.0 -0.2776251783 0.9408669965
29900000.0 0.3311226011 0.9258633433
39850000.0 0.8188748261 0.5512297437
49800000.0 0.9878266478 -0.0520269044
59750000.0 0.7482002065 -0.6461003126
69700000.0 0.1776207927 -0.9682360413
79650000.0 -0.4827421954 -0.849881976
89600000.0 -0.9184234847 -0.3161803746
99550000.0 -0.8859391964 0.3937444653
109500000.0 -0.3549529378 0.9046019148
119450000.0 0.4121767442 0.8831627429
129400000.0 0.9321361964 0.2743690237
139350000.0 0.8150062172 -0.5246973699
149300000.0 0.1182367826 -0.9531988423
159250000.0 -0.6456497542 -0.7014354039
169200000.0 -0.950646484 0.0158300725
179150000.0 -0.642604513 0.7003113352
189100000.0 0.0332883916 0.9488649722
199050000.0 0.6673624111 0.6706719337
209000000.0 0.9388714845 0.0585247499
218950000.0 0.7504021466 -0.5580116381
228900000.0 0.2247118231 -0.903318781
238850000.0 -0.3915302112 -0.8400759709
248800000.0 -0.6428861346 -0.437913932
258750000.0 -0.9084784164 0.1491913867
268700000.0 -0.6223720846 0.673937008
278650000.0 -0.0800924103 0.9065519904
288600000.0 0.4856091399 0.7551096323
298550000.0 0.8319648311 0.2879724921
308500000.0 0.8080393006 -0.2892809389
318450000.0 0.4250516916 -0.7133371958
328400000.0 -0.1324802418 -0.7850632708
338350000.0 -0.5840790783 -0.4762553394
348300000.0 -0.699762235 0.0345364004
358250000.0 -0.4445593419 0.4531910977
368200000.0 -0.0102517462 0.5563756456
378150000.0 0.3216121008 0.3433688914
388100000.0 0.3846082325 0.0097139725
398050000.0 0.2139846541 -0.2203482529
408000000.0 -0.0221200568 -0.2453754702
417950000.0 -0.1665892006 -0.1160644796
427900000.0 -0.1674109013 0.0431622554
437850000.0 -0.0692045895 0.1310736589
447800000.0 0.0418254463 0.1165996342
457750000.0 0.0947725839 0.0372533198
467700000.0 0.0747535702 -0.0427145086
477650000.0 0.0137477854 -0.0770865124
487600000.0 -0.039669255 -0.0567108264
497550000.0 -0.0123689299 -0.0311210695
507500000.0 -0.0672045809 0.0105935887
517450000.0 -0.0266788017 0.025424291
527400000.0 -0.0027782413 0.005043967
537350000.0 -0.0096144242 -0.0239390952
547300000.0 -0.0434282972 -0.0344124078
557250000.0 -0.074103074 -0.0050591676
567200000.0 -0.0720418135 0.0449572495
577150000.0 -0.028639749 0.0865487405
587100000.0 0.0426676471 0.0902212792
597050000.0 0.1085683882 0.0426121649
607000000.0 0.1338557887 -0.0437699657
616950000.0 0.0980590943 -0.1327092941
626900000.0 0.0117147553 -0.1831640083
636850000.0 -0.0895755196 -0.1682834317
646800000.0 -0.1627534673 -0.0915290769
656750000.0 -0.1728602742 0.0172465058
666700000.0 -0.1119320331 0.1116071911
676650000.0 -0.005460696 0.1479728703
686600000.0 0.0987758756 0.1105278274
696550000.0 0.1540052846 0.0184556645
706500000.0 0.1372916553 -0.0818681997
716450000.0 0.0602398982 -0.1411833392
726400000.0 -0.0337311799 -0.1310372446
736350000.0 -0.0919299837 -0.0563613877
746300000.0 -0.0785325616 0.0400855397
756250000.0 0.0026949913 0.0993078522
766200000.0 0.1069239325 0.0820410245
776150000.0 0.1714323452 -0.0107733823
786100000.0 0.1492283586 -0.1312758908
796050000.0 0.038415698 -0.2103651541
806000000.0 -0.1133621803 -0.1906505726
815950000.0 -0.2262524879 -0.0635738991
825900000.0 -0.2315217736 0.1209337057
835850000.0 -0.1111386934 0.2780165075
845800000.0 0.0917130079 0.3278287527
855750000.0 0.2899579941 0.2369158997
865700000.0 0.3941671726 0.0330101267
875650000.0 0.348171136 -0.2015365906
885600000.0 0.1582761233 -0.3668134872
895550000.0 -0.1056802092 -0.3778193857
905500000.0 -0.3276256519 -0.214098262
915450000.0 -0.3971206875 0.060705353
925400000.0 -0.2715433809 0.3212890846
935350000.0 -0.0034598489 0.4382635009
945300000.0 0.2792995208 0.3457024677
955250000.0 0.4298043426 0.0774644569
965200000.0 0.3455144973 -0.237398731
975150000.0 0.0371928244 -0.4085535006
985100000.0 -0.3250052067 -0.2808298163
995050000.0 -0.4703208781 0.1094096072
1005000000.0 -0.2466648602 0.4979557235
1014950000.0 0.2332719467 0.5798027925
1024900000.0 0.6410855826 0.2312374051
1034850000.0 0.6297820761 -0.3634782917
1044800000.0 0.117087616 -0.758833578
1054750000.0 -0.5385420981 -0.5960419659
1064700000.0 -0.8096288545 -0.0003726565
1074650000.0 -0.6272424873 0.5560840274
1084600000.0 -0.082115327 0.8366481653
1094550000.0 0.4696275538 0.6751272917
1104500000.0 0.7754887018 0.1519783382
1114450000.0 0.6004293425 -0.4324978301
1124400000.0 0.0668909197 -0.690985103
1134350000.0 -0.4482259055 -0.4879966005
1144300000.0 -0.640925095 -0.0212032883
1154250000.0 -0.463002973 0.4051938948
1164200000.0 -0.0661752506 0.5715856073
1174150000.0 0.3157159112 0.4225233524
1184100000.0 0.4857710187 0.052405677
1194050000.0 0.3446096172 -0.3261490569
1204000000.0 -0.0077038612 -0.4916532662
1213950000.0 -0.3596279441 -0.3833237652
1223900000.0 -0.5491375163 -0.0892819485
1233850000.0 -0.5157994713 0.2482601073
1243800000.0 -0.2836419834 0.494188354
1253750000.0 0.0568797851 0.5525227969
1263700000.0 0.3739500191 0.3891669404
1273650000.0 0.5326390152 0.0619036615
1283600000.0 0.4674466812 -0.2955330952
1293550000.0 0.2142050883 -0.5431184593
1303500000.0 -0.1213427034 -0.6038877303
1313450000.0 -0.4258339089 -0.47599178
1323400000.0 -0.6120956389 -0.2089321884
1333350000.0 -0.6285698249 0.1194371671
1343300000.0 -0.461240521 0.4158624927
1353250000.0 -0.1457008742 0.5789141044
1363200000.0 0.2183817653 0.5359276812
1373150000.0 0.4978958132 0.2938003378
1383100000.0 0.591760664 -0.0569594785
1393050000.0 0.4825251822 -0.3871070935
1403000000.0 0.2257737129 -0.596743854
1412950000.0 -0.0908889926 -0.6378214426
1422900000.0 -0.377715137 -0.5096701639
1432850000.0 -0.5557784624 -0.2478203438
1442800000.0 -0.5678675196 0.0762553822
1452750000.0 -0.3986177058 0.3630210467
1462700000.0 -0.0938580553 0.5116900192
1472650000.0 0.2405568404 0.4648671329
1482600000.0 0.4833714993 0.2450683485
1492550000.0 0.5595664842 -0.0593382385
1502500000.0 0.4583759963 -0.3427663341
1512450000.0 0.2252929114 -0.5179016861
1522400000.0 -0.0645002856 -0.5336654855
1532350000.0 -0.3149304639 -0.3806803665
1542300000.0 -0.4340905874 -0.1043105553
1552250000.0 -0.3646390942 0.1932477374
1562200000.0 -0.1307900487 0.386409264
1572150000.0 0.1620556454 0.3956942596
1582100000.0 0.3881588256 0.2337101302
1592050000.0 0.4682904923 -0.0190064372
1602000000.0 0.3841648105 -0.263968646
1611950000.0 0.1684754816 -0.4124908543
1621900000.0 -0.1025309368 -0.4025444671
1631850000.0 -0.3217154373 -0.2201234656
1641800000.0 -0.3815798216 0.0698908795
1651750000.0 -0.2461528452 0.3356787788
1661700000.0 0.0196279483 0.4595760706
1671650000.0 0.298420025 0.4019077468
1681600000.0 0.4892538655 0.1974846537
1691550000.0 0.5307136956 -0.0809972856
1701500000.0 0.4042919443 -0.3425656918
1711450000.0 0.1387547668 -0.4932188815
1721400000.0 -0.1813507578 -0.4609088057
1731350000.0 -0.4309927949 -0.2402024928
1741300000.0 -0.5058468387 0.086545922
1751250000.0 -0.3828093838 0.3900362209
1761200000.0 -0.1218970022 0.5663054317
1771150000.0 0.1812709771 0.5711883818
1781100000.0 0.428826084 0.4156412282
1791050000.0 0.545114738 0.1707784109
1801000000.0 0.5483136411 -0.0868600966
1810950000.0 0.4158395498 -0.3522610746
1820900000.0 0.1315893333 -0.5127995276
1830850000.0 -0.2052947953 -0.4780272231
1840800000.0 -0.460760903 -0.2606150982
1850750000.0 -0.5496236181 0.0472909839
1860700000.0 -0.4660350194 0.3354986681
1870650000.0 -0.2597364219 0.5268824286
1880600000.0 0.0025372673 0.5833882465
1890550000.0 0.2520254967 0.4999326707
1900500000.0 0.4222870239 0.2981690413
1910450000.0 0.4600177403 0.0331384945
1920400000.0 0.3481338912 -0.2109976559
1930350000.0 0.1245772268 -0.3486277161
1940300000.0 -0.1208540233 -0.3424087698
1950250000.0 -0.3035742759 -0.2167555964
1960200000.0 -0.3788349372 -0.0374675135
1970150000.0 -0.3497363662 0.126462533
1980100000.0 -0.250648904 0.2271469385
1990050000.0 -0.134456351 0.2456542658
2000000000.0 -0.0548656843 0.1974213029
