!Created with skrf (http://scikit-rf.org).
# GHz S RI R 50.0 
!freq ReS11 ImS11
10000000.0 -0.7708508022 0.6713806266
19950000.0 -0.1483921383 0.9869063531
29900000.0 0.5242121162 0.8271823118
39850000.0 0.9379974869 0.2674255693
49800000.0 0.8850600588 -0.4389382008
59750000.0 0.359907094 -0.9435550543
69700000.0 -0.3919058245 -0.9482819492
79650000.0 -0.9411371905 -0.4011758736
89600000.0 -0.9187473747 0.3945606153
99550000.0 -0.2980167582 0.9248471561
109500000.0 0.5340267445 0.7962503973
119450000.0 0.972096884 0.0373484227
129400000.0 0.6038805477 -0.797188096
139350000.0 -0.3162536983 -0.9600968896
149300000.0 -0.94897522 -0.2798281109
159250000.0 -0.7490453871 0.5953315651
169200000.0 0.0349502203 0.9413307074
179150000.0 0.7659295835 0.5682135839
189100000.0 0.9583147259 -0.2006808028
199050000.0 0.5338176761 -0.8412509986
209000000.0 -0.2006301814 -0.9707759989
218950000.0 -0.7906446317 -0.5588416111
228900000.0 -0.933345107 0.1250535473
238850000.0 -0.5894774559 0.7149944472
248800000.0 0.0540305434 0.9163658449
258750000.0 0.6667031545 0.6723179087
268700000.0 0.9622415517 0.0711629631
278650000.0 0.7810054635 -0.5724400646
288600000.0 0.2171345216 -0.9245510793
298550000.0 -0.4289555289 -0.8070231076
308500000.0 -0.8219933194 -0.2898449857
318450000.0 -0.7582375962 0.3485400304
328400000.0 -0.2756579569 0.7574044921
338350000.0 0.3388641673 0.6991012025
348300000.0 0.6923004625 0.2288144755
358250000.0 0.5742551814 -0.2996719044
368200000.0 0.1450481551 -0.514898467
378150000.0 -0.2252880043 -0.3425602182
388100000.0 -0.2960743258 -0.0148020876
398050000.0 -0.1168608566 0.1833960215
408000000.0 0.0885917759 0.150073837
417950000.0 0.1465282786 -0.0045262277
427900000.0 0.0555338776 -0.1112839554
437850000.0 -0.0711839287 -0.089929718
447800000.0 -0.1234807162 0.023533281
457750000.0 -0.0670637412 0.133270048
467700000.0 0.0499409098 0.1595862985
477650000.0 0.1450700321 0.0914365906
487600000.0 0.1610553179 -0.0198896926
497550000.0 0.1005624874 -0.1068460961
507500000.0 0.0029896946 -0.11765741
517450000.0 -0.0635010185 -0.0692643716
527400000.0 -0.0740689386 -0.0042639258
537350000.0 -0.0425066018 0.0323714952
547300000.0 -0.0105112785 0.0276351418
557250000.0 -0.0062316161 0.0072894585
567200000.0 -0.0289495483 0.0016436931
577150000.0 -0.0494206035 0.0287203674
587100000.0 -0.0342220071 0.0734742267
597050000.0 0.0249175676 0.0973488852
607000000.0 0.0983072346 0.0667170309
616950000.0 0.1373569717 -0.0185478742
626900000.0 0.1063448397 -0.1199391455
636850000.0 0.0075361207 -0.1816386407
646800000.0 -0.1139838861 -0.1623463636
656750000.0 -0.1944927362 -0.0628791424
666700000.0 -0.1855686932 0.0690525336
676650000.0 -0.0870376431 0.1612845623
686600000.0 0.0491209294 0.1622764037
696550000.0 0.1502458001 0.070136317
706500000.0 0.1620761174 -0.0643766652
716450000.0 0.0808527861 -0.1661999509
726400000.0 -0.0427712822 -0.1802278155
736350000.0 -0.1324540815 -0.1026618599
746300000.0 -0.1321344342 0.0115537359
756250000.0 -0.0441647885 0.08236533
766200000.0 0.0677164629 0.0572190165
776150000.0 0.120183431 -0.049633034
786100000.0 0.0669982011 -0.1635635092
796050000.0 -0.0652635821 -0.1965275832
806000000.0 -0.1869752714 -0.1069173888
815950000.0 -0.2013767804 0.0629149031
825900000.0 -0.071840683 0.2039843947
835850000.0 0.140855426 0.209018878
845800000.0 0.3085287916 0.0490167603
855750000.0 0.3163160948 -0.199820711
865700000.0 0.1356182663 -0.3949357823
875650000.0 -0.1477760183 -0.406713567
885600000.0 -0.368276967 -0.1978367012
895550000.0 -0.3567091904 0.1194493375
905500000.0 -0.1337267122 0.294872832
915450000.0 0.1168376507 0.3256017796
925400000.0 0.3711501983 0.1637308112
935350000.0 0.4300857297 -0.1619423059
945300000.0 0.216623941 -0.4374266548
955250000.0 -0.1498418047 -0.4595611614
965200000.0 -0.4193857739 -0.1753371701
975150000.0 -0.3582950515 0.2469046123
985100000.0 0.0561099945 0.4628815518
995050000.0 0.4994516237 0.2222171706
1005000000.0 0.5522045552 -0.3250102198
1014950000.0 0.0804595739 -0.7037553142
1024900000.0 -0.5478024132 -0.5037020109
1034850000.0 -0.7512143092 0.1847654143
1044800000.0 -0.257411887 0.7762593439
1054750000.0 0.5327752635 0.6858239893
1064700000.0 0.8922364648 0.0011667848
1074650000.0 0.5933467276 -0.6597045698
1084600000.0 -0.0632899459 -0.8623714855
1094550000.0 -0.6420719207 -0.5143356255
1104500000.0 -0.7701509977 0.1365675716
1114450000.0 -0.3640198633 0.6577706522
1124400000.0 0.2826996045 0.6737037988
1134350000.0 0.678750544 0.2065991511
1144300000.0 0.5850300721 -0.3513338307
1154250000.0 0.1469536224 -0.634922546
1164200000.0 -0.3307002146 -0.5244351997
1174150000.0 -0.5812867301 -0.1210790062
1184100000.0 -0.4649611628 0.3405326787
1194050000.0 -0.0449739936 0.5657783636
1204000000.0 0.395090844 0.4055237903
1213950000.0 0.5731919134 -0.0098994342
1223900000.0 0.4173683715 -0.412000669
1233850000.0 0.0466102369 -0.5976131303
1243800000.0 -0.3498907791 -0.499492097
1253750000.0 -0.5921244445 -0.1664607396
1263700000.0 -0.5576084671 0.2528825092
1273650000.0 -0.244045171 0.5496075729
1283600000.0 0.1932199252 0.559419613
1293550000.0 0.5230338549 0.2797525768
1303500000.0 0.5916628735 -0.1350133417
1313450000.0 0.3949178187 -0.491093027
1323400000.0 0.0323375512 -0.6551359021
1333350000.0 -0.3553823668 -0.5729679117
1343300000.0 -0.6217380475 -0.2695783842
1353250000.0 -0.646370201 0.1466914757
1363200000.0 -0.3957482954 0.4964182316
1373150000.0 0.0268770186 0.6048510503
1383100000.0 0.4174802699 0.4168112802
1393050000.0 0.5997197269 0.0356261625
1403000000.0 0.5161596196 -0.3616462881
1412950000.0 0.2227134094 -0.6211979779
1422900000.0 -0.1612580812 -0.6579407268
1432850000.0 -0.4929205937 -0.460987907
1442800000.0 -0.6406313394 -0.1000799404
1452750000.0 -0.5295927895 0.2808726904
1462700000.0 -0.1946442113 0.5080045251
1472650000.0 0.2083632546 0.4683531888
1482600000.0 0.4831500531 0.1855276423
1492550000.0 0.5104567261 -0.1938927765
1502500000.0 0.3019769097 -0.4950438289
1512450000.0 -0.0353504751 -0.5979419927
1522400000.0 -0.3545362479 -0.4686745777
1532350000.0 -0.5177349715 -0.1650398899
1542300000.0 -0.4474867613 0.1755403293
1552250000.0 -0.1706852213 0.3843885296
1562200000.0 0.1734734566 0.3483920958
1572150000.0 0.3997359873 0.0909635447
1582100000.0 0.3925320851 -0.2399438204
1592050000.0 0.1666813233 -0.4688808982
1602000000.0 -0.1524441096 -0.4864170491
1611950000.0 -0.404682597 -0.2882252738
1621900000.0 -0.461157092 0.0308800628
1631850000.0 -0.2830163664 0.3168875273
1641800000.0 0.053689791 0.4136786084
1651750000.0 0.3727522502 0.2527676854
1661700000.0 0.4947594639 -0.0876954844
1671650000.0 0.3553167154 -0.4229032849
1681600000.0 0.0341475037 -0.5841172859
1691550000.0 -0.3139615346 -0.5032794237
1701500000.0 -0.5398169179 -0.2206552947
1711450000.0 -0.5485903227 0.1503285171
1721400000.0 -0.3198859453 0.4595029212
1731350000.0 0.0664315372 0.5591632094
1741300000.0 0.4392987098 0.3825295638
1751250000.0 0.6123339938 0.003916933
1761200000.0 0.5049824569 -0.3907975934
1771150000.0 0.1839647006 -0.6261397489
1781100000.0 -0.203072132 -0.6256417483
1791050000.0 -0.5133776067 -0.4087744549
1801000000.0 -0.6458778499 -0.0548268094
1810950000.0 -0.5502587323 0.3191520015
1820900000.0 -0.2420644744 0.5734635234
1830850000.0 0.1694061679 0.5861012927
1840800000.0 0.4990903648 0.3331268536
1850750000.0 0.5913157325 -0.0663698123
1860700000.0 0.423958145 -0.4207834856
1870650000.0 0.0985936618 -0.5952847294
1880600000.0 -0.2467910593 -0.5555816516
1890550000.0 -0.5009853632 -0.3411107274
1900500000.0 -0.5925853123 -0.0302694622
1910450000.0 -0.4933683388 0.2747333442
1920400000.0 -0.2343303399 0.4613218193
1930350000.0 0.0814734744 0.4487016839
1940300000.0 0.3094867531 0.2474079978
1950250000.0 0.3542742976 -0.0307462701
1960200000.0 0.2292191241 -0.2508804389
1970150000.0 0.0248712409 -0.3362239979
1980100000.0 -0.154597233 -0.2868716038
1990050000.0 -0.2360438424 -0.1638845573
2000000000.0 -0.2052997565 -0.0657592088
