!Created with skrf (http://scikit-rf.org).
# GHz S RI R 50.0 
!freq ReS11 ImS11
10000000.0 -0.7937795867 0.6037216213
19950000.0 -0.281486401 0.9469407085
29900000.0 0.3323984563 0.9268193783
39850000.0 0.8219550775 0.5462933816
49800000.0 0.9903738829 -0.0627705501
59750000.0 0.7459424593 -0.6625358034
69700000.0 0.1645517048 -0.9842510632
79650000.0 -0.5048656709 -0.8525822232
89600000.0 -0.9332522498 -0.2981369007
99550000.0 -0.875078588 0.4212378605
109500000.0 -0.3153010137 0.9170307132
119450000.0 0.4611674553 0.8596868484
129400000.0 0.9436582632 0.211214579
139350000.0 0.7871430603 -0.584668485
149300000.0 0.0565584642 -0.9664832577
159250000.0 -0.6887492517 -0.6611499545
169200000.0 -0.9465888474 0.0714568907
179150000.0 -0.6050437529 0.7354954343
189100000.0 0.0784924713 0.9556050482
199050000.0 0.7025839028 0.6559943918
209000000.0 0.954694244 0.0347108532
218950000.0 0.7480560537 -0.5764693595
228900000.0 0.2131715053 -0.9090536635
238850000.0 -0.4036842566 -0.834531711
248800000.0 -0.6587497586 -0.4700466425
258750000.0 -0.9159318995 0.1571744196
268700000.0 -0.6287737976 0.6864607725
278650000.0 -0.0811118744 0.9208171939
288600000.0 0.4897074761 0.764908929
298550000.0 0.8354986068 0.2905274101
308500000.0 0.8056245204 -0.2911001087
318450000.0 0.4163293794 -0.7144120878
328400000.0 -0.1455151674 -0.7820573291
338350000.0 -0.5967223669 -0.4654473246
348300000.0 -0.7020673859 0.0506549111
358250000.0 -0.4335227551 0.4621529116
368200000.0 0.0040531271 0.5483338187
378150000.0 0.3267827818 0.322372992
388100000.0 0.3757338567 -0.0144271292
398050000.0 0.1949467619 -0.2380817214
408000000.0 -0.0438035458 -0.2522316752
417950000.0 -0.1844611217 -0.1135427864
427900000.0 -0.1774773397 0.0503924867
437850000.0 -0.0711325723 0.1384880442
447800000.0 0.0459347876 0.1232199072
457750000.0 0.1054585296 0.041893342
467700000.0 0.0901900113 -0.0427904482
477650000.0 0.0310363359 -0.083050667
487600000.0 -0.025151901 -0.0677930283
497550000.0 0.0011042726 -0.0366745834
507500000.0 -0.0591328366 -0.0095277571
517450000.0 -0.029340649 0.0075549108
527400000.0 -0.012875652 -0.0053095936
537350000.0 -0.0224991441 -0.0236840844
547300000.0 -0.0545601173 -0.0255526227
557250000.0 -0.0805071723 0.0133446313
567200000.0 -0.0687266208 0.0671490345
577150000.0 -0.015486444 0.1073973341
587100000.0 0.0616961027 0.1039201803
597050000.0 0.1283285774 0.046877256
607000000.0 0.148169303 -0.0473820209
616950000.0 0.1041598157 -0.1403962817
626900000.0 0.0097502793 -0.1901222476
636850000.0 -0.0987868719 -0.1722879847
646800000.0 -0.1743093232 -0.0901986044
656750000.0 -0.1841295232 0.0222926633
666700000.0 -0.121075202 0.1170873868
676650000.0 -0.0127095767 0.1523312925
686600000.0 0.0917027975 0.1124735209
696550000.0 0.1451069611 0.0190080768
706500000.0 0.1249549959 -0.0795679643
716450000.0 0.0477389941 -0.1341387745
726400000.0 -0.0407688191 -0.117281841
736350000.0 -0.0861627991 -0.04158716
746300000.0 -0.0606478191 0.0456544355
756250000.0 0.0259507261 0.0893786341
766200000.0 0.123406895 0.056513057
776150000.0 0.1725433929 -0.0437688257
786100000.0 0.1347903615 -0.1610920785
796050000.0 0.0143412201 -0.2285375367
806000000.0 -0.1386764438 -0.1946975294
815950000.0 -0.2460983875 -0.0543079952
825900000.0 -0.2407450641 0.1407163892
835850000.0 -0.1055748202 0.3017488019
845800000.0 0.1110258167 0.3471834447
855750000.0 0.3181944322 0.245783841
865700000.0 0.4235401552 0.0308252175
875650000.0 0.3732044933 -0.213248505
885600000.0 0.1742647357 -0.38362376
895550000.0 -0.0996683909 -0.395451203
905500000.0 -0.3314352647 -0.2300312997
915450000.0 -0.4099493077 0.0520467059
925400000.0 -0.2894265661 0.3225704375
935350000.0 -0.0211975336 0.4506516289
945300000.0 0.2681455111 0.3668650283
955250000.0 0.4274883828 0.1001667771
965200000.0 0.348384269 -0.2186843148
975150000.0 0.0393179594 -0.3926254506
985100000.0 -0.3223873402 -0.2601164064
995050000.0 -0.4561877882 0.1338022731
1005000000.0 -0.214306594 0.5117369528
1014950000.0 0.2773757821 0.5615532288
1024900000.0 0.6608664186 0.1683341241
1034850000.0 0.5845635416 -0.438413859
1044800000.0 0.0133197654 -0.7778759484
1054750000.0 -0.6254306556 -0.5210072946
1064700000.0 -0.772567913 0.1009822748
1074650000.0 -0.5914334245 0.5650553112
1084600000.0 -0.0444273896 0.839306348
1094550000.0 0.520865602 0.634901518
1104500000.0 0.7782462528 0.0806728974
1114450000.0 0.5507202903 -0.4855859144
1124400000.0 -0.0017642378 -0.6907125135
1134350000.0 -0.4884089056 -0.4397621881
1144300000.0 -0.6273218629 0.0392194771
1154250000.0 -0.4046052701 0.4378301595
1164200000.0 0.0050291059 0.5542119632
1174150000.0 0.3637908856 0.3617086129
1184100000.0 0.4851244262 -0.0252218349
1194050000.0 0.2979494718 -0.3798945897
1204000000.0 -0.0709421793 -0.4982063712
1213950000.0 -0.4054808058 -0.348391421
1223900000.0 -0.5612317075 -0.0342728356
1233850000.0 -0.4937882023 0.3006937951
1243800000.0 -0.2368151255 0.5289748108
1253750000.0 0.1140692235 0.5593189232
1263700000.0 0.4227167569 0.3680099173
1273650000.0 0.558290916 0.0235727903
1283600000.0 0.4646760708 -0.3336118586
1293550000.0 0.1922585982 -0.5668344321
1303500000.0 -0.1514914749 -0.6098246372
1313450000.0 -0.4552493488 -0.4660519474
1323400000.0 -0.6359713208 -0.1871903863
1333350000.0 -0.6421370316 0.1487791343
1343300000.0 -0.4608375624 0.4466936385
1353250000.0 -0.1328207174 0.6019928824
1363200000.0 0.23708794 0.5460708183
1373150000.0 0.5136581462 0.290561151
1383100000.0 0.5995318413 -0.0670194876
1393050000.0 0.4833726041 -0.3995007148
1403000000.0 0.2212622492 -0.609677136
1412950000.0 -0.1002190833 -0.6503812317
1422900000.0 -0.3919324882 -0.5199823135
1432850000.0 -0.5718140625 -0.2527700371
1442800000.0 -0.5812330227 0.0764439934
1452750000.0 -0.4063623507 0.3646092396
1462700000.0 -0.0970299548 0.5125557467
1472650000.0 0.2403104221 0.4646171227
1482600000.0 0.4864474593 0.2428341799
1492550000.0 0.5638638678 -0.0635656377
1502500000.0 0.463701225 -0.3478570454
1512450000.0 0.2304539785 -0.523638475
1522400000.0 -0.0604082068 -0.5387040742
1532350000.0 -0.311591477 -0.3817741873
1542300000.0 -0.4262482715 -0.1008158211
1552250000.0 -0.3494621252 0.1959772706
1562200000.0 -0.1117010184 0.3815400047
1572150000.0 0.1772763037 0.3835632509
1582100000.0 0.3955048638 0.2188873843
1592050000.0 0.4664142325 -0.0333243132
1602000000.0 0.3723046741 -0.2732187762
1611950000.0 0.1481024977 -0.4098827802
1621900000.0 -0.1238397424 -0.3816360106
1631850000.0 -0.329261906 -0.1835348306
1641800000.0 -0.3687444876 0.107738993
1651750000.0 -0.2180205403 0.3617536729
1661700000.0 0.0533943042 0.4671664876
1671650000.0 0.3263573855 0.3892246798
1681600000.0 0.4970353641 0.1692686631
1691550000.0 0.5084077885 -0.1034142517
1701500000.0 0.3823106011 -0.3397213393
1711450000.0 0.1226602484 -0.4928316475
1721400000.0 -0.2027049302 -0.4593238712
1731350000.0 -0.454025472 -0.2325792109
1741300000.0 -0.5255277399 0.099600009
1751250000.0 -0.397023187 0.4056381211
1761200000.0 -0.1311683869 0.5830881419
1771150000.0 0.1776306903 0.5912389571
1781100000.0 0.4410056415 0.441431499
1791050000.0 0.5913960864 0.1771513065
1801000000.0 0.5830960153 -0.135797233
1810950000.0 0.4033955513 -0.4077870944
1820900000.0 0.0933992826 -0.5418021847
1830850000.0 -0.243096398 -0.4800483155
1840800000.0 -0.48347711 -0.2461778012
1850750000.0 -0.5541813471 0.0659305739
1860700000.0 -0.4568007891 0.3488197063
1870650000.0 -0.2431844191 0.530910647
1880600000.0 0.0194256215 0.5788154606
1890550000.0 0.2638223662 0.4900621579
1900500000.0 0.4284722451 0.2883032184
1910450000.0 0.4607726534 0.0279860229
1920400000.0 0.346246361 -0.2075881443
1930350000.0 0.127233677 -0.3362346989
1940300000.0 -0.1085661559 -0.3236678774
1950250000.0 -0.2791181245 -0.2002129458
1960200000.0 -0.3446560923 -0.0335779583
1970150000.0 -0.3151200183 0.1115466976
1980100000.0 -0.2296646375 0.1914784912
1990050000.0 -0.1441449218 0.1961860126
2000000000.0 -0.1086494687 0.1559472064
