!Created with skrf (http://scikit-rf.org).
# GHz S RI R 50.0 
!freq ReS11 ImS11
10000000.0 -0.7717900313 0.6803054404
19950000.0 -0.1361154665 0.9906104574
29900000.0 0.5401804554 0.8146269379
39850000.0 0.9430389347 0.2389757268
49800000.0 0.8686375248 -0.4714351056
59750000.0 0.3229018702 -0.962376353
69700000.0 -0.4337405373 -0.9387848842
79650000.0 -0.9623194013 -0.3684358485
89600000.0 -0.9096482539 0.4230920648
99550000.0 -0.2799411475 0.9292550871
109500000.0 0.5361025042 0.7920330112
119450000.0 0.9717272137 0.0535398778
129400000.0 0.6431241786 -0.7644464789
139350000.0 -0.2514618435 -0.9892554623
149300000.0 -0.9290998249 -0.3660718854
159250000.0 -0.8044807963 0.5226624341
169200000.0 -0.0481821935 0.9372593372
179150000.0 0.7223514942 0.6185531946
189100000.0 0.9694113557 -0.154035597
199050000.0 0.5613190048 -0.83166172
209000000.0 -0.1942114867 -0.9788381775
218950000.0 -0.7998089484 -0.5483179127
228900000.0 -0.9233830961 0.1620711597
238850000.0 -0.5306575393 0.7513857515
248800000.0 0.0642377103 0.6642277159
258750000.0 0.7211450269 0.613034142
268700000.0 0.9672915401 -0.0340127755
278650000.0 0.7033273279 -0.6662605712
288600000.0 0.0832333896 -0.939686431
298550000.0 -0.5450602382 -0.7164666442
308500000.0 -0.8452795487 -0.1319116031
318450000.0 -0.6610145599 0.4896818304
328400000.0 -0.1011664055 0.7975398252
338350000.0 0.4940309484 0.6108809501
348300000.0 0.7419420046 0.0687617612
358250000.0 0.5091576786 -0.4338639423
368200000.0 0.0261882296 -0.5629770177
378150000.0 -0.3296947717 -0.307790146
388100000.0 -0.3506444954 0.0654985845
398050000.0 -0.1166099357 0.2706478099
408000000.0 0.1305583021 0.2172132291
417950000.0 0.2108332134 0.0298285295
427900000.0 0.1215451459 -0.1111092895
437850000.0 -0.0188097627 -0.1174228189
447800000.0 -0.0940901001 -0.0225119283
457750000.0 -0.0660395745 0.0801548897
467700000.0 0.0221370534 0.1136342981
477650000.0 0.0924029508 0.0675599952
487600000.0 0.0934981134 -0.009058182
497550000.0 0.0438771621 0.0338473068
507500000.0 0.0137518528 -0.065075631
517450000.0 -0.0296172892 -0.0271343581
527400000.0 -0.0258040795 0.0113302556
537350000.0 0.0006212173 0.0206784503
547300000.0 0.0165708333 -0.0074512654
557250000.0 -0.0161253575 -0.0330050966
567200000.0 -0.0614072796 -0.0183418894
577150000.0 -0.0836088682 0.0350575609
587100000.0 -0.0531806132 0.0977989838
597050000.0 0.0254039387 0.1224745833
607000000.0 0.1103864359 0.0783608606
616950000.0 0.146565922 -0.0232095688
626900000.0 0.1024994246 -0.1320267079
636850000.0 -0.0096233035 -0.1875828953
646800000.0 -0.1353449589 -0.1518833821
656750000.0 -0.2044560412 -0.0356212753
666700000.0 -0.1692075136 0.092082386
676650000.0 -0.0622213159 0.1669497494
686600000.0 0.0751652352 0.1469647921
696550000.0 0.1617756221 0.0352086563
706500000.0 0.1470925913 -0.1035074227
716450000.0 0.0424559901 -0.1905563279
726400000.0 -0.0888588258 -0.1764479986
736350000.0 -0.1640811524 -0.0730971579
746300000.0 -0.1349087037 0.0499602233
756250000.0 -0.0202645227 0.1077702014
766200000.0 0.1010543377 0.0556531215
776150000.0 0.1413972502 -0.0761325742
786100000.0 0.062904497 -0.1985269316
796050000.0 -0.0947630473 -0.2179724298
806000000.0 -0.2254357023 -0.0883314282
815950000.0 -0.177826204 0.1184394604
825900000.0 -0.0089633909 0.1837236944
835850000.0 0.1639024101 0.1505205104
845800000.0 0.289350156 -0.0135943394
855750000.0 0.2587223532 -0.2400294444
865700000.0 0.0619540133 -0.3876296378
875650000.0 -0.1972078194 -0.3493935487
885600000.0 -0.3636158549 -0.1241990571
895550000.0 -0.3194101263 0.1704351473
905500000.0 -0.0664062985 0.3575376351
915450000.0 0.2583224839 0.3083072426
925400000.0 0.4566969433 0.0344084743
935350000.0 0.4000512676 -0.3066256538
945300000.0 0.1105031406 -0.5107588612
955250000.0 -0.2523391545 -0.444146035
965200000.0 -0.4664174261 -0.1188652235
975150000.0 -0.367707704 0.2824764237
985100000.0 0.022775768 0.4859261703
995050000.0 0.4559160351 0.3042490432
1005000000.0 0.5847682557 -0.1786103759
1014950000.0 0.2490142591 -0.5968451316
1024900000.0 -0.3376831942 -0.5501144949
1034850000.0 -0.6252104367 0.0465290644
1044800000.0 -0.1419081703 0.6083924018
1054750000.0 0.5442184605 0.2818355047
1064700000.0 0.3938607186 -0.2479449637
1074650000.0 0.10156509 -0.5547402506
1084600000.0 -0.4232953259 -0.2863337603
1094550000.0 -0.4689558197 0.1819520232
1104500000.0 -0.0569264556 0.509146369
1114450000.0 0.4005756246 0.3376676664
1124400000.0 0.5215272326 -0.0835724063
1134350000.0 0.3082340038 -0.4080355101
1144300000.0 -0.0266359228 -0.483013047
1154250000.0 -0.3023848026 -0.345690921
1164200000.0 -0.4391926566 -0.1031688025
1174150000.0 -0.4524991699 0.1827540172
1184100000.0 -0.2379343856 0.521883971
1194050000.0 0.2191892087 0.5584413356
1204000000.0 0.5543114561 0.2721616633
1213950000.0 0.6176332401 -0.1590016518
1223900000.0 0.3905299603 -0.5257360074
1233850000.0 -0.0076023384 -0.6702805223
1243800000.0 -0.4121653691 -0.5459163353
1253750000.0 -0.6638863692 -0.1972712303
1263700000.0 -0.6482738523 0.2439914791
1273650000.0 -0.3508769528 0.5860268825
1283600000.0 0.1026807054 0.6604042639
1293550000.0 0.4972485928 0.42992144
1303500000.0 0.6590951375 0.0154422359
1313450000.0 0.5452524648 -0.3992168447
1323400000.0 0.2204096725 -0.663395963
1333350000.0 -0.1912931052 -0.6936947796
1343300000.0 -0.5479043679 -0.4831495076
1353250000.0 -0.7196045935 -0.0975959902
1363200000.0 -0.6250095091 0.3281834881
1373150000.0 -0.2767308915 0.6152810218
1383100000.0 0.1825504526 0.6192125886
1393050000.0 0.5395503428 0.3370903011
1403000000.0 0.6461210223 -0.0893063997
1412950000.0 0.4854617992 -0.4795125295
1422900000.0 0.1386929937 -0.6978075685
1432850000.0 -0.2637854915 -0.6762234307
1442800000.0 -0.5780687226 -0.423539404
1452750000.0 -0.6791375243 -0.0278447069
1462700000.0 -0.512722695 0.3512805895
1472650000.0 -0.1425777496 0.5433680654
1482600000.0 0.2629876545 0.4585313477
1492550000.0 0.5149950654 0.1438067457
1502500000.0 0.5106734204 -0.2427459527
1512450000.0 0.2758928222 -0.5270649639
1522400000.0 -0.0707386655 -0.5982767165
1532350000.0 -0.3746330794 -0.4376215542
1542300000.0 -0.5004050861 -0.1243503162
1552250000.0 -0.3872687394 0.1897957631
1562200000.0 -0.095449009 0.3390715463
1572150000.0 0.2080692348 0.2457460532
1582100000.0 0.3499234174 -0.0248885857
1592050000.0 0.2567039481 -0.3017517519
1602000000.0 0.0018330826 -0.4213103319
1611950000.0 -0.2578993036 -0.3210183967
1621900000.0 -0.369758013 -0.0621487888
1631850000.0 -0.260692037 0.2082080363
1641800000.0 0.0190180312 0.3256974798
1651750000.0 0.3110290904 0.2038108843
1661700000.0 0.4335711044 -0.0973326193
1671650000.0 0.3093749358 -0.4045881141
1681600000.0 0.0059567865 -0.5487579594
1691550000.0 -0.3232705385 -0.4595579926
1701500000.0 -0.5284205274 -0.1767720833
1711450000.0 -0.5155360766 0.1840559959
1721400000.0 -0.2712500401 0.4726746491
1731350000.0 0.1159350812 0.5468107835
1741300000.0 0.4712449406 0.3504646207
1751250000.0 0.6201505307 -0.0327911494
1761200000.0 0.4928859729 -0.4193458504
1771150000.0 0.1622253194 -0.6403808471
1781100000.0 -0.2244778134 -0.624702254
1791050000.0 -0.5282512436 -0.3965339926
1801000000.0 -0.6532618391 -0.036963964
1810950000.0 -0.5521188318 0.3387246633
1820900000.0 -0.2396040392 0.593456885
1830850000.0 0.1767903967 0.6062207329
1840800000.0 0.5149355378 0.3523142131
1850750000.0 0.6157772506 -0.0529272095
1860700000.0 0.4521503027 -0.4184935612
1870650000.0 0.1238158052 -0.606064481
1880600000.0 -0.2320257017 -0.5785749488
1890550000.0 -0.5027212675 -0.371655008
1900500000.0 -0.6155144033 -0.0585486157
1910450000.0 -0.5351923623 0.2631305634
1920400000.0 -0.2829648663 0.4787761687
1930350000.0 0.0467945737 0.4978379134
1940300000.0 0.3084372664 0.3116918119
1950250000.0 0.3910353341 0.0221763303
1960200000.0 0.2903816961 -0.2313269825
1970150000.0 0.0877172983 -0.3595148669
1980100000.0 -0.1163470972 -0.3515155239
1990050000.0 -0.2535356875 -0.2535162348
2000000000.0 -0.3015493051 -0.1340945825
