!Created with skrf (http://scikit-rf.org).
# GHz S RI R 50.0 
!freq ReS11 ImS11
10000000.0 -0.999539301 0.1592540067
19950000.0 -0.9470980613 0.304366449
29900000.0 -0.8733507376 0.443890509
39850000.0 -0.7774853168 0.5822939668
49800000.0 -0.6608586818 0.7145675976
59750000.0 -0.5182347816 0.8343369729
69700000.0 -0.342091698 0.9305791107
79650000.0 -0.1271255219 0.98441683
89600000.0 0.1251978193 0.9776233424
99550000.0 0.4019779037 0.8880361875
109500000.0 0.6777905071 0.6989904922
119450000.0 0.9045643632 0.3959837167
129400000.0 1.009745123 -0.0058501349
139350000.0 0.9305032062 -0.4253417405
149300000.0 0.6700124098 -0.7637748693
159250000.0 0.3114909574 -0.9468851149
169200000.0 -0.0521196595 -0.9815118643
179150000.0 -0.3655380176 -0.9095149946
189100000.0 -0.6093937159 -0.7735787414
199050000.0 -0.7801379001 -0.6038565233
209000000.0 -0.8821891624 -0.4193543058
218950000.0 -0.9323102574 -0.2355053176
228900000.0 -0.9429671223 -0.0592406339
238850000.0 -0.9262812527 0.1076809797
248800000.0 -0.8696895028 0.2662845568
258750000.0 -0.8404932934 0.4058058705
268700000.0 -0.7690904637 0.5367938915
278650000.0 -0.6746871259 0.6479972742
288600000.0 -0.555869853 0.7355781333
298550000.0 -0.415127159 0.797177595
308500000.0 -0.2559016841 0.8338863614
318450000.0 -0.0825851247 0.8405567106
328400000.0 0.0986911177 0.8106786751
338350000.0 0.2708503894 0.7321841365
348300000.0 0.4114513481 0.5983516905
358250000.0 0.4914795105 0.4170832096
368200000.0 0.4942663508 0.2186295266
378150000.0 0.426708541 0.0410961609
388100000.0 0.3141647427 -0.0873944789
398050000.0 0.1874712378 -0.1554258797
408000000.0 0.0731942067 -0.1669055866
417950000.0 -0.01460551 -0.1368036364
427900000.0 -0.073598673 -0.0833258139
437850000.0 -0.1072467025 -0.021988163
447800000.0 -0.1214242762 0.0348595613
457750000.0 -0.1209926722 0.0802533719
467700000.0 -0.1087622011 0.1101682925
477650000.0 -0.0870437191 0.1233058972
487600000.0 -0.0594782262 0.1221077802
497550000.0 -0.0302289788 0.1108524384
507500000.0 0.0009979054 0.0961597971
517450000.0 0.0234062202 0.0760684991
527400000.0 0.0355328494 0.0555417672
537350000.0 0.0333941835 0.0352003248
547300000.0 0.0191119795 0.01591316
557250000.0 -0.0049352534 -0.0027868775
567200000.0 -0.0344414244 -0.0201691115
577150000.0 -0.0652587941 -0.0330317383
587100000.0 -0.0927295253 -0.0393213729
597050000.0 -0.1145826098 -0.0351993016
607000000.0 -0.1311415825 -0.0209479418
616950000.0 -0.139312984 0.0015076555
626900000.0 -0.1476873972 0.0326022395
636850000.0 -0.1521136209 0.0662132793
646800000.0 -0.1523064614 0.09881598
656750000.0 -0.1469994851 0.1263009427
666700000.0 -0.1336264676 0.1467220761
676650000.0 -0.1107950442 0.1587293754
686600000.0 -0.0784391705 0.1640711119
696550000.0 -0.0390605329 0.1638629001
706500000.0 0.0035100435 0.158306028
716450000.0 0.0445106822 0.1475295935
726400000.0 0.079124126 0.1287157699
736350000.0 0.1040765932 0.0999873998
746300000.0 0.1162964029 0.0605325086
756250000.0 0.1168418185 0.0109312915
766200000.0 0.1055097573 -0.045736035
776150000.0 0.084226277 -0.1039232565
786100000.0 0.0529283513 -0.1573502384
796050000.0 0.0118372079 -0.1992488531
806000000.0 -0.0387632293 -0.2240867321
815950000.0 -0.0988053113 -0.2288784148
825900000.0 -0.1654255685 -0.2148722511
835850000.0 -0.2340367951 -0.1845364265
845800000.0 -0.3002268096 -0.1418447299
855750000.0 -0.3572472435 -0.0886542567
865700000.0 -0.3978059087 -0.0270537771
875650000.0 -0.4177958496 0.043076021
885600000.0 -0.4132526748 0.1197585898
895550000.0 -0.3849374312 0.2013746454
905500000.0 -0.3351089204 0.2855465529
915450000.0 -0.265979281 0.3664467967
925400000.0 -0.1793761507 0.4356551358
935350000.0 -0.0749259165 0.4840508555
945300000.0 0.0452499166 0.5006557264
955250000.0 0.1784006755 0.474556571
965200000.0 0.3171247949 0.3970145442
975150000.0 0.4468280128 0.264531739
985100000.0 0.5426021333 0.0754835871
995050000.0 0.5708188539 -0.1588697221
1005000000.0 0.5011897869 -0.4028938841
1014950000.0 0.3254754543 -0.6181655953
1024900000.0 0.0418970721 -0.7468166232
1034850000.0 -0.290058933 -0.7393368075
1044800000.0 -0.5880316218 -0.591972635
1054750000.0 -0.7804723385 -0.3374396316
1064700000.0 -0.820614533 -0.0369250497
1074650000.0 -0.7398767882 0.21610846
1084600000.0 -0.6901855913 0.3624713
1094550000.0 -0.5922134426 0.5575140428
1104500000.0 -0.3608895754 0.7297188235
1114450000.0 -0.0942039195 0.8032678117
1124400000.0 0.16852868 0.7773784354
1134350000.0 0.3914923044 0.6623399753
1144300000.0 0.5506848281 0.4813030559
1154250000.0 0.6377804147 0.2669622818
1164200000.0 0.6578913786 0.0489141947
1174150000.0 0.627790183 -0.1479319921
1184100000.0 0.5605307418 -0.3169589252
1194050000.0 0.4599114216 -0.4507709038
1204000000.0 0.3350937883 -0.5423486474
1213950000.0 0.1987772098 -0.5924691652
1223900000.0 0.0621198002 -0.6105452623
1233850000.0 -0.0674818896 -0.6071981057
1243800000.0 -0.1857787145 -0.5889830198
1253750000.0 -0.2900423204 -0.55970632
1263700000.0 -0.3783943919 -0.518951675
1273650000.0 -0.4502965974 -0.4677480525
1283600000.0 -0.5055418078 -0.4047445843
1293550000.0 -0.5475127161 -0.3324411048
1303500000.0 -0.5804859361 -0.2545757847
1313450000.0 -0.6076270161 -0.175099271
1323400000.0 -0.630926746 -0.0980699245
1333350000.0 -0.6488504447 -0.0258439694
1343300000.0 -0.6594885506 0.0421976384
1353250000.0 -0.6599329944 0.1055619666
1363200000.0 -0.6458838999 0.166981231
1373150000.0 -0.6174019472 0.2277895218
1383100000.0 -0.5788929501 0.2882881711
1393050000.0 -0.5342761862 0.3484969292
1403000000.0 -0.4880012139 0.4068204598
1412950000.0 -0.4405354987 0.4613804527
1422900000.0 -0.3916711356 0.5089379676
1432850000.0 -0.3394614172 0.5462169405
1442800000.0 -0.2813412437 0.5722938506
1452750000.0 -0.2151660036 0.5867676149
1462700000.0 -0.1406234565 0.5916839102
1472650000.0 -0.0599941443 0.590297622
1482600000.0 0.0229601352 0.5845883076
1492550000.0 0.1045629659 0.573108234
1502500000.0 0.1823970472 0.5533535038
1512450000.0 0.2536558298 0.5213819231
1522400000.0 0.3157110637 0.4735122096
1532350000.0 0.3686693752 0.4084334495
1542300000.0 0.4136606765 0.3287889049
1552250000.0 0.4519650723 0.2385657616
1562200000.0 0.4842601272 0.1434546649
1572150000.0 0.5062876316 0.0462776351
1582100000.0 0.5133142572 -0.0495396147
1592050000.0 0.5011606356 -0.140495221
1602000000.0 0.4666563135 -0.2257762413
1611950000.0 0.4119579957 -0.3029870524
1621900000.0 0.3416770993 -0.3738446599
1631850000.0 0.2616873363 -0.4378163305
1641800000.0 0.177917113 -0.4941339434
1651750000.0 0.0935634246 -0.5394870087
1661700000.0 0.0109422045 -0.5698852169
1671650000.0 -0.068853217 -0.5820296549
1681600000.0 -0.1459179278 -0.5754251247
1691550000.0 -0.2210334419 -0.553115371
1701500000.0 -0.2944912815 -0.5197885051
1711450000.0 -0.3662407849 -0.4809134004
1721400000.0 -0.4343081962 -0.4397578621
1731350000.0 -0.4961992166 -0.3985022205
1741300000.0 -0.5488944023 -0.3557915959
1751250000.0 -0.5882401379 -0.3086253106
1761200000.0 -0.6139703414 -0.2562711106
1771150000.0 -0.6279251188 -0.1984024995
1781100000.0 -0.6347795581 -0.1363788036
1791050000.0 -0.6388915589 -0.0738162487
1801000000.0 -0.6433985253 -0.0125045574
1810950000.0 -0.6492363212 0.0453564574
1820900000.0 -0.6537204391 0.1002563813
1830850000.0 -0.6510245087 0.1496857256
1840800000.0 -0.6375848516 0.195368503
1850750000.0 -0.611858195 0.2383267614
1860700000.0 -0.5740805904 0.2791847681
1870650000.0 -0.5296035953 0.3194663688
1880600000.0 -0.4825966764 0.3590328624
1890550000.0 -0.4351375604 0.3954886063
1900500000.0 -0.3824311787 0.3660988407
1910450000.0 -0.3008108509 0.3195528727
1920400000.0 -0.3142311035 0.3838452953
1930350000.0 -0.3483860242 0.4044190283
1940300000.0 -0.3042466869 0.4052232585
1950250000.0 -0.2512497856 0.3937157056
1960200000.0 -0.1959954351 0.3762971431
1970150000.0 -0.144754572 0.3533985737
1980100000.0 -0.101085932 0.3250722016
1990050000.0 -0.0688855088 0.2890680442
2000000000.0 -0.0516340214 0.2401497483
