!Created with skrf (http://scikit-rf.org).
# GHz S RI R 50.0 
!freq ReS11 ImS11
10000000.0 -0.7700276548 0.674664433
19950000.0 -0.142513739 0.988280559
29900000.0 0.5315501182 0.8220875396
39850000.0 0.9409738958 0.2549754288
49800000.0 0.8773983119 -0.4550490345
59750000.0 0.3373317076 -0.9537307527
69700000.0 -0.4233835885 -0.9367544379
79650000.0 -0.9577099825 -0.3613021561
89600000.0 -0.8955059921 0.4421001766
99550000.0 -0.2376575726 0.9399325703
109500000.0 0.5918558038 0.7534655125
119450000.0 0.9738561795 -0.0448971193
129400000.0 0.5284323374 -0.8524117936
139350000.0 -0.407691395 -0.9251981783
149300000.0 -0.9684874527 -0.1863267452
159250000.0 -0.6906009255 0.6568066471
169200000.0 0.1049296805 0.9350824633
179150000.0 0.7991977005 0.52417201
189100000.0 0.9518203963 -0.2427266356
199050000.0 0.505962549 -0.8610949845
209000000.0 -0.2292780859 -0.9654234657
218950000.0 -0.8047343642 -0.5362724456
228900000.0 -0.9276985795 0.1482913616
238850000.0 -0.5733518781 0.7255327443
248800000.0 0.0619371936 0.9165396499
258750000.0 0.6710725823 0.6700051763
268700000.0 0.9648183829 0.0745206719
278650000.0 0.7882226906 -0.5682267884
288600000.0 0.2255433106 -0.9249177529
298550000.0 -0.424284024 -0.8093506776
308500000.0 -0.8194740671 -0.290556331
318450000.0 -0.7559562816 0.3475906643
328400000.0 -0.2776435979 0.7558948533
338350000.0 0.3320819278 0.7049468982
348300000.0 0.6911226384 0.244953134
358250000.0 0.5855654234 -0.2838598025
368200000.0 0.1614364776 -0.5079719289
378150000.0 -0.2112300591 -0.3422168264
388100000.0 -0.286020412 -0.0173196799
398050000.0 -0.111400341 0.1786955327
408000000.0 0.0880448954 0.1470120652
417950000.0 0.1430802685 -0.0018191229
427900000.0 0.0534667525 -0.1017356181
437850000.0 -0.067809621 -0.0757308834
447800000.0 -0.1134707217 0.0366047251
457750000.0 -0.0528563508 0.1404770453
467700000.0 0.0640140386 0.1605121889
477650000.0 0.1545824997 0.0890592493
487600000.0 0.1655334367 -0.0215944173
497550000.0 0.1011728013 -0.1043560091
507500000.0 0.0031374088 -0.112017275
517450000.0 -0.0605904357 -0.0610637262
527400000.0 -0.0676018364 0.0053887484
537350000.0 -0.0324098609 0.0418740728
547300000.0 0.0023147283 0.0352317487
557250000.0 0.0073891181 0.0089746125
567200000.0 -0.0183833563 -0.0017076559
577150000.0 -0.0441075212 0.0245776135
587100000.0 -0.033711623 0.072698987
597050000.0 0.0237700189 0.1025909169
607000000.0 0.1006627153 0.0772167941
616950000.0 0.1464632281 -0.0081513798
626900000.0 0.1190903498 -0.1179340314
636850000.0 7.38928e-05 -0.1771600793
646800000.0 -0.0901395769 -0.1460576444
656750000.0 -0.1704188332 -0.066112889
666700000.0 -0.1715041238 0.0567079897
676650000.0 -0.0849870504 0.1492838332
686600000.0 0.0437862707 0.1571377712
696550000.0 0.1436123796 0.0749068228
706500000.0 0.1603835908 -0.0508493809
716450000.0 0.0887475622 -0.1494489562
726400000.0 -0.0257116511 -0.1665006568
736350000.0 -0.1099137135 -0.0968961886
746300000.0 -0.1093999128 0.0079744682
756250000.0 -0.0268445256 0.0720673187
766200000.0 0.0770864114 0.0447449402
776150000.0 0.1224731713 -0.0597690469
786100000.0 0.0640710872 -0.1691487085
796050000.0 -0.0731334182 -0.1915852698
806000000.0 -0.1742078597 -0.0857390014
815950000.0 -0.1813801866 0.0630249077
825900000.0 -0.0610980001 0.1997453603
835850000.0 0.1452484992 0.2097706074
845800000.0 0.315161868 0.0608521726
855750000.0 0.3380766408 -0.1811276697
865700000.0 0.1789990567 -0.3865504665
875650000.0 -0.0946703323 -0.4302633835
885600000.0 -0.3373817536 -0.2630460104
895550000.0 -0.4008913575 0.042161964
905500000.0 -0.227468137 0.3193309707
915450000.0 0.0999162211 0.4016841559
925400000.0 0.3988659299 0.2294061397
935350000.0 0.4951268113 -0.1083769914
945300000.0 0.3216827485 -0.4222536955
955250000.0 -0.0358253319 -0.5193613632
965200000.0 -0.3645461345 -0.3141248563
975150000.0 -0.4295946191 0.0906593923
985100000.0 -0.1382229577 0.4151967272
995050000.0 0.3224286034 0.3763688835
1005000000.0 0.5736264783 -0.0443244232
1014950000.0 0.3616207734 -0.5272894947
1024900000.0 -0.2081284353 -0.6387580416
1034850000.0 -0.6677143833 -0.1817514345
1044800000.0 -0.5178379855 0.5221177556
1054750000.0 0.2090712237 0.7809720217
1064700000.0 0.8257039418 0.2937133897
1074650000.0 0.7709091491 -0.4692603283
1084600000.0 0.1398551755 -0.8480577034
1094550000.0 -0.4460211775 -0.6836240877
1104500000.0 -0.799027828 -0.0671306345
1114450000.0 -0.5043502416 0.5853718667
1124400000.0 0.1738335775 0.7302586103
1134350000.0 0.6672447319 0.3064958386
1144300000.0 0.6515363215 -0.2851421538
1154250000.0 0.233938996 -0.6341828653
1164200000.0 -0.2763069072 -0.5704142714
1174150000.0 -0.5700694432 -0.1675036071
1184100000.0 -0.4716479476 0.3177028759
1194050000.0 -0.0452306964 0.5575202421
1204000000.0 0.4012995587 0.3966976092
1213950000.0 0.5792386944 -0.0177188173
1223900000.0 0.4254968954 -0.4168708377
1233850000.0 0.0568029462 -0.6041791501
1243800000.0 -0.3424587796 -0.5065191637
1253750000.0 -0.585697864 -0.1653854628
1263700000.0 -0.5402402605 0.2628147409
1273650000.0 -0.2098355345 0.5504330103
1283600000.0 0.228208792 0.5354808133
1293550000.0 0.5398282216 0.2412076621
1303500000.0 0.5911468507 -0.1663694848
1313450000.0 0.3903265359 -0.5097864297
1323400000.0 0.0298761478 -0.665906472
1333350000.0 -0.3573199272 -0.5789076256
1343300000.0 -0.6224460386 -0.2672177433
1353250000.0 -0.6362624663 0.157955954
1363200000.0 -0.3647994893 0.5024228017
1373150000.0 0.0684919328 0.5876360427
1383100000.0 0.4464472998 0.3789736918
1393050000.0 0.6061320553 -0.0034575863
1403000000.0 0.5099914163 -0.3884032855
1412950000.0 0.2167643712 -0.637377845
1422900000.0 -0.1631142811 -0.6702278044
1432850000.0 -0.4924555222 -0.4699697686
1442800000.0 -0.6353411099 -0.1014630875
1452750000.0 -0.5106191789 0.2834165039
1462700000.0 -0.1632239026 0.4985982256
1472650000.0 0.2350982683 0.4382834226
1482600000.0 0.4930071432 0.1475853451
1492550000.0 0.509824987 -0.2228881796
1502500000.0 0.303209567 -0.5123506679
1512450000.0 -0.028269513 -0.6118749318
1522400000.0 -0.3476765909 -0.4852506261
1532350000.0 -0.5137560954 -0.1816267416
1542300000.0 -0.4381455725 0.1611080852
1552250000.0 -0.1503475798 0.3643716732
1562200000.0 0.1905041882 0.3177914372
1572150000.0 0.4006588976 0.0638857843
1582100000.0 0.3889892578 -0.2551216218
1592050000.0 0.1718978307 -0.4810339259
1602000000.0 -0.1384385217 -0.5057261906
1611950000.0 -0.389946649 -0.3133346458
1621900000.0 -0.449466731 0.0077742818
1631850000.0 -0.2701231235 0.294741872
1641800000.0 0.0658971096 0.3830013551
1651750000.0 0.3748012885 0.2141848305
1661700000.0 0.4858677879 -0.1195955062
1671650000.0 0.3467201294 -0.4396788151
1681600000.0 0.0357665994 -0.5927547334
1691550000.0 -0.3051845816 -0.5156578018
1701500000.0 -0.531305065 -0.23796755
1711450000.0 -0.5389661366 0.1331489176
1721400000.0 -0.3006965286 0.4406839527
1731350000.0 0.0937968667 0.5274270203
1741300000.0 0.4537151574 0.3346044921
1751250000.0 0.6002527183 -0.0428740117
1761200000.0 0.479354384 -0.4191752679
1771150000.0 0.1656849299 -0.6379641084
1781100000.0 -0.206904147 -0.6339839145
1791050000.0 -0.5099647416 -0.420990344
1801000000.0 -0.6415165746 -0.0679218889
1810950000.0 -0.5402903137 0.308905906
1820900000.0 -0.2196225076 0.5577172321
1830850000.0 0.1963721917 0.5502285469
1840800000.0 0.5072256849 0.2793651466
1850750000.0 0.5723430552 -0.1150135852
1860700000.0 0.3940843156 -0.4486216295
1870650000.0 0.0777717419 -0.6077327203
1880600000.0 -0.2550729568 -0.5662457139
1890550000.0 -0.5042295129 -0.3562891599
1900500000.0 -0.5962134065 -0.046713688
1910450000.0 -0.4936058603 0.2607625293
1920400000.0 -0.2277238948 0.4449057097
1930350000.0 0.0938775738 0.4261320489
1940300000.0 0.3166923737 0.2129368256
1950250000.0 0.3477955483 -0.0728632272
1960200000.0 0.1960281641 -0.2719211511
1970150000.0 0.0481528822 -0.3594831347
1980100000.0 -0.1468193088 -0.3541274623
1990050000.0 -0.2763829819 -0.2481040139
2000000000.0 -0.3109311859 -0.1161347082
