!Created with skrf (http://scikit-rf.org).
# GHz S RI R 50.0 
!freq ReS11 ImS11
10000000.0 -0.7264916322 0.5608710978
19950000.0 -0.2645458905 0.8874131871
29900000.0 0.3036849444 0.8759430481
39850000.0 0.7658185577 0.5174840806
49800000.0 0.9244615937 -0.0663637747
59750000.0 0.686436987 -0.6440001231
69700000.0 0.1279949184 -0.9514129415
79650000.0 -0.5068779268 -0.8177842684
89600000.0 -0.905060622 -0.2728938073
99550000.0 -0.8318507279 0.43414003
109500000.0 -0.2648674821 0.9158295586
119450000.0 0.5097846763 0.8296609205
129400000.0 0.9717200415 0.1566502706
139350000.0 0.7436831721 -0.643803976
149300000.0 -0.0123791106 -0.961723727
159250000.0 -0.7132911084 -0.5922116951
169200000.0 -0.8981463019 0.1407971729
179150000.0 -0.5263297388 0.7442945773
189100000.0 0.1153710867 0.9030694043
199050000.0 0.667366356 0.5941555751
209000000.0 0.8808976838 0.0131742724
218950000.0 0.6896735676 -0.5487010613
228900000.0 0.2046449144 -0.8560955727
238850000.0 -0.355667689 -0.7952170374
248800000.0 -0.7509729667 -0.3891039095
258750000.0 -0.8467019616 0.1408125623
268700000.0 -0.5949615222 0.6341538301
278650000.0 -0.109776078 0.8729739175
288600000.0 0.412122211 0.7653250834
298550000.0 0.7616536301 0.3556633337
308500000.0 0.7912916721 -0.1911127413
318450000.0 0.4770257276 -0.6398218437
328400000.0 -0.043570531 -0.7839659873
338350000.0 -0.5178147817 -0.552333199
348300000.0 -0.6994628318 -0.0757134443
358250000.0 -0.5118753068 0.3659353589
368200000.0 -0.1092557132 0.5269630256
378150000.0 0.2319573253 0.3713962447
388100000.0 0.331007984 0.0735585454
398050000.0 0.2070518568 -0.1445700559
408000000.0 0.0141288604 -0.178944215
417950000.0 -0.1009342442 -0.0780136409
427900000.0 -0.0918295403 0.0421250986
437850000.0 -0.0058395988 0.0895151964
447800000.0 0.0731967615 0.0453079521
457750000.0 0.0889544018 -0.0433993218
467700000.0 0.0356716763 -0.1154669455
477650000.0 -0.046708356 -0.1271113233
487600000.0 -0.109430511 -0.0773147419
497550000.0 -0.1187655094 0.0027031033
507500000.0 -0.083432163 0.0694118603
517450000.0 -0.0134872234 0.0943880166
527400000.0 0.0460952284 0.0716402281
537350000.0 0.0673132726 0.0219152089
547300000.0 0.0477241995 -0.0204918226
557250000.0 0.0056575045 -0.0336274498
567200000.0 -0.0272672515 -0.0133420465
577150000.0 -0.0279039241 0.0191476466
587100000.0 0.0026998481 0.034511044
597050000.0 0.0427626912 0.0128972571
607000000.0 0.0593383507 -0.0401891135
616950000.0 0.0368015354 -0.1019506027
626900000.0 -0.0278817586 -0.1296993648
636850000.0 -0.09922148 -0.1036754141
646800000.0 -0.1414263917 -0.031002234
656750000.0 -0.1292167085 0.0600538178
666700000.0 -0.0611395043 0.1288701624
676650000.0 0.0375268387 0.140982238
686600000.0 0.1252873636 0.0851687174
696550000.0 0.1605061019 -0.0169566866
706500000.0 0.1227365486 -0.1214485463
716450000.0 0.0287943764 -0.1795895687
726400000.0 -0.0783869667 -0.1607576407
736350000.0 -0.1427544502 -0.0744638998
746300000.0 -0.1290796662 0.0366391636
756250000.0 -0.0397227787 0.1138531836
766200000.0 0.0803024105 0.1112790074
776150000.0 0.1672517732 0.0286931127
786100000.0 0.1709718799 -0.0927755076
796050000.0 0.083165824 -0.184438755
806000000.0 -0.0540028745 -0.1860578151
815950000.0 -0.1670566907 -0.0842452308
825900000.0 -0.1853211266 0.0797604453
835850000.0 -0.086955166 0.2242858902
845800000.0 0.0884845057 0.2698314489
855750000.0 0.2609943768 0.1840031019
865700000.0 0.3451079737 -0.005701302
875650000.0 0.2858362767 -0.2190804011
885600000.0 0.0906922355 -0.3499200367
895550000.0 -0.1584207449 -0.3179935939
905500000.0 -0.3371156988 -0.11811841
915450000.0 -0.3440538001 0.1662692864
925400000.0 -0.1604422597 0.3926712898
935350000.0 0.1298895067 0.4377769544
945300000.0 0.3764292396 0.2711897723
955250000.0 0.449253347 -0.037525794
965200000.0 0.2813093969 -0.3374988509
975150000.0 -0.0773262135 -0.4428353925
985100000.0 -0.4290886003 -0.2347869278
995050000.0 -0.5109617854 0.1993308283
1005000000.0 -0.2171918961 0.5649787713
1014950000.0 0.2831589385 0.5801594595
1024900000.0 0.6453964901 0.1703344536
1034850000.0 0.5522292543 -0.4127781222
1044800000.0 0.0112517596 -0.7220188363
1054750000.0 -0.5736014379 -0.47173659
1064700000.0 -0.743114051 0.1321442804
1074650000.0 -0.466271695 0.6278878737
1084600000.0 0.0895692629 0.7872406107
1094550000.0 0.5845327187 0.4918296247
1104500000.0 0.7206689676 -0.0803754238
1114450000.0 0.4065303396 -0.5790525632
1124400000.0 -0.1440511726 -0.6905018934
1134350000.0 -0.5761802655 -0.3891412184
1144300000.0 -0.6715351737 0.095921174
1154250000.0 -0.4350022111 0.4971866325
1164200000.0 -0.0135311359 0.6370198434
1174150000.0 0.3850611143 0.4677892741
1184100000.0 0.5713413593 0.0761824431
1194050000.0 0.4459144104 -0.3362746855
1204000000.0 0.0917229737 -0.5493853009
1213950000.0 -0.2920908931 -0.4815916718
1223900000.0 -0.5366493731 -0.2056709213
1233850000.0 -0.5675837922 0.1450530056
1243800000.0 -0.3907396051 0.4396322292
1253750000.0 -0.0722333784 0.5696200318
1263700000.0 0.2695184569 0.4755055302
1273650000.0 0.4896189856 0.1856754064
1283600000.0 0.4916485708 -0.1763163322
1293550000.0 0.2893540409 -0.458381195
1303500000.0 -0.0180781452 -0.565650602
1313450000.0 -0.3136251284 -0.4863892443
1323400000.0 -0.5156762333 -0.2656627569
1333350000.0 -0.5785846729 0.0313283078
1343300000.0 -0.4756915637 0.32769651
1353250000.0 -0.2131929177 0.5212932376
1363200000.0 0.1282781385 0.5229438191
1373150000.0 0.4126237837 0.3148438826
1383100000.0 0.5228314926 -0.0158868582
1393050000.0 0.4324789434 -0.3388430677
1403000000.0 0.1969520753 -0.5466964367
1412950000.0 -0.0898697114 -0.5905555837
1422900000.0 -0.3425862818 -0.4772561626
1432850000.0 -0.5008714741 -0.240287232
1442800000.0 -0.5161050319 0.0640007419
1452750000.0 -0.3549474478 0.3414716002
1462700000.0 -0.055411316 0.4777105497
1472650000.0 0.2658820978 0.4131076928
1482600000.0 0.4820124218 0.178078621
1492550000.0 0.5217170418 -0.1266443376
1502500000.0 0.3883743551 -0.3911636598
1512450000.0 0.1386090978 -0.5316495091
1522400000.0 -0.140730266 -0.5061005503
1532350000.0 -0.356118205 -0.3183425286
1542300000.0 -0.4260580505 -0.0269193039
1552250000.0 -0.3079231697 0.259359967
1562200000.0 -0.0440428222 0.4179787472
1572150000.0 0.251130486 0.3861751361
1582100000.0 0.4583734106 0.1919612047
1592050000.0 0.5077963986 -0.0800292631
1602000000.0 0.3874098609 -0.3273898171
1611950000.0 0.1375399783 -0.460487387
1621900000.0 -0.1542134082 -0.4199124502
1631850000.0 -0.37508437 -0.2039911305
1641800000.0 -0.4245578585 0.1085024146
1651750000.0 -0.2725988273 0.3870495286
1661700000.0 0.0110178859 0.5133301757
1671650000.0 0.3069809414 0.4481184785
1681600000.0 0.5079916092 0.2299818995
1691550000.0 0.5544143568 -0.060664295
1701500000.0 0.432730078 -0.3323867354
1711450000.0 0.1771621892 -0.4952379968
1721400000.0 -0.1382573488 -0.4846380951
1731350000.0 -0.4034688088 -0.2870238609
1741300000.0 -0.5143307337 0.0322017682
1751250000.0 -0.4279385244 0.3502775768
1761200000.0 -0.1875119192 0.5529054078
1771150000.0 0.1121435033 0.5874543421
1781100000.0 0.3762124453 0.4603743227
1791050000.0 0.535834918 0.2161320665
1801000000.0 0.5502025888 -0.0798464133
1810950000.0 0.411913341 -0.3481090683
1820900000.0 0.1498673192 -0.5035714929
1830850000.0 -0.1623451814 -0.4839753118
1840800000.0 -0.414474436 -0.2866812018
1850750000.0 -0.5152666844 0.0105110425
1860700000.0 -0.4463791169 0.297867895
1870650000.0 -0.2525238418 0.492624851
1880600000.0 -0.0043830893 0.5538774465
1890550000.0 0.2254710274 0.4793177215
1900500000.0 0.3784986592 0.2970270744
1910450000.0 0.4188275543 0.0561263736
1920400000.0 0.3328836863 -0.1744575701
1930350000.0 0.1397819219 -0.3181024152
1940300000.0 -0.0900076759 -0.3259185056
1950250000.0 -0.2697610519 -0.2116933619
1960200000.0 -0.3475420607 -0.0380529308
1970150000.0 -0.3213715689 0.1262373447
1980100000.0 -0.22218852 0.2295892496
1990050000.0 -0.10533527 0.2471346316
2000000000.0 -0.0300688181 0.1894643926
