!Created with skrf (http://scikit-rf.org).
# GHz S RI R 50.0 
!freq ReS11 ImS11
10000000.0 -0.805475695 0.6018065079
19950000.0 -0.2944846211 0.9472872516
29900000.0 0.3199866903 0.9308431582
39850000.0 0.8142602115 0.553470505
49800000.0 0.9901666371 -0.0568000585
59750000.0 0.7498543394 -0.6642001404
69700000.0 0.1625475712 -0.9933556792
79650000.0 -0.5186166367 -0.8558859138
89600000.0 -0.9460357977 -0.2792518886
99550000.0 -0.8571264246 0.4599136484
109500000.0 -0.244087647 0.9373959628
119450000.0 0.5585392699 0.8018716455
129400000.0 0.9862211251 0.0713646379
139350000.0 0.6765820844 -0.7211988156
149300000.0 -0.1286624209 -0.9645582792
159250000.0 -0.8023609739 -0.5195181219
169200000.0 -0.9191020868 0.2408625904
179150000.0 -0.4783877469 0.8284135512
189100000.0 0.2160807624 0.9434599654
199050000.0 0.7842603296 0.5765887691
209000000.0 0.9662440611 -0.0504261984
218950000.0 0.7197034449 -0.6260557141
228900000.0 0.1863277777 -0.9215562239
238850000.0 -0.4061997183 -0.8393932254
248800000.0 -0.817889039 -0.4287732637
258750000.0 -0.9280589346 0.1525288911
268700000.0 -0.6622130349 0.6765826736
278650000.0 -0.1361599554 0.933848464
288600000.0 0.4345833104 0.8208624664
298550000.0 0.8164505206 0.3879207634
308500000.0 0.8541674685 -0.1851038227
318450000.0 0.5297060219 -0.6546143375
328400000.0 -0.0136796836 -0.8090791387
338350000.0 -0.5129858379 -0.572881625
348300000.0 -0.7072042545 -0.0829825839
358250000.0 -0.51473972 0.3647372892
368200000.0 -0.1080643884 0.5167071753
378150000.0 0.2249838199 0.3490218448
388100000.0 0.3038186987 0.0499368868
398050000.0 0.1610872452 -0.1537255773
408000000.0 -0.0344903273 -0.163758008
417950000.0 -0.1328413891 -0.0424832715
427900000.0 -0.0956434931 0.0845167733
437850000.0 0.0172398124 0.125625908
447800000.0 0.1160658474 0.0665069179
457750000.0 0.1386077171 -0.0425920765
467700000.0 0.0798821193 -0.1324715841
477650000.0 -0.0198396463 -0.1563612162
487600000.0 -0.1040051134 -0.1103906858
497550000.0 -0.136571957 -0.0304834514
507500000.0 -0.1087416308 0.046141652
517450000.0 -0.0488673814 0.0787617135
527400000.0 0.005539599 0.0659759583
537350000.0 0.0277028256 0.0290440328
547300000.0 0.0165208297 0.0003446968
557250000.0 -0.0081654181 -0.0015837626
567200000.0 -0.0173342371 0.0227925975
577150000.0 0.0055125916 0.0496972893
587100000.0 0.0522934942 0.0496312721
597050000.0 0.0957610268 0.0088474317
607000000.0 0.1036575228 -0.0623829101
616950000.0 0.0594044374 -0.1317189086
626900000.0 -0.0258392316 -0.1623422532
636850000.0 -0.1191327773 -0.1320614363
646800000.0 -0.1771170875 -0.0465998673
656750000.0 -0.1702607811 0.0611774721
666700000.0 -0.0956509361 0.1447472052
676650000.0 0.016989335 0.1653579159
686600000.0 0.1192111487 0.1118901399
696550000.0 0.1664317799 0.0078463937
706500000.0 0.1383495204 -0.0986364669
716450000.0 0.0518158317 -0.158980092
726400000.0 -0.0484566101 -0.1459260855
736350000.0 -0.1092483529 -0.0690798902
746300000.0 -0.0975867452 0.0275045766
756250000.0 -0.0189422201 0.0877584089
766200000.0 0.081318754 0.0732628599
776150000.0 0.1422006815 -0.0134978011
786100000.0 0.1201917316 -0.1243427664
796050000.0 0.0153460126 -0.1912531644
806000000.0 -0.1217144552 -0.1609668155
815950000.0 -0.2130111594 -0.0299102145
825900000.0 -0.1936940982 0.1472759788
835850000.0 -0.0525074499 0.2825397798
845800000.0 0.1569879956 0.2978489998
855750000.0 0.3394392178 0.1685556806
865700000.0 0.3994990264 -0.0603966974
875650000.0 0.2942928454 -0.2785568394
885600000.0 0.0730172366 -0.3955881968
895550000.0 -0.195555646 -0.3491612986
905500000.0 -0.3851187747 -0.1299537037
915450000.0 -0.3912933499 0.1714226273
925400000.0 -0.1968692824 0.4109328101
935350000.0 0.1122618517 0.4642135536
945300000.0 0.381698877 0.2939928912
955250000.0 0.4681477823 -0.0226148229
965200000.0 0.3031385155 -0.3311252259
975150000.0 -0.0645743506 -0.4391511676
985100000.0 -0.4215492128 -0.2151471559
995050000.0 -0.4804520015 0.2385452184
1005000000.0 -0.1365359075 0.5933178929
1014950000.0 0.3998694312 0.5369483136
1024900000.0 0.7149749425 0.0314447892
1034850000.0 0.4841248788 -0.5858429176
1044800000.0 -0.1987525838 -0.784727314
1054750000.0 -0.7805920461 -0.3468494096
1064700000.0 -0.7959549778 0.3581538865
1074650000.0 -0.2874856739 0.7905555525
1084600000.0 0.1873756669 0.7488284058
1094550000.0 0.6972556998 0.4230867574
1104500000.0 0.7575690553 -0.2039178255
1114450000.0 0.3435456537 -0.6679127352
1124400000.0 -0.2526118731 -0.6803609535
1134350000.0 -0.6433447224 -0.2902704088
1144300000.0 -0.6502421728 0.215345244
1154250000.0 -0.3378162928 0.5656046087
1164200000.0 0.1081435973 0.6162240438
1174150000.0 0.4691557726 0.3608334898
1184100000.0 0.562095596 -0.072766247
1194050000.0 0.3352829073 -0.4472044575
1204000000.0 -0.0682533316 -0.5646647627
1213950000.0 -0.4293190315 -0.4011920415
1223900000.0 -0.6009716838 -0.0676719266
1233850000.0 -0.5406083458 0.2902373351
1243800000.0 -0.2803621874 0.5431887189
1253750000.0 0.087383222 0.59386549
1263700000.0 0.4211881445 0.4083364604
1273650000.0 0.5771942229 0.0538661061
1283600000.0 0.4912735895 -0.3208966518
1293550000.0 0.2137659283 -0.5679915113
1303500000.0 -0.1394950621 -0.6164246786
1313450000.0 -0.4521601069 -0.4708825414
1323400000.0 -0.6375401434 -0.1847682593
1333350000.0 -0.6407767095 0.1606995364
1343300000.0 -0.4488799478 0.4624931862
1353250000.0 -0.1082502787 0.6108669134
1363200000.0 0.2655583117 0.5375253038
1373150000.0 0.5314941359 0.2643846428
1383100000.0 0.5968291653 -0.1006771617
1393050000.0 0.4588011931 -0.427811307
1403000000.0 0.1794177373 -0.622541041
1412950000.0 -0.1517003027 -0.6394270334
1422900000.0 -0.4408160026 -0.4789886952
1432850000.0 -0.5997644398 -0.1823993328
1442800000.0 -0.5672006823 0.1624664289
1452750000.0 -0.3411925241 0.4352408241
1462700000.0 0.0014771692 0.5317413315
1472650000.0 0.3307878517 0.4196622253
1482600000.0 0.5315702005 0.1529539665
1492550000.0 0.54824284 -0.1655097717
1502500000.0 0.3898521901 -0.4285446423
1512450000.0 0.1151521532 -0.5540571485
1522400000.0 -0.1830674559 -0.4976341651
1532350000.0 -0.3949758492 -0.2727637336
1542300000.0 -0.4314918607 0.0394206493
1552250000.0 -0.2718557066 0.3094863696
1562200000.0 0.0123388942 0.4239356555
1572150000.0 0.2963610715 0.345479589
1582100000.0 0.4685222491 0.1196861668
1592050000.0 0.4688088932 -0.157376309
1602000000.0 0.3008391881 -0.3795785826
1611950000.0 0.0258128452 -0.4581164187
1621900000.0 -0.2521871591 -0.3509897064
1631850000.0 -0.414707826 -0.0876135736
1641800000.0 -0.382097368 0.2281106228
1651750000.0 -0.1635243028 0.4593956413
1661700000.0 0.1462239904 0.5119763203
1671650000.0 0.4229608346 0.3746447036
1681600000.0 0.5698683764 0.1060296623
1691550000.0 0.5414047906 -0.2027409578
1701500000.0 0.3410448392 -0.4515244459
1711450000.0 0.0238605375 -0.5512923607
1721400000.0 -0.307789241 -0.4507720251
1731350000.0 -0.5295011123 -0.174474023
1741300000.0 -0.5548459895 0.1815624724
1751250000.0 -0.377163726 0.4836642263
1761200000.0 -0.0738670972 0.6326483606
1771150000.0 0.2505020992 0.6000161836
1781100000.0 0.5069050011 0.4098200459
1791050000.0 0.6324222833 0.1148320691
1801000000.0 0.5877701351 -0.2120528714
1810950000.0 0.3688009291 -0.4775622605
1820900000.0 0.0282105175 -0.5842119803
1830850000.0 -0.3176266738 -0.4815458455
1840800000.0 -0.5423580903 -0.2097688068
1850750000.0 -0.5810442219 0.1227864913
1860700000.0 -0.4493623723 0.40618612
1870650000.0 -0.2086596265 0.5735305826
1880600000.0 0.0703612838 0.5978294073
1890550000.0 0.3192549032 0.4811329227
1900500000.0 0.473924364 0.2515214452
1910450000.0 0.4818635549 -0.0282155011
1920400000.0 0.3349534715 -0.2648229831
1930350000.0 0.0912713583 -0.3755608682
1940300000.0 -0.1524245603 -0.3375421754
1950250000.0 -0.3169822473 -0.1941643109
1960200000.0 -0.3721968168 -0.0151929114
1970150000.0 -0.3317809645 0.1369581159
1980100000.0 -0.2348079793 0.2216142767
1990050000.0 -0.1349764387 0.227611967
2000000000.0 -0.0834760144 0.1812672341
