!Created with skrf (http://scikit-rf.org).
# GHz S RI R 50.0 
!freq ReS11 ImS11
10000000.0 -0.8118617896 0.6045067604
19950000.0 -0.2977157869 0.9490314376
29900000.0 0.31792201 0.9301596423
39850000.0 0.8122314396 0.5516402396
49800000.0 0.9895338447 -0.0587398245
59750000.0 0.7517403836 -0.668002444
69700000.0 0.1648292816 -1.000804902
79650000.0 -0.5182438648 -0.865504462
89600000.0 -0.9478671218 -0.2892166933
99550000.0 -0.8619860139 0.4503521206
109500000.0 -0.2536652821 0.9326852014
119450000.0 0.5505134112 0.8086752493
129400000.0 0.9918861719 0.0857465754
139350000.0 0.6939740724 -0.7171811059
149300000.0 -0.1118336567 -0.972440511
159250000.0 -0.7938904052 -0.5325634285
169200000.0 -0.9192506613 0.2305781644
179150000.0 -0.4822474867 0.8262482148
189100000.0 0.2160554656 0.9482204857
199050000.0 0.790225875 0.5810007734
209000000.0 0.9726860788 -0.0505533235
218950000.0 0.7216174704 -0.6277549097
228900000.0 0.1840123758 -0.9204240613
238850000.0 -0.4101595503 -0.8337551639
248800000.0 -0.8029337805 -0.4112219189
258750000.0 -0.9283985274 0.1627241341
268700000.0 -0.6586400385 0.6881157564
278650000.0 -0.1279054175 0.942193055
288600000.0 0.4436435146 0.8219038919
298550000.0 0.820396829 0.3829685583
308500000.0 0.8514790069 -0.1906323765
318450000.0 0.5237314524 -0.6579875932
328400000.0 -0.0208956313 -0.8114647186
338350000.0 -0.522172966 -0.5746328355
348300000.0 -0.7180945711 -0.0822114108
358250000.0 -0.5246488546 0.3687745192
368200000.0 -0.1147013666 0.5232623428
378150000.0 0.2235275329 0.3554602153
388100000.0 0.3069244584 0.0530820618
398050000.0 0.1659600425 -0.1551150426
408000000.0 -0.0297281439 -0.168791965
417950000.0 -0.129006817 -0.0505776076
427900000.0 -0.0936857197 0.0743528991
437850000.0 0.0166561624 0.1146910693
447800000.0 0.1127927614 0.0564802284
457750000.0 0.1331184725 -0.0500224751
467700000.0 0.073346682 -0.1358156853
477650000.0 -0.0254325156 -0.154629215
487600000.0 -0.105971361 -0.1036372639
497550000.0 -0.1273735469 -0.0209857037
507500000.0 -0.0994767164 0.0535531289
517450000.0 -0.0352870763 0.0833989504
527400000.0 0.0208120833 0.0656262655
537350000.0 0.0409873503 0.0234962152
547300000.0 0.0250792349 -0.0082062931
557250000.0 -0.0061237528 -0.0106062968
567200000.0 -0.0212754186 0.0168398516
577150000.0 -0.0021132377 0.0491758461
587100000.0 0.0439994413 0.0549450973
597050000.0 0.0892809033 0.019082782
607000000.0 0.1007956103 -0.0493218936
616950000.0 0.0606816569 -0.1184404838
626900000.0 -0.0210931616 -0.1517130456
636850000.0 -0.1127851195 -0.1257636928
646800000.0 -0.1717659366 -0.0451584303
656750000.0 -0.1677355157 0.0587511615
666700000.0 -0.0972024058 0.1399428022
676650000.0 0.0110130216 0.1598887264
686600000.0 0.1093275422 0.1076650647
696550000.0 0.1544879137 0.0065294561
706500000.0 0.1267804997 -0.096677197
716450000.0 0.0422723301 -0.1546370535
726400000.0 -0.0544114034 -0.1404754483
736350000.0 -0.1112030267 -0.0645512895
746300000.0 -0.095880427 0.0294042956
756250000.0 -0.0153745973 0.0857235819
766200000.0 0.0849130486 0.0674109659
776150000.0 0.1444338598 -0.0221856628
786100000.0 0.1200996142 -0.1343235491
796050000.0 0.012903889 -0.2010494783
806000000.0 -0.1256971878 -0.1689965609
815950000.0 -0.2172932887 -0.03529999
825900000.0 -0.1972370964 0.1445878289
835850000.0 -0.0545612127 0.2818706799
845800000.0 0.1553896452 0.2982440844
855750000.0 0.3373672039 0.1740068963
865700000.0 0.4063447553 -0.0475856368
875650000.0 0.3153828348 -0.2760483378
885600000.0 0.0868603454 -0.4044613359
895550000.0 -0.1865722625 -0.3600015138
905500000.0 -0.3820201481 -0.1449681564
915450000.0 -0.4002995512 0.1554027575
925400000.0 -0.2198129183 0.4041653092
935350000.0 0.0835093115 0.4780941919
945300000.0 0.3658576302 0.3305961698
955250000.0 0.4800113141 0.0214930982
965200000.0 0.3451724712 -0.2984829662
975150000.0 0.0023396577 -0.4435358147
985100000.0 -0.3654929301 -0.2848606273
995050000.0 -0.5020296874 0.1219596743
1005000000.0 -0.2662410534 0.5139506303
1014950000.0 0.2188800307 0.590334373
1024900000.0 0.6230215021 0.2367683344
1034850000.0 0.6078604835 -0.3571561139
1044800000.0 0.0865407558 -0.7531002541
1054750000.0 -0.5860401904 -0.5702337693
1064700000.0 -0.8388820896 0.068967612
1074650000.0 -0.5752311288 0.6529757083
1084600000.0 0.0434668328 0.8648319868
1094550000.0 0.6180800506 0.5783279672
1104500000.0 0.8143739035 -0.0472994657
1114450000.0 0.4871767953 -0.6157084742
1124400000.0 -0.1367238249 -0.7452192604
1134350000.0 -0.6148922134 -0.3931142005
1144300000.0 -0.6834438441 0.1441420439
1154250000.0 -0.3833118363 0.5413990738
1164200000.0 0.0787631793 0.6201357394
1174150000.0 0.4616776755 0.3733225567
1184100000.0 0.5701202655 -0.0712698921
1194050000.0 0.3377794178 -0.4582367328
1204000000.0 -0.078355505 -0.5721352457
1213950000.0 -0.4428680607 -0.3941148181
1223900000.0 -0.6058149903 -0.0471662236
1233850000.0 -0.529992874 0.3156824822
1243800000.0 -0.2538133831 0.5630442468
1253750000.0 0.1238607209 0.5984140803
1263700000.0 0.4549264196 0.3927692019
1273650000.0 0.5943813483 0.0241166772
1283600000.0 0.4864183302 -0.3503518812
1293550000.0 0.1935293614 -0.5849090173
1303500000.0 -0.1644329181 -0.6169175808
1313450000.0 -0.4737996272 -0.4578880645
1323400000.0 -0.651401642 -0.1623582324
1333350000.0 -0.6434306262 0.188031131
1343300000.0 -0.4380896385 0.4875499419
1353250000.0 -0.0869178382 0.6243422563
1363200000.0 0.2873942949 0.534504272
1373150000.0 0.5437741515 0.2489592352
1383100000.0 0.5961229628 -0.1196126372
1393050000.0 0.4478986115 -0.4433306879
1403000000.0 0.1627451339 -0.6317952477
1412950000.0 -0.1708356923 -0.6411924161
1422900000.0 -0.4580221767 -0.4725256763
1432850000.0 -0.6095333725 -0.1693749984
1442800000.0 -0.5659256517 0.1759131403
1452750000.0 -0.3311074185 0.441685777
1462700000.0 0.013366971 0.528213386
1472650000.0 0.3385994315 0.4094645485
1482600000.0 0.5336579896 0.1404005273
1492550000.0 0.5450769394 -0.1765535771
1502500000.0 0.3828442696 -0.435354886
1512450000.0 0.1066789176 -0.5534860183
1522400000.0 -0.1882673535 -0.4876333875
1532350000.0 -0.3896421798 -0.255464821
1542300000.0 -0.4107132247 0.0553454147
1552250000.0 -0.2396694155 0.3131284543
1562200000.0 0.046145815 0.4095957011
1572150000.0 0.319072563 0.3143120317
1582100000.0 0.470105057 0.080381552
1592050000.0 0.445319396 -0.1909642879
1602000000.0 0.2567669624 -0.392422513
1611950000.0 -0.0238394628 -0.438305945
1621900000.0 -0.2856347401 -0.2987349861
1631850000.0 -0.4133707971 -0.0189394699
1641800000.0 -0.3416474455 0.2878641923
1651750000.0 -0.0972759756 0.4879531726
1661700000.0 0.2154532797 0.4991666444
1671650000.0 0.4713834286 0.3255786879
1681600000.0 0.5813836235 0.0367164174
1691550000.0 0.5102453365 -0.2700916745
1701500000.0 0.2738756345 -0.4948944944
1711450000.0 -0.0612761977 -0.5543721585
1721400000.0 -0.3860462337 -0.4084218073
1731350000.0 -0.5738458668 -0.0962125005
1741300000.0 -0.5484986969 0.2664721877
1751250000.0 -0.3286045848 0.544662583
1761200000.0 -0.004441152 0.6537469688
1771150000.0 0.318056813 0.5794424706
1781100000.0 0.5547287432 0.3553850856
1791050000.0 0.6478590543 0.0398499854
1801000000.0 0.564188344 -0.2893945034
1810950000.0 0.3087660824 -0.5357006118
1820900000.0 -0.0522438485 -0.6041520976
1830850000.0 -0.3919465955 -0.457439745
1840800000.0 -0.5872656157 -0.1545710024
1850750000.0 -0.5882621144 0.1866153761
1860700000.0 -0.4246027352 0.4602287017
1870650000.0 -0.1631803032 0.6080879365
1880600000.0 0.1256585765 0.6093902775
1890550000.0 0.3750283501 0.4699692514
1900500000.0 0.520407571 0.2191467988
1910450000.0 0.5102547584 -0.0750823379
1920400000.0 0.3418633643 -0.3149388242
1930350000.0 0.0788625047 -0.4216438339
1940300000.0 -0.1835065239 -0.3733174647
1950250000.0 -0.3625072463 -0.2118490191
1960200000.0 -0.4250291923 -0.0089538608
1970150000.0 -0.3827847208 0.1707917047
1980100000.0 -0.2710052375 0.2854688784
1990050000.0 -0.1370451861 0.3169364679
2000000000.0 -0.0288853497 0.2758169793
