!Created with skrf (http://scikit-rf.org).
# GHz S RI R 50.0 
!freq ReS11 ImS11
10000000.0 -0.7570965033 0.5704286956
19950000.0 -0.2776417202 0.8975147689
29900000.0 0.3038245597 0.8806939833
39850000.0 0.7738735388 0.5170032635
49800000.0 0.9392303007 -0.0719810537
59750000.0 0.7035581484 -0.6582207979
69700000.0 0.134847858 -0.9729367846
79650000.0 -0.5181001138 -0.8340751093
89600000.0 -0.9233851439 -0.2727707341
99550000.0 -0.8371852514 0.4448310586
109500000.0 -0.2495162974 0.9203572155
119450000.0 0.5376464239 0.8147993875
129400000.0 0.9917712692 0.1166466456
139350000.0 0.7317830772 -0.6841866768
149300000.0 -0.0517022502 -0.9718202245
159250000.0 -0.7418158212 -0.5662530938
169200000.0 -0.8956671807 0.1759069622
179150000.0 -0.4999065543 0.7686541803
189100000.0 0.1564696587 0.9132814251
199050000.0 0.7126351464 0.589713435
209000000.0 0.9142627059 -0.002518049
218950000.0 0.7019222723 -0.5640130584
228900000.0 0.2001950005 -0.8624189316
238850000.0 -0.3682762946 -0.7927567427
248800000.0 -0.7654028583 -0.4012678994
258750000.0 -0.8693332417 0.1550150394
268700000.0 -0.6150658874 0.6542552868
278650000.0 -0.117247426 0.8956032751
288600000.0 0.4196008844 0.782030168
298550000.0 0.7755647315 0.361849374
308500000.0 0.8016596495 -0.1924731638
318450000.0 0.4797245672 -0.6436920103
328400000.0 -0.0507155485 -0.7861922537
338350000.0 -0.5329381505 -0.5474900095
348300000.0 -0.7130004873 -0.062195211
358250000.0 -0.514135455 0.3775268008
368200000.0 -0.1044829216 0.5245038728
378150000.0 0.2316571098 0.3546423733
388100000.0 0.3188021691 0.0515076748
398050000.0 0.1845548861 -0.1622508292
408000000.0 -0.0109241301 -0.1874995555
417950000.0 -0.1199317635 -0.0788835969
427900000.0 -0.1002343187 0.0449706043
437850000.0 -0.0040469956 0.0927022956
447800000.0 0.0842638011 0.0466334763
457750000.0 0.1060756471 -0.0447329688
467700000.0 0.0553186587 -0.1200468779
477650000.0 -0.0279001052 -0.1353265417
487600000.0 -0.0941426632 -0.089961925
497550000.0 -0.1165906602 -0.0076841554
507500000.0 -0.0771775599 0.0550392866
517450000.0 -0.015664095 0.0788883112
527400000.0 0.0366954414 0.060837012
537350000.0 0.0539333949 0.0193152487
547300000.0 0.0344805083 -0.0112778728
557250000.0 0.0010659315 -0.0135083277
567200000.0 -0.0193593835 0.0116519011
577150000.0 -0.0076658153 0.0422387324
587100000.0 0.0306686256 0.0497835875
597050000.0 0.0710797687 0.0172920928
607000000.0 0.080437788 -0.0454128588
616950000.0 0.0415381192 -0.1070880316
626900000.0 -0.0335137064 -0.133329153
636850000.0 -0.1132877604 -0.1029773865
646800000.0 -0.1591748182 -0.0249075687
656750000.0 -0.1463367153 0.0705147128
666700000.0 -0.0737175807 0.1403601834
676650000.0 0.0304121799 0.1500010573
686600000.0 0.1218454365 0.0894827892
696550000.0 0.1577772744 -0.0168609365
706500000.0 0.1192318902 -0.1237700032
716450000.0 0.0244761451 -0.1823195512
726400000.0 -0.0822852554 -0.1625494695
736350000.0 -0.1443687428 -0.0757600271
746300000.0 -0.1272486114 0.0329510068
756250000.0 -0.0364691439 0.1047251341
766200000.0 0.0814835996 0.0958940624
776150000.0 0.1629586749 0.009186719
786100000.0 0.1595491841 -0.1113689309
796050000.0 0.0668889836 -0.1961305691
806000000.0 -0.0650975705 -0.1890519668
815950000.0 -0.1701186871 -0.080011199
825900000.0 -0.1769752239 0.0849297869
835850000.0 -0.0697752652 0.2241114533
845800000.0 0.1087353725 0.2623496397
855750000.0 0.2782337617 0.1716028592
865700000.0 0.3553060602 -0.0179124387
875650000.0 0.2880176254 -0.2253105625
885600000.0 0.0885432154 -0.3455134641
895550000.0 -0.1581566958 -0.3038709449
905500000.0 -0.3297464325 -0.0998194744
915450000.0 -0.3293035059 0.1808693976
925400000.0 -0.1423195399 0.3985283588
935350000.0 0.1459799817 0.4361711663
945300000.0 0.3908238322 0.260037737
955250000.0 0.4503880635 -0.0599812441
965200000.0 0.2528842049 -0.3588351027
975150000.0 -0.1337164299 -0.4326582838
985100000.0 -0.4773312692 -0.1707816714
995050000.0 -0.5014496286 0.2980253461
1005000000.0 -0.1251640627 0.6350636372
1014950000.0 0.4104033861 0.5421294848
1024900000.0 0.6936737074 0.0229834397
1034850000.0 0.4475933201 -0.5633001264
1044800000.0 -0.1880773291 -0.7323620613
1054750000.0 -0.7115497361 -0.3297054152
1064700000.0 -0.7333245564 0.3078751822
1074650000.0 -0.2830342676 0.7041891795
1084600000.0 0.1415202422 0.696245165
1094550000.0 0.6148523701 0.4032557809
1104500000.0 0.6962436678 -0.1704489026
1114450000.0 0.3358858972 -0.6271402683
1124400000.0 -0.2229082514 -0.6731737677
1134350000.0 -0.6156510492 -0.3215839394
1144300000.0 -0.6489269752 0.1687517835
1154250000.0 -0.3664115393 0.5306524098
1164200000.0 0.0659990538 0.6131512056
1174150000.0 0.4391491139 0.3968597612
1184100000.0 0.5734672414 -0.014902273
1194050000.0 0.3929565522 -0.4032093273
1204000000.0 0.0149299494 -0.560075606
1213950000.0 -0.3520652261 -0.4400513325
1223900000.0 -0.5555278034 -0.1367722229
1233850000.0 -0.541307439 0.2135220253
1243800000.0 -0.3280938486 0.4858056299
1253750000.0 0.0085822314 0.5792682964
1263700000.0 0.3423700996 0.4453173236
1273650000.0 0.5289058147 0.1289342679
1283600000.0 0.487001706 -0.2330663778
1293550000.0 0.2499477257 -0.4917931944
1303500000.0 -0.073842577 -0.5668807335
1313450000.0 -0.3701676214 -0.4587505604
1323400000.0 -0.5603737428 -0.2169297536
1333350000.0 -0.5992569253 0.0912195846
1343300000.0 -0.4633971806 0.3837288759
1353250000.0 -0.1721462016 0.554751138
1363200000.0 0.1785899877 0.5223523935
1373150000.0 0.4495037549 0.2847506515
1383100000.0 0.5338041322 -0.0581301259
1393050000.0 0.4195040164 -0.3760989722
1403000000.0 0.1675849267 -0.5699676358
1412950000.0 -0.1310441179 -0.5965811779
1422900000.0 -0.3897911956 -0.4637035847
1432850000.0 -0.5389328294 -0.2072353662
1442800000.0 -0.5269764109 0.104748682
1452750000.0 -0.3338091714 0.3687810934
1462700000.0 -0.0157924295 0.4748017194
1472650000.0 0.3015430032 0.3793319253
1482600000.0 0.4991015959 0.1264448181
1492550000.0 0.5161728776 -0.1796964826
1502500000.0 0.3626181926 -0.4307120148
1512450000.0 0.0994100783 -0.5454254786
1522400000.0 -0.1805047028 -0.4855798683
1532350000.0 -0.3751357511 -0.2659319384
1542300000.0 -0.4046923263 0.0359355179
1552250000.0 -0.2464434836 0.3005143204
1562200000.0 0.0337078645 0.414944825
1572150000.0 0.3140304541 0.3407432509
1582100000.0 0.485849294 0.1210974447
1592050000.0 0.4901546764 -0.151774006
1602000000.0 0.3271192172 -0.3736880602
1611950000.0 0.0553137037 -0.4583672617
1621900000.0 -0.2260365936 -0.362355728
1631850000.0 -0.4031370138 -0.1064291831
1641800000.0 -0.3924121863 0.2104551223
1651750000.0 -0.1915069603 0.4557512692
1661700000.0 0.1104020834 0.5273987274
1671650000.0 0.3894166756 0.4089546586
1681600000.0 0.54830632 0.1553915779
1691550000.0 0.5406479061 -0.1446699895
1701500000.0 0.3672552111 -0.3977102998
1711450000.0 0.0771376503 -0.5185681125
1721400000.0 -0.244011183 -0.4552330456
1731350000.0 -0.4810535308 -0.2148112884
1741300000.0 -0.5408041657 0.1210474672
1751250000.0 -0.402818074 0.4245422244
1761200000.0 -0.1290369215 0.5911556968
1771150000.0 0.1799586862 0.5838627749
1781100000.0 0.4340001599 0.4207549075
1791050000.0 0.5697749268 0.15219265
1801000000.0 0.5525684751 -0.1526834281
1810950000.0 0.377667196 -0.4122239748
1820900000.0 0.0842276249 -0.5404444333
1830850000.0 -0.2381873154 -0.4793562861
1840800000.0 -0.468659122 -0.2446340202
1850750000.0 -0.5270124571 0.0662506661
1860700000.0 -0.4160993823 0.34062914
1870650000.0 -0.1982535982 0.4832535846
1880600000.0 0.0191817008 0.5333234242
1890550000.0 0.252520169 0.4592294541
1900500000.0 0.403781362 0.2690989613
1910450000.0 0.4316334647 0.0280169487
1920400000.0 0.32752376 -0.190116006
1930350000.0 0.1261764175 -0.309938944
1940300000.0 -0.0944507691 -0.297645974
1950250000.0 -0.2544028872 -0.1797916759
1960200000.0 -0.3165343289 -0.0184647667
1970150000.0 -0.2868306149 0.1227147917
1980100000.0 -0.2014692073 0.2006741378
1990050000.0 -0.115835632 0.2020218935
2000000000.0 -0.0821919499 0.1540335625
