!Created with skrf (http://scikit-rf.org).
# GHz S RI R 50.0 
!freq ReS11 ImS11
10000000.0 -0.7453394497 0.6767103941
19950000.0 -0.1066724052 0.9832442604
29900000.0 0.5743066858 0.791481773
39850000.0 0.9597702033 0.1868661603
49800000.0 0.8336326159 -0.5313167412
59750000.0 0.2376445812 -0.9738864488
69700000.0 -0.5102568751 -0.8695792853
79650000.0 -0.9684251135 -0.2528422202
89600000.0 -0.8368412872 0.5178111453
99550000.0 -0.1627173171 0.9504537873
109500000.0 0.6351830833 0.7123013105
119450000.0 0.9661735476 -0.0915968917
129400000.0 0.4995873409 -0.8545041333
139350000.0 -0.4008148322 -0.8984751491
149300000.0 -0.9506254802 -0.1830829873
159250000.0 -0.6937657643 0.6500052303
169200000.0 0.109838207 0.9271445735
179150000.0 0.8122314653 0.4738310544
189100000.0 0.9029310999 -0.3318239445
199050000.0 0.3617911657 -0.8990693312
209000000.0 -0.3961025043 -0.8726577133
218950000.0 -0.8811318411 -0.328053354
228900000.0 -0.8424413956 0.3788840614
238850000.0 -0.3289325776 0.8539189219
248800000.0 0.2536653757 0.6391991967
258750000.0 0.8412285942 0.3969308136
268700000.0 0.8922976565 -0.2950433424
278650000.0 0.4514687372 -0.8155490746
288600000.0 -0.217834222 -0.8793024199
298550000.0 -0.7381613298 -0.4695396549
308500000.0 -0.830157946 0.1737005511
318450000.0 -0.448229267 0.6838589411
328400000.0 0.1801212646 0.7592316099
338350000.0 0.6565235432 0.3620044583
348300000.0 0.6710840493 -0.212484652
358250000.0 0.2648889444 -0.5608814209
368200000.0 -0.217028309 -0.4920585827
378150000.0 -0.436196126 -0.1326955315
388100000.0 -0.3077844704 0.2254178412
398050000.0 -0.0086403045 0.3382799795
408000000.0 0.2053205123 0.1698293992
417950000.0 0.2072253084 -0.0842355712
427900000.0 0.0560699693 -0.2050255972
437850000.0 -0.0941494228 -0.1307962594
447800000.0 -0.1334519821 0.0315170428
457750000.0 -0.060969414 0.1348426813
467700000.0 0.0420465215 0.115243083
477650000.0 0.0931334178 0.0231066591
487600000.0 0.0669354149 -0.0474861408
497550000.0 0.014290957 -0.0127615356
507500000.0 -0.0310003313 -0.0433025988
517450000.0 -0.0358098497 0.0042580663
527400000.0 -0.0055352246 0.00121744
537350000.0 0.0118815833 -0.0391977058
547300000.0 -0.012372474 -0.0728805902
557250000.0 -0.0683349139 -0.0511773459
567200000.0 -0.1047546488 0.0190070356
577150000.0 -0.0856499817 0.0996676829
587100000.0 -0.0108228473 0.1383766104
597050000.0 0.0815310312 0.1031636264
607000000.0 0.1373518899 0.004229093
616950000.0 0.1188822542 -0.1107129221
626900000.0 0.0289303636 -0.1817182675
636850000.0 -0.0915491711 -0.1724709705
646800000.0 -0.1795823814 -0.0851919962
656750000.0 -0.1868267257 0.0355198472
666700000.0 -0.1065317565 0.1279860128
676650000.0 0.0180279739 0.1458694398
686600000.0 0.1154466429 0.0815083097
696550000.0 0.1313631021 -0.0262982921
706500000.0 0.0617622813 -0.1132860187
716450000.0 -0.0429862133 -0.1300508572
726400000.0 -0.1102560515 -0.074034445
736350000.0 -0.0925998858 0.0051504469
746300000.0 -0.005880476 0.0399928851
756250000.0 0.076821908 -0.0049118547
766200000.0 0.0859181593 -0.0953873656
776150000.0 0.0036613756 -0.1657122382
786100000.0 -0.1200837419 -0.1493816231
796050000.0 -0.2074767599 -0.0302269813
806000000.0 -0.1845500201 0.1368139265
815950000.0 -0.0369410327 0.2412218038
825900000.0 0.1687711914 0.1978289079
835850000.0 0.3128366832 0.0039899948
845800000.0 0.2940754867 -0.2468598912
855750000.0 0.101247858 -0.4149300427
865700000.0 -0.1728532837 -0.3950032349
875650000.0 -0.3790624977 -0.1763374682
885600000.0 -0.3918633743 0.134629104
895550000.0 -0.1840084211 0.3686215796
905500000.0 0.1418356834 0.3850058179
915450000.0 0.3961361994 0.161859216
925400000.0 0.4197444697 -0.1757632962
935350000.0 0.1928801203 -0.4229810511
945300000.0 -0.1470443435 -0.4236008875
955250000.0 -0.3832519285 -0.1676527491
965200000.0 -0.3392127556 0.1798201241
975150000.0 -0.0144564358 0.3539719996
985100000.0 0.3519901884 0.1762556824
995050000.0 0.4183046834 -0.2375424018
1005000000.0 0.0646049888 -0.5062216362
1014950000.0 -0.4356261009 -0.3209938009
1024900000.0 -0.6082634854 0.2341216252
1034850000.0 -0.2019196845 0.6805218532
1044800000.0 0.4901634728 0.5457666726
1054750000.0 0.8228493697 -0.1073836578
1064700000.0 0.4728166801 -0.7020659018
1074650000.0 -0.1299709685 -0.786712455
1084600000.0 -0.6814430978 -0.3794326108
1094550000.0 -0.7654019377 0.2505844715
1104500000.0 -0.2871393619 0.7101767066
1114450000.0 0.3769209428 0.6129753834
1124400000.0 0.6992473034 0.0735188413
1134350000.0 0.4698660884 -0.4460977534
1144300000.0 -0.0620755485 -0.5731017803
1154250000.0 -0.4805773081 -0.2818890641
1164200000.0 -0.5084225949 0.1666920288
1174150000.0 -0.1691800128 0.4325017541
1184100000.0 0.2684235141 0.3467068598
1194050000.0 0.4880601294 -0.0093851057
1204000000.0 0.3489585296 -0.3653226635
1213950000.0 -0.0228735948 -0.4901474531
1223900000.0 -0.392711707 -0.32485763
1233850000.0 -0.5583659063 0.0302579154
1243800000.0 -0.4330088884 0.3861445472
1253750000.0 -0.0774580631 0.5465547561
1263700000.0 0.3201735197 0.4181837736
1273650000.0 0.550971706 0.0689109547
1283600000.0 0.5078080918 -0.3226191676
1293550000.0 0.2239575912 -0.5759644078
1303500000.0 -0.1674030215 -0.5907224924
1313450000.0 -0.5032094117 -0.3661142128
1323400000.0 -0.6445153969 0.0106333022
1333350000.0 -0.5223630151 0.3854329709
1343300000.0 -0.1771633313 0.5908508293
1353250000.0 0.2395997158 0.5247102623
1363200000.0 0.5339166305 0.2156246036
1373150000.0 0.5771265882 -0.1926420414
1383100000.0 0.3639394027 -0.5233895378
1393050000.0 -0.003876419 -0.649443215
1403000000.0 -0.3755079179 -0.5305097275
1412950000.0 -0.6052710233 -0.2142578989
1422900000.0 -0.5986484973 0.1750127907
1432850000.0 -0.3507970927 0.4740008897
1442800000.0 0.0322975677 0.5463232382
1452750000.0 0.37609046 0.3577280155
1462700000.0 0.5300225758 -0.0011979586
1472650000.0 0.4344568428 -0.3600353587
1482600000.0 0.1429612003 -0.5616485308
1492550000.0 -0.210416915 -0.5309778155
1502500000.0 -0.4696394213 -0.2953892925
1512450000.0 -0.5211749751 0.0361809104
1522400000.0 -0.3393429808 0.3152823566
1532350000.0 -0.0113946365 0.4123178789
1542300000.0 0.2973297489 0.2800092453
1552250000.0 0.4288413498 -0.0107305616
1562200000.0 0.3277157596 -0.3059710502
1572150000.0 0.0582997216 -0.4547492326
1582100000.0 -0.2385637545 -0.387180399
1592050000.0 -0.4153545996 -0.1419922704
1602000000.0 -0.3782124258 0.1497207431
1611950000.0 -0.1357547911 0.326827278
1621900000.0 0.1840195172 0.2861678763
1631850000.0 0.392522076 0.0511519968
1641800000.0 0.3690737402 -0.2410429092
1651750000.0 0.1331408631 -0.427854202
1661700000.0 -0.1813495867 -0.4140480543
1671650000.0 -0.4127707989 -0.2069041475
1681600000.0 -0.4504468987 0.0974328946
1691550000.0 -0.2861444106 0.3569979133
1701500000.0 0.0253462013 0.4372435822
1711450000.0 0.3516131628 0.2846562292
1721400000.0 0.5148044606 -0.0350853545
1731350000.0 0.4243572284 -0.3650599809
1741300000.0 0.1280309328 -0.5454941253
1751250000.0 -0.2328024253 -0.5003842289
1761200000.0 -0.5036430094 -0.2545007291
1771150000.0 -0.5756444295 0.0932149454
1781100000.0 -0.4141378096 0.4061295561
1791050000.0 -0.0772617142 0.5507865666
1801000000.0 0.2934998194 0.4529009003
1810950000.0 0.5272274705 0.1474009462
1820900000.0 0.51715301 -0.2247796947
1830850000.0 0.2807137267 -0.4953483169
1840800000.0 -0.0672309502 -0.5589358934
1850750000.0 -0.3844092704 -0.4061625802
1860700000.0 -0.5560490794 -0.1064822146
1870650000.0 -0.5230674716 0.2258911485
1880600000.0 -0.2974964553 0.4631803756
1890550000.0 0.0303092341 0.5089010589
1900500000.0 0.3186207128 0.3438148663
1910450000.0 0.4416240023 0.048469277
1920400000.0 0.3590497772 -0.2410256559
1930350000.0 0.1305888703 -0.407411195
1940300000.0 -0.1319829271 -0.4035584144
1950250000.0 -0.3235462529 -0.2552288228
1960200000.0 -0.3822283587 -0.0404329679
1970150000.0 -0.3101062308 0.1472083771
1980100000.0 -0.1648295866 0.2358350477
1990050000.0 -0.0316496517 0.210168037
2000000000.0 0.0289947539 0.1241989436
