!Created with skrf (http://scikit-rf.org).
# GHz S RI R 50.0 
!freq ReS11 ImS11
10000000.0 -0.9997585228 0.1641378261
19950000.0 -0.9442965198 0.3133980042
29900000.0 -0.8661340913 0.4560984355
39850000.0 -0.7652657994 0.5965810209
49800000.0 -0.6440621859 0.7291408937
59750000.0 -0.4979889413 0.8473200598
69700000.0 -0.3203032848 0.9396159541
79650000.0 -0.1079197765 0.9881176157
89600000.0 0.1367578307 0.9766122851
99550000.0 0.4008015512 0.8882184124
109500000.0 0.6625766873 0.7120126547
119450000.0 0.8845870977 0.4357765722
129400000.0 1.00666525 0.0677841698
139350000.0 0.9685913344 -0.3332312033
149300000.0 0.7560536047 -0.6835802855
159250000.0 0.4256469717 -0.9042754334
169200000.0 0.0631506921 -0.9817903318
179150000.0 -0.2699791646 -0.9424987534
189100000.0 -0.542307479 -0.822815868
199050000.0 -0.7408401876 -0.6540814352
209000000.0 -0.8641010273 -0.4589908767
218950000.0 -0.9266519006 -0.2580610806
228900000.0 -0.9409241788 -0.0610477525
238850000.0 -0.9193089141 0.1306545254
248800000.0 -0.7743992441 0.1355103513
258750000.0 -0.8211632994 0.4345399512
268700000.0 -0.7316305364 0.580306746
278650000.0 -0.6163086482 0.6965261528
288600000.0 -0.4751795596 0.7811646058
298550000.0 -0.31207258 0.8325678629
308500000.0 -0.1325582167 0.8512620557
318450000.0 0.0567392999 0.8333422202
328400000.0 0.2457946153 0.7717417699
338350000.0 0.4129497955 0.6592162841
348300000.0 0.533786831 0.4953480964
358250000.0 0.5836472006 0.2959641596
368200000.0 0.5546786735 0.0928495408
378150000.0 0.4607518318 -0.0784173092
388100000.0 0.3305456023 -0.1957448795
398050000.0 0.1941507661 -0.2530738818
408000000.0 0.0749351764 -0.255863541
417950000.0 -0.015965569 -0.2184263622
427900000.0 -0.0761621464 -0.1586243829
437850000.0 -0.1108746712 -0.0913795787
447800000.0 -0.1248934025 -0.0293895977
457750000.0 -0.123209342 0.0195653089
467700000.0 -0.1100105475 0.0510366605
477650000.0 -0.0877137333 0.0625237562
487600000.0 -0.057016482 0.052685793
497550000.0 -0.0888393045 0.0654250594
507500000.0 -0.0177983297 0.0469352157
517450000.0 0.0062308113 0.0253401738
527400000.0 0.0168716588 0.0066051927
537350000.0 0.0136852203 -0.010681698
547300000.0 -0.003477652 -0.0283876427
557250000.0 -0.0310495979 -0.0408444466
567200000.0 -0.0612191873 -0.0523531941
577150000.0 -0.0916173834 -0.0605967813
587100000.0 -0.1174875853 -0.0630571371
597050000.0 -0.136501793 -0.0571291375
607000000.0 -0.1485042296 -0.0410718253
616950000.0 -0.1554763164 -0.0152505469
626900000.0 -0.1584105753 0.0173939069
636850000.0 -0.1576805176 0.0520139286
646800000.0 -0.1524974399 0.0842149764
656750000.0 -0.1424484365 0.1106787519
666700000.0 -0.1249254237 0.1286511138
676650000.0 -0.0988920282 0.1379343179
686600000.0 -0.065337302 0.1387199444
696550000.0 -0.0267758335 0.1326543598
706500000.0 0.0127085572 0.1209966526
716450000.0 0.0501036959 0.1035150014
726400000.0 0.0805747178 0.0789561011
736350000.0 0.1010182736 0.0457552665
746300000.0 0.1090494892 0.0038815936
756250000.0 0.1045982735 -0.0460439075
766200000.0 0.0878873597 -0.100464156
776150000.0 0.0619531752 -0.1553707765
786100000.0 0.0270426513 -0.2045548489
796050000.0 -0.0163735742 -0.2417859845
806000000.0 -0.067514546 -0.262668856
815950000.0 -0.1267524563 -0.2639785066
825900000.0 -0.1913795821 -0.247387034
835850000.0 -0.2581257206 -0.2158575731
845800000.0 -0.3219785105 -0.1734573437
855750000.0 -0.3775685801 -0.1223159244
865700000.0 -0.4178225292 -0.0642368528
875650000.0 -0.438524958 0.0010346245
885600000.0 -0.4362063071 0.0733021873
895550000.0 -0.4114900158 0.1511975706
905500000.0 -0.3662114854 0.2328415467
915450000.0 -0.3028327221 0.3130491021
925400000.0 -0.2223612544 0.3837768049
935350000.0 -0.1229742596 0.4350810838
945300000.0 -0.005670937 0.4541791857
955250000.0 0.1278023398 0.4286534168
965200000.0 0.2683269467 0.3459817215
975150000.0 0.3983780175 0.1991370523
985100000.0 0.484379509 -0.0133527432
995050000.0 0.4836766548 -0.2701603916
1005000000.0 0.3605436545 -0.5255872672
1014950000.0 0.1082697964 -0.7026368467
1024900000.0 -0.2170136192 -0.7369167595
1034850000.0 -0.5317990945 -0.6207825786
1044800000.0 -0.7660872336 -0.3910862775
1054750000.0 -0.8721847071 -0.0968236903
1064700000.0 -0.8191273499 0.1277795973
1074650000.0 -0.7928654994 0.3451282239
1084600000.0 -0.6520172992 0.5560266966
1094550000.0 -0.4378436889 0.7012954323
1104500000.0 -0.1977473951 0.775047434
1114450000.0 0.0472896602 0.7767796978
1124400000.0 0.2730340969 0.7021291907
1134350000.0 0.4512593385 0.5575724073
1144300000.0 0.5637085002 0.3638957849
1154250000.0 0.6073628866 0.1517817271
1164200000.0 0.5922138758 -0.0525585913
1174150000.0 0.5362579036 -0.2310613394
1184100000.0 0.4491424214 -0.3814015892
1194050000.0 0.3329553793 -0.4916287491
1204000000.0 0.2000435258 -0.5560193124
1213950000.0 0.0629433751 -0.5795319279
1223900000.0 -0.0687223051 -0.5746274903
1233850000.0 -0.1897824197 -0.5516782207
1243800000.0 -0.2973449068 -0.5178245379
1253750000.0 -0.3901604839 -0.4765419317
1263700000.0 -0.4650745071 -0.4265041982
1273650000.0 -0.5229725437 -0.3684927876
1283600000.0 -0.5636120429 -0.3010221965
1293550000.0 -0.5916219976 -0.2266712639
1303500000.0 -0.6123304583 -0.1487802573
1313450000.0 -0.6286822383 -0.071497877
1323400000.0 -0.6430972692 0.0027212838
1333350000.0 -0.6541872151 0.0720512395
1343300000.0 -0.6576458686 0.1368977541
1353250000.0 -0.6502850185 0.1959099459
1363200000.0 -0.6290949181 0.2514294587
1373150000.0 -0.5941131048 0.3049642636
1383100000.0 -0.5500615647 0.3576312413
1393050000.0 -0.5017422029 0.4100275761
1403000000.0 -0.4529070665 0.4610760167
1412950000.0 -0.404605364 0.5080448365
1422900000.0 -0.3566464517 0.5470379309
1432850000.0 -0.3081959876 0.5750708931
1442800000.0 -0.2573473213 0.5913655735
1452750000.0 -0.2026567113 0.5991145364
1462700000.0 -0.1414464712 0.6019866598
1472650000.0 -0.0714027078 0.6028855694
1482600000.0 0.003815074 0.6016798079
1492550000.0 0.0802439693 0.5967951055
1502500000.0 0.1544397126 0.5840116691
1512450000.0 0.2229794068 0.5603064788
1522400000.0 0.2840434831 0.5224684481
1532350000.0 0.337197402 0.4675152787
1542300000.0 0.3833945719 0.3978837455
1552250000.0 0.4234778799 0.3172710841
1562200000.0 0.4600306587 0.2308738391
1572150000.0 0.4891830801 0.1429980951
1582100000.0 0.5066403951 0.0547857223
1592050000.0 0.506979366 -0.0319139408
1602000000.0 0.4865788627 -0.1157880563
1611950000.0 0.4460169369 -0.1944242015
1621900000.0 0.3888853669 -0.2686891802
1631850000.0 0.3202780229 -0.3388118115
1641800000.0 0.2454326463 -0.4030664059
1651750000.0 0.1676012748 -0.4578669217
1661700000.0 0.0892945711 -0.4986713686
1671650000.0 0.0105696795 -0.5205860025
1681600000.0 -0.0675780132 -0.5225224873
1691550000.0 -0.1453698384 -0.5079841496
1701500000.0 -0.2233449217 -0.4802847641
1711450000.0 -0.2996082035 -0.4446337492
1721400000.0 -0.3722018929 -0.405515078
1731350000.0 -0.4375328234 -0.3655386797
1741300000.0 -0.4921761494 -0.3229927811
1751250000.0 -0.5328183518 -0.2749791148
1761200000.0 -0.5587703385 -0.22132036
1771150000.0 -0.5713798436 -0.161580909
1781100000.0 -0.5771728917 -0.097213117
1791050000.0 -0.5790870937 -0.0313738999
1801000000.0 -0.5814594066 0.0325767078
1810950000.0 -0.5840964509 0.093014753
1820900000.0 -0.5842241206 0.1480671108
1830850000.0 -0.5763494874 0.1964089921
1840800000.0 -0.5570930501 0.2388309553
1850750000.0 -0.524607266 0.2766976831
1860700000.0 -0.4804135639 0.3101931231
1870650000.0 -0.4307810701 0.3418956402
1880600000.0 -0.3806686458 0.3707371811
1890550000.0 -0.3351122181 0.3962563942
1900500000.0 -0.2937999861 0.4158298057
1910450000.0 -0.2561975042 0.4271241509
1920400000.0 -0.2183620661 0.4263255973
1930350000.0 -0.1779421003 0.4117909839
1940300000.0 -0.1340575337 0.3845623294
1950250000.0 -0.0879855439 0.3469611675
1960200000.0 -0.0435400597 0.3027091134
1970150000.0 -0.0082273622 0.2529555342
1980100000.0 0.0117692499 0.198847882
1990050000.0 0.009955918 0.1374689323
2000000000.0 -0.0214468572 0.0687005972
