!Created with skrf (http://scikit-rf.org).
# GHz S RI R 50.0 
!freq ReS11 ImS11
10000000.0 -0.8851657115 0.4394185647
19950000.0 -0.603724331 0.7748808683
29900000.0 -0.2039638796 0.9577533321
39850000.0 0.2437588414 0.9482317705
49800000.0 0.6509701065 0.7336937126
59750000.0 0.9231860331 0.3417599031
69700000.0 0.9769075721 -0.152054341
79650000.0 0.7686941031 -0.6272839288
89600000.0 0.3233871802 -0.9383012703
99550000.0 -0.2468013408 -0.9565191993
109500000.0 -0.750790221 -0.6287798793
119450000.0 -0.9706401879 -0.0345250991
129400000.0 -0.7624842975 0.5963768442
139350000.0 -0.1830521811 0.9521126877
149300000.0 0.4919593614 0.8384560645
159250000.0 0.9153694004 0.3279784892
169200000.0 0.9202760854 -0.2980121028
179150000.0 0.5758095229 -0.7673721786
189100000.0 0.0638087962 -0.9479168913
199050000.0 -0.4344883421 -0.8363315226
209000000.0 -0.7921407068 -0.5034534217
218950000.0 -0.935840385 -0.0588611039
228900000.0 -0.8551668998 0.3903736751
238850000.0 -0.5799815542 0.7439617414
248800000.0 -0.1832189927 0.9160386979
258750000.0 0.2506346927 0.9076360754
268700000.0 0.623238162 0.6954464825
278650000.0 0.856843727 0.3405886352
288600000.0 0.9039252846 -0.0797547702
298550000.0 0.7541322616 -0.4746082092
308500000.0 0.4362577462 -0.7539050213
318450000.0 0.021798845 -0.8452831481
328400000.0 -0.3821232619 -0.7158786077
338350000.0 -0.6536479421 -0.3957403268
348300000.0 -0.6999987285 0.0084714822
358250000.0 -0.5147590754 0.342586076
368200000.0 -0.1994900223 0.4841294913
378150000.0 0.0929181095 0.4132701351
388100000.0 0.2487962118 0.2123184045
398050000.0 0.2433085804 0.0027683667
408000000.0 0.1293993782 -0.1246878106
417950000.0 -0.0099480186 -0.1420661125
427900000.0 -0.1072547132 -0.0753878867
437850000.0 -0.1334039275 0.0239402778
447800000.0 -0.0950858314 0.1079709527
457750000.0 -0.019687813 0.1477702808
467700000.0 0.0587446958 0.1362451867
477650000.0 0.1124372215 0.086020444
487600000.0 0.128580282 0.0210164198
497550000.0 0.1132016853 -0.0376105834
507500000.0 0.0693254567 -0.0735557177
517450000.0 0.023169819 -0.0795613365
527400000.0 -0.0103477549 -0.0622890517
537350000.0 -0.0220026126 -0.0360435209
547300000.0 -0.0132135539 -0.016408105
557250000.0 0.0071053916 -0.0135875211
567200000.0 0.0239203552 -0.0320393706
577150000.0 0.0235312056 -0.0643873491
587100000.0 -0.0007489225 -0.0971905119
597050000.0 -0.0460170588 -0.1144064855
607000000.0 -0.1008131307 -0.1052489421
616950000.0 -0.1490876172 -0.0656236262
626900000.0 -0.1738502611 -0.0019148173
636850000.0 -0.1646721996 0.0717314643
646800000.0 -0.1185813772 0.1360958171
656750000.0 -0.0439647736 0.1734298278
666700000.0 0.0431216385 0.1712011888
676650000.0 0.1207190221 0.1279684422
686600000.0 0.1694391995 0.0531075552
696550000.0 0.1772902398 -0.0350227867
706500000.0 0.1420800291 -0.1137752966
716450000.0 0.0738848785 -0.1624354328
726400000.0 -0.0082419351 -0.1676186829
736350000.0 -0.0783390449 -0.1272793075
746300000.0 -0.1145190513 -0.0536338628
756250000.0 -0.1017918583 0.0302467527
766200000.0 -0.0419513221 0.0947462401
776150000.0 0.0478430183 0.1153379284
786100000.0 0.1377805027 0.0804570773
796050000.0 0.1956949191 -0.0031811145
806000000.0 0.1974717618 -0.1107010042
815950000.0 0.1338168883 -0.2087408983
825900000.0 0.0177199534 -0.2613218384
835850000.0 -0.1207479989 -0.2431746432
845800000.0 -0.2400372613 -0.1487177481
855750000.0 -0.2996873579 0.0040693358
865700000.0 -0.2732954401 0.1759268772
875650000.0 -0.1592595161 0.3183525782
885600000.0 0.0169188739 0.3854006816
895550000.0 0.2098702023 0.3514528803
905500000.0 0.362850767 0.2162819354
915450000.0 0.4235342054 0.0094531195
925400000.0 0.3576891998 -0.2119050194
935350000.0 0.1630632907 -0.3704020996
945300000.0 -0.1128360254 -0.386991401
955250000.0 -0.3664620611 -0.2131680591
965200000.0 -0.45935285 0.1162309904
975150000.0 -0.295014412 0.4564057042
985100000.0 0.0882411894 0.6153077399
995050000.0 0.5205435428 0.4580056369
1005000000.0 0.7506268831 0.0119071388
1014950000.0 0.6137830067 -0.5045757438
1024900000.0 0.1552500621 -0.812329386
1034850000.0 -0.3951648971 -0.7512700817
1044800000.0 -0.7757488147 -0.3704385772
1054750000.0 -0.8500092095 0.1357068679
1064700000.0 -0.6405734454 0.5659570794
1074650000.0 -0.2488670472 0.8019381904
1084600000.0 0.1897900674 0.7937667747
1094550000.0 0.54905592 0.5607328654
1104500000.0 0.7264985624 0.177467744
1114450000.0 0.6682160838 -0.236993404
1124400000.0 0.3960986669 -0.5448313875
1134350000.0 0.0120617538 -0.6453642099
1144300000.0 -0.3441183252 -0.5224881237
1154250000.0 -0.5611529522 -0.2460658112
1164200000.0 -0.6021110379 0.0798041428
1174150000.0 -0.4796326965 0.36874267
1184100000.0 -0.2373726063 0.551046991
1194050000.0 0.0575286348 0.5876547867
1204000000.0 0.3299072483 0.4748524457
1213950000.0 0.5113567744 0.244152978
1223900000.0 0.5579979516 -0.0446182241
1233850000.0 0.4625390054 -0.3172983719
1243800000.0 0.2562592927 -0.5100257838
1253750000.0 -0.0058512427 -0.5875242003
1263700000.0 -0.2657984378 -0.5456759108
1273650000.0 -0.4765747608 -0.405153118
1283600000.0 -0.6088697769 -0.1975784941
1293550000.0 -0.6473485239 0.0419966368
1303500000.0 -0.5883638566 0.2770012871
1313450000.0 -0.4394158314 0.4721034135
1323400000.0 -0.2199977477 0.5939089054
1333350000.0 0.036062808 0.6168325996
1343300000.0 0.2847954832 0.5320239481
1353250000.0 0.4793873116 0.3513503308
1363200000.0 0.584496035 0.1091286543
1373150000.0 0.5846277281 -0.1495334168
1383100000.0 0.4866670877 -0.3802432972
1393050000.0 0.3145259869 -0.5491524654
1403000000.0 0.098772921 -0.6367454666
1412950000.0 -0.1276508772 -0.6356254822
1422900000.0 -0.3338581303 -0.549748577
1432850000.0 -0.4913325519 -0.3897399278
1442800000.0 -0.5751249495 -0.1770714854
1452750000.0 -0.567482194 0.056903485
1462700000.0 -0.462343673 0.2733130733
1472650000.0 -0.2738920829 0.4294059319
1482600000.0 -0.0367092901 0.4916760934
1492550000.0 0.2003976146 0.448240852
1502500000.0 0.3903374408 0.3112017362
1512450000.0 0.4979578669 0.1137169719
1522400000.0 0.5093112268 -0.1020718803
1532350000.0 0.4274091067 -0.2942069264
1542300000.0 0.2720383116 -0.4283648009
1552250000.0 0.0726191159 -0.4784343089
1562200000.0 -0.1309738116 -0.4326860095
1572150000.0 -0.2956685366 -0.2950592694
1582100000.0 -0.380111755 -0.0916498357
1592050000.0 -0.3593801646 0.1309177518
1602000000.0 -0.2379650762 0.3184620034
1611950000.0 -0.0427689687 0.4247458943
1621900000.0 0.1740797145 0.4281943945
1631850000.0 0.3647379023 0.3336499343
1641800000.0 0.4912065475 0.1658038472
1651750000.0 0.531713086 -0.0401378536
1661700000.0 0.4800158717 -0.2469713265
1671650000.0 0.342964414 -0.4179847345
1681600000.0 0.1400027925 -0.5197683079
1691550000.0 -0.0955959075 -0.5282883093
1701500000.0 -0.3201789072 -0.4345396479
1711450000.0 -0.4881156882 -0.2512631619
1721400000.0 -0.5653176958 -0.0126889447
1731350000.0 -0.5367728547 0.2338555911
1741300000.0 -0.4134630756 0.4427879655
1751250000.0 -0.2247092592 0.582793818
1761200000.0 -0.0027223289 0.6404324512
1771150000.0 0.2210030683 0.6122966189
1781100000.0 0.4161122575 0.5063440628
1791050000.0 0.5600063128 0.3386204261
1801000000.0 0.634346099 0.1288493951
1810950000.0 0.6280642413 -0.0970740583
1820900000.0 0.5372188786 -0.3085182374
1830850000.0 0.370795205 -0.4733869417
1840800000.0 0.1514679438 -0.5625633986
1850750000.0 -0.08582781 -0.5594292072
1860700000.0 -0.2997335907 -0.4646778096
1870650000.0 -0.4556017599 -0.2995479411
1880600000.0 -0.5331919004 -0.0974653886
1890550000.0 -0.5299021716 0.1062939662
1900500000.0 -0.4567349726 0.2820352995
1910450000.0 -0.333342384 0.4087263401
1920400000.0 -0.1824781638 0.4751819152
1930350000.0 -0.0287989105 0.4776532582
1940300000.0 0.1035664097 0.4205817059
1950250000.0 0.1917031346 0.3187219312
1960200000.0 0.2191469595 0.1962953586
1970150000.0 0.1814349263 0.0885635369
1980100000.0 0.094393285 0.0342084855
1990050000.0 0.00054198 0.0683881076
2000000000.0 -0.0144963396 0.2039297956
