!Created with skrf (http://scikit-rf.org).
# GHz S RI R 50.0 
!freq ReS11 ImS11
10000000.0 -0.7687416575 0.6745992585
19950000.0 -0.1411020692 0.9876905875
29900000.0 0.5332109076 0.820505167
39850000.0 0.9418301752 0.2515681838
49800000.0 0.8749851133 -0.4588483691
59750000.0 0.3321096303 -0.9545748132
69700000.0 -0.4278617109 -0.9330064061
79650000.0 -0.9586032746 -0.3544717279
89600000.0 -0.89046744 0.4493897318
99550000.0 -0.2244881143 0.9421915402
109500000.0 0.6072681093 0.741312498
119450000.0 0.9729630442 -0.0707297682
129400000.0 0.5022712437 -0.8676582858
139350000.0 -0.4318116105 -0.912912456
149300000.0 -0.9717567841 -0.1626961511
159250000.0 -0.6755239868 0.6716783294
169200000.0 0.1263391198 0.932209572
179150000.0 0.8114781353 0.5047330232
189100000.0 0.9456322405 -0.2641200456
199050000.0 0.4895171238 -0.8694166385
209000000.0 -0.2412552315 -0.961239668
218950000.0 -0.8080843715 -0.5306146546
228900000.0 -0.9280987456 0.1501153231
238850000.0 -0.5728880393 0.726382764
248800000.0 0.0498889185 0.9222266378
258750000.0 0.6732503697 0.6667427013
268700000.0 0.9642703483 0.0674131278
278650000.0 0.7830289945 -0.5733709062
288600000.0 0.2221871834 -0.9254840996
298550000.0 -0.4226170208 -0.8119425357
308500000.0 -0.8196914536 -0.3003725224
318450000.0 -0.765032494 0.3364664779
328400000.0 -0.2913449512 0.7532826186
338350000.0 0.3239360644 0.710217915
348300000.0 0.6905361065 0.2499781268
358250000.0 0.5882298945 -0.2837274773
368200000.0 0.1649148055 -0.5133525433
378150000.0 -0.210240475 -0.3521484739
388100000.0 -0.2898194339 -0.0280043287
398050000.0 -0.1194678139 0.1706974094
408000000.0 0.0785719672 0.1405956903
417950000.0 0.1329341365 -0.0066975093
427900000.0 0.0443927639 -0.1033201857
437850000.0 -0.0744926385 -0.0742541838
447800000.0 -0.1173070443 0.0393962501
457750000.0 -0.053671729 0.1410197809
467700000.0 0.0651472022 0.1565441862
477650000.0 0.1554368966 0.0802397076
487600000.0 0.162700054 -0.0322554906
497550000.0 0.0932295098 -0.1154566169
507500000.0 -0.0083152116 -0.1221344938
517450000.0 -0.0763774991 -0.0670314942
527400000.0 -0.0827487417 0.0048379313
537350000.0 -0.0425955235 0.0464127559
547300000.0 -0.0010170401 0.041872265
557250000.0 0.0093331627 0.0125680792
567200000.0 -0.0148542915 -0.004638199
577150000.0 -0.0426505834 0.014317957
587100000.0 -0.0373601003 0.0577666785
597050000.0 0.013176911 0.0877732288
607000000.0 0.0832976514 0.0675025113
616950000.0 0.1252229405 -0.0084330771
626900000.0 0.1019574911 -0.1052082739
636850000.0 0.0131322371 -0.1683690082
646800000.0 -0.100734645 -0.155410178
656750000.0 -0.1786961115 -0.0648121095
666700000.0 -0.1741466229 0.0585282251
676650000.0 -0.0850568734 0.1462195963
686600000.0 0.0415022263 0.1479694796
696550000.0 0.1354989349 0.0618613152
706500000.0 0.1453670397 -0.0622886497
716450000.0 0.0688049105 -0.1542591249
726400000.0 -0.045291835 -0.1622156411
736350000.0 -0.1230803681 -0.0858757
746300000.0 -0.1130567156 0.0190581901
756250000.0 -0.0227365046 0.0761924713
766200000.0 0.0830961008 0.0375346215
776150000.0 0.1203811891 -0.0783471403
786100000.0 0.0447143128 -0.1894485105
796050000.0 -0.1096048827 -0.1919465316
806000000.0 -0.1901957527 -0.0628897572
815950000.0 -0.1781024892 0.070084103
825900000.0 -0.0637721934 0.1959476495
835850000.0 0.137027017 0.2057006972
845800000.0 0.3056679592 0.056700835
855750000.0 0.3259972143 -0.1864831938
865700000.0 0.1618898539 -0.3894193631
875650000.0 -0.1129505624 -0.4265787197
885600000.0 -0.3522975057 -0.255063097
895550000.0 -0.4108923151 0.0499001747
905500000.0 -0.2339147629 0.3247619721
915450000.0 0.0970868491 0.4042044218
925400000.0 0.397476504 0.2251177759
935350000.0 0.4861871493 -0.1202551076
945300000.0 0.299150896 -0.4326198996
955250000.0 -0.0645901113 -0.5177709282
965200000.0 -0.3869662329 -0.3016533533
975150000.0 -0.4426002941 0.1049188214
985100000.0 -0.1465726896 0.4280044112
995050000.0 0.3207678628 0.3868731934
1005000000.0 0.575852923 -0.0465139764
1014950000.0 0.3505773794 -0.5365358287
1024900000.0 -0.2250002779 -0.6386255603
1034850000.0 -0.6783681285 -0.1826555871
1044800000.0 -0.5385306526 0.5156354974
1054750000.0 0.1856687703 0.7922243417
1064700000.0 0.8205912025 0.3088925134
1074650000.0 0.7637793815 -0.4744941267
1084600000.0 0.1266300348 -0.835577199
1094550000.0 -0.5155998141 -0.6674261918
1104500000.0 -0.8108903666 -0.0196912304
1114450000.0 -0.4852631115 0.6116605779
1124400000.0 0.2032755219 0.7302135224
1134350000.0 0.6823521292 0.2764513639
1144300000.0 0.6256220489 -0.3258299522
1154250000.0 0.1752371079 -0.6455954169
1164200000.0 -0.3247788275 -0.5442262236
1174150000.0 -0.5939889804 -0.1328642331
1184100000.0 -0.4780012814 0.3485500484
1194050000.0 -0.040562375 0.5818458225
1204000000.0 0.4130683246 0.4111507287
1213950000.0 0.5887505769 -0.0196626532
1223900000.0 0.4205044912 -0.4293225607
1233850000.0 0.0377773674 -0.6127467723
1243800000.0 -0.3654150304 -0.5047511499
1253750000.0 -0.6066318505 -0.1596032321
1263700000.0 -0.5629890115 0.2685355137
1273650000.0 -0.2373068372 0.564421199
1283600000.0 0.2072978815 0.5638754858
1293550000.0 0.5357799359 0.2729584682
1303500000.0 0.5982679988 -0.1472512319
1313450000.0 0.3936432276 -0.5035273322
1323400000.0 0.0239444936 -0.6633455948
1333350000.0 -0.367483309 -0.5735162482
1343300000.0 -0.6324097804 -0.2622506286
1353250000.0 -0.6494040171 0.15783761
1363200000.0 -0.38807231 0.504462529
1373150000.0 0.0408696636 0.6037254041
1383100000.0 0.4291311252 0.4068510612
1393050000.0 0.6019723581 0.022316289
1403000000.0 0.5078296332 -0.3733118421
1412950000.0 0.207686781 -0.6272367748
1422900000.0 -0.176483106 -0.6554426429
1432850000.0 -0.5016580818 -0.4494307597
1442800000.0 -0.6376488971 -0.0824457594
1452750000.0 -0.5135077363 0.2954485352
1462700000.0 -0.1718420414 0.5075564044
1472650000.0 0.2252974872 0.4487053214
1482600000.0 0.4861286264 0.1551766477
1492550000.0 0.4981859314 -0.221250112
1502500000.0 0.2773403341 -0.5072096283
1512450000.0 -0.063989293 -0.5886788217
1522400000.0 -0.3758387367 -0.4412374139
1532350000.0 -0.519236572 -0.1302623456
1542300000.0 -0.4218368493 0.2003020195
1552250000.0 -0.1252196678 0.3841206974
1562200000.0 0.2148453454 0.3202704198
1572150000.0 0.4127143977 0.0461538884
1582100000.0 0.3685190373 -0.2821697557
1592050000.0 0.1199655469 -0.4905198995
1602000000.0 -0.1982433245 -0.4778628089
1611950000.0 -0.4287166832 -0.2521435698
1621900000.0 -0.4538986436 0.0784802435
1631850000.0 -0.2477497206 0.3513871772
1641800000.0 0.1003385864 0.4148680549
1651750000.0 0.4091242365 0.2191664514
1661700000.0 0.5045937543 -0.1367899418
1671650000.0 0.3368539153 -0.4630712953
1681600000.0 -0.0016674995 -0.5993747354
1691550000.0 -0.3513093488 -0.4914775598
1701500000.0 -0.5631077535 -0.1896859838
1711450000.0 -0.5462783935 0.1865573913
1721400000.0 -0.2893429874 0.4832899722
1731350000.0 0.1137625404 0.5534338802
1741300000.0 0.4730951936 0.3372549859
1751250000.0 0.5791333617 -0.0672695739
1761200000.0 0.4277321638 -0.2981583814
1771150000.0 0.2248882174 -0.6046286424
1781100000.0 -0.1801374621 -0.6391882107
1791050000.0 -0.5071317719 -0.4279270465
1801000000.0 -0.6513260373 -0.0706075536
1810950000.0 -0.562882378 0.3113744716
1820900000.0 -0.2572002369 0.5746848112
1830850000.0 0.157831906 0.5949711769
1840800000.0 0.4970413711 0.345848639
1850750000.0 0.5993525443 -0.0545986912
1860700000.0 0.4382419844 -0.4144839403
1870650000.0 0.1139172887 -0.5965064449
1880600000.0 -0.2353563188 -0.5646224589
1890550000.0 -0.4969971959 -0.3558440535
1900500000.0 -0.5970902764 -0.0465904316
1910450000.0 -0.5065196567 0.2606148522
1920400000.0 -0.2534341951 0.4547269133
1930350000.0 0.0601072675 0.4560081686
1940300000.0 0.2960819925 0.2713456861
1950250000.0 0.3606519589 0.0008244178
1960200000.0 0.2584494945 -0.2300194648
1970150000.0 0.0669573386 -0.3434077847
1980100000.0 -0.123030956 -0.3298008189
1990050000.0 -0.2474115547 -0.2302777362
2000000000.0 -0.2841345779 -0.1112577917
