!Created with skrf (http://scikit-rf.org).
# GHz S RI R 50.0 
!freq ReS11 ImS11
10000000.0 -0.9998636174 0.1624720052
19950000.0 -0.9450479104 0.3112077012
29900000.0 -0.8677139959 0.4540621508
39850000.0 -0.7666243629 0.5956432041
49800000.0 -0.6430848343 0.7304128179
59750000.0 -0.4912364392 0.8512937555
69700000.0 -0.3029021572 0.9454092273
79650000.0 -0.0739417427 0.9909770446
89600000.0 0.1927995914 0.9667828259
99550000.0 0.4786164082 0.849527606
109500000.0 0.750405028 0.6227502162
119450000.0 0.9506330821 0.2806232497
129400000.0 1.004571156 -0.1412577034
139350000.0 0.8656419046 -0.5485201764
149300000.0 0.5669006652 -0.8412019433
159250000.0 0.2032708831 -0.9728565183
169200000.0 -0.1427564114 -0.9701320205
179150000.0 -0.4315591814 -0.8791502134
189100000.0 -0.6525629951 -0.7374530836
199050000.0 -0.8055868499 -0.5702025065
209000000.0 -0.8949410173 -0.3919691929
218950000.0 -0.9370988087 -0.2148935985
228900000.0 -0.9430833977 -0.0450153299
238850000.0 -0.9246358378 0.1167931156
248800000.0 -0.8731684952 0.2525278396
258750000.0 -0.8392368737 0.4090407189
268700000.0 -0.7687613122 0.5389992727
278650000.0 -0.6745377995 0.6500724687
288600000.0 -0.5545714038 0.7378320343
298550000.0 -0.411033813 0.7993115511
308500000.0 -0.2479060504 0.8346809381
318450000.0 -0.0693598335 0.8390777701
328400000.0 0.1172343101 0.8043833967
338350000.0 0.2937342259 0.7186074398
348300000.0 0.4345937128 0.5741364052
358250000.0 0.5090460252 0.3824386968
368200000.0 0.5011960064 0.1764353146
378150000.0 0.4204869603 -0.0032834933
388100000.0 0.2962306773 -0.129611939
398050000.0 0.1614283295 -0.191626762
408000000.0 0.0438533051 -0.1949958113
417950000.0 -0.0434858633 -0.1567933906
427900000.0 -0.0994764925 -0.0966288698
437850000.0 -0.129209272 -0.0303622207
447800000.0 -0.1389966134 0.029792857
457750000.0 -0.1342153216 0.0764970996
467700000.0 -0.1182756876 0.104953689
477650000.0 -0.0948227046 0.1146323978
487600000.0 -0.0663839251 0.1089357634
497550000.0 -0.0398232932 0.0951778546
507500000.0 -0.0076432974 0.0759577924
517450000.0 0.0133665785 0.0550218185
527400000.0 0.0241745778 0.035602783
537350000.0 0.0218040818 0.0177918394
547300000.0 0.0082100417 0.001211228
557250000.0 -0.0151368504 -0.0163873409
567200000.0 -0.0441765264 -0.0331915784
577150000.0 -0.074336969 -0.0471243246
587100000.0 -0.1014573804 -0.055222622
597050000.0 -0.1226702368 -0.0540976325
607000000.0 -0.1386773017 -0.0420451423
616950000.0 -0.1499657767 -0.0187393462
626900000.0 -0.1575819831 0.0144006322
636850000.0 -0.1613070084 0.056447236
646800000.0 -0.1512351732 0.0825533935
656750000.0 -0.1366857628 0.0974180463
666700000.0 -0.1312453666 0.1154581359
676650000.0 -0.1117707445 0.1257480914
686600000.0 -0.0812755304 0.1284639335
696550000.0 -0.0429442732 0.1246677119
706500000.0 -0.002230757 0.1149485199
716450000.0 0.0367764597 0.0996643088
726400000.0 0.0677668946 0.0768719469
736350000.0 0.0875649418 0.0446502296
746300000.0 0.0934907324 0.0027362741
756250000.0 0.0865977912 -0.0489375306
766200000.0 0.0671445022 -0.1056115531
776150000.0 0.0375790528 -0.1620432552
786100000.0 -0.0013901178 -0.2118041345
796050000.0 -0.0441098235 -0.2465970896
806000000.0 -0.096569011 -0.260179143
815950000.0 -0.1566236232 -0.2601052978
825900000.0 -0.2214392417 -0.2420306544
835850000.0 -0.287783442 -0.2083654113
845800000.0 -0.3508801345 -0.1635904665
855750000.0 -0.4053343546 -0.1105355849
865700000.0 -0.4444031933 -0.0514451963
875650000.0 -0.4644484446 0.0149689339
885600000.0 -0.4621829618 0.0868838708
895550000.0 -0.4390674714 0.1642078505
905500000.0 -0.3970485263 0.2453090308
915450000.0 -0.3391385438 0.3258040691
925400000.0 -0.2659468677 0.3985458854
935350000.0 -0.1771883539 0.4559383659
945300000.0 -0.0722164934 0.4875772732
955250000.0 0.0482372868 0.4841177349
965200000.0 0.1802121952 0.4376572459
975150000.0 0.3142126605 0.3441263291
985100000.0 0.4334863256 0.1994519269
995050000.0 0.512071596 0.0059724933
1005000000.0 0.5164861972 -0.2203421025
1014950000.0 0.4216569075 -0.4452085337
1024900000.0 0.2231928603 -0.6241074113
1034850000.0 -0.05353908 -0.7131038195
1044800000.0 -0.3571145291 -0.6859052841
1054750000.0 -0.6302441 -0.5424112011
1064700000.0 -0.8184793119 -0.3044521264
1074650000.0 -0.8944097228 -0.0204265882
1084600000.0 -0.8471160961 0.2723138314
1094550000.0 -0.6847240363 0.5293059754
1104500000.0 -0.4624402449 0.7080984009
1114450000.0 -0.1761140914 0.8145260643
1124400000.0 0.1276227939 0.8029168254
1134350000.0 0.392528877 0.6716368988
1144300000.0 0.5741675795 0.45002188
1154250000.0 0.6553403688 0.190626564
1164200000.0 0.6474028375 -0.0619099051
1174150000.0 0.5745222396 -0.273949533
1184100000.0 0.4670775032 -0.4384002909
1194050000.0 0.3322744447 -0.5550478592
1204000000.0 0.1848648807 -0.6184555066
1213950000.0 0.0388163227 -0.6373453001
1223900000.0 -0.0973824031 -0.626842028
1233850000.0 -0.2201920795 -0.5997754955
1243800000.0 -0.3277195759 -0.5633620991
1253750000.0 -0.4196513451 -0.5199009326
1263700000.0 -0.4938824412 -0.4688393009
1273650000.0 -0.5516902493 -0.4104030219
1283600000.0 -0.5919661434 -0.3432323934
1293550000.0 -0.6200766783 -0.2695736488
1303500000.0 -0.6412442359 -0.1927449783
1313450000.0 -0.6580845253 -0.116991937
1323400000.0 -0.6735151894 -0.0443832906
1333350000.0 -0.6855562731 0.0235354039
1343300000.0 -0.6905346031 0.0872935069
1353250000.0 -0.6855560069 0.1456591187
1363200000.0 -0.6674565345 0.2009913236
1373150000.0 -0.6354147451 0.255028991
1383100000.0 -0.5944749692 0.3087537589
1393050000.0 -0.5485825762 0.363065235
1403000000.0 -0.5024969869 0.4162737853
1412950000.0 -0.4557218219 0.4661050836
1422900000.0 -0.408834665 0.5104887638
1432850000.0 -0.3582335136 0.5447157181
1442800000.0 -0.3016517354 0.5687776272
1452750000.0 -0.2367745607 0.5813665447
1462700000.0 -0.1624315424 0.5845665708
1472650000.0 -0.0809900257 0.5806597969
1482600000.0 0.0040442759 0.5716662226
1492550000.0 0.088396576 0.5557306227
1502500000.0 0.1690359971 0.5292822233
1512450000.0 0.2429088698 0.487575209
1522400000.0 0.3059354063 0.428234461
1532350000.0 0.3567992964 0.3499067446
1542300000.0 0.3953894261 0.2560923304
1552250000.0 0.4215127565 0.1519948315
1562200000.0 0.4359332423 0.0451690537
1572150000.0 0.4360816521 -0.0587852499
1582100000.0 0.4193162777 -0.1565953531
1592050000.0 0.3833436549 -0.2442671551
1602000000.0 0.3261394964 -0.3205844391
1611950000.0 0.2521505617 -0.3839149012
1621900000.0 0.1666652695 -0.437054442
1631850000.0 0.0759896597 -0.4810668736
1641800000.0 -0.0156752819 -0.5154611477
1651750000.0 -0.1043693807 -0.5367896005
1661700000.0 -0.1878545533 -0.5407218973
1671650000.0 -0.2555456267 -0.5118844724
1681600000.0 -0.3135427242 -0.5221939537
1691550000.0 -0.3883379581 -0.4796199682
1701500000.0 -0.4525451855 -0.4308322386
1711450000.0 -0.5113481493 -0.3804850963
1721400000.0 -0.5654593181 -0.3310850665
1731350000.0 -0.6131639397 -0.2843704259
1741300000.0 -0.6506384365 -0.2384620864
1751250000.0 -0.6747006151 -0.190769184
1761200000.0 -0.6850673368 -0.1406296863
1771150000.0 -0.6850076379 -0.0873575359
1781100000.0 -0.6803962053 -0.0321853588
1791050000.0 -0.6755088796 0.0231340015
1801000000.0 -0.6738442068 0.0761339213
1810950000.0 -0.675312546 0.1266224264
1820900000.0 -0.6768861305 0.172288485
1830850000.0 -0.6727210609 0.2116595137
1840800000.0 -0.658361702 0.2482049848
1850750000.0 -0.6333397131 0.2806032697
1860700000.0 -0.5971057041 0.3110669517
1870650000.0 -0.556349792 0.3410936895
1880600000.0 -0.5158336158 0.3693909573
1890550000.0 -0.4795263095 0.3964961018
1900500000.0 -0.4481079839 0.4187216625
1910450000.0 -0.4204367929 0.4348610852
1920400000.0 -0.3929118792 0.4413459465
1930350000.0 -0.3622753735 0.4383908551
1940300000.0 -0.3279158086 0.4260986424
1950250000.0 -0.288941084 0.4069208517
1960200000.0 -0.2479979108 0.3850948142
1970150000.0 -0.2114364997 0.361679938
1980100000.0 -0.1830247628 0.3377601385
1990050000.0 -0.1674449667 0.3109101504
2000000000.0 -0.1655346919 0.2788064769
