!Created with skrf (http://scikit-rf.org).
# GHz S RI R 50.0 
!freq ReS11 ImS11
10000000.0 -0.9957796267 0.0664482889
14975000.0 -0.9924443933 0.0997518482
19950000.0 -0.9878371369 0.1337538228
24925000.0 -0.9820677288 0.1686964618
29900000.0 -0.9748120373 0.2045884404
34875000.0 -0.9656192428 0.2421100363
39850000.0 -0.953956432 0.2816376838
44825000.0 -0.9399084985 0.3234914182
49800000.0 -0.923328061 0.3676105488
54775000.0 -0.9033209214 0.4145058076
59750000.0 -0.8793152632 0.463865004
64725000.0 -0.8505336417 0.5160698341
69700000.0 -0.8155810793 0.5706630845
74675000.0 -0.773181323 0.6275517157
79650000.0 -0.7216616327 0.6862225174
84625000.0 -0.6601155136 0.745382479
89600000.0 -0.5867353746 0.8041690157
94575000.0 -0.5005718462 0.860437834
99550000.0 -0.4001532137 0.9113896478
104525000.0 -0.2852329692 0.9535855114
109500000.0 -0.1558556909 0.9827113505
114475000.0 -0.0136718268 0.9941191042
119450000.0 0.1380507671 0.9840259073
124425000.0 0.2934417872 0.9483957697
129400000.0 0.4465922079 0.8861528963
134375000.0 0.5859643161 0.7998346461
139350000.0 0.7136121001 0.6876449982
144325000.0 0.8173242561 0.5582159319
149300000.0 0.8960564087 0.417593017
154275000.0 0.9488514896 0.272983669
159250000.0 0.9778100805 0.130313306
164225000.0 0.9855201707 -0.0055146894
169200000.0 0.9759975797 -0.1313864833
174175000.0 0.95259594 -0.2456736907
179150000.0 0.9193681618 -0.3475196611
184125000.0 0.8797057307 -0.4370849842
189100000.0 0.8362040776 -0.5151337309
194075000.0 0.7904501052 -0.5830169531
199050000.0 0.7442797101 -0.6412746787
204025000.0 0.6979328475 -0.6912437059
209000000.0 0.6522898844 -0.7343988335
213975000.0 0.6076856492 -0.7712474216
218950000.0 0.5645099898 -0.8025950842
223925000.0 0.5225596253 -0.8299870726
228900000.0 0.481938886 -0.8535827891
233875000.0 0.442370329 -0.8738806035
238850000.0 0.403571717 -0.8916869656
243825000.0 0.3646655858 -0.9072764232
248800000.0 0.3283965762 -0.8976135276
253775000.0 0.2947264768 -0.9300690296
258750000.0 0.2568229623 -0.9401032585
263725000.0 0.2196414037 -0.9482234322
268700000.0 0.182214835 -0.954194038
273675000.0 0.1443314947 -0.9582974862
278650000.0 0.1059687302 -0.9599359178
283625000.0 0.0666311079 -0.9590769584
288600000.0 0.0264417551 -0.9559123242
293575000.0 -0.015226538 -0.9500759701
298550000.0 -0.0582206304 -0.9407772554
303525000.0 -0.102274558 -0.928040175
308500000.0 -0.1475864244 -0.911102096
313475000.0 -0.1937658869 -0.8892935296
318450000.0 -0.2406511639 -0.8615158143
323425000.0 -0.2874216925 -0.8277041405
328400000.0 -0.3332146319 -0.7869264784
333375000.0 -0.3769849011 -0.7393195084
338350000.0 -0.4172057378 -0.6839794437
343325000.0 -0.4521882433 -0.6216742613
348300000.0 -0.4796609995 -0.5525897744
353275000.0 -0.4982198118 -0.4783391403
358250000.0 -0.505968106 -0.4003548462
363225000.0 -0.5024030008 -0.3209899995
368200000.0 -0.487620912 -0.2432285719
373175000.0 -0.4618563692 -0.1697331877
378150000.0 -0.4267601261 -0.1023952349
383125000.0 -0.3838511331 -0.0429149562
388100000.0 -0.3356585124 0.0077334701
393075000.0 -0.2839287726 0.0486220683
398050000.0 -0.2308894173 0.0801535604
403025000.0 -0.1786232157 0.1026503458
408000000.0 -0.128432524 0.1167164698
412975000.0 -0.0816886173 0.1237507592
417950000.0 -0.0391937636 0.1251180531
422925000.0 -0.0005978806 0.1225245868
427900000.0 0.0335260623 0.1167317651
432875000.0 0.0631264338 0.1081693923
437850000.0 0.0882448088 0.0980226866
442825000.0 0.1095569632 0.086228863
447800000.0 0.1269845316 0.0735708947
452775000.0 0.1406858158 0.0606451638
457750000.0 0.1507628431 0.0479379364
462725000.0 0.1577116685 0.0356601511
467700000.0 0.1618722715 0.023710861
472675000.0 0.1633677214 0.0126302644
477650000.0 0.1621337817 0.0024999148
482625000.0 0.1587817395 -0.0065504519
487600000.0 0.1534247599 -0.0144554877
492575000.0 0.1463545887 -0.0210156017
497550000.0 0.140828526 -0.0244229567
502525000.0 0.1318991253 -0.030315909
507500000.0 0.1219799409 -0.0336275789
512475000.0 0.1115465958 -0.0354375878
517450000.0 0.1007808362 -0.0360832725
522425000.0 0.0895645092 -0.0357217839
527400000.0 0.0778401968 -0.0341364854
532375000.0 0.066156209 -0.0311968906
537350000.0 0.0546021312 -0.0270125802
542325000.0 0.0434874689 -0.0218828458
547300000.0 0.0322207159 -0.0163995502
552275000.0 0.0204589269 -0.0101301185
557250000.0 0.009202476 -0.0025490696
562225000.0 -0.0012506983 0.0060651873
567200000.0 -0.0113491721 0.0153664279
572175000.0 -0.0203982788 0.0252908168
577150000.0 -0.0291682475 0.0355861242
582125000.0 -0.0370716356 0.0460747911
587100000.0 -0.0440281059 0.0567059021
592075000.0 -0.0503580966 0.0672148853
597050000.0 -0.0551990593 0.0779657294
602025000.0 -0.0589821164 0.0887063625
607000000.0 -0.0617517755 0.0991862579
611975000.0 -0.0637127474 0.1095699206
616950000.0 -0.0648645773 0.1197717595
621925000.0 -0.0646146926 0.1294186001
626900000.0 -0.0637360822 0.1384360307
631875000.0 -0.0619271241 0.1470017816
636850000.0 -0.059238097 0.1547959253
641825000.0 -0.0555805452 0.1618445706
646800000.0 -0.0511674041 0.1683947743
651775000.0 -0.0461952863 0.1744404053
656750000.0 -0.0405981446 0.1794380145
661725000.0 -0.0344082913 0.1834378645
666700000.0 -0.0277069993 0.1863459821
671675000.0 -0.0203260133 0.1884426744
676650000.0 -0.0124341494 0.1895347726
681625000.0 -0.0039930336 0.189446148
686600000.0 0.0052918835 0.1882547546
691575000.0 0.0149128885 0.1857806157
696550000.0 0.0248159514 0.1822458892
701525000.0 0.0351671413 0.1777995114
706500000.0 0.0453706378 0.1715468529
711475000.0 0.0560397107 0.1643737547
716450000.0 0.0663219444 0.155775467
721425000.0 0.076892501 0.1456713703
726400000.0 0.0873648042 0.1342472355
731375000.0 0.0978015906 0.1215558837
736350000.0 0.1074600544 0.108000478
741325000.0 0.1165922063 0.0931427384
746300000.0 0.1246583169 0.0766506254
751275000.0 0.1321390728 0.0587893184
756250000.0 0.1385803916 0.0402833968
761225000.0 0.1435346797 0.0203572161
766200000.0 0.1480683258 -0.0003187518
771175000.0 0.1517593506 -0.0220966251
776150000.0 0.153456647 -0.0442332379
781125000.0 0.1539229067 -0.067270509
786100000.0 0.1528114356 -0.0902828483
791075000.0 0.149986485 -0.1137736926
796050000.0 0.1455863614 -0.1375309878
801025000.0 0.139780917 -0.1613669501
806000000.0 0.1327287904 -0.1847104661
810975000.0 0.1238611756 -0.2077417139
815950000.0 0.1133585245 -0.2296333481
820925000.0 0.100992951 -0.2510238156
825900000.0 0.0867345562 -0.2714565881
830875000.0 0.0713079906 -0.2911066245
835850000.0 0.0543718666 -0.3094367349
840825000.0 0.0361254221 -0.3263506381
845800000.0 0.0166150714 -0.341955428
850775000.0 -0.0041758616 -0.3560645314
855750000.0 -0.0263479084 -0.368102649
860725000.0 -0.0492100532 -0.3781674301
865700000.0 -0.0730056279 -0.3867849173
870675000.0 -0.0980918327 -0.3930975858
875650000.0 -0.1236395553 -0.3976365654
880625000.0 -0.1491535394 -0.3999391886
885600000.0 -0.175333107 -0.3998958344
890575000.0 -0.2025013908 -0.3970597894
895550000.0 -0.2298397524 -0.3913962478
900525000.0 -0.2573954273 -0.3831857712
905500000.0 -0.2847982356 -0.3716403202
910475000.0 -0.3124671242 -0.3567109461
915450000.0 -0.3395377522 -0.3392311642
920425000.0 -0.3664639154 -0.3173237335
925400000.0 -0.39242067 -0.2915228844
930375000.0 -0.4174671624 -0.2616685052
935350000.0 -0.4406425385 -0.2280971043
940325000.0 -0.4620785704 -0.1890584307
945300000.0 -0.4805772088 -0.145460084
950275000.0 -0.495879707 -0.0968758268
955250000.0 -0.5069197539 -0.0428371589
960225000.0 -0.5122406327 0.0162749433
965200000.0 -0.5111599425 0.0798513466
970175000.0 -0.502180553 0.1484381772
975150000.0 -0.4838706394 0.220793438
980125000.0 -0.4547399317 0.294881743
985100000.0 -0.4136310518 0.3699031073
990075000.0 -0.3593000137 0.4425765797
995050000.0 -0.2920143808 0.51140407
1000025000.0 -0.2112531865 0.5735930115
1005000000.0 -0.1168432616 0.626443784
1009975000.0 -0.00942684 0.6662961727
1014950000.0 0.108488083 0.688457251
1019925000.0 0.2335809323 0.6903166998
1024900000.0 0.3616271247 0.6698584389
1029875000.0 0.4873067329 0.6259263988
1034850000.0 0.6054190133 0.5590628477
1039825000.0 0.7104506375 0.4712823851
1044800000.0 0.7978413487 0.3649162626
1049775000.0 0.8646819628 0.2445933066
1054750000.0 0.9082508357 0.1155395202
1059725000.0 0.926610122 -0.0167075623
1064700000.0 0.9223785282 -0.1418785931
1069675000.0 0.9055839351 -0.2629423654
1074650000.0 0.8682185862 -0.381621559
1079625000.0 0.8120189273 -0.4904594285
1084600000.0 0.7392673108 -0.5861451883
1089575000.0 0.6566734104 -0.6654672355
1094550000.0 0.5663699736 -0.7315061189
1099525000.0 0.4692325269 -0.7825986278
1104500000.0 0.3685707014 -0.8174397107
1109475000.0 0.2668468176 -0.8380531911
1114450000.0 0.1655814213 -0.8447507085
1119425000.0 0.0683291302 -0.838090073
1124400000.0 -0.023760636 -0.8208146029
1129375000.0 -0.1098234136 -0.7938952238
1134350000.0 -0.1887541575 -0.759327535
1139325000.0 -0.2612184981 -0.7189706772
1144300000.0 -0.3267968553 -0.6721406713
1149275000.0 -0.385586715 -0.6209221057
1154250000.0 -0.4365093029 -0.5659811069
1159225000.0 -0.4794136135 -0.5094465919
1164200000.0 -0.5146783537 -0.4527457626
1169175000.0 -0.5442137179 -0.3975442446
1174150000.0 -0.5704279487 -0.3444417268
1179125000.0 -0.5929815099 -0.2904997466
1184100000.0 -0.6102635357 -0.2369842152
1189075000.0 -0.6228971407 -0.1843270571
1194050000.0 -0.6312241797 -0.1334642745
1199025000.0 -0.6359328224 -0.0848457325
1204000000.0 -0.637592069 -0.0393287582
1208975000.0 -0.6367806028 0.0029555843
1213950000.0 -0.6335367663 0.0441898549
1218925000.0 -0.6285595792 0.0828671321
1223900000.0 -0.6228644319 0.118863496
1228875000.0 -0.6161050932 0.1531036238
1233850000.0 -0.6084457353 0.1845918091
1238825000.0 -0.6001137346 0.213531646
1243800000.0 -0.5905943028 0.2409668438
1248775000.0 -0.5818530174 0.2666406426
1253750000.0 -0.5731892329 0.2900121362
1258725000.0 -0.5637762094 0.3118867179
1263700000.0 -0.5550799931 0.331936938
1268675000.0 -0.5472809059 0.3511173514
1273650000.0 -0.5392728341 0.3683905051
1278625000.0 -0.5324424738 0.3839437966
1283600000.0 -0.5255864074 0.3985852155
1288575000.0 -0.5184335243 0.4119126632
1293550000.0 -0.5117838911 0.4242416785
1298525000.0 -0.5050818506 0.4359249651
1303500000.0 -0.4981566283 0.4472120353
1308475000.0 -0.4923256754 0.4577451995
1313450000.0 -0.4867798993 0.4671448933
1318425000.0 -0.4806458762 0.4766088605
1323400000.0 -0.4743894022 0.4852532694
1328375000.0 -0.4687556911 0.4936754965
1333350000.0 -0.462392322 0.5022346438
1338325000.0 -0.4566819486 0.5099363691
1343300000.0 -0.4506970361 0.516708164
1348275000.0 -0.4448111806 0.5235612959
1353250000.0 -0.4386546176 0.5304346594
1358225000.0 -0.4320279255 0.5362703244
1363200000.0 -0.4259169489 0.5423568026
1368175000.0 -0.4197714539 0.5478240973
1373150000.0 -0.4132504121 0.5525148594
1378125000.0 -0.4063751515 0.5569420128
1383100000.0 -0.3996561201 0.5607989172
1388075000.0 -0.3921816303 0.5646497384
1393050000.0 -0.3846906658 0.5677875137
1398025000.0 -0.3780434372 0.5709020515
1403000000.0 -0.3699713765 0.5731073924
1407975000.0 -0.3623619994 0.575849725
1412950000.0 -0.3547950141 0.5787544567
1417925000.0 -0.3461291545 0.5805330222
1422900000.0 -0.3379813834 0.5822474263
1427875000.0 -0.3296083309 0.5849326358
1432850000.0 -0.3203689041 0.5860769377
1437825000.0 -0.3109703659 0.5879752478
1442800000.0 -0.301823427 0.5896311458
1447775000.0 -0.2916370849 0.5905050114
1452750000.0 -0.2805263629 0.5907976175
1457725000.0 -0.2693323395 0.591566726
1462700000.0 -0.2567201944 0.5928248524
1467675000.0 -0.2438105171 0.5924311626
1472650000.0 -0.2299865715 0.592887569
1477625000.0 -0.2153487769 0.5935401292
1482600000.0 -0.2003206847 0.5930866232
1487575000.0 -0.1842043539 0.5919297921
1492550000.0 -0.1674545771 0.590730439
1497525000.0 -0.149628871 0.5890648271
1502500000.0 -0.131484015 0.5869251348
1507475000.0 -0.1122686229 0.5849259169
1512450000.0 -0.0929599005 0.5822288545
1517425000.0 -0.0729501335 0.578994014
1522400000.0 -0.0530804817 0.5747331615
1527375000.0 -0.0328482196 0.5708497771
1532350000.0 -0.0122260174 0.5658078238
1537325000.0 0.0083593796 0.5589796525
1542300000.0 0.0291715201 0.5517936577
1547275000.0 0.051057987 0.544461729
1552250000.0 0.072401511 0.5361331908
1557225000.0 0.0937928097 0.5269756584
1562200000.0 0.1155129228 0.5172585123
1567175000.0 0.137390152 0.5068028572
1572150000.0 0.1587635557 0.4952908872
1577125000.0 0.1799864929 0.4838881388
1582100000.0 0.2016710361 0.4709619008
1587075000.0 0.2226560736 0.4579888482
1592050000.0 0.2438555878 0.4443949637
1597025000.0 0.2648114797 0.4310010923
1602000000.0 0.2856068527 0.4163936923
1606975000.0 0.3057480059 0.4023890774
1611950000.0 0.3258160297 0.3884965739
1616925000.0 0.345840405 0.3740532471
1621900000.0 0.3657290035 0.3590857734
1626875000.0 0.3845168675 0.3450686261
1631850000.0 0.4031017845 0.3299331401
1636825000.0 0.4203927657 0.3149193951
1641800000.0 0.4376753024 0.3004508934
1646775000.0 0.4544463042 0.2866980427
1651750000.0 0.4705835178 0.2718498416
1656725000.0 0.4856396854 0.2580356987
1661700000.0 0.5004249641 0.2446465525
1666675000.0 0.5140115356 0.2313394248
1671650000.0 0.5271101992 0.218501242
1676625000.0 0.5384708258 0.2061206656
1681600000.0 0.5499662544 0.1937535149
1686575000.0 0.5602742051 0.1820683263
1691550000.0 0.5700856781 0.1708610679
1696525000.0 0.5788011404 0.1599759817
1701500000.0 0.5877393447 0.1500827212
1706475000.0 0.5951977016 0.139844462
1711450000.0 0.6027505838 0.130189732
1716425000.0 0.6096782052 0.1210832295
1721400000.0 0.6153667114 0.1121536096
1726375000.0 0.6210502004 0.1037891593
1731350000.0 0.6267301089 0.0959362817
1736325000.0 0.6318618385 0.088144322
1741300000.0 0.6370355991 0.0815050378
1746275000.0 0.6415056631 0.0748328128
1751250000.0 0.646355851 0.0688018997
1756225000.0 0.6505062021 0.0638945988
1761200000.0 0.6539564948 0.0593914202
1766175000.0 0.6576174015 0.0548468729
1771150000.0 0.6603891231 0.0513011329
1776125000.0 0.6634166898 0.0482722087
1781100000.0 0.6659708771 0.0456048079
1786075000.0 0.667760824 0.0432997542
1791050000.0 0.6696095679 0.0415095447
1796025000.0 0.6709059134 0.0399983741
1801000000.0 0.6717229436 0.0390254654
1805975000.0 0.6719089265 0.0384725226
1810950000.0 0.671937843 0.0384567416
1815925000.0 0.6715788381 0.0389670557
1820900000.0 0.6705754967 0.0393753213
1825875000.0 0.6696736205 0.040202248
1830850000.0 0.6675442779 0.0408177675
1835825000.0 0.6655010201 0.0421620468
1840800000.0 0.6623345977 0.0439983385
1845775000.0 0.6593377234 0.0457233973
1850750000.0 0.6553792798 0.0473964158
1855725000.0 0.6506078151 0.0494811788
1860700000.0 0.645484193 0.0512440367
1865675000.0 0.6395185333 0.053173735
1870650000.0 0.6329588594 0.0550615737
1875625000.0 0.625919485 0.0568634058
1880600000.0 0.6182615286 0.058343809
1885575000.0 0.6096503799 0.0599907205
1890550000.0 0.6009253923 0.0615393755
1895525000.0 0.5911888742 0.0624856415
1900500000.0 0.5810630813 0.0639248066
1905475000.0 0.5699153333 0.0649501216
1910450000.0 0.5587123657 0.0659376856
1915425000.0 0.5458848174 0.0670687069
1920400000.0 0.5324831654 0.0689520267
1925375000.0 0.5187203894 0.0708969793
1930350000.0 0.5037474079 0.072688237
1935325000.0 0.4879238792 0.0744710398
1940300000.0 0.4711935807 0.0768135083
1945275000.0 0.4534442415 0.0784622648
1950250000.0 0.43433089 0.0797768064
1955225000.0 0.4140909692 0.0818005957
1960200000.0 0.3927355178 0.0834136748
1965175000.0 0.3701864516 0.08491969
1970150000.0 0.3454741489 0.0861464778
1975125000.0 0.3190405033 0.0877819871
1980100000.0 0.2917409212 0.0886882943
1985075000.0 0.262159619 0.0901123795
1990050000.0 0.2293721309 0.0912452976
1995025000.0 0.1953553341 0.0929759938
2000000000.0 0.1586513894 0.0953351557
