!Created with skrf (http://scikit-rf.org).
# GHz S RI R 50.0 
!freq ReS11 ImS11
10000000.0 -0.82069237 0.6125642259
19950000.0 -0.2971770802 0.9535126588
29900000.0 0.3219433299 0.9252512782
39850000.0 0.8137617445 0.5395336025
49800000.0 0.9878779195 -0.0733125056
59750000.0 0.7493141093 -0.6832876211
69700000.0 0.1632877406 -1.017195726
79650000.0 -0.517290299 -0.8848919715
89600000.0 -0.9476373392 -0.3189324804
99550000.0 -0.8822361404 0.4076473307
109500000.0 -0.3181596615 0.90731603
119450000.0 0.466367149 0.8596328587
129400000.0 0.9772198996 0.2291617351
139350000.0 0.819306109 -0.6035564675
149300000.0 0.0728030482 -0.9926236813
159250000.0 -0.6824310128 -0.6746052032
169200000.0 -0.939350487 0.0700083959
179150000.0 -0.5951734472 0.7443888547
189100000.0 0.0992258676 0.9734467801
199050000.0 0.7367633738 0.6679540962
209000000.0 0.9864164244 0.0301160491
218950000.0 0.7625291398 -0.5856448372
228900000.0 0.2143251814 -0.9093009147
238850000.0 -0.4056132938 -0.8256665333
248800000.0 -0.6755276947 -0.2711694249
258750000.0 -0.9249545316 0.1862169439
268700000.0 -0.6313268792 0.724080621
278650000.0 -0.0712197549 0.9562814715
288600000.0 0.504318608 0.7858672528
298550000.0 0.842391231 0.2993069735
308500000.0 0.8050542167 -0.2860729201
318450000.0 0.4131326593 -0.7146673803
328400000.0 -0.1563233236 -0.7917909282
338350000.0 -0.6227359165 -0.4769196655
348300000.0 -0.7366887559 0.0500852393
358250000.0 -0.4616581505 0.470763438
368200000.0 -0.0142009042 0.5565265519
378150000.0 0.3144785097 0.3249356727
388100000.0 0.3664838864 -0.0181513546
398050000.0 0.1861630431 -0.2458592313
408000000.0 -0.0513736775 -0.259465077
417950000.0 -0.1862245811 -0.1202104098
427900000.0 -0.1696864002 0.0407998826
437850000.0 -0.0574381506 0.1208592827
447800000.0 0.058979452 0.0962253182
457750000.0 0.1117960556 0.0100248441
467700000.0 0.0895007038 -0.072416614
477650000.0 0.024436031 -0.1033025927
487600000.0 -0.029490298 -0.076987618
497550000.0 0.000304676 -0.0518814375
507500000.0 -0.0511744757 0.0058405395
517450000.0 -0.00924057 0.0221776998
527400000.0 0.0149350538 0.0053737203
537350000.0 0.0059606939 -0.0186075897
547300000.0 -0.0289548992 -0.021210475
557250000.0 -0.0577513611 0.0145118199
567200000.0 -0.0532444703 0.0688251502
577150000.0 -0.0063803051 0.111668932
587100000.0 0.0663797109 0.1114561438
597050000.0 0.1287639738 0.0568355121
607000000.0 0.1443912028 -0.0350117663
616950000.0 0.0965249863 -0.1259048437
626900000.0 -0.0013336645 -0.1725292704
636850000.0 -0.1121416342 -0.1523284283
646800000.0 -0.1871395624 -0.0691957989
656750000.0 -0.1958538894 0.0429872057
666700000.0 -0.131572146 0.1363832002
676650000.0 -0.0217069515 0.1673188383
686600000.0 0.0839243706 0.1220758994
696550000.0 0.1368781159 0.0230002796
706500000.0 0.1161539378 -0.0825475866
716450000.0 0.0390804962 -0.1436805237
726400000.0 -0.0526751172 -0.1336112548
736350000.0 -0.1039986161 -0.0614660096
746300000.0 -0.0829273951 0.0265771052
756250000.0 0.0019494716 0.0749724867
766200000.0 0.1037445451 0.0457840138
776150000.0 0.1587694523 -0.0529301524
786100000.0 0.1249875544 -0.1700962264
796050000.0 0.0065652204 -0.2348804416
806000000.0 -0.141764766 -0.1943412733
815950000.0 -0.2384600874 -0.0472712029
825900000.0 -0.2184209896 0.148751292
835850000.0 -0.0675654387 0.3019547081
845800000.0 0.1590725867 0.3313288539
855750000.0 0.3624979986 0.2076926052
865700000.0 0.4446529406 -0.0239331442
875650000.0 0.3618356176 -0.2619035653
885600000.0 0.1418993685 -0.4053615788
895550000.0 -0.1354410751 -0.3865551966
905500000.0 -0.3543753298 -0.1947691667
915450000.0 -0.4121549979 0.100555007
925400000.0 -0.2709587567 0.3711768963
935350000.0 0.0112331427 0.4893531921
945300000.0 0.3038489981 0.3915311822
955250000.0 0.4597149271 0.1143327256
965200000.0 0.3776764891 -0.2095535307
975150000.0 0.0744324958 -0.3954497174
985100000.0 -0.291606904 -0.2982516102
995050000.0 -0.4716216486 0.0628165838
1005000000.0 -0.2962543256 0.4565685587
1014950000.0 0.1570761134 0.5748317172
1024900000.0 0.5730585829 0.2644019802
1034850000.0 0.5968302221 -0.3134234613
1044800000.0 0.114505305 -0.7342150229
1054750000.0 -0.5570403435 -0.6028723556
1064700000.0 -0.8529958037 0.0125995413
1074650000.0 -0.6366370831 0.5966659246
1084600000.0 -0.0558551525 0.8647227914
1094550000.0 0.5386533759 0.643295838
1104500000.0 0.8076796532 0.0666801098
1114450000.0 0.5795195238 -0.5311838548
1124400000.0 -0.0015609461 -0.7592166732
1134350000.0 -0.5260629775 -0.4942682523
1144300000.0 -0.6728031379 0.0211081357
1154250000.0 -0.4350738478 0.4469887341
1164200000.0 -0.0009947324 0.5773551843
1174150000.0 0.3886437548 0.3845725165
1184100000.0 0.5274301327 -0.0272504366
1194050000.0 0.327235228 -0.4023236889
1204000000.0 -0.061616705 -0.5161475035
1213950000.0 -0.4049218902 -0.3446277786
1223900000.0 -0.5482039727 -0.0097179064
1233850000.0 -0.4591641387 0.3314915674
1243800000.0 -0.1797048139 0.5505431994
1253750000.0 0.1831622501 0.55218973
1263700000.0 0.4771088506 0.3241950646
1273650000.0 0.5695617183 -0.0414944268
1283600000.0 0.4237884022 -0.386558119
1293550000.0 0.115670677 -0.5777966271
1303500000.0 -0.2340026212 -0.5688892437
1313450000.0 -0.518126781 -0.3804127057
1323400000.0 -0.6601600078 -0.071146394
1333350000.0 -0.6129621768 0.2723902797
1343300000.0 -0.3747646583 0.5427485317
1353250000.0 -0.0108570557 0.6328478799
1363200000.0 0.3472266495 0.494877473
1373150000.0 0.5647012892 0.1801782905
1383100000.0 0.5736387566 -0.1907162594
1393050000.0 0.3930874795 -0.4956469025
1403000000.0 0.093015937 -0.6554328003
1412950000.0 -0.2391979142 -0.6356583618
1422900000.0 -0.5105908415 -0.4424747846
1432850000.0 -0.6356756277 -0.1264600608
1442800000.0 -0.5629801143 0.2146789697
1452750000.0 -0.3082388213 0.4623686714
1462700000.0 0.0425107209 0.529212993
1472650000.0 0.3664400472 0.3960022744
1482600000.0 0.5591048833 0.118828634
1492550000.0 0.5704687072 -0.2043114694
1502500000.0 0.4074076554 -0.4714988579
1512450000.0 0.1260288663 -0.5984326233
1522400000.0 -0.1814164926 -0.5408680544
1532350000.0 -0.405036169 -0.3093932855
1542300000.0 -0.4516969572 0.0144612794
1552250000.0 -0.299914747 0.3033272945
1562200000.0 -0.0160927898 0.4433027286
1572150000.0 0.2810796741 0.3905442753
1582100000.0 0.4800202044 0.1814785043
1592050000.0 0.5126507433 -0.0959134198
1602000000.0 0.371802031 -0.335708856
1611950000.0 0.1079266231 -0.445259583
1621900000.0 -0.1782790288 -0.3729181913
1631850000.0 -0.3701839805 -0.1379221208
1641800000.0 -0.3815242754 0.1706885939
1651750000.0 -0.2022415517 0.4205306531
1661700000.0 0.0876951864 0.5045650827
1671650000.0 0.3640341491 0.3957728936
1681600000.0 0.5196512588 0.1458063378
1691550000.0 0.502803159 -0.1518110678
1701500000.0 0.3148705079 -0.3940596514
1711450000.0 0.0122287092 -0.4906573099
1721400000.0 -0.3031571936 -0.3901851371
1731350000.0 -0.5011549097 -0.1171168391
1741300000.0 -0.4913863718 0.2148819598
1751250000.0 -0.285978964 0.4455142241
1761200000.0 -0.0461314305 0.5256525421
1771150000.0 0.2394256022 0.4975197632
1781100000.0 0.4468304586 0.3047496583
1791050000.0 0.5289073819 0.0204602079
1801000000.0 0.4274636551 -0.2354224718
1810950000.0 0.2110328435 -0.3608966705
1820900000.0 -0.0072339233 -0.3651761191
1830850000.0 -0.1911963217 -0.3363084961
1840800000.0 -0.3701040182 -0.2349423187
1850750000.0 -0.4694648153 -0.0015070853
1860700000.0 -0.4110760687 0.2759234788
1870650000.0 -0.2158305523 0.4799796247
1880600000.0 0.0447567944 0.5491693555
1890550000.0 0.292517657 0.4717490794
1900500000.0 0.4547243189 0.2682377999
1910450000.0 0.473404219 -0.0003222021
1920400000.0 0.3335413247 -0.242180885
1930350000.0 0.0997149518 -0.3629939666
1940300000.0 -0.1392728803 -0.335943832
1950250000.0 -0.3056522926 -0.1951947993
1960200000.0 -0.3669495558 -0.0077818779
1970150000.0 -0.32925796 0.1617555324
1980100000.0 -0.2260294438 0.2683023287
1990050000.0 -0.107139643 0.2917104014
2000000000.0 -0.0235612926 0.2470761253
