!Created with skrf (http://scikit-rf.org).
# GHz S RI R 50.0 
!freq ReS11 ImS11
10000000.0 -0.8669385117 0.0605484172
14975000.0 -0.8682790391 0.0926776321
19950000.0 -0.8693990251 0.1268933757
24925000.0 -0.8692270757 0.163321685
29900000.0 -0.8671113666 0.2018706723
34875000.0 -0.8616733632 0.2425833915
39850000.0 -0.8527369033 0.2854954982
44825000.0 -0.8401471087 0.3302864944
49800000.0 -0.8240215621 0.3769387936
54775000.0 -0.8037628708 0.4250218198
59750000.0 -0.7792835211 0.4744426739
64725000.0 -0.7503874297 0.5250613451
69700000.0 -0.7165059153 0.5765706591
74675000.0 -0.6768734491 0.6287904375
79650000.0 -0.6311174878 0.6817672759
84625000.0 -0.5781906539 0.7350330413
89600000.0 -0.5168687499 0.7881077447
94575000.0 -0.4460490555 0.8398478567
99550000.0 -0.3638391632 0.8885157301
104525000.0 -0.269146163 0.9312209335
109500000.0 -0.1613802036 0.9643206863
114475000.0 -0.0413674309 0.9835330628
119450000.0 0.088453444 0.9853964799
124425000.0 0.2240225272 0.9666902904
129400000.0 0.3644142465 0.9010279707
134375000.0 0.4879419595 0.8635004985
139350000.0 0.6093388886 0.7779162713
144325000.0 0.715245504 0.6735413571
149300000.0 0.8021838056 0.5541929616
154275000.0 0.8677979972 0.4253844251
159250000.0 0.9113534087 0.2924883925
164225000.0 0.9330844781 0.1605929464
169200000.0 0.9354916753 0.0341234321
174175000.0 0.9211542092 -0.0837422402
179150000.0 0.8942308316 -0.1905342055
184125000.0 0.8586811184 -0.2855853369
189100000.0 0.8180330334 -0.3692206416
194075000.0 0.7749742922 -0.4428044835
199050000.0 0.7309737018 -0.5073395316
204025000.0 0.6863820377 -0.5645777116
209000000.0 0.641230586 -0.6157864214
213975000.0 0.5954395154 -0.661503666
218950000.0 0.5485307328 -0.7021855047
223925000.0 0.5004909931 -0.73865616
228900000.0 0.4511709786 -0.7707062227
233875000.0 0.4001927324 -0.7986444314
238850000.0 0.3462669294 -0.8230956781
243825000.0 0.2820840356 -0.8443499398
248800000.0 0.3088130215 -0.6733801066
253775000.0 0.2341054269 -0.8554918353
258750000.0 0.1757372721 -0.8698959858
263725000.0 0.1249440104 -0.8773811732
268700000.0 0.0770523947 -0.881360791
273675000.0 0.0306167062 -0.8823435578
278650000.0 -0.0145721814 -0.8807343674
283625000.0 -0.059590474 -0.8768549968
288600000.0 -0.1049606602 -0.8705353945
293575000.0 -0.1512289972 -0.8614951204
298550000.0 -0.1990749765 -0.8489564166
303525000.0 -0.2483059165 -0.832331535
308500000.0 -0.2985899594 -0.8103543581
313475000.0 -0.3492648993 -0.7823308533
318450000.0 -0.3990028923 -0.747498246
323425000.0 -0.4469532537 -0.7055940107
328400000.0 -0.4918276619 -0.6571219486
333375000.0 -0.5313580359 -0.6019739168
338350000.0 -0.5651281021 -0.5403873071
343325000.0 -0.5922869993 -0.4740017968
348300000.0 -0.6101722191 -0.403327452
353275000.0 -0.6181081056 -0.3291319447
358250000.0 -0.6166899008 -0.2547900439
363225000.0 -0.6046215843 -0.1824706245
368200000.0 -0.5817436101 -0.1122381182
373175000.0 -0.5509922533 -0.0469068976
378150000.0 -0.513689691 0.0103037328
383125000.0 -0.4695736849 0.0598634373
388100000.0 -0.4211628633 0.1021854086
393075000.0 -0.3712748704 0.1342652476
398050000.0 -0.3202963362 0.1572781
403025000.0 -0.2698054075 0.1740697726
408000000.0 -0.2221910334 0.1831902874
412975000.0 -0.1780796059 0.1832131126
417950000.0 -0.1364364959 0.1786594125
422925000.0 -0.09930602 0.1711753791
427900000.0 -0.067211426 0.1590660978
432875000.0 -0.0390740693 0.1442539734
437850000.0 -0.0161196387 0.1292280572
442825000.0 0.0019433114 0.1127308565
447800000.0 0.0169335821 0.0951652199
452775000.0 0.0280158667 0.0782921141
457750000.0 0.0353727347 0.0622369022
462725000.0 0.0408088249 0.0471438764
467700000.0 0.043281572 0.0334391597
472675000.0 0.0427284782 0.0209313089
477650000.0 0.0404954918 0.0102402865
482625000.0 0.0362639412 0.0008472572
487600000.0 0.0287193912 -0.0070686295
492575000.0 0.0137630512 -0.0067622448
497550000.0 0.0596510348 0.0300209223
502525000.0 0.0409165204 -0.0286145486
507500000.0 0.0259103395 -0.0369063949
512475000.0 0.0142829413 -0.0407513381
517450000.0 0.0038590816 -0.043303584
522425000.0 -0.005791576 -0.0451188631
527400000.0 -0.0158166367 -0.0453759134
532375000.0 -0.0261859579 -0.0442426967
537350000.0 -0.0358690785 -0.0418565002
542325000.0 -0.0460508148 -0.0385419851
547300000.0 -0.056060781 -0.0334029821
552275000.0 -0.0641604522 -0.0267379066
557250000.0 -0.0716151602 -0.0195330427
562225000.0 -0.0785732784 -0.012288736
567200000.0 -0.0847004002 -0.0038308297
572175000.0 -0.090330762 0.0057823119
577150000.0 -0.0951606607 0.01514284
582125000.0 -0.098963031 0.0244060896
587100000.0 -0.1020294839 0.034168093
592075000.0 -0.1041415469 0.043688167
597050000.0 -0.1045394778 0.0527272342
602025000.0 -0.1041698137 0.0619995756
607000000.0 -0.1033154488 0.0709949229
611975000.0 -0.1009701276 0.0795109125
616950000.0 -0.0978665788 0.0876598674
621925000.0 -0.0942452689 0.0947546671
626900000.0 -0.0893299266 0.1013465407
631875000.0 -0.0838242602 0.1076850256
636850000.0 -0.0779878489 0.1130811712
641825000.0 -0.0715166638 0.1176658878
646800000.0 -0.0646677071 0.1221974202
651775000.0 -0.057503346 0.1259206342
656750000.0 -0.0495628127 0.1292961803
661725000.0 -0.0417385021 0.1322968714
666700000.0 -0.0341632154 0.1345339912
671675000.0 -0.0253302901 0.1356412441
676650000.0 -0.0155349199 0.1362610471
681625000.0 -0.00529311 0.1358033643
686600000.0 0.0061434613 0.135088916
691575000.0 0.0176803246 0.1336705082
696550000.0 0.029402987 0.1302368365
701525000.0 0.0417248865 0.1252778829
706500000.0 0.0544699362 0.1191684638
711475000.0 0.0671638116 0.1114635852
716450000.0 0.080186342 0.1024494231
721425000.0 0.092755102 0.0922042196
726400000.0 0.1044101796 0.0805226416
731375000.0 0.1157550193 0.0671991254
736350000.0 0.1263475298 0.0529998177
741325000.0 0.1360203402 0.0374240499
746300000.0 0.1441389834 0.0208280711
751275000.0 0.1512649059 0.0030011382
756250000.0 0.1569416683 -0.0157664777
761225000.0 0.1613474995 -0.0352673083
766200000.0 0.1642859167 -0.0542908215
771175000.0 0.1657251878 -0.0732594799
776150000.0 0.1661041463 -0.0926637574
781125000.0 0.1656091185 -0.1126095539
786100000.0 0.1640451111 -0.1329102622
791075000.0 0.1611238872 -0.1535621517
796050000.0 0.1564504542 -0.1737161405
801025000.0 0.1500090364 -0.1938021222
806000000.0 0.1420770463 -0.213353502
810975000.0 0.1325843901 -0.232128776
815950000.0 0.1213322643 -0.2500236343
820925000.0 0.1087999777 -0.2670998447
825900000.0 0.0954433189 -0.2832846517
830875000.0 0.0812665616 -0.2979594175
835850000.0 0.0657672186 -0.3112844102
840825000.0 0.0499973064 -0.3239397188
845800000.0 0.0336555728 -0.3348201131
850775000.0 0.0167309124 -0.3445834192
855750000.0 -0.0007178296 -0.3539038511
860725000.0 -0.0187135803 -0.3619082572
865700000.0 -0.0377597862 -0.3686309147
870675000.0 -0.057402036 -0.3745250291
875650000.0 -0.0783212543 -0.3786607244
880625000.0 -0.1005754201 -0.3802835614
885600000.0 -0.1236286705 -0.3801017114
890575000.0 -0.147825933 -0.3772680495
895550000.0 -0.1728730314 -0.3721592213
900525000.0 -0.1978832596 -0.3643919199
905500000.0 -0.2232373591 -0.3532041288
910475000.0 -0.2487612104 -0.3388294047
915450000.0 -0.2742094557 -0.3217241905
920425000.0 -0.2989655887 -0.3004388165
925400000.0 -0.323341782 -0.2762397484
930375000.0 -0.3464117098 -0.2480402679
935350000.0 -0.3681999348 -0.2160156761
940325000.0 -0.3882799707 -0.1798225616
945300000.0 -0.4062079207 -0.1387753863
950275000.0 -0.4216480614 -0.0926705278
955250000.0 -0.4337646215 -0.0412753696
960225000.0 -0.4406299646 0.0160484707
965200000.0 -0.4411722363 0.0788628129
970175000.0 -0.4334006826 0.1472748925
975150000.0 -0.415577436 0.2197563518
980125000.0 -0.3850556358 0.2943673661
985100000.0 -0.3399684793 0.3685314348
990075000.0 -0.2796286209 0.4380893777
995050000.0 -0.2040724949 0.4980723402
1000025000.0 -0.1159142612 0.5438593198
1005000000.0 -0.0212514513 0.5712603037
1009975000.0 0.071592688 0.5815096111
1014950000.0 0.1605100998 0.5827105198
1019925000.0 0.2511708674 0.5782642618
1024900000.0 0.3478735963 0.5625560797
1029875000.0 0.4477844428 0.528546846
1034850000.0 0.543431815 0.4735593054
1039825000.0 0.6285219303 0.3989746926
1044800000.0 0.6986918917 0.3086108057
1049775000.0 0.7512121586 0.2064753947
1054750000.0 0.7830434097 0.0961841665
1059725000.0 0.7888430735 -0.0137031651
1064700000.0 0.7802168497 -0.1006188198
1069675000.0 0.7836045765 -0.1915773973
1074650000.0 0.7678864894 -0.2966058129
1079625000.0 0.7295995 -0.3982364801
1084600000.0 0.6744921573 -0.4893493418
1089575000.0 0.6062901249 -0.5710028963
1094550000.0 0.5255611424 -0.6403925879
1099525000.0 0.4362191784 -0.6959616308
1104500000.0 0.3402570505 -0.7357669858
1109475000.0 0.2294601918 -0.7550243633
1114450000.0 0.1296179768 -0.7646884041
1119425000.0 0.0319294354 -0.7604492383
1124400000.0 -0.0619623253 -0.7428667822
1129375000.0 -0.1504749543 -0.7137573639
1134350000.0 -0.2324516814 -0.6741392442
1139325000.0 -0.3065477081 -0.6254184353
1144300000.0 -0.3723812626 -0.5690133833
1149275000.0 -0.429006388 -0.506825271
1154250000.0 -0.4753068953 -0.4407137762
1159225000.0 -0.5112103332 -0.3728035072
1164200000.0 -0.5376709409 -0.3061328756
1169175000.0 -0.5570083979 -0.2427927052
1174150000.0 -0.5717606254 -0.1816673676
1179125000.0 -0.582391191 -0.1214319868
1184100000.0 -0.586817671 -0.0627088366
1189075000.0 -0.5860014424 -0.0066620823
1194050000.0 -0.5805973156 0.0451224372
1199025000.0 -0.571430129 0.0930487826
1204000000.0 -0.559390045 0.1374796729
1208975000.0 -0.5451829199 0.1773728006
1213950000.0 -0.5272774692 0.2193744974
1218925000.0 -0.5119057154 0.2519001318
1223900000.0 -0.4963384735 0.2813998983
1228875000.0 -0.4814480359 0.3084475795
1233850000.0 -0.4685614108 0.3325116048
1238825000.0 -0.455788237 0.3548257637
1243800000.0 -0.4442483061 0.3764376268
1248775000.0 -0.4332562159 0.3966319967
1253750000.0 -0.4223094359 0.4158491335
1258725000.0 -0.4115581391 0.4346305333
1263700000.0 -0.400663845 0.4521021081
1268675000.0 -0.3896544267 0.4683955145
1273650000.0 -0.3787484336 0.4830088141
1278625000.0 -0.3674429057 0.495697767
1283600000.0 -0.3556191636 0.5076655067
1288575000.0 -0.3443434486 0.5170930135
1293550000.0 -0.332731617 0.5252958875
1298525000.0 -0.3210211655 0.5321989843
1303500000.0 -0.3103336329 0.5373121384
1308475000.0 -0.3003539556 0.5404528191
1313450000.0 -0.2915323389 0.5425531162
1318425000.0 -0.2850393162 0.5434724812
1323400000.0 -0.2801937591 0.5436480236
1328375000.0 -0.2775368861 0.5441165219
1333350000.0 -0.2773510481 0.5455860593
1338325000.0 -0.2784150574 0.5487232001
1343300000.0 -0.2796792477 0.5535090058
1348275000.0 -0.2800450538 0.5599564953
1353250000.0 -0.2790988692 0.5676139466
1358225000.0 -0.2765729608 0.575933234
1363200000.0 -0.2721270589 0.5838515988
1368175000.0 -0.2659713949 0.5912455141
1373150000.0 -0.2586005341 0.5983314301
1378125000.0 -0.2504222457 0.6045057764
1383100000.0 -0.241169296 0.6091428335
1388075000.0 -0.2310978847 0.6128996544
1393050000.0 -0.2210618889 0.6151094436
1398025000.0 -0.2109609924 0.6160457905
1403000000.0 -0.2007527985 0.6159268408
1407975000.0 -0.1909629923 0.614107093
1412950000.0 -0.1824293885 0.6104523757
1417925000.0 -0.1751641335 0.6061173271
1422900000.0 -0.1699064741 0.6012843601
1427875000.0 -0.1671570858 0.5958722591
1432850000.0 -0.166910295 0.5908914387
1437825000.0 -0.1680404467 0.5878776339
1442800000.0 -0.1691800588 0.5872881038
1447775000.0 -0.1693307306 0.5875137081
1452750000.0 -0.1675417638 0.5896639762
1457725000.0 -0.1633544747 0.5937448719
1462700000.0 -0.1560862707 0.596731253
1467675000.0 -0.1465617556 0.5993439301
1472650000.0 -0.1354915204 0.6026821317
1477625000.0 -0.1230642613 0.6045615113
1482600000.0 -0.1080420936 0.605241609
1487575000.0 -0.0934834463 0.6056824289
1492550000.0 -0.0784898724 0.6043182041
1497525000.0 -0.0610922833 0.6020554441
1502500000.0 -0.0437639377 0.5996143033
1507475000.0 -0.0270560091 0.5958246543
1512450000.0 -0.010006658 0.5916900474
1517425000.0 0.0069258696 0.5868207268
1522400000.0 0.0227335976 0.5803380508
1527375000.0 0.0384633118 0.5735537115
1532350000.0 0.052839714 0.566583559
1537325000.0 0.0678105993 0.5581308257
1542300000.0 0.082805827 0.5498311304
1547275000.0 0.0973133073 0.540684477
1552250000.0 0.1133065698 0.530976788
1557225000.0 0.1291635384 0.5210891041
1562200000.0 0.1443458144 0.510477472
1567175000.0 0.1607107351 0.499261804
1572150000.0 0.1776399707 0.4880755357
1577125000.0 0.1945929982 0.4755711364
1582100000.0 0.2131336641 0.4619664256
1587075000.0 0.2307554797 0.4486076218
1592050000.0 0.2485002022 0.4334601148
1597025000.0 0.2669826717 0.4181092591
1602000000.0 0.2854589988 0.402204261
1606975000.0 0.3028265838 0.3858135942
1611950000.0 0.320279796 0.3692052961
1616925000.0 0.3377528926 0.3523093291
1621900000.0 0.3547486 0.3349903525
1626875000.0 0.3704471193 0.3183497735
1631850000.0 0.3860682911 0.3011639314
1636825000.0 0.402059972 0.2843329564
1641800000.0 0.4164941466 0.267370431
1646775000.0 0.429925463 0.2501148631
1651750000.0 0.4441658142 0.2333397243
1656725000.0 0.4568220771 0.2167840517
1661700000.0 0.4682167346 0.1993669743
1666675000.0 0.4787926459 0.1830178714
1671650000.0 0.4879923628 0.1666315619
1676625000.0 0.4960310366 0.1494146225
1681600000.0 0.5028215614 0.133217995
1686575000.0 0.5078249693 0.1168135387
1691550000.0 0.5121434704 0.0999857163
1696525000.0 0.5151851175 0.0838471193
1701500000.0 0.5167964258 0.0679836755
1706475000.0 0.517015929 0.052096151
1711450000.0 0.5160785189 0.0368930874
1716425000.0 0.5145033339 0.0222440132
1721400000.0 0.5110517766 0.0076150592
1726375000.0 0.5055451919 -0.0059945282
1731350000.0 0.4968173627 -0.0174777687
1736325000.0 0.4830083455 -0.0198932492
1741300000.0 0.4743474643 -0.0037506764
1746275000.0 0.4918982498 0.0150975824
1751250000.0 0.5185276498 0.0142912079
1756225000.0 0.5372690619 0.0025635979
1761200000.0 0.5496572778 -0.0108049511
1766175000.0 0.5576313859 -0.0230345382
1771150000.0 0.5631827323 -0.0340897007
1776125000.0 0.5666392383 -0.0440119809
1781100000.0 0.5674439427 -0.0527037889
1786075000.0 0.567436835 -0.060056897
1791050000.0 0.5662889385 -0.0656684343
1796025000.0 0.563332594 -0.0705506403
1801000000.0 0.5598956593 -0.0739359877
1805975000.0 0.5557597218 -0.0754537232
1810950000.0 0.5522952227 -0.0757045858
1815925000.0 0.5494337611 -0.0751526596
1820900000.0 0.5475318243 -0.0736807369
1825875000.0 0.5473977538 -0.0720498536
1830850000.0 0.5488777975 -0.0705942794
1835825000.0 0.5506709799 -0.0697773156
1840800000.0 0.5524674233 -0.0702048957
1845775000.0 0.5543105381 -0.0705317824
1850750000.0 0.5553981946 -0.0719333379
1855725000.0 0.554823729 -0.0744401878
1860700000.0 0.5526098231 -0.076252998
1865675000.0 0.5496409979 -0.0781796087
1870650000.0 0.5445961659 -0.080552848
1875625000.0 0.5381906457 -0.0821494902
1880600000.0 0.5300304536 -0.0840593405
1885575000.0 0.5204896638 -0.0850956275
1890550000.0 0.5092127343 -0.0856190909
1895525000.0 0.4972494405 -0.0861346919
1900500000.0 0.484103601 -0.084490356
1905475000.0 0.4705162146 -0.0823187854
1910450000.0 0.4573992946 -0.0796018161
1915425000.0 0.4457911916 -0.0751556311
1920400000.0 0.4347045736 -0.0705293516
1925375000.0 0.4248189746 -0.0660682909
1930350000.0 0.4160753436 -0.0618032671
1935325000.0 0.4066558871 -0.0588853633
1940300000.0 0.3961882424 -0.0565388707
1945275000.0 0.3848158077 -0.0543620763
1950250000.0 0.3718770026 -0.052014631
1955225000.0 0.3567610979 -0.0496990246
1960200000.0 0.339526207 -0.0470072287
1965175000.0 0.3208733391 -0.0428123361
1970150000.0 0.3003170891 -0.0380750024
1975125000.0 0.2766160786 -0.0327991477
1980100000.0 0.2515041357 -0.0261536278
1985075000.0 0.2247276423 -0.0182718687
1990050000.0 0.1948881934 -0.0098228605
1995025000.0 0.1625061157 0.0012603138
2000000000.0 0.1283356752 0.013891694
