!Created with skrf (http://scikit-rf.org).
# GHz S RI R 50.0 
!freq ReS11 ImS11
10000000.0 -0.7454278147 0.6697860553
19950000.0 -0.117202785 0.9806334512
29900000.0 0.5604173617 0.8028259236
39850000.0 0.9563920902 0.2125738864
49800000.0 0.8505719716 -0.5031876084
59750000.0 0.2719163204 -0.9616612649
69700000.0 -0.4761383237 -0.8840526627
79650000.0 -0.9552123333 -0.2857870853
89600000.0 -0.8490984162 0.4908160119
99550000.0 -0.1820142687 0.9478501621
109500000.0 0.630217157 0.7243533093
119450000.0 0.9653448928 -0.0909990097
129400000.0 0.4744154843 -0.8607669642
139350000.0 -0.4494035363 -0.8738214138
149300000.0 -0.9579440758 -0.117841572
159250000.0 -0.6319813929 0.7030130158
169200000.0 0.1931924255 0.917501666
179150000.0 0.8498999829 0.4166023789
189100000.0 0.8796964961 -0.3846352377
199050000.0 0.31436031 -0.9131118804
209000000.0 -0.4283307719 -0.8565304416
218950000.0 -0.8891807533 -0.3094699727
228900000.0 -0.8441363251 0.3832728021
238850000.0 -0.3495005351 0.8516934047
248800000.0 0.3326142975 0.8433451449
258750000.0 0.8308017343 0.4258959046
268700000.0 0.9075828034 -0.2441291586
278650000.0 0.5095501185 -0.7828080554
288600000.0 -0.1414926236 -0.9042348338
298550000.0 -0.6923216535 -0.5558659326
308500000.0 -0.8555047807 0.0671756726
318450000.0 -0.545486198 0.62388001
328400000.0 0.0601521621 0.7960746894
338350000.0 0.5871987072 0.4799568041
348300000.0 0.6920407297 -0.0965716142
358250000.0 0.3454508374 -0.510021156
368200000.0 -0.1317766614 -0.4983135504
378150000.0 -0.3722930875 -0.1694987164
388100000.0 -0.2722406166 0.1508015367
398050000.0 -0.016253681 0.231757741
408000000.0 0.1465725884 0.0946689099
417950000.0 0.1176766908 -0.0733223356
427900000.0 -0.0198299505 -0.1244638062
437850000.0 -0.1233932713 -0.0416182091
447800000.0 -0.1143890036 0.083999948
457750000.0 -0.0102157916 0.1517881426
467700000.0 0.1045027094 0.116475092
477650000.0 0.1525965818 0.0111356277
487600000.0 0.1111265951 -0.0898466227
497550000.0 0.020972116 -0.1269373335
507500000.0 -0.0601860935 -0.1002611682
517450000.0 -0.0906292368 -0.0344326142
527400000.0 -0.0715235047 0.0184349252
537350000.0 -0.0355273155 0.032303671
547300000.0 -0.0161053425 0.0202094577
557250000.0 -0.0242887459 0.0097052358
567200000.0 -0.0386092141 0.0260936406
577150000.0 -0.0261613686 0.0591998101
587100000.0 0.0249301086 0.0770440488
597050000.0 0.0881747031 0.0486608221
607000000.0 0.1196505892 -0.0318971614
616950000.0 0.0856926051 -0.1259697996
626900000.0 -0.0114791376 -0.1765101696
636850000.0 -0.1273002299 -0.146776641
646800000.0 -0.197533913 -0.0406160665
656750000.0 -0.1760598468 0.0895434558
666700000.0 -0.0687494052 0.1744515244
676650000.0 0.0705259776 0.1623343689
686600000.0 0.1668215054 0.0595926226
696550000.0 0.1664014771 -0.0804105457
706500000.0 0.0737784501 -0.1775735346
716450000.0 -0.0572122707 -0.1802545573
726400000.0 -0.1459241432 -0.0938440389
736350000.0 -0.1381868828 0.0239085247
746300000.0 -0.0461412843 0.0931361101
756250000.0 0.063158694 0.0659123926
766200000.0 0.1091489585 -0.0377005805
776150000.0 0.0526367252 -0.1404314444
786100000.0 -0.070483342 -0.1581676124
796050000.0 -0.1708897708 -0.0656194451
806000000.0 -0.1609578479 0.0889734683
815950000.0 -0.0265239023 0.1946267387
825900000.0 0.1636339085 0.1637797896
835850000.0 0.2828322368 -0.0070114868
845800000.0 0.2407147503 -0.2289807281
855750000.0 0.0408589626 -0.3631808603
865700000.0 -0.2118391575 -0.3155825134
875650000.0 -0.3663833171 -0.088317179
885600000.0 -0.3095099442 0.1983301211
895550000.0 -0.0509945245 0.3663506659
905500000.0 0.2603612439 0.280327382
915450000.0 0.3864462746 0.0081289161
925400000.0 0.3153516608 -0.249334044
935350000.0 0.0751271008 -0.4235926995
945300000.0 -0.2460299526 -0.350603637
955250000.0 -0.4065082566 -0.0361769474
965200000.0 -0.2503093224 0.3110098682
975150000.0 0.1534353466 0.3945952391
985100000.0 0.4758609565 0.0830457015
995050000.0 0.3817345565 -0.3996535035
1005000000.0 -0.1219106134 -0.5987818474
1014950000.0 -0.6062874039 -0.2514742462
1024900000.0 -0.5787552923 0.4021393745
1034850000.0 0.0317371768 0.7610819557
1044800000.0 0.6906307774 0.4347165275
1054750000.0 0.7909582331 -0.2943615278
1064700000.0 0.2824753977 -0.7704183059
1074650000.0 -0.3583484244 -0.7340138495
1084600000.0 -0.7516665653 -0.2356230635
1094550000.0 -0.6686477692 0.4246351593
1104500000.0 -0.0825765949 0.7671795709
1114450000.0 0.5309732067 0.5286260982
1124400000.0 0.7206151709 -0.067620262
1134350000.0 0.4063332055 -0.5627733995
1144300000.0 -0.1359992367 -0.6491892774
1154250000.0 -0.5430522713 -0.3189334705
1164200000.0 -0.5675395708 0.1847942641
1174150000.0 -0.2135332365 0.528113043
1184100000.0 0.2640887973 0.4837870775
1194050000.0 0.5344305501 0.1072155013
1204000000.0 0.4437095684 -0.3277745074
1213950000.0 0.0811631111 -0.5566394943
1223900000.0 -0.3262554628 -0.4709347296
1233850000.0 -0.5624664413 -0.1328257863
1243800000.0 -0.5032525631 0.2767633151
1253750000.0 -0.179751845 0.539055368
1263700000.0 0.2377102898 0.5097458769
1273650000.0 0.525597451 0.2101635178
1283600000.0 0.5459875101 -0.1987016556
1293550000.0 0.3047734802 -0.5192410879
1303500000.0 -0.0779046087 -0.6165296212
1313450000.0 -0.4383486287 -0.4566852661
1323400000.0 -0.6229456319 -0.1039393809
1333350000.0 -0.5440778221 0.2925981915
1343300000.0 -0.224410084 0.5526477657
1353250000.0 0.1915805858 0.5457154009
1363200000.0 0.5049461622 0.2760580442
1373150000.0 0.5759131344 -0.1234584309
1383100000.0 0.3886551767 -0.4713918112
1393050000.0 0.0351817617 -0.6292787526
1403000000.0 -0.3352650232 -0.5405296695
1412950000.0 -0.5754730674 -0.2446399179
1422900000.0 -0.5800325895 0.139522137
1432850000.0 -0.3389684142 0.443140425
1442800000.0 0.042843857 0.524185684
1452750000.0 0.3837835249 0.3409592207
1462700000.0 0.5246532765 -0.0092690653
1472650000.0 0.4126749034 -0.3575552865
1482600000.0 0.1155449773 -0.5497618598
1492550000.0 -0.2282453903 -0.511256643
1502500000.0 -0.4647888019 -0.2645874511
1512450000.0 -0.4841356903 0.0762834139
1522400000.0 -0.2712386963 0.3446930931
1532350000.0 0.0639778287 0.3992739691
1542300000.0 0.3429014906 0.2138944587
1552250000.0 0.4167290271 -0.1023465636
1562200000.0 0.2619309996 -0.3759730878
1572150000.0 -0.0295806423 -0.470425653
1582100000.0 -0.3047199228 -0.3453361444
1592050000.0 -0.4252837276 -0.0667783598
1602000000.0 -0.3233181742 0.2269226479
1611950000.0 -0.0415195611 0.3737100249
1621900000.0 0.2702862283 0.2820447838
1631850000.0 0.4317323542 -0.003133292
1641800000.0 0.3541155962 -0.3214730243
1651750000.0 0.0816978205 -0.5048031997
1661700000.0 -0.2461863542 -0.463454749
1671650000.0 -0.4754960611 -0.2158908421
1681600000.0 -0.4926083576 0.1315724131
1691550000.0 -0.2745578667 0.4188409122
1701500000.0 0.090379023 0.4971358341
1711450000.0 0.4222362385 0.3123388702
1721400000.0 0.5531649972 -0.0468272362
1731350000.0 0.4231747935 -0.4022613497
1741300000.0 0.1029341227 -0.594390807
1751250000.0 -0.2642919125 -0.5516163927
1761200000.0 -0.5325354788 -0.2988295583
1771150000.0 -0.5992496854 0.0685332983
1781100000.0 -0.428896936 0.4084889558
1791050000.0 -0.0790553262 0.5765155094
1801000000.0 0.3056944459 0.487899651
1810950000.0 0.5477365311 0.1759704349
1820900000.0 0.5400205265 -0.2121923069
1830850000.0 0.3005998688 -0.5042630733
1840800000.0 -0.0540396529 -0.5910319028
1850750000.0 -0.3821455699 -0.4563018592
1860700000.0 -0.5667016989 -0.1619787034
1870650000.0 -0.544218535 0.1819090772
1880600000.0 -0.3215404422 0.4423558432
1890550000.0 0.0122381333 0.5124020267
1900500000.0 0.3100897184 0.3613992194
1910450000.0 0.4426402325 0.0680363473
1920400000.0 0.3678731277 -0.2257979873
1930350000.0 0.1474563026 -0.3997673237
1940300000.0 -0.1082490632 -0.4069867437
1950250000.0 -0.3007725261 -0.2731906539
1960200000.0 -0.3669791784 -0.0747359886
1970150000.0 -0.3056569537 0.0990367235
1980100000.0 -0.1747815569 0.1773061499
1990050000.0 -0.0619155802 0.1567490847
2000000000.0 -0.0168363891 0.0982502925
