!Created with skrf (http://scikit-rf.org).
# GHz S RI R 50.0 
!freq ReS11 ImS11
10000000.0 -0.7989887914 0.6019975286
19950000.0 -0.2901264446 0.945082212
29900000.0 0.3201148224 0.9293570313
39850000.0 0.8110300917 0.5577649142
49800000.0 0.9899694215 -0.0430676108
59750000.0 0.7634632793 -0.6442336921
69700000.0 0.1977001352 -0.9821394941
79650000.0 -0.4705005406 -0.8774075426
89600000.0 -0.9187883788 -0.3478132413
99550000.0 -0.8992251726 0.3658115869
109500000.0 -0.3789523183 0.8902121301
119450000.0 0.3909184767 0.8926472481
129400000.0 0.9366256346 0.2985557395
139350000.0 0.8429462398 -0.5120007963
149300000.0 0.1469741548 -0.9620716927
159250000.0 -0.6294215786 -0.7191538804
169200000.0 -0.9470446358 -9.10172e-05
179150000.0 -0.6490673253 0.6947888057
189100000.0 0.0285604996 0.9595495475
199050000.0 0.675270732 0.6891053558
209000000.0 0.9566215747 0.071787862
218950000.0 0.7683532365 -0.5520046586
228900000.0 0.2388174194 -0.9016427537
238850000.0 -0.382583599 -0.8417712407
248800000.0 -0.721464976 -0.2575711085
258750000.0 -0.9183157142 0.1429508639
268700000.0 -0.6392611978 0.6806358349
278650000.0 -0.0926876444 0.9234635067
288600000.0 0.4815356842 0.7730959586
298550000.0 0.8319065837 0.3004634944
308500000.0 0.8066529632 -0.2825468327
318450000.0 0.4199602568 -0.7099551565
328400000.0 -0.1425553024 -0.7820769809
338350000.0 -0.5970515114 -0.4681054101
348300000.0 -0.7051934471 0.0488601424
358250000.0 -0.4357620071 0.4616302989
368200000.0 0.0035797425 0.5467204328
378150000.0 0.3256691276 0.3175605705
388100000.0 0.3714817462 -0.0201165723
398050000.0 0.187506661 -0.2417131502
408000000.0 -0.051470868 -0.2523294755
417950000.0 -0.1893443599 -0.110694118
427900000.0 -0.1780719811 0.0552389293
437850000.0 -0.0668228046 0.1429569616
447800000.0 0.0543774854 0.1234221316
457750000.0 0.1134235171 0.0369182532
467700000.0 0.0956340385 -0.0505188969
477650000.0 0.0334083864 -0.0915473204
487600000.0 -0.0236866798 -0.0741087641
497550000.0 -0.0187229251 -0.1125446698
507500000.0 -0.0660241403 -0.0067626848
517450000.0 -0.0326078472 0.0136489728
527400000.0 -0.0121559157 0.0023445047
537350000.0 -0.0186496177 -0.0171556318
547300000.0 -0.0493139699 -0.01694418
557250000.0 -0.0696754316 0.0184294297
567200000.0 -0.0578406957 0.0677764107
577150000.0 -0.0072212559 0.1038607718
587100000.0 0.066620925 0.0982204085
597050000.0 0.1285469657 0.0406809044
607000000.0 0.1444638935 -0.0520678987
616950000.0 0.0971938194 -0.1423806061
626900000.0 0.0014744182 -0.1889973909
636850000.0 -0.1073791433 -0.1666646132
646800000.0 -0.1812284204 -0.0813517685
656750000.0 -0.1875430637 0.0334869472
666700000.0 -0.1199062208 0.1290755266
676650000.0 -0.0074113841 0.1616686903
686600000.0 0.0997533104 0.1174235017
696550000.0 0.1538737133 0.0187098422
706500000.0 0.1337950149 -0.0857115515
716450000.0 0.0531001133 -0.1462650438
726400000.0 -0.0424512508 -0.1342951124
736350000.0 -0.0987073145 -0.0577337228
746300000.0 -0.0807903455 0.0386510936
756250000.0 0.0046483716 0.0940766088
766200000.0 0.1099020352 0.0708912656
776150000.0 0.1719143609 -0.0259221925
786100000.0 0.1451928887 -0.1474706036
796050000.0 0.0305629642 -0.22330944
806000000.0 -0.1225295402 -0.1979310609
815950000.0 -0.2334241122 -0.0632872205
825900000.0 -0.2316082555 0.1283397491
835850000.0 -0.1005946128 0.2873729992
845800000.0 0.1117691118 0.3319621104
855750000.0 0.3135112314 0.2307074577
865700000.0 0.4113802614 0.0169335421
875650000.0 0.351047319 -0.2201069549
885600000.0 0.1456377606 -0.3753683683
895550000.0 -0.1247312467 -0.3650914168
905500000.0 -0.3348141105 -0.177926108
915450000.0 -0.375337114 0.1060656558
925400000.0 -0.2175496127 0.3496698677
935350000.0 0.0661629739 0.4239796967
945300000.0 0.3280531456 0.2749283697
955250000.0 0.4070211023 -0.0330950089
965200000.0 0.2144489804 -0.3223230771
975150000.0 -0.169687158 -0.365324116
985100000.0 -0.4694486819 -0.0537213081
995050000.0 -0.3888087842 0.4170109515
1005000000.0 0.0759815346 0.6536951721
1014950000.0 0.590032337 0.4110432943
1024900000.0 0.7362499596 -0.1889809184
1034850000.0 0.3400446984 -0.716803364
1044800000.0 -0.3393152742 -0.7472467031
1054750000.0 -0.7818034827 -0.2497329442
1064700000.0 -0.7022624198 0.2571926049
1074650000.0 -0.4394386567 0.7022518277
1084600000.0 0.1315033852 0.82224116
1094550000.0 0.6215355361 0.5036900497
1104500000.0 0.754024131 -0.060717523
1114450000.0 0.4544344862 -0.5502701651
1124400000.0 -0.0842418261 -0.6738826154
1134350000.0 -0.5183023558 -0.395105593
1144300000.0 -0.622500082 0.067744668
1154250000.0 -0.3958985824 0.4443147646
1164200000.0 0.0032614448 0.5570976561
1174150000.0 0.3628033115 0.3729108396
1184100000.0 0.492934815 -0.0095819615
1194050000.0 0.3189349435 -0.3677359765
1204000000.0 -0.0410277123 -0.5014392689
1213950000.0 -0.3815311586 -0.3688469202
1223900000.0 -0.552805244 -0.0644218785
1233850000.0 -0.5035610252 0.2726540431
1243800000.0 -0.2604371089 0.5124046315
1253750000.0 0.0852377691 0.5608226359
1263700000.0 0.4005185608 0.3867567895
1273650000.0 0.5506467752 0.0515385554
1283600000.0 0.4736327797 -0.3069888566
1293550000.0 0.2112097779 -0.5496622368
1303500000.0 -0.1289880238 -0.6045144671
1313450000.0 -0.4359499982 -0.4723544511
1323400000.0 -0.6249317376 -0.2015293443
1333350000.0 -0.642285 0.1321163725
1343300000.0 -0.471939356 0.4335788069
1353250000.0 -0.1502481042 0.5981232815
1363200000.0 0.219428201 0.55147569
1373150000.0 0.50114674 0.3039047538
1383100000.0 0.595812503 -0.0509295807
1393050000.0 0.4885192056 -0.3856443239
1403000000.0 0.2328286674 -0.6029004918
1412950000.0 -0.0877053958 -0.6526720077
1422900000.0 -0.3832531241 -0.5298340819
1432850000.0 -0.570484224 -0.2665684562
1442800000.0 -0.5868964062 0.0635981322
1452750000.0 -0.4172405527 0.3559635785
1462700000.0 -0.1107444396 0.5104620353
1472650000.0 0.2296179252 0.4699224778
1482600000.0 0.4812592633 0.2527711881
1492550000.0 0.5661082173 -0.052612774
1502500000.0 0.4722420398 -0.3386905794
1512450000.0 0.2447034839 -0.5168084775
1522400000.0 -0.038913321 -0.5398404521
1532350000.0 -0.2914324415 -0.3979921778
1542300000.0 -0.4196362678 -0.1267332564
1552250000.0 -0.3598354503 0.172238741
1562200000.0 -0.1350292216 0.3714793575
1572150000.0 0.1530818441 0.3925210063
1582100000.0 0.3823587707 0.2421452507
1592050000.0 0.4689235707 -0.0049314068
1602000000.0 0.3889206693 -0.2484347994
1611950000.0 0.1754080742 -0.3960095302
1621900000.0 -0.092570002 -0.3837673179
1631850000.0 -0.3068838137 -0.2031251599
1641800000.0 -0.3653370996 0.0806191144
1651750000.0 -0.2332346529 0.340527537
1661700000.0 0.026834567 0.4609665223
1671650000.0 0.2998177712 0.4015283751
1681600000.0 0.4844280594 0.1962594937
1691550000.0 0.5194879773 -0.081583682
1701500000.0 0.3871294468 -0.3395051896
1711450000.0 0.1199704545 -0.4849993879
1721400000.0 -0.1981527764 -0.4490926242
1731350000.0 -0.4444968138 -0.2291625628
1741300000.0 -0.517549248 0.0949811471
1751250000.0 -0.3947745148 0.3968180705
1761200000.0 -0.1338328874 0.5730993537
1771150000.0 0.1711662522 0.5817837043
1781100000.0 0.4311556796 0.4336774578
1791050000.0 0.5795354169 0.1720668418
1801000000.0 0.5708539271 -0.1371064974
1810950000.0 0.3921414189 -0.4053441924
1820900000.0 0.0847621337 -0.5362312344
1830850000.0 -0.2463152701 -0.4715459032
1840800000.0 -0.4804411605 -0.2379060245
1850750000.0 -0.545809826 0.0702657072
1860700000.0 -0.4455661633 0.3481301143
1870650000.0 -0.2317018706 0.5250701855
1880600000.0 0.0297630433 0.5675609651
1890550000.0 0.2706506724 0.4733039374
1900500000.0 0.4274176495 0.2678700431
1910450000.0 0.4491299859 0.0083702132
1920400000.0 0.3244213088 -0.2182015044
1930350000.0 0.1018962661 -0.33108064
1940300000.0 -0.1262459412 -0.3026589758
1950250000.0 -0.2809406767 -0.1715874829
1960200000.0 -0.3288199469 -0.0066758156
1970150000.0 -0.284902783 0.1250461895
1980100000.0 -0.1943880803 0.1839305227
1990050000.0 -0.1186075712 0.1655404878
2000000000.0 -0.1097360825 0.109273163
