!Created with skrf (http://scikit-rf.org).
# GHz S RI R 50.0 
!freq ReS11 ImS11
10000000.0 -0.7995969284 0.5970105001
19950000.0 -0.2915699428 0.9335470969
29900000.0 0.3150346095 0.9096830493
39850000.0 0.799756578 0.5318295865
49800000.0 0.9712997702 -0.0721821496
59750000.0 0.7353629327 -0.6728495641
69700000.0 0.1590467096 -1.000961593
79650000.0 -0.5085539439 -0.8726913299
89600000.0 -0.934492386 -0.3197772079
99550000.0 -0.8786534435 0.3969858687
109500000.0 -0.3292520361 0.8998448745
119450000.0 0.4484630874 0.8669577828
129400000.0 0.9732914916 0.2416022574
139350000.0 0.8323021843 -0.5788132199
149300000.0 0.1002953237 -0.9868594967
159250000.0 -0.6604305715 -0.6899303846
169200000.0 -0.9329358131 0.0462012322
179150000.0 -0.6033185368 0.7222596314
189100000.0 0.079915803 0.9577738138
199050000.0 0.7108946281 0.6628826107
209000000.0 0.963059233 0.0362816187
218950000.0 0.746663786 -0.5733392179
228900000.0 0.2054443105 -0.8942311694
238850000.0 -0.408854052 -0.8061111709
248800000.0 -0.5883960536 -0.4008007125
258750000.0 -0.9026136967 0.1937724125
268700000.0 -0.6036062259 0.7198149965
278650000.0 -0.0492946909 0.9374937918
288600000.0 0.5121981626 0.7590038414
298550000.0 0.8352080908 0.2728683621
308500000.0 0.7855821221 -0.30540325
318450000.0 0.3863470463 -0.7209738534
328400000.0 -0.180597792 -0.781586447
338350000.0 -0.6344167069 -0.4555096527
348300000.0 -0.7326257279 0.0714299774
358250000.0 -0.44887011 0.4846118204
368200000.0 -0.0003489157 0.5629934693
378150000.0 0.3266624983 0.3267754507
388100000.0 0.376401834 -0.0175339563
398050000.0 0.196222351 -0.2467770109
408000000.0 -0.041511316 -0.2631544868
417950000.0 -0.1784161422 -0.1263955354
427900000.0 -0.1672808435 0.0310112992
437850000.0 -0.061876996 0.1104734747
447800000.0 0.0466359167 0.0885611795
457750000.0 0.0951113985 0.0088609757
467700000.0 0.0720453225 -0.0650493603
477650000.0 0.0129045376 -0.0883116655
487600000.0 -0.0295904712 -0.057152669
497550000.0 -0.0740573004 -0.0782038533
507500000.0 -0.0398186738 0.0224415885
517450000.0 0.006430784 0.0300961895
527400000.0 0.0302586564 0.0042442557
537350000.0 0.0185615683 -0.0262060731
547300000.0 -0.0214414434 -0.0324220996
557250000.0 -0.0555117431 -1.13253e-05
567200000.0 -0.0575649724 0.0534389727
577150000.0 -0.0181765119 0.0982079678
587100000.0 0.049150508 0.1042192919
597050000.0 0.1100941448 0.0565315535
607000000.0 0.1284816574 -0.0278006614
616950000.0 0.0859330952 -0.112622119
626900000.0 -0.0025651375 -0.1558276378
636850000.0 -0.103228871 -0.1353739256
646800000.0 -0.1690200001 -0.0561480121
656750000.0 -0.1710200163 0.0467710198
666700000.0 -0.1060123909 0.1277286988
676650000.0 -0.0032424586 0.1472971702
686600000.0 0.0900122109 0.0969362549
696550000.0 0.1292538798 -0.0020257307
706500000.0 0.0973259399 -0.1004883421
716450000.0 0.012424019 -0.1485859019
726400000.0 -0.0789536892 -0.1244873281
736350000.0 -0.1219579208 -0.0401440819
746300000.0 -0.0877075495 0.0543497291
756250000.0 0.0113979304 0.100407643
766200000.0 0.1220730595 0.0636559802
776150000.0 0.1815295578 -0.0455706567
786100000.0 0.146608525 -0.1723734739
796050000.0 0.0238740103 -0.2443777738
806000000.0 -0.1307481828 -0.2081895177
815950000.0 -0.2345450684 -0.062344845
825900000.0 -0.2176926916 0.1343589166
835850000.0 -0.0695308697 0.27984426
845800000.0 0.1356107461 0.3044252215
855750000.0 0.3203884794 0.2010139239
865700000.0 0.4064285299 -0.0073681241
875650000.0 0.3377786162 -0.2329078881
885600000.0 0.1294825142 -0.3715945772
895550000.0 -0.1321289814 -0.34543281
905500000.0 -0.3283641159 -0.1503960147
915450000.0 -0.3556435608 0.1326739517
925400000.0 -0.1899878237 0.3679200417
935350000.0 0.0929796846 0.4306273337
945300000.0 0.3460599882 0.2753801079
955250000.0 0.414085281 -0.0333030196
965200000.0 0.2222439146 -0.3160355287
975150000.0 -0.1517935352 -0.3661761829
985100000.0 -0.4599799413 -0.0806096999
995050000.0 -0.4160345696 0.3794552199
1005000000.0 0.0151408303 0.6442625825
1014950000.0 0.5322985238 0.4439174967
1024900000.0 0.7139135913 -0.1349846655
1034850000.0 0.3545392656 -0.6830323305
1044800000.0 -0.3288975834 -0.7509066312
1054750000.0 -0.8101465919 -0.2543622167
1064700000.0 -0.7201910855 0.35703793
1074650000.0 -0.3309477643 0.7260772375
1084600000.0 0.2185190487 0.7830948496
1094550000.0 0.6809313556 0.3822797182
1104500000.0 0.7101549625 -0.2204461081
1114450000.0 0.2995728108 -0.6500230497
1124400000.0 -0.2669136866 -0.6350484852
1134350000.0 -0.6099044838 -0.2384065126
1144300000.0 -0.5685343382 0.2406030652
1154250000.0 -0.2313667087 0.5321637704
1164200000.0 0.1882595035 0.5146922678
1174150000.0 0.4784237148 0.2284663021
1184100000.0 0.4945567153 -0.1808223916
1194050000.0 0.2209890995 -0.4821245249
1204000000.0 -0.1701825919 -0.5107595918
1213950000.0 -0.4705801047 -0.2893982993
1223900000.0 -0.566557349 0.0562335993
1233850000.0 -0.4413246823 0.3832886179
1243800000.0 -0.1471556372 0.5752512029
1253750000.0 0.2129041953 0.5549217204
1263700000.0 0.4969389508 0.315040226
1273650000.0 0.5799693326 -0.0537581322
1283600000.0 0.4302528085 -0.3959186042
1293550000.0 0.1230962077 -0.5859406571
1303500000.0 -0.2230635431 -0.5788676051
1313450000.0 -0.5045168927 -0.3967148381
1323400000.0 -0.649830603 -0.0977875218
1333350000.0 -0.6179103479 0.2395487508
1343300000.0 -0.3991499943 0.5166529607
1353250000.0 -0.0474986214 0.6267294419
1363200000.0 0.3151731384 0.5117076246
1373150000.0 0.5488517952 0.2101670029
1383100000.0 0.5755701056 -0.1591562106
1393050000.0 0.409204077 -0.4705017247
1403000000.0 0.119243585 -0.6409144844
1412950000.0 -0.205096875 -0.6346869977
1422900000.0 -0.474779164 -0.4606310016
1432850000.0 -0.6112302539 -0.1640837941
1442800000.0 -0.5633736074 0.1691699422
1452750000.0 -0.3344556083 0.4276580343
1462700000.0 0.0027904285 0.5177039062
1472650000.0 0.3298585846 0.4086654465
1482600000.0 0.5354392974 0.1459211213
1492550000.0 0.5599334343 -0.1727034895
1502500000.0 0.4096676813 -0.4400075109
1512450000.0 0.1407836791 -0.5737223506
1522400000.0 -0.1568500225 -0.5283826116
1532350000.0 -0.3762910506 -0.3135628966
1542300000.0 -0.4303462351 -0.0039286608
1552250000.0 -0.2910319304 0.2798694513
1562200000.0 -0.0151062722 0.4213679607
1572150000.0 0.2767177385 0.3695795614
1582100000.0 0.4670144217 0.1613385871
1592050000.0 0.4886055892 -0.1109041917
1602000000.0 0.3392784683 -0.3380758518
1611950000.0 0.0762711438 -0.429935489
1621900000.0 -0.1986710428 -0.3421380192
1631850000.0 -0.370318937 -0.0979506224
1641800000.0 -0.357487377 0.205590901
1651750000.0 -0.1603007053 0.4355624869
1661700000.0 0.1317464869 0.4934433172
1671650000.0 0.3949465824 0.3645214829
1681600000.0 0.5315044323 0.1062555895
1691550000.0 0.4961340718 -0.1885877739
1701500000.0 0.2963105434 -0.4204169165
1711450000.0 -0.0103782558 -0.5041127424
1721400000.0 -0.3236411726 -0.3930145327
1731350000.0 -0.5184097582 -0.1130219483
1741300000.0 -0.5073456822 0.2282289843
1751250000.0 -0.295565592 0.4772444319
1761200000.0 -0.0497986415 0.551017027
1771150000.0 0.2436717433 0.5411615012
1781100000.0 0.4776791805 0.3514175432
1791050000.0 0.591380662 0.0625847093
1801000000.0 0.5301191072 -0.2540040731
1810950000.0 0.3011404446 -0.4954057097
1820900000.0 -0.0321115003 -0.5711547829
1830850000.0 -0.3538181082 -0.4417613292
1840800000.0 -0.5425925177 -0.1575841709
1850750000.0 -0.5443937999 0.1679900885
1860700000.0 -0.3857314792 0.4285737988
1870650000.0 -0.1332706021 0.5653330079
1880600000.0 0.1401986102 0.5583420154
1890550000.0 0.3672771304 0.4179015054
1900500000.0 0.4880919281 0.178656981
1910450000.0 0.4611468922 -0.0905480068
1920400000.0 0.2892646257 -0.2994189384
1930350000.0 0.0376904823 -0.3720447797
1940300000.0 -0.1941579039 -0.2981954133
1950250000.0 -0.3330928273 -0.131688001
1960200000.0 -0.3586032766 0.0538250351
1970150000.0 -0.2935895042 0.1966365471
1980100000.0 -0.1843765528 0.2620577289
1990050000.0 -0.0879649499 0.2483253325
2000000000.0 -0.0503595204 0.1944086154
