!Created with skrf (http://scikit-rf.org).
# GHz S RI R 50.0 
!freq ReS11 ImS11
10000000.0 -0.9783780387 0.0719862528
19950000.0 -0.9693415724 0.1379358733
29900000.0 -0.9553767345 0.20680697
39850000.0 -0.9344350206 0.2802910519
49800000.0 -0.9028489375 0.3617388588
59750000.0 -0.8572700871 0.4529237289
69700000.0 -0.7923562199 0.5546309696
79650000.0 -0.7012561968 0.6668147985
89600000.0 -0.5722452038 0.7841343077
99550000.0 -0.393387065 0.89334561
109500000.0 -0.1552571932 0.9700742727
119450000.0 0.1380788385 0.9767991248
129400000.0 0.4516845267 0.8788777026
139350000.0 0.7226859022 0.6740645884
149300000.0 0.9044453818 0.3944554135
159250000.0 0.9790261946 0.1010247261
169200000.0 0.9653226434 -0.1608116924
179150000.0 0.8971606399 -0.3694180683
189100000.0 0.8044715019 -0.5257026963
199050000.0 0.7072831681 -0.6396703151
209000000.0 0.6143628958 -0.7212999307
218950000.0 0.5296480205 -0.7812266778
228900000.0 0.4541400412 -0.8248772361
238850000.0 0.3830183791 -0.8566255024
248800000.0 0.3300775781 -0.8682209612
258750000.0 0.2557113906 -0.8910474026
268700000.0 0.1890358243 -0.9009552546
278650000.0 0.1208887132 -0.9051802453
288600000.0 0.0504981862 -0.9039423713
298550000.0 -0.0228276413 -0.8948937972
308500000.0 -0.1016158683 -0.8749398252
318450000.0 -0.1856217342 -0.8378569761
328400000.0 -0.2730155533 -0.777402664
338350000.0 -0.3580327291 -0.6881534182
348300000.0 -0.4283053778 -0.5675281601
358250000.0 -0.4672148094 -0.4219892447
368200000.0 -0.4623786412 -0.2671217992
378150000.0 -0.4123638271 -0.1256213392
388100000.0 -0.3272356366 -0.0142288823
398050000.0 -0.2241898221 0.0595704438
408000000.0 -0.1220691605 0.0982627202
417950000.0 -0.0320743253 0.1105900978
427900000.0 0.0393534126 0.105584451
437850000.0 0.0917336003 0.0895400848
447800000.0 0.1268104442 0.0680134268
457750000.0 0.1473392291 0.0441267739
467700000.0 0.1566282261 0.0202866801
477650000.0 0.1578460269 -0.0011741847
487600000.0 0.1512820174 -0.018930525
497550000.0 0.1439918564 -0.0285790708
507500000.0 0.1276131698 -0.0370048236
517450000.0 0.107254642 -0.0390664594
527400000.0 0.0835139628 -0.0368628269
537350000.0 0.0580648729 -0.031022378
547300000.0 0.0335712778 -0.0221677408
557250000.0 0.0098569516 -0.0105655266
567200000.0 -0.0109003901 0.0045825168
577150000.0 -0.0280380667 0.0230915506
587100000.0 -0.0425166741 0.0437946116
597050000.0 -0.054124697 0.0656186184
607000000.0 -0.0627741223 0.0878942691
616950000.0 -0.0686670816 0.1076581422
626900000.0 -0.0706126912 0.1254100124
636850000.0 -0.068528771 0.1402722727
646800000.0 -0.0617320707 0.152372978
656750000.0 -0.0514509412 0.1631613074
666700000.0 -0.0378004136 0.1724972806
676650000.0 -0.022902745 0.1792041035
686600000.0 -0.0069248792 0.1825131385
696550000.0 0.0099902017 0.1811188077
706500000.0 0.0278743431 0.1736898246
716450000.0 0.048034181 0.1600582448
726400000.0 0.0699917665 0.1407536699
736350000.0 0.0927835848 0.1164931266
746300000.0 0.1148483023 0.0892851012
756250000.0 0.1342983862 0.0583564855
766200000.0 0.1483119548 0.0234849921
776150000.0 0.1556398307 -0.0154577575
786100000.0 0.1567588915 -0.0584667319
796050000.0 0.1511000779 -0.1059684349
806000000.0 0.1407948151 -0.1557670656
815950000.0 0.1253395034 -0.2043288982
825900000.0 0.1061234977 -0.2488773822
835850000.0 0.082394125 -0.287548944
845800000.0 0.052719231 -0.3192496166
855750000.0 0.0155430955 -0.3436185845
865700000.0 -0.0279881649 -0.3620069671
875650000.0 -0.0773928648 -0.3740384334
885600000.0 -0.1304150052 -0.3803801592
895550000.0 -0.1850234645 -0.3786825154
905500000.0 -0.2390637487 -0.3679353288
915450000.0 -0.2921410851 -0.3449324857
925400000.0 -0.3448724563 -0.3058368999
935350000.0 -0.3957217417 -0.2482730262
945300000.0 -0.4434228146 -0.1697344452
955250000.0 -0.4824855651 -0.067105923
965200000.0 -0.5004274849 0.0628402218
975150000.0 -0.4747275156 0.2194654544
985100000.0 -0.3696086502 0.3684686765
995050000.0 -0.2326754652 0.4488309754
1005000000.0 -0.1028647696 0.4996964558
1014950000.0 0.0232310046 0.5758874292
1024900000.0 0.2464717713 0.6350735265
1034850000.0 0.5043830542 0.5757490589
1044800000.0 0.7130621701 0.4050718631
1054750000.0 0.8272931967 0.1702207407
1064700000.0 0.8529707252 -0.0634289438
1074650000.0 0.7906507945 -0.2965669536
1084600000.0 0.7144671956 -0.4239115992
1094550000.0 0.5956218433 -0.5984629171
1104500000.0 0.4304766454 -0.706458974
1114450000.0 0.251746938 -0.7614914999
1124400000.0 0.0731408488 -0.7702436165
1134350000.0 -0.0932602851 -0.7398035903
1144300000.0 -0.2386827041 -0.6790949296
1154250000.0 -0.3576045683 -0.5963883262
1164200000.0 -0.4474391222 -0.5038298704
1174150000.0 -0.5174775643 -0.4083287485
1184100000.0 -0.5697064468 -0.3067513108
1194050000.0 -0.6034432449 -0.2067245708
1204000000.0 -0.6219582684 -0.1144531225
1213950000.0 -0.6291829589 -0.0330935717
1223900000.0 -0.6287177066 0.0360881893
1233850000.0 -0.6227159516 0.0946569531
1243800000.0 -0.6128765892 0.1443237666
1253750000.0 -0.5990126821 0.1893785391
1263700000.0 -0.5829541124 0.2313600214
1273650000.0 -0.5670629983 0.2688446437
1283600000.0 -0.5533019773 0.3025586871
1293550000.0 -0.5422814259 0.3304206221
1303500000.0 -0.5340183135 0.3514805305
1313450000.0 -0.5274552164 0.3665789586
1323400000.0 -0.5210595897 0.3771375235
1333350000.0 -0.5126885041 0.385690758
1343300000.0 -0.5028783504 0.3957474841
1353250000.0 -0.4922129834 0.4075112177
1363200000.0 -0.4821636102 0.4210968002
1373150000.0 -0.4723496556 0.4343999591
1383100000.0 -0.4638777069 0.4459938527
1393050000.0 -0.4568365477 0.4535267062
1403000000.0 -0.4491067234 0.4572009428
1412950000.0 -0.4391977732 0.4575339258
1422900000.0 -0.4256868802 0.4575696521
1432850000.0 -0.4088339926 0.4592311006
1442800000.0 -0.3892851794 0.4643049368
1452750000.0 -0.3690275344 0.4725244923
1462700000.0 -0.3476156416 0.4825186549
1472650000.0 -0.3268119216 0.4921830623
1482600000.0 -0.3051073101 0.5001480365
1492550000.0 -0.2810965207 0.5047803056
1502500000.0 -0.2524630055 0.5067397659
1512450000.0 -0.2184954171 0.507302633
1522400000.0 -0.1790598169 0.5077483149
1532350000.0 -0.1358486839 0.5083117363
1542300000.0 -0.0892330875 0.5089574922
1552250000.0 -0.0417892781 0.5084224624
1562200000.0 0.0051710883 0.5058586591
1572150000.0 0.0510782949 0.4993378196
1582100000.0 0.0964925361 0.4894733029
1592050000.0 0.1421441465 0.4760400282
1602000000.0 0.1873133949 0.4601302655
1611950000.0 0.2315944905 0.4428694919
1621900000.0 0.2744418982 0.4249345875
1631850000.0 0.3146638892 0.4056447484
1641800000.0 0.3518506081 0.3851390667
1651750000.0 0.3862156154 0.3627357425
1661700000.0 0.4176068674 0.3392977156
1671650000.0 0.4465405118 0.3166754025
1681600000.0 0.4732852553 0.295413745
1691550000.0 0.4974775895 0.2769063225
1701500000.0 0.5190888953 0.2619550203
1711450000.0 0.5380006958 0.2495264147
1721400000.0 0.5534131142 0.2387418215
1731350000.0 0.5653384359 0.2280944646
1741300000.0 0.5753331041 0.2178077823
1751250000.0 0.583804936 0.2085515842
1761200000.0 0.5912054318 0.2005791318
1771150000.0 0.5968002673 0.1955138897
1781100000.0 0.6003486395 0.1938163756
1791050000.0 0.6015746576 0.1962492732
1801000000.0 0.6006079981 0.2007363925
1810950000.0 0.5971723286 0.2050330179
1820900000.0 0.5922559709 0.2079089402
1830850000.0 0.5878269236 0.2078760683
1840800000.0 0.5832410983 0.2062167233
1850750000.0 0.5781146755 0.2034485427
1860700000.0 0.5711817103 0.2009646338
1870650000.0 0.5613996964 0.2001371963
1880600000.0 0.5469294941 0.2003495742
1890550000.0 0.5262789916 0.1990427822
1900500000.0 0.4906697951 0.1907287534
1910450000.0 0.4471613111 0.215476515
1920400000.0 0.4327021968 0.2165280942
1930350000.0 0.4093564165 0.2072994597
1940300000.0 0.3821125564 0.1957042895
1950250000.0 0.352044023 0.1834136873
1960200000.0 0.3179166527 0.1715226107
1970150000.0 0.2771310441 0.1599872773
1980100000.0 0.2273949779 0.1492524651
1990050000.0 0.1671543247 0.1370345678
2000000000.0 0.0953426971 0.1234243304
