!Created with skrf (http://scikit-rf.org).
# GHz S RI R 50.0 
!freq ReS11 ImS11
10000000.0 -0.8432518232 0.0622067232
14975000.0 -0.8462276554 0.095065342
19950000.0 -0.8493997452 0.1297420498
24925000.0 -0.8508073254 0.1670331118
29900000.0 -0.8507952698 0.2055752358
34875000.0 -0.8466705612 0.2463347461
39850000.0 -0.8383359938 0.2890697131
44825000.0 -0.8255935655 0.3335514868
49800000.0 -0.8086783539 0.3794605961
54775000.0 -0.7870330195 0.4267285272
59750000.0 -0.7609796449 0.4753000772
64725000.0 -0.7306202457 0.5248483772
69700000.0 -0.6955409646 0.5753873369
74675000.0 -0.65561504 0.6268905015
79650000.0 -0.6101191993 0.6793764544
84625000.0 -0.5585984695 0.7324737593
89600000.0 -0.4995944141 0.7856784218
94575000.0 -0.4316360123 0.8379427404
99550000.0 -0.3529790721 0.8871513719
104525000.0 -0.2619576422 0.9304120869
109500000.0 -0.1580532823 0.9638166262
114475000.0 -0.0419126955 0.9832508207
119450000.0 0.0839084608 0.9851555495
124425000.0 0.2156163634 0.9666859719
129400000.0 0.3395964019 0.8983661883
134375000.0 0.473206627 0.8659066655
139350000.0 0.592580662 0.7831701397
144325000.0 0.6978814276 0.6823463942
149300000.0 0.7857009736 0.5671727848
154275000.0 0.8534931771 0.442498792
159250000.0 0.8999697323 0.3129345723
164225000.0 0.9247800163 0.1838906145
169200000.0 0.9298053099 0.0594280663
174175000.0 0.9171702948 -0.057028975
179150000.0 0.8910678436 -0.1628404428
184125000.0 0.8556395779 -0.2570100262
189100000.0 0.8148843665 -0.340094458
194075000.0 0.7716491019 -0.4132858695
199050000.0 0.7276775025 -0.4781042826
204025000.0 0.6834047296 -0.5363202784
209000000.0 0.6394886555 -0.5885264564
213975000.0 0.5947682644 -0.6361873563
218950000.0 0.5491429651 -0.6792003504
223925000.0 0.5023925514 -0.7178935755
228900000.0 0.4541476469 -0.7522622294
233875000.0 0.404194326 -0.7820449315
238850000.0 0.350837189 -0.8077034541
243825000.0 0.2878369045 -0.8297169746
248800000.0 0.14531045 -0.6286808837
253775000.0 0.2435465378 -0.837166757
258750000.0 0.1819018003 -0.8521391079
263725000.0 0.1294730082 -0.8589179655
268700000.0 0.0803810884 -0.8618598168
273675000.0 0.0332236326 -0.8624162412
278650000.0 -0.0125958162 -0.8609415179
283625000.0 -0.0581147215 -0.8577988347
288600000.0 -0.10372256 -0.8529611571
293575000.0 -0.149963179 -0.8460212297
298550000.0 -0.1976279297 -0.8359175947
303525000.0 -0.246592198 -0.8219696183
308500000.0 -0.296475976 -0.8024670085
313475000.0 -0.3466122952 -0.7764092869
318450000.0 -0.3957670751 -0.7431496808
323425000.0 -0.4432049163 -0.7020650811
328400000.0 -0.4873145672 -0.6536772904
333375000.0 -0.5263012725 -0.5981430428
338350000.0 -0.5596661706 -0.5359511133
343325000.0 -0.5864882783 -0.4687951076
348300000.0 -0.6046361151 -0.3975450829
353275000.0 -0.6133427064 -0.3235728441
358250000.0 -0.6128032005 -0.2497244267
363225000.0 -0.602137899 -0.1778149115
368200000.0 -0.5810781958 -0.1086314669
373175000.0 -0.5516181591 -0.0451372416
378150000.0 -0.5151067923 0.0098440095
383125000.0 -0.4721708754 0.0572979703
388100000.0 -0.4250741909 0.0967781481
393075000.0 -0.3758054199 0.1265969
398050000.0 -0.3255636974 0.1482639547
403025000.0 -0.2761853745 0.1635736086
408000000.0 -0.228898026 0.1718574799
412975000.0 -0.1843168745 0.1732387374
417950000.0 -0.1432062259 0.1708272189
422925000.0 -0.1062288636 0.1651867951
427900000.0 -0.0735615096 0.1557540054
432875000.0 -0.0454635146 0.1439201256
437850000.0 -0.0228908852 0.1304970905
442825000.0 -0.0043037315 0.1150311502
447800000.0 0.0109542285 0.098396133
452775000.0 0.0217894771 0.0815105339
457750000.0 0.0290861141 0.064914904
462725000.0 0.0344043937 0.0487682608
467700000.0 0.03701755 0.0332696291
472675000.0 0.0369173192 0.0186334832
477650000.0 0.0348789653 0.0056656935
482625000.0 0.0301052919 -0.0063221217
487600000.0 0.0211766755 -0.0177612943
492575000.0 -0.0007691284 -0.0245072513
497550000.0 0.0287120896 0.050791286
502525000.0 0.0392409044 -0.0162719008
507500000.0 0.0267452927 -0.0288770832
512475000.0 0.0165052543 -0.0335854205
517450000.0 0.0072770893 -0.0356372935
522425000.0 -0.0017406345 -0.03670051
527400000.0 -0.0113254256 -0.0372112511
532375000.0 -0.0213245998 -0.0365773017
537350000.0 -0.0311367511 -0.0352132298
542325000.0 -0.0420498455 -0.0336890006
547300000.0 -0.053179459 -0.0287019129
552275000.0 -0.0606121685 -0.0221680357
557250000.0 -0.0668159191 -0.0164593637
562225000.0 -0.0722499589 -0.0107410893
567200000.0 -0.0772669731 -0.0041058927
572175000.0 -0.0816959598 0.0040057897
577150000.0 -0.0852411112 0.0125517046
582125000.0 -0.087754276 0.0213853135
587100000.0 -0.0896823529 0.031241064
592075000.0 -0.0909421839 0.0415129762
597050000.0 -0.0912339897 0.0516932536
602025000.0 -0.090942481 0.0620714837
607000000.0 -0.090415071 0.0721902086
611975000.0 -0.0886521214 0.0819804081
616950000.0 -0.0863177968 0.0910730333
621925000.0 -0.0833721038 0.0987326474
626900000.0 -0.0791503357 0.1055873505
631875000.0 -0.0739399835 0.1118452211
636850000.0 -0.0679193115 0.1170219062
641825000.0 -0.0612779107 0.1210507073
646800000.0 -0.0539330211 0.1247923356
651775000.0 -0.0455878095 0.1279653327
656750000.0 -0.0365751267 0.1309979165
661725000.0 -0.0278488044 0.1334612518
666700000.0 -0.0188822681 0.1356439659
671675000.0 -0.0086942303 0.137325199
676650000.0 0.0018559245 0.1391675252
681625000.0 0.0123266103 0.1402808979
686600000.0 0.0229717169 0.1409914507
691575000.0 0.0338716125 0.1406669647
696550000.0 0.0449025108 0.1384522838
701525000.0 0.0561182497 0.1346861658
706500000.0 0.0677045985 0.1295058554
711475000.0 0.0793839041 0.1228714565
716450000.0 0.0911354031 0.1140171082
721425000.0 0.102867436 0.103767021
726400000.0 0.1148253062 0.0921288324
731375000.0 0.1265525782 0.079068414
736350000.0 0.1377487109 0.0647033822
741325000.0 0.1487882636 0.0492854249
746300000.0 0.1591650985 0.0335799933
751275000.0 0.1679466873 0.0164348411
756250000.0 0.1761463295 -0.0015805481
761225000.0 0.1826770747 -0.0197095656
766200000.0 0.1879581771 -0.0392041892
771175000.0 0.190640544 -0.0581535912
776150000.0 0.1917060129 -0.0777960104
781125000.0 0.1906972146 -0.0983309938
786100000.0 0.1881228786 -0.1190844362
791075000.0 0.1839722786 -0.139792554
796050000.0 0.1779187587 -0.1608098924
801025000.0 0.1704821151 -0.1820215715
806000000.0 0.1615730652 -0.2020656648
810975000.0 0.1514190868 -0.2219545947
815950000.0 0.1402184556 -0.2415883391
820925000.0 0.1280223664 -0.2596169165
825900000.0 0.1151838056 -0.2759077426
830875000.0 0.1014600299 -0.2906758436
835850000.0 0.0868792444 -0.3041207891
840825000.0 0.0715454733 -0.3163099055
845800000.0 0.0558944527 -0.3263355525
850775000.0 0.039186664 -0.335126532
855750000.0 0.0213336566 -0.3434441021
860725000.0 0.0027135397 -0.3509377714
865700000.0 -0.0168170732 -0.3574362943
870675000.0 -0.0380584584 -0.3633977308
875650000.0 -0.0605565835 -0.3682201019
880625000.0 -0.0846805085 -0.3712020468
885600000.0 -0.1101052283 -0.3729821204
890575000.0 -0.1362224314 -0.3726009358
895550000.0 -0.1629871048 -0.3697771312
900525000.0 -0.1899250211 -0.3636096953
905500000.0 -0.2170578024 -0.3544778252
910475000.0 -0.2443357531 -0.3416807551
915450000.0 -0.2709901585 -0.3250639304
920425000.0 -0.2973169354 -0.30376759
925400000.0 -0.3229238187 -0.2783824083
930375000.0 -0.3472489571 -0.2479080728
935350000.0 -0.3706598432 -0.2124720122
940325000.0 -0.3923389465 -0.1721826684
945300000.0 -0.411436904 -0.1261924525
950275000.0 -0.4263326207 -0.07428941
955250000.0 -0.4360013092 -0.0168493738
960225000.0 -0.437549364 0.0461255893
965200000.0 -0.4291412089 0.111378067
970175000.0 -0.4098926313 0.1756430282
975150000.0 -0.3805630925 0.2355813668
980125000.0 -0.3451398388 0.2900542863
985100000.0 -0.3055141185 0.3435505148
990075000.0 -0.2576816032 0.3986641007
995050000.0 -0.1977557922 0.4504172028
1000025000.0 -0.1294892574 0.4950522273
1005000000.0 -0.0545206016 0.5348699552
1009975000.0 0.0310314059 0.5690091419
1014950000.0 0.1291118649 0.5911335675
1019925000.0 0.236200375 0.5948785257
1024900000.0 0.3466086347 0.5770435215
1029875000.0 0.4536764161 0.5364105063
1034850000.0 0.5513473543 0.4734569245
1039825000.0 0.6343548276 0.3909975751
1044800000.0 0.6996936828 0.2927217807
1049775000.0 0.7438386619 0.1821674289
1054750000.0 0.7611512305 0.0634477346
1059725000.0 0.7385027116 -0.0473849653
1064700000.0 0.7050801496 -0.0948734812
1069675000.0 0.7359333978 -0.1540771324
1074650000.0 0.7431392469 -0.2592105541
1079625000.0 0.7187105268 -0.3638751298
1084600000.0 0.6743052133 -0.4609760864
1089575000.0 0.6126610054 -0.5449746335
1094550000.0 0.5404981687 -0.6152430914
1099525000.0 0.4600897423 -0.6717979338
1104500000.0 0.373371097 -0.7137644322
1109475000.0 0.2828121728 -0.7422819189
1114450000.0 0.1908547142 -0.7568705646
1119425000.0 0.0994250893 -0.7595367912
1124400000.0 0.0102149634 -0.7503708375
1129375000.0 -0.0750608537 -0.7312529465
1134350000.0 -0.1559207997 -0.7025981651
1139325000.0 -0.2311719673 -0.6654193301
1144300000.0 -0.2999638702 -0.621097751
1149275000.0 -0.3611130611 -0.5704181399
1154250000.0 -0.4141451876 -0.5147553686
1159225000.0 -0.4575018525 -0.455601216
1164200000.0 -0.4919398001 -0.3962856693
1169175000.0 -0.5186049678 -0.338041447
1174150000.0 -0.5403436812 -0.2802537526
1179125000.0 -0.5573957395 -0.2223824978
1184100000.0 -0.5686155496 -0.1641509377
1189075000.0 -0.574490714 -0.1073414232
1194050000.0 -0.5755988185 -0.0538164612
1199025000.0 -0.5725159053 -0.0033679476
1204000000.0 -0.5666621177 0.0444202212
1208975000.0 -0.5579857716 0.0880787277
1213950000.0 -0.5476409028 0.1278015837
1218925000.0 -0.5364809687 0.1640569536
1223900000.0 -0.5245714832 0.1967955077
1228875000.0 -0.5124197767 0.226001366
1233850000.0 -0.501224289 0.2521966749
1238825000.0 -0.4897030606 0.2767308544
1243800000.0 -0.4782203303 0.2997006132
1248775000.0 -0.4669213878 0.3209173002
1253750000.0 -0.4550613343 0.3419190422
1258725000.0 -0.4437419699 0.3623944382
1263700000.0 -0.4315752444 0.3819269684
1268675000.0 -0.4197222631 0.4000452242
1273650000.0 -0.4080102627 0.4173716061
1278625000.0 -0.3960284146 0.4332727067
1283600000.0 -0.3840698779 0.448201554
1288575000.0 -0.3725529465 0.4608184005
1293550000.0 -0.3609370841 0.4720377338
1298525000.0 -0.349732861 0.4814467391
1303500000.0 -0.3385716585 0.4885884976
1308475000.0 -0.3285212472 0.4936857874
1313450000.0 -0.3191852191 0.4971728895
1318425000.0 -0.3117661601 0.4983764296
1323400000.0 -0.3057440237 0.4985237162
1328375000.0 -0.3024540197 0.4985507016
1333350000.0 -0.3012797241 0.4994672266
1338325000.0 -0.3008581713 0.5020859706
1343300000.0 -0.3013061931 0.5071092731
1348275000.0 -0.300844908 0.513993741
1353250000.0 -0.2989588503 0.5229959326
1358225000.0 -0.2960125711 0.5327456156
1363200000.0 -0.2910063266 0.5427509888
1368175000.0 -0.2844503738 0.5525351628
1373150000.0 -0.2771458592 0.5615798166
1378125000.0 -0.2687938949 0.5695721389
1383100000.0 -0.2592023378 0.5764589899
1388075000.0 -0.2496645132 0.5814524565
1393050000.0 -0.2390070067 0.5842979478
1398025000.0 -0.2282865605 0.5858311384
1403000000.0 -0.2174358455 0.5856089149
1407975000.0 -0.206703646 0.5828000701
1412950000.0 -0.1966309956 0.5784870309
1417925000.0 -0.1879964761 0.5737022287
1422900000.0 -0.1817165398 0.5671177659
1427875000.0 -0.1781186279 0.5604748148
1432850000.0 -0.1775105348 0.5556653912
1437825000.0 -0.1788578185 0.5524701983
1442800000.0 -0.1811769004 0.5519612508
1447775000.0 -0.183622729 0.5538486844
1452750000.0 -0.1848655268 0.557947137
1457725000.0 -0.1839993458 0.5632128462
1462700000.0 -0.1801750069 0.5697267355
1467675000.0 -0.1741033737 0.5758253889
1472650000.0 -0.1661753974 0.58157847
1477625000.0 -0.1560447848 0.5859320023
1482600000.0 -0.1435070339 0.5895490434
1487575000.0 -0.130400023 0.5912996365
1492550000.0 -0.1156366019 0.5905752353
1497525000.0 -0.0987237012 0.5903471292
1502500000.0 -0.081661991 0.5891433469
1507475000.0 -0.0641978089 0.5861485101
1512450000.0 -0.0470861145 0.5833140376
1517425000.0 -0.0300820327 0.5805850708
1522400000.0 -0.0134040667 0.5764674337
1527375000.0 0.0013753494 0.5726533693
1532350000.0 0.0144653 0.5692849151
1537325000.0 0.0282194216 0.5652400556
1542300000.0 0.0415062262 0.5608917379
1547275000.0 0.05354772 0.5562529209
1552250000.0 0.0677442347 0.5518643046
1557225000.0 0.0819095577 0.5467462919
1562200000.0 0.0966368182 0.5384319933
1567175000.0 0.1120827284 0.5301417377
1572150000.0 0.1285096734 0.5207507616
1577125000.0 0.1450367251 0.5084691645
1582100000.0 0.1618176998 0.4947386625
1587075000.0 0.1779313287 0.4829460437
1592050000.0 0.1948838575 0.4703321782
1597025000.0 0.213394865 0.4576412244
1602000000.0 0.2316799173 0.445646105
1606975000.0 0.2501600669 0.4341409512
1611950000.0 0.2690696988 0.4223271338
1616925000.0 0.2874872329 0.4105662045
1621900000.0 0.3050930828 0.3979733348
1626875000.0 0.32227992 0.3856249839
1631850000.0 0.3389843452 0.3722004171
1636825000.0 0.3544313711 0.3590646992
1641800000.0 0.3681944896 0.3446502633
1646775000.0 0.3824278677 0.3290141531
1651750000.0 0.3959201653 0.3136730405
1656725000.0 0.4074093349 0.2975368901
1661700000.0 0.4193713263 0.2805279277
1666675000.0 0.4311332182 0.2641859393
1671650000.0 0.4413667061 0.247445729
1676625000.0 0.4522497308 0.230840098
1681600000.0 0.4617868751 0.2153078588
1686575000.0 0.4697475538 0.1993316156
1691550000.0 0.4775196423 0.1838008949
1696525000.0 0.4841154524 0.1695981243
1701500000.0 0.4887686848 0.15595084
1706475000.0 0.4923747487 0.1424046353
1711450000.0 0.4949482681 0.1301412117
1716425000.0 0.4959443928 0.118781096
1721400000.0 0.4963685506 0.1081879298
1726375000.0 0.4979811489 0.0986029966
1731350000.0 0.4995657785 0.0891413802
1736325000.0 0.5020692819 0.0799131922
1741300000.0 0.5063133995 0.0700005961
1746275000.0 0.5117802095 0.0604042402
1751250000.0 0.5168582433 0.0504337692
1756225000.0 0.5225890316 0.0398723592
1761200000.0 0.5283319489 0.0297190048
1766175000.0 0.5329533062 0.0198591551
1771150000.0 0.5369050681 0.0101664155
1776125000.0 0.540181894 0.0015811961
1781100000.0 0.5415322137 -0.0063712071
1786075000.0 0.541844398 -0.0135930034
1791050000.0 0.5401071696 -0.0192637224
1796025000.0 0.5370502578 -0.0241308634
1801000000.0 0.5324304227 -0.0283261181
1805975000.0 0.5266457342 -0.0298744203
1810950000.0 0.5215343079 -0.0307443497
1815925000.0 0.517344031 -0.0310458237
1820900000.0 0.5139182318 -0.0300180437
1825875000.0 0.5127218559 -0.0293447448
1830850000.0 0.5126663368 -0.0290467173
1835825000.0 0.5145503469 -0.0293887144
1840800000.0 0.5166735199 -0.0308976589
1845775000.0 0.519365502 -0.0325396125
1850750000.0 0.5214516569 -0.0350441401
1855725000.0 0.5223250349 -0.0383287666
1860700000.0 0.5217612096 -0.0408942729
1865675000.0 0.5193835695 -0.0433831223
1870650000.0 0.5153148738 -0.0461726297
1875625000.0 0.5093476369 -0.0484677527
1880600000.0 0.5008184964 -0.0503971393
1885575000.0 0.4907275736 -0.0521204197
1890550000.0 0.4782395677 -0.0536747008
1895525000.0 0.4648327543 -0.0545320955
1900500000.0 0.4508381578 -0.0546303922
1905475000.0 0.4359951089 -0.0542297573
1910450000.0 0.4217348876 -0.0523523003
1915425000.0 0.4090706166 -0.0498990814
1920400000.0 0.3985510345 -0.0472544229
1925375000.0 0.3900380384 -0.0439995002
1930350000.0 0.3832844356 -0.0417314722
1935325000.0 0.3762273 -0.0406941148
1940300000.0 0.3689528141 -0.0393314556
1945275000.0 0.3606445123 -0.0390006184
1950250000.0 0.3502851613 -0.0383797476
1955225000.0 0.3379012039 -0.0373980461
1960200000.0 0.3222799282 -0.0363186362
1965175000.0 0.3048537667 -0.0337893298
1970150000.0 0.2849397363 -0.0318117046
1975125000.0 0.2607561413 -0.0289409551
1980100000.0 0.2356587836 -0.0250046604
1985075000.0 0.2072369579 -0.0215970424
1990050000.0 0.1761256306 -0.0166653593
1995025000.0 0.1434499407 -0.0110279086
2000000000.0 0.1072948072 -0.0039531464
