!Created with skrf (http://scikit-rf.org).
# GHz S RI R 50.0 
!freq ReS11 ImS11
10000000.0 -0.8044142508 0.6051346373
19950000.0 -0.2913807592 0.947853971
29900000.0 0.3215116449 0.9286064554
39850000.0 0.8127402117 0.5529149233
49800000.0 0.9899259902 -0.0516502691
59750000.0 0.759367217 -0.6551613895
69700000.0 0.1869673668 -0.9914875154
79650000.0 -0.4853178756 -0.8775985599
89600000.0 -0.9280957431 -0.3356839462
99550000.0 -0.8927644392 0.3829845453
109500000.0 -0.3559444265 0.8984536727
119450000.0 0.4195339191 0.8805202382
129400000.0 0.9402893381 0.2515110191
139350000.0 0.8304243654 -0.5456985016
149300000.0 0.1157314127 -0.971534534
159250000.0 -0.6516280785 -0.7004779534
169200000.0 -0.9457447979 0.0268664728
179150000.0 -0.631198796 0.7120549215
189100000.0 0.0497610791 0.9632172872
199050000.0 0.6914903855 0.6831956515
209000000.0 0.9641551406 0.0624989278
218950000.0 0.768553965 -0.5587214507
228900000.0 0.2359599958 -0.9032239062
238850000.0 -0.3854845262 -0.8395846975
248800000.0 -0.5795123784 -0.374263941
258750000.0 -0.9220599905 0.1436286487
268700000.0 -0.6458673149 0.6837596431
278650000.0 -0.099408186 0.9307973771
288600000.0 0.4772758302 0.7830602168
298550000.0 0.8313591388 0.3112732655
308500000.0 0.8106997067 -0.2732699776
318450000.0 0.4279494709 -0.7062056822
328400000.0 -0.135425652 -0.7872397837
338350000.0 -0.5971729 -0.4792995343
348300000.0 -0.7138198515 0.038917601
358250000.0 -0.4493046759 0.4576192545
368200000.0 -0.0089448168 0.5489117461
378150000.0 0.3182548964 0.3235502056
388100000.0 0.3696826419 -0.0150550589
398050000.0 0.1892932955 -0.2400703384
408000000.0 -0.0487974461 -0.2536540716
417950000.0 -0.1869909927 -0.1135623702
427900000.0 -0.1753296883 0.0503817348
437850000.0 -0.0643296123 0.135382412
447800000.0 0.0542471485 0.1152759714
457750000.0 0.1124211618 0.0296307057
467700000.0 0.092470951 -0.0572693915
477650000.0 0.0277158764 -0.0943353044
487600000.0 -0.0309770056 -0.06896694
497550000.0 0.0007840211 -0.102509222
507500000.0 -0.0598273465 -0.0102693908
517450000.0 -0.027832342 0.0124513699
527400000.0 -0.0059871149 0.0018285413
537350000.0 -0.0107038123 -0.0188230403
547300000.0 -0.045270724 -0.0257893487
557250000.0 -0.0734776441 0.0139215582
567200000.0 -0.0638796753 0.0682465697
577150000.0 -0.012632783 0.1097872422
587100000.0 0.0629144417 0.1082724383
597050000.0 0.1296363031 0.0528415102
607000000.0 0.1496423383 -0.0416839268
616950000.0 0.1055013675 -0.1357513413
626900000.0 0.0096056753 -0.1873383182
636850000.0 -0.1014032677 -0.1711297884
646800000.0 -0.1809530184 -0.0892542795
656750000.0 -0.1939133313 0.0253343235
666700000.0 -0.1322048632 0.1232744087
676650000.0 -0.0224768562 0.1620144958
686600000.0 0.0862641381 0.1241230024
696550000.0 0.1459178799 0.0288317146
706500000.0 0.1310568654 -0.0754560552
716450000.0 0.0565316447 -0.1392893817
726400000.0 -0.035720409 -0.1326383051
736350000.0 -0.091649696 -0.062520229
746300000.0 -0.0771015963 0.0273485294
756250000.0 0.0039986415 0.0815327989
766200000.0 0.1050299207 0.0597678335
776150000.0 0.1645756982 -0.0338716015
786100000.0 0.1378673639 -0.1523286749
796050000.0 0.0239817127 -0.2250720678
806000000.0 -0.1267006936 -0.1972026725
815950000.0 -0.234695143 -0.0609160173
825900000.0 -0.2310298529 0.1317819061
835850000.0 -0.0973845229 0.2924678438
845800000.0 0.1181817021 0.3378494582
855750000.0 0.3240974722 0.2355058945
865700000.0 0.4257204775 0.0190878078
875650000.0 0.3679405128 -0.2233285745
885600000.0 0.1618415717 -0.3851252075
895550000.0 -0.1135490821 -0.3834912287
905500000.0 -0.3366470655 -0.2047821162
915450000.0 -0.3990965758 0.0827379239
925400000.0 -0.2613883811 0.3461253775
935350000.0 0.0169513886 0.4547611648
945300000.0 0.2994713107 0.345495236
955250000.0 0.4322958805 0.0606304824
965200000.0 0.3145683279 -0.2537497018
975150000.0 -0.0217182051 -0.3913290671
985100000.0 -0.3735672666 -0.2083654422
995050000.0 -0.4562202343 0.2150039068
1005000000.0 -0.1478767835 0.5656889197
1014950000.0 0.3596696807 0.5358391291
1024900000.0 0.6835509393 0.0817552588
1034850000.0 0.523806009 -0.5090619766
1044800000.0 -0.078199585 -0.7756134507
1054750000.0 -0.6700571991 -0.452984342
1064700000.0 -0.7911029132 0.1067124142
1074650000.0 -0.5096741451 0.6500873377
1084600000.0 -0.045811834 0.731431223
1094550000.0 0.4918058722 0.63179024
1104500000.0 0.7731395944 0.090681421
1114450000.0 0.5650767289 -0.4828760558
1124400000.0 0.0177758565 -0.7084545543
1134350000.0 -0.4825558689 -0.4732996054
1144300000.0 -0.6427671999 0.0066239376
1154250000.0 -0.435212337 0.4209090244
1164200000.0 -0.0281046362 0.5638430622
1174150000.0 0.3528890197 0.3947002337
1184100000.0 0.5037040781 0.0059363473
1194050000.0 0.3342277142 -0.3666763351
1204000000.0 -0.0337084402 -0.5073229034
1213950000.0 -0.3809981398 -0.3715374825
1223900000.0 -0.553251328 -0.0598161348
1233850000.0 -0.4993859635 0.2817303113
1243800000.0 -0.2501263545 0.5223267528
1253750000.0 0.101208459 0.5664506276
1263700000.0 0.4176351777 0.3835886056
1273650000.0 0.5611169789 0.040348606
1283600000.0 0.4729185878 -0.3199265552
1293550000.0 0.2013272149 -0.5572053485
1303500000.0 -0.143424222 -0.6035143808
1313450000.0 -0.4497733272 -0.4626221537
1323400000.0 -0.6341055704 -0.1851162141
1333350000.0 -0.6441257523 0.1517746027
1343300000.0 -0.4643650171 0.4519071394
1353250000.0 -0.1351345376 0.607475642
1363200000.0 0.2358997516 0.5487677192
1373150000.0 0.5107314494 0.289172994
1383100000.0 0.5928024779 -0.0707004034
1393050000.0 0.4730955912 -0.4024512784
1403000000.0 0.20937879 -0.6107176973
1412950000.0 -0.1121675325 -0.6481193674
1422900000.0 -0.4005083485 -0.5147335642
1432850000.0 -0.574197048 -0.2476075574
1442800000.0 -0.5788581744 0.0765196243
1452750000.0 -0.4049197449 0.3592779385
1462700000.0 -0.097761445 0.5066032224
1472650000.0 0.2401444075 0.459802148
1482600000.0 0.4889830886 0.238168268
1492550000.0 0.568760261 -0.0702009395
1502500000.0 0.469318467 -0.3573821456
1512450000.0 0.2340080573 -0.5354567912
1522400000.0 -0.0602741584 -0.5501206023
1532350000.0 -0.3142664731 -0.3888030553
1542300000.0 -0.4281090448 -0.102426432
1552250000.0 -0.3480536428 0.1975221084
1562200000.0 -0.1093243179 0.3840165332
1572150000.0 0.1794179547 0.3897641533
1582100000.0 0.4024815779 0.2290552053
1592050000.0 0.4789640667 -0.0238954823
1602000000.0 0.3874362213 -0.2682097612
1611950000.0 0.1618122486 -0.4092535764
1621900000.0 -0.1135676219 -0.3842654079
1631850000.0 -0.3251985138 -0.1885148819
1641800000.0 -0.372958565 0.1040897565
1651750000.0 -0.2286406692 0.3646264172
1661700000.0 0.0414701796 0.4787918644
1671650000.0 0.3192299554 0.408103311
1681600000.0 0.5009933915 0.1903184018
1691550000.0 0.5265750553 -0.096317116
1701500000.0 0.3817243935 -0.3558914259
1711450000.0 0.1039032144 -0.4960237647
1721400000.0 -0.2202194392 -0.4502575896
1731350000.0 -0.465044439 -0.2179843129
1741300000.0 -0.5282927527 0.1147615216
1751250000.0 -0.3909660889 0.4161197253
1761200000.0 -0.1189033434 0.582210901
1771150000.0 0.1882700137 0.5752789799
1781100000.0 0.4391691302 0.412772742
1791050000.0 0.5672219981 0.1503659043
1801000000.0 0.5474288591 -0.13639526
1810950000.0 0.3855957528 -0.3891056698
1820900000.0 0.0985967136 -0.5280793289
1830850000.0 -0.2303289336 -0.4803654005
1840800000.0 -0.4746113414 -0.2533746809
1850750000.0 -0.5484886825 0.0588246599
1860700000.0 -0.4504173156 0.3428600299
1870650000.0 -0.2349835413 0.5245290416
1880600000.0 0.0283182015 0.5706222104
1890550000.0 0.2719083782 0.4805732185
1900500000.0 0.4340384127 0.2785495371
1910450000.0 0.464055903 0.0200337883
1920400000.0 0.3471392014 -0.2126374057
1930350000.0 0.1274517152 -0.3381161642
1940300000.0 -0.1095184665 -0.3217325738
1950250000.0 -0.2800497714 -0.1944485894
1960200000.0 -0.3448414431 -0.0237111931
1970150000.0 -0.3135987932 0.1251869781
1980100000.0 -0.2246382822 0.2084512432
1990050000.0 -0.1329465814 0.213555558
2000000000.0 -0.0916276252 0.1693602855
