!Created with skrf (http://scikit-rf.org).
# GHz S RI R 50.0 
!freq ReS11 ImS11
10000000.0 -0.7799240016 0.5952560624
19950000.0 -0.2782458023 0.9389418409
29900000.0 0.3290347066 0.9255595075
39850000.0 0.8169629871 0.5527417032
49800000.0 0.986963403 -0.0496338372
59750000.0 0.7487286517 -0.6437419744
69700000.0 0.1792859267 -0.9667388698
79650000.0 -0.4805368946 -0.8500774605
89600000.0 -0.9170795965 -0.3176539651
99550000.0 -0.8860883496 0.3925350669
109500000.0 -0.3552597967 0.9045982548
119450000.0 0.412696939 0.8828006704
129400000.0 0.9329017894 0.2770487586
139350000.0 0.8119478251 -0.5274918551
149300000.0 0.1126400346 -0.9531801505
159250000.0 -0.6501738078 -0.6967877906
169200000.0 -0.9504020717 0.0232152307
179150000.0 -0.6367463185 0.7054585477
189100000.0 0.0409390397 0.9478582867
199050000.0 0.6717691382 0.664312695
209000000.0 0.9379298049 0.0504882773
218950000.0 0.7452616775 -0.5639616931
228900000.0 0.2175866561 -0.9054738284
238850000.0 -0.3987213744 -0.8372018005
248800000.0 -0.6437454257 -0.2579772686
258750000.0 -0.9073979363 0.1498805145
268700000.0 -0.6190457275 0.6755527712
278650000.0 -0.0758670582 0.9060441275
288600000.0 0.4887587579 0.7523845305
298550000.0 0.8327099626 0.284208563
308500000.0 0.8066551633 -0.2926081815
318450000.0 0.4220521041 -0.7151439509
328400000.0 -0.1357108238 -0.784215521
338350000.0 -0.585699785 -0.4727791492
348300000.0 -0.6979762123 0.0388279652
358250000.0 -0.4396718412 0.4555444043
368200000.0 -0.0048293047 0.5551555675
378150000.0 0.3245731274 0.33919933
388100000.0 0.3835654186 0.0055449171
398050000.0 0.2107668596 -0.2219023298
408000000.0 -0.025134431 -0.2438021677
417950000.0 -0.1680916236 -0.1130764463
427900000.0 -0.1672603852 0.0462015869
437850000.0 -0.0685400055 0.1336323809
447800000.0 0.0425773317 0.118572747
457750000.0 0.0954539361 0.0387892884
467700000.0 0.0755174392 -0.0413364041
477650000.0 0.0147576934 -0.07580144
487600000.0 -0.037913832 -0.0556836235
497550000.0 -0.0098236639 -0.0210724946
507500000.0 -0.0685917288 0.0043995375
517450000.0 -0.0296349611 0.0210558703
527400000.0 -0.0078098537 0.0022811071
537350000.0 -0.0161459819 -0.0241462712
547300000.0 -0.0501514241 -0.0311745369
557250000.0 -0.078263862 0.0020256137
567200000.0 -0.0717615622 0.0533070751
577150000.0 -0.0238774047 0.0932591592
587100000.0 0.0502568245 0.092978714
597050000.0 0.1165758071 0.0403294575
607000000.0 0.1395062164 -0.0505496107
616950000.0 0.0992018791 -0.1418427744
626900000.0 0.0084382303 -0.1917118238
636850000.0 -0.0970133846 -0.1737214301
646800000.0 -0.171240272 -0.0922331901
656750000.0 -0.1801241657 0.0212014063
666700000.0 -0.1162917665 0.1189073008
676650000.0 -0.0058151664 0.1564908175
686600000.0 0.1026166247 0.118134083
696550000.0 0.160491397 0.0234593968
706500000.0 0.145033999 -0.0805782065
716450000.0 0.0671809493 -0.1433218878
726400000.0 -0.0288679275 -0.1359014921
736350000.0 -0.0899334899 -0.0628471453
746300000.0 -0.0795320706 0.0335702723
756250000.0 -0.0012897084 0.0937910906
766200000.0 0.1006156555 0.0786905063
776150000.0 0.163806816 -0.0112956776
786100000.0 0.1414362591 -0.1275146309
796050000.0 0.0338561693 -0.2033062032
806000000.0 -0.1145388109 -0.1835293955
815950000.0 -0.2260294369 -0.0564903165
825900000.0 -0.2289155661 0.1291171108
835850000.0 -0.1037482923 0.285849552
845800000.0 0.1048232948 0.330880106
855750000.0 0.3061291905 0.2292783631
865700000.0 0.4045397113 0.0104622949
875650000.0 0.3342940154 -0.2330577268
885600000.0 0.1226374202 -0.3680487881
895550000.0 -0.1215380118 -0.358768291
905500000.0 -0.328339493 -0.1976253175
915450000.0 -0.3904974655 0.0732925137
925400000.0 -0.2590252908 0.3278570517
935350000.0 0.0116885366 0.4356650031
945300000.0 0.2903252181 0.3324225097
955250000.0 0.4289904759 0.0567209441
965200000.0 0.3266653282 -0.2557573817
975150000.0 0.0024973367 -0.4065411822
985100000.0 -0.3525167485 -0.2428865222
995050000.0 -0.454240502 0.1659770182
1005000000.0 -0.1816579717 0.5326286572
1014950000.0 0.323785277 0.5494160826
1024900000.0 0.6880122963 0.1196109692
1034850000.0 0.5607116223 -0.4927885719
1044800000.0 -0.0467619498 -0.7839181425
1054750000.0 -0.6617809377 -0.4722941736
1064700000.0 -0.7836348427 0.1662289935
1074650000.0 -0.4955903578 0.6517873156
1084600000.0 0.0226251752 0.7769371166
1094550000.0 0.5472902971 0.5937175441
1104500000.0 0.7710054525 0.0365206384
1114450000.0 0.5166836547 -0.5034767821
1124400000.0 -0.0297305137 -0.6783315951
1134350000.0 -0.4962373448 -0.4210346258
1144300000.0 -0.630007039 0.0464257108
1154250000.0 -0.417760362 0.4397092686
1164200000.0 -0.0183554452 0.567131053
1174150000.0 0.3443228347 0.3903387887
1184100000.0 0.4820298 0.0135487397
1194050000.0 0.3166821066 -0.3471786336
1204000000.0 -0.0388236546 -0.4871841545
1213950000.0 -0.3784103373 -0.360670968
1223900000.0 -0.5496203328 -0.0611127475
1233850000.0 -0.4990891145 0.271004017
1243800000.0 -0.256425115 0.502744593
1253750000.0 0.0848732155 0.5430594826
1263700000.0 0.391653555 0.3637193739
1273650000.0 0.5319855013 0.030132626
1283600000.0 0.448825298 -0.3216014016
1293550000.0 0.1849053736 -0.5545608054
1303500000.0 -0.151773247 -0.5977148577
1313450000.0 -0.4480729615 -0.4546494753
1323400000.0 -0.6202236341 -0.1784414266
1333350000.0 -0.6195753796 0.1510337368
1343300000.0 -0.4362891316 0.4395033127
1353250000.0 -0.1111882898 0.5863568872
1363200000.0 0.2520935636 0.5237336407
1373150000.0 0.5193512704 0.2655089276
1383100000.0 0.5941985573 -0.0912612244
1393050000.0 0.4670148049 -0.4161251032
1403000000.0 0.1983893289 -0.612904154
1412950000.0 -0.121580376 -0.6379635682
1422900000.0 -0.403687403 -0.4946973327
1432850000.0 -0.5707634318 -0.2220759752
1442800000.0 -0.5686118643 0.1060129895
1452750000.0 -0.3853774367 0.3893228849
1462700000.0 -0.070178981 0.5280411193
1472650000.0 0.2672410151 0.4668111701
1482600000.0 0.5047372683 0.2342797404
1492550000.0 0.5708478583 -0.0763405621
1502500000.0 0.4608128066 -0.3606825147
1512450000.0 0.2205371815 -0.5345603377
1522400000.0 -0.0753227413 -0.5473552614
1532350000.0 -0.3304965314 -0.3893859068
1542300000.0 -0.4525869253 -0.1067622519
1552250000.0 -0.3842819997 0.1984510191
1562200000.0 -0.147786872 0.4003468484
1572150000.0 0.1520972193 0.4172031609
1582100000.0 0.3889953342 0.2589196946
1592050000.0 0.4818749928 0.0039545781
1602000000.0 0.4091819645 -0.2497418537
1611950000.0 0.1995820121 -0.4128851214
1621900000.0 -0.0739467207 -0.4207677112
1631850000.0 -0.3060503529 -0.2532648434
1641800000.0 -0.3871146186 0.0314747956
1651750000.0 -0.2719462585 0.3066516186
1661700000.0 -0.015909755 0.4490802144
1671650000.0 0.2645552093 0.4098270989
1681600000.0 0.4645995844 0.2196229273
1691550000.0 0.5198636947 -0.0507346466
1701500000.0 0.4093994263 -0.3107280788
1711450000.0 0.1588227999 -0.4670295666
1721400000.0 -0.1495609573 -0.4460527819
1731350000.0 -0.3911607103 -0.2433429368
1741300000.0 -0.4703375719 0.0533206346
1751250000.0 -0.3824410908 0.3406128909
1761200000.0 -0.1543229587 0.5372704911
1771150000.0 0.1432148929 0.5745419819
1781100000.0 0.4105635361 0.4458793298
1791050000.0 0.569284453 0.194027969
1801000000.0 0.5698881046 -0.1116038493
1810950000.0 0.3992858864 -0.3793482767
1820900000.0 0.0995068283 -0.5137665228
1830850000.0 -0.2290778282 -0.4569226556
1840800000.0 -0.4667141406 -0.2296950081
1850750000.0 -0.5376217706 0.0762248235
1860700000.0 -0.4410207982 0.3539568869
1870650000.0 -0.2287516586 0.5301558774
1880600000.0 0.0314863846 0.5705956283
1890550000.0 0.2708453222 0.4730233871
1900500000.0 0.4244801889 0.2637520498
1910450000.0 0.4428083588 0.0010812666
1920400000.0 0.3149534854 -0.2298505867
1930350000.0 0.0873360234 -0.3471340286
1940300000.0 -0.150316377 -0.3217582599
1950250000.0 -0.316882895 -0.1842737668
1960200000.0 -0.3729297433 -0.0052237086
1970150000.0 -0.3288519248 0.1495506254
1980100000.0 -0.2227123708 0.2353264015
1990050000.0 -0.1088995424 0.2373371427
2000000000.0 -0.0420318688 0.17813102
