!Created with skrf (http://scikit-rf.org).
# GHz S RI R 50.0 
!freq ReS11 ImS11
10000000.0 -0.9997941368 0.1648074309
19950000.0 -0.94349973 0.31527242
29900000.0 -0.8641741941 0.4591711107
39850000.0 -0.7613860222 0.6010686466
49800000.0 -0.6369881362 0.7352257677
59750000.0 -0.485871858 0.8545725981
69700000.0 -0.3004940867 0.9464154741
79650000.0 -0.0783011491 0.9912223538
89600000.0 0.1777281403 0.9701120455
99550000.0 0.4510679407 0.8641818736
109500000.0 0.7146847843 0.6615889342
119450000.0 0.9233735423 0.354289201
129400000.0 1.010450829 -0.027989535
139350000.0 0.9273570711 -0.4371143393
149300000.0 0.6768079952 -0.7598108778
159250000.0 0.3332621285 -0.9397560813
169200000.0 -0.0195386489 -0.9814444437
179150000.0 -0.3309250783 -0.9216803229
189100000.0 -0.5808913932 -0.7955839215
199050000.0 -0.7612105029 -0.6297670207
209000000.0 -0.8722058207 -0.4421374089
218950000.0 -0.9282869866 -0.2499279142
228900000.0 -0.9404264806 -0.0614351385
238850000.0 -0.920011127 0.1218370803
248800000.0 -0.8419381146 0.2144143186
258750000.0 -0.8130387297 0.4379873324
268700000.0 -0.7140818604 0.5809160723
278650000.0 -0.5815530109 0.6743356281
288600000.0 -0.4822735871 0.7002639874
298550000.0 -0.3424542146 0.7990640126
308500000.0 -0.1581041617 0.8391716633
318450000.0 0.041177889 0.8283932066
328400000.0 0.2415761705 0.7657288381
338350000.0 0.4171698546 0.6451077571
348300000.0 0.5406854298 0.4691215755
358250000.0 0.5863232313 0.2578752005
368200000.0 0.5475073383 0.0480350456
378150000.0 0.4429619927 -0.1229222328
388100000.0 0.3056839976 -0.2347634931
398050000.0 0.1668750788 -0.2849757116
408000000.0 0.0487991087 -0.2820793908
417950000.0 -0.0386652928 -0.241120573
427900000.0 -0.0950495326 -0.1799980616
437850000.0 -0.1262838382 -0.1134444367
447800000.0 -0.1376071967 -0.0532895428
457750000.0 -0.1342984604 -0.0069352163
467700000.0 -0.1204051169 0.0215164764
477650000.0 -0.0984071888 0.0304118937
487600000.0 -0.0703622154 0.020517253
497550000.0 -0.1012666029 -0.0168090289
507500000.0 -0.0283711233 0.0025066809
517450000.0 -0.0074631231 -0.0224534992
527400000.0 -0.0001132759 -0.0433821592
537350000.0 -0.0069771441 -0.0614139071
547300000.0 -0.0252627855 -0.0803099882
557250000.0 -0.0571423534 -0.0945281033
567200000.0 -0.0908319962 -0.1055617425
577150000.0 -0.1238391735 -0.1131220078
587100000.0 -0.1522849225 -0.1145765516
597050000.0 -0.1731652498 -0.1075659006
607000000.0 -0.1875800457 -0.0873724397
616950000.0 -0.1966978477 -0.0590243917
626900000.0 -0.2021109735 -0.0290704254
636850000.0 -0.2028183347 -0.0030505549
646800000.0 -0.1755361103 0.0278160273
656750000.0 -0.166902431 0.0543247863
666700000.0 -0.1670339229 0.0726262772
676650000.0 -0.1473588256 0.0818607965
686600000.0 -0.1157652136 0.0828214783
696550000.0 -0.0767739708 0.0773368775
706500000.0 -0.03518043 0.0662029299
716450000.0 0.0037164425 0.0491998524
726400000.0 0.0336732588 0.0249392689
736350000.0 0.0512893792 -0.0084813413
746300000.0 0.0543021816 -0.0513450215
756250000.0 0.0435840939 -0.1029529733
766200000.0 0.0202095457 -0.1590282662
776150000.0 -0.0121559304 -0.2131179643
786100000.0 -0.0528639007 -0.2593032731
796050000.0 -0.10011383 -0.2910682173
806000000.0 -0.1530034406 -0.3050089483
815950000.0 -0.2110558468 -0.299103348
825900000.0 -0.2727453396 -0.2764874298
835850000.0 -0.3354134602 -0.2410385231
845800000.0 -0.3951714455 -0.1973766635
855750000.0 -0.4469845654 -0.147309482
865700000.0 -0.4852442702 -0.0920411003
875650000.0 -0.5066519131 -0.0319201712
885600000.0 -0.5079810971 0.0347738501
895550000.0 -0.4902767828 0.103771023
905500000.0 -0.4554841306 0.1831122412
915450000.0 -0.406708002 0.2580272213
925400000.0 -0.343334481 0.3325716846
935350000.0 -0.2641957718 0.3946824397
945300000.0 -0.1668979417 0.4347194051
955250000.0 -0.0596404789 0.4415616163
965200000.0 0.0679118001 0.4037910374
975150000.0 0.2084350428 0.3221577005
985100000.0 0.3364495228 0.189972534
995050000.0 0.4221866707 -0.0014949366
1005000000.0 0.4280727644 -0.2311679182
1014950000.0 0.3275177603 -0.4522784879
1024900000.0 0.1247627353 -0.6167787557
1034850000.0 -0.1430812555 -0.6843734789
1044800000.0 -0.4213808837 -0.6428730773
1054750000.0 -0.66180277 -0.5013788601
1064700000.0 -0.809138391 -0.2807746526
1074650000.0 -0.8775905818 -0.0660246818
1084600000.0 -0.8636983638 0.1877472467
1094550000.0 -0.7511154751 0.4178497766
1104500000.0 -0.5681338681 0.6284097949
1114450000.0 -0.3029831602 0.7615667108
1124400000.0 0.0046888163 0.7805204196
1134350000.0 0.294040198 0.6612515661
1144300000.0 0.4954809657 0.4254199456
1154250000.0 0.5727226245 0.1392650909
1164200000.0 0.5377939895 -0.1306697854
1174150000.0 0.4316712266 -0.3391981865
1184100000.0 0.2970445815 -0.4863479263
1194050000.0 0.1421071837 -0.5736573746
1204000000.0 -0.012445669 -0.6020357888
1213950000.0 -0.153126907 -0.588656356
1223900000.0 -0.2758719097 -0.5524479903
1233850000.0 -0.3811790387 -0.505753317
1243800000.0 -0.4704924984 -0.4552907508
1253750000.0 -0.5437246283 -0.4027700844
1263700000.0 -0.598764476 -0.3469712547
1273650000.0 -0.6374651583 -0.2864223527
1283600000.0 -0.6603512626 -0.2215720995
1293550000.0 -0.6732080124 -0.1526148786
1303500000.0 -0.681327391 -0.0824977379
1313450000.0 -0.6882011198 -0.0138214666
1323400000.0 -0.6955101281 0.050966962
1333350000.0 -0.701377379 0.1109122155
1343300000.0 -0.7019056345 0.1661333557
1353250000.0 -0.693577626 0.2156666373
1363200000.0 -0.6728450701 0.2624957827
1373150000.0 -0.6396409236 0.3079691401
1383100000.0 -0.5988680761 0.354071995
1393050000.0 -0.5545113658 0.401650958
1403000000.0 -0.5097554068 0.4486793506
1412950000.0 -0.4665089689 0.4935289641
1422900000.0 -0.4230842159 0.5324570087
1432850000.0 -0.3775803186 0.562193833
1442800000.0 -0.3265472623 0.5815396042
1452750000.0 -0.268175982 0.5914634529
1462700000.0 -0.2017813744 0.5929766526
1472650000.0 -0.1271738668 0.590209593
1482600000.0 -0.0481733927 0.5838800637
1492550000.0 0.0315512893 0.572758959
1502500000.0 0.1086377331 0.5520051089
1512450000.0 0.179547118 0.5180764329
1522400000.0 0.2414514215 0.467981217
1532350000.0 0.2924623928 0.3983093586
1542300000.0 0.3343836925 0.3114486356
1552250000.0 0.36539398 0.2119732706
1562200000.0 0.3860205556 0.1070600096
1572150000.0 0.3933525663 0.0034149175
1582100000.0 0.3841469833 -0.0970720908
1592050000.0 0.3523400747 -0.1904753186
1602000000.0 0.2965202368 -0.2720194844
1611950000.0 0.2206290811 -0.3392665863
1621900000.0 0.1312726283 -0.3937798214
1631850000.0 0.0354237622 -0.4366363395
1641800000.0 -0.0601367993 -0.4684404189
1651750000.0 -0.1511987733 -0.4865656386
1661700000.0 -0.2350691153 -0.4888105701
1671650000.0 -0.3091280928 -0.4725421053
1681600000.0 -0.3745256506 -0.4405382863
1691550000.0 -0.4338928245 -0.3979215387
1701500000.0 -0.4901563034 -0.3481708052
1711450000.0 -0.543118547 -0.2968201909
1721400000.0 -0.5920675215 -0.2466476264
1731350000.0 -0.6346980784 -0.1992936504
1741300000.0 -0.6666961219 -0.1528980614
1751250000.0 -0.6850570228 -0.1050485744
1761200000.0 -0.6901881596 -0.0557840506
1771150000.0 -0.6850976023 -0.0037241548
1781100000.0 -0.6757651825 0.0506407382
1791050000.0 -0.6666519959 0.1047911413
1801000000.0 -0.6607803272 0.1569105371
1810950000.0 -0.6574324252 0.206950421
1820900000.0 -0.6511510875 0.2533791024
1830850000.0 -0.6266361331 0.2953194056
1840800000.0 -0.5743121729 0.3369798859
1850750000.0 -0.6048996612 0.2939598793
1860700000.0 -0.5686363757 0.33938561
1870650000.0 -0.5254953201 0.3767079027
1880600000.0 -0.4829996446 0.4054242136
1890550000.0 -0.4458359652 0.4307687396
1900500000.0 -0.414782115 0.4509895627
1910450000.0 -0.3881138021 0.464289905
1920400000.0 -0.3616214139 0.4685520096
1930350000.0 -0.3325910551 0.4621277409
1940300000.0 -0.2986051097 0.4455277477
1950250000.0 -0.260382975 0.4207141619
1960200000.0 -0.2208680101 0.3929438457
1970150000.0 -0.1872765196 0.3632605319
1980100000.0 -0.1635173438 0.3337619025
1990050000.0 -0.1547711106 0.3025241021
2000000000.0 -0.1630247215 0.269379327
