!Created with skrf (http://scikit-rf.org).
# GHz S RI R 50.0 
!freq ReS11 ImS11
10000000.0 -0.9987791513 0.1629612073
19950000.0 -0.944516735 0.3115558211
29900000.0 -0.8677566861 0.4541753191
39850000.0 -0.7673567045 0.5951738393
49800000.0 -0.6448325517 0.7290775074
59750000.0 -0.4942926802 0.8489705319
69700000.0 -0.3080694135 0.9425341054
79650000.0 -0.0822767246 0.9891928013
89600000.0 0.1807035217 0.9685732788
99550000.0 0.4637439211 0.8578485048
109500000.0 0.7355336908 0.6404677478
119450000.0 0.9416435957 0.3079629878
129400000.0 1.00654079 -0.1113001378
139350000.0 0.8822187085 -0.5192512552
149300000.0 0.5917797094 -0.8238606611
159250000.0 0.227898033 -0.9677852664
169200000.0 -0.123397818 -0.9732951934
179150000.0 -0.4189696495 -0.8852260897
189100000.0 -0.6452984128 -0.7429212961
199050000.0 -0.8019965043 -0.5729992882
209000000.0 -0.8933667606 -0.3919792393
218950000.0 -0.9366782037 -0.2122250899
228900000.0 -0.9428840154 -0.0404146228
238850000.0 -0.9237238702 0.1227823663
248800000.0 -0.8693219223 0.2603194046
258750000.0 -0.8357131001 0.4149277363
268700000.0 -0.7639692225 0.5440751505
278650000.0 -0.6693197558 0.6537981415
288600000.0 -0.549970603 0.7404344153
298550000.0 -0.4084878254 0.801168213
308500000.0 -0.2480638392 0.8366484404
318450000.0 -0.0732410875 0.8420256015
328400000.0 0.1097372148 0.8096950872
338350000.0 0.2836404214 0.7274643058
348300000.0 0.4247192067 0.5885296304
358250000.0 0.5024440763 0.4019100098
368200000.0 0.5003417842 0.1997305371
378150000.0 0.4257897709 0.0212052703
388100000.0 0.3064448077 -0.1052953066
398050000.0 0.1748236425 -0.1694081457
408000000.0 0.0582982504 -0.1765958544
417950000.0 -0.0292360065 -0.1423652198
427900000.0 -0.0862179405 -0.0856158209
437850000.0 -0.1175985866 -0.0217585116
447800000.0 -0.1292798787 0.0370046822
457750000.0 -0.1263203383 0.0836194788
467700000.0 -0.1120399901 0.1141614906
477650000.0 -0.0888441703 0.1271296672
487600000.0 -0.0600014676 0.125328462
497550000.0 -0.0301135892 0.1128174704
507500000.0 0.0019250959 0.097124602
517450000.0 0.0254569932 0.0755724818
527400000.0 0.0386255704 0.0536379655
537350000.0 0.0378635742 0.0322626211
547300000.0 0.0254089949 0.0128929898
557250000.0 0.0020849353 -0.0065077762
567200000.0 -0.0273332101 -0.0242803422
577150000.0 -0.058079291 -0.0377686037
587100000.0 -0.0854760944 -0.0446759883
597050000.0 -0.1074568577 -0.0424894129
607000000.0 -0.1233465695 -0.0300279252
616950000.0 -0.134526252 -0.0078233574
626900000.0 -0.1418090824 0.0218515038
636850000.0 -0.1454671518 0.0542163872
646800000.0 -0.1449367345 0.0853514415
656750000.0 -0.1389315485 0.1113719139
666700000.0 -0.1249377285 0.1298829999
676650000.0 -0.1018415806 0.1401229525
686600000.0 -0.0697523168 0.1432674457
696550000.0 -0.0309129131 0.1406271188
706500000.0 0.0104373919 0.1323017743
716450000.0 0.0496905381 0.1185569556
726400000.0 0.0816040413 0.0967484785
736350000.0 0.103381815 0.0653953625
746300000.0 0.1111851822 0.0242459958
756250000.0 0.1070844418 -0.0267053736
766200000.0 0.0909012377 -0.0839297313
776150000.0 0.0651681175 -0.1403682655
786100000.0 0.0295217789 -0.1916824851
796050000.0 -0.0147304223 -0.2301418093
806000000.0 -0.0672664492 -0.251145798
815950000.0 -0.1274583668 -0.2518858108
825900000.0 -0.192510458 -0.2342084714
835850000.0 -0.259145341 -0.2012699388
845800000.0 -0.3229892766 -0.1569255008
855750000.0 -0.3780858215 -0.1031734613
865700000.0 -0.4180164004 -0.0436105278
875650000.0 -0.4385223296 0.0230487491
885600000.0 -0.4374341666 0.0962617335
895550000.0 -0.4152659615 0.1738053771
905500000.0 -0.3736982692 0.2534284971
915450000.0 -0.315925474 0.3310925228
925400000.0 -0.2429361296 0.4017966392
935350000.0 -0.1548930149 0.4553734256
945300000.0 -0.0513436505 0.4836878855
955250000.0 0.0664630812 0.4777816399
965200000.0 0.1951164778 0.431086613
975150000.0 0.325773895 0.341142817
985100000.0 0.4433510483 0.2046646398
995050000.0 0.524659848 0.0233486475
1005000000.0 0.5374526763 -0.1970637984
1014950000.0 0.4527921916 -0.4197549065
1024900000.0 0.2604487984 -0.6035306057
1034850000.0 -0.0180145382 -0.7023897093
1044800000.0 -0.3319101117 -0.6871108357
1054750000.0 -0.6192004456 -0.5477699472
1064700000.0 -0.8173428666 -0.303903724
1074650000.0 -0.8897773391 -0.0060085946
1084600000.0 -0.8236815083 0.2985206566
1094550000.0 -0.6174871641 0.5119807558
1104500000.0 -0.4523721449 0.7039413976
1114450000.0 -0.1661416994 0.8146683396
1124400000.0 0.1296973746 0.8049304056
1134350000.0 0.3860511242 0.6841202799
1144300000.0 0.566097097 0.4791637289
1154250000.0 0.6545976403 0.2367385315
1164200000.0 0.6613517703 -0.0028603875
1174150000.0 0.610941057 -0.2100086588
1184100000.0 0.5231916061 -0.3827208401
1194050000.0 0.4015125258 -0.5126773783
1204000000.0 0.2602237305 -0.5915763075
1213950000.0 0.1146598823 -0.6257770382
1223900000.0 -0.0248972315 -0.6279034535
1233850000.0 -0.1532686441 -0.6103175676
1243800000.0 -0.2673915687 -0.5799346355
1253750000.0 -0.3657518771 -0.5405871064
1263700000.0 -0.4467578493 -0.4918048128
1273650000.0 -0.5110141473 -0.43425489
1283600000.0 -0.5580566928 -0.3671156153
1293550000.0 -0.5921264748 -0.2925392441
1303500000.0 -0.6178427793 -0.214216214
1313450000.0 -0.6389388238 -0.1364747029
1323400000.0 -0.6574120104 -0.0619821923
1333350000.0 -0.6718200824 0.0085606666
1343300000.0 -0.6785522112 0.0748883901
1353250000.0 -0.6748262201 0.1360399023
1363200000.0 -0.6572578104 0.1945604756
1373150000.0 -0.6259028067 0.25195369
1383100000.0 -0.5849269267 0.3087718237
1393050000.0 -0.53885524 0.3657886751
1403000000.0 -0.4917818931 0.4215861693
1412950000.0 -0.444001532 0.4737393497
1422900000.0 -0.3958102448 0.5193472414
1432850000.0 -0.3441734029 0.5550631385
1442800000.0 -0.2871920349 0.5794112792
1452750000.0 -0.2220478232 0.5924476742
1462700000.0 -0.1488748716 0.5952678527
1472650000.0 -0.0695234611 0.5916520005
1482600000.0 0.0125072929 0.5832154622
1492550000.0 0.0943323049 0.5690511613
1502500000.0 0.1730984131 0.5464429422
1512450000.0 0.2449372396 0.5112598598
1522400000.0 0.3078340272 0.4611013741
1532350000.0 0.3605914143 0.3935642527
1542300000.0 0.40345688 0.3107964683
1552250000.0 0.4371717289 0.2169397906
1562200000.0 0.4624779232 0.1177844488
1572150000.0 0.4752574086 0.0182812181
1582100000.0 0.4728375798 -0.0791427536
1592050000.0 0.4517786375 -0.1714084012
1602000000.0 0.4089568846 -0.2562378568
1611950000.0 0.34669735 -0.3307522797
1621900000.0 0.2702686213 -0.395957496
1631850000.0 0.1858958857 -0.4516185103
1641800000.0 0.0982432147 -0.4976553861
1651750000.0 0.0107315577 -0.5316146847
1661700000.0 -0.0736485092 -0.5506628771
1671650000.0 -0.1539336219 -0.5509936842
1681600000.0 -0.2298340015 -0.5324403151
1691550000.0 -0.3019895214 -0.4989568605
1701500000.0 -0.3710939033 -0.4540022674
1711450000.0 -0.4356880639 -0.400593682
1721400000.0 -0.4851604904 -0.3403955377
1731350000.0 -0.4665157971 -0.3301845139
1741300000.0 -0.5616282692 -0.3058730015
1751250000.0 -0.6152865476 -0.2588989266
1761200000.0 -0.639865416 -0.2050026662
1771150000.0 -0.6496624089 -0.1463578749
1781100000.0 -0.6521065546 -0.0844521569
1791050000.0 -0.6524971273 -0.0228149743
1801000000.0 -0.6537777314 0.0360266914
1810950000.0 -0.6569547111 0.0918742001
1820900000.0 -0.6595949203 0.1431912236
1830850000.0 -0.6560590304 0.1883808855
1840800000.0 -0.6420125637 0.2289425361
1850750000.0 -0.6160598691 0.2657395838
1860700000.0 -0.579268696 0.2994233832
1870650000.0 -0.5370055568 0.3323321997
1880600000.0 -0.494415399 0.3626582109
1890550000.0 -0.4559647212 0.391353076
1900500000.0 -0.4221423466 0.415432914
1910450000.0 -0.3913656051 0.4329607827
1920400000.0 -0.361498973 0.4409655713
1930350000.0 -0.3283700968 0.4392267495
1940300000.0 -0.2910653718 0.4283153067
1950250000.0 -0.2495748218 0.4098878183
1960200000.0 -0.206430516 0.3885744817
1970150000.0 -0.1671885716 0.3647491994
1980100000.0 -0.1357837403 0.3388876301
1990050000.0 -0.1166801371 0.3106853237
2000000000.0 -0.1116693443 0.2754211462
