!Created with skrf (http://scikit-rf.org).
# GHz S RI R 50.0 
!freq ReS11 ImS11
10000000.0 -0.5864428549 0.0521947865
14975000.0 -0.5957658836 0.081773287
19950000.0 -0.6065700576 0.1146281353
24925000.0 -0.6167684091 0.1514277124
29900000.0 -0.6240648633 0.1916312931
34875000.0 -0.6268606216 0.2351805507
39850000.0 -0.6239373924 0.2813223461
44825000.0 -0.6150244268 0.329829378
49800000.0 -0.6005084 0.3797807327
54775000.0 -0.5804140071 0.4307235382
59750000.0 -0.5552078113 0.4821697431
64725000.0 -0.5259048186 0.5337779235
69700000.0 -0.4927007533 0.5853234862
74675000.0 -0.4558448129 0.6368444451
79650000.0 -0.4154889851 0.68841423
84625000.0 -0.3711263686 0.7402401763
89600000.0 -0.3212088678 0.7921543314
94575000.0 -0.2636232641 0.843063138
99550000.0 -0.1954868001 0.8911195329
104525000.0 -0.114460251 0.9325426863
109500000.0 -0.0199421512 0.9627012631
114475000.0 0.0871633381 0.9762743789
119450000.0 0.2025983442 0.9693530913
124425000.0 0.3212181101 0.9387887998
129400000.0 0.4329601982 0.8831075191
134375000.0 0.5405490578 0.8087278824
139350000.0 0.6377849261 0.7086757432
144325000.0 0.7174945265 0.5929891276
149300000.0 0.7780680855 0.4664025479
154275000.0 0.8177500552 0.3349239484
159250000.0 0.8362877298 0.2038840641
164225000.0 0.834207034 0.0787520878
169200000.0 0.8145644112 -0.0367577531
174175000.0 0.7810764396 -0.1399189748
179150000.0 0.7392146994 -0.2295459406
184125000.0 0.694022545 -0.3058834035
189100000.0 0.6493410494 -0.3709553732
194075000.0 0.6079614875 -0.426841552
199050000.0 0.569879225 -0.4756696678
204025000.0 0.5344324679 -0.5197030442
209000000.0 0.4993944111 -0.5602550133
213975000.0 0.4636213837 -0.597695034
218950000.0 0.4255940139 -0.6321966923
223925000.0 0.3846566041 -0.663789634
228900000.0 0.3403254773 -0.6921275262
233875000.0 0.2929785634 -0.7169223751
238850000.0 0.2426968054 -0.7381913858
243825000.0 0.1876399178 -0.7557106671
248800000.0 0.1693612761 -0.7547436847
253775000.0 0.1048574278 -0.7773903316
258750000.0 0.0562083036 -0.7853708485
263725000.0 0.012424842 -0.7902273315
268700000.0 -0.0274449616 -0.7926311309
273675000.0 -0.0637789199 -0.7932649919
278650000.0 -0.0970160094 -0.7927184315
283625000.0 -0.1286480555 -0.7915316813
288600000.0 -0.1600093016 -0.7897867492
293575000.0 -0.1924938468 -0.7873987129
298550000.0 -0.2273153475 -0.7834171222
303525000.0 -0.2657735626 -0.7771216406
308500000.0 -0.3073982863 -0.7669713133
313475000.0 -0.3518159371 -0.7517435374
318450000.0 -0.3976955578 -0.7303543302
323425000.0 -0.4434531669 -0.7021899711
328400000.0 -0.4872943116 -0.6670617384
333375000.0 -0.5274339082 -0.6246851443
338350000.0 -0.5625772902 -0.5753503822
343325000.0 -0.5913374569 -0.5197367715
348300000.0 -0.6123263747 -0.4583531819
353275000.0 -0.6243692124 -0.3926321673
358250000.0 -0.6271412462 -0.3240700768
363225000.0 -0.6202175713 -0.2552115903
368200000.0 -0.6035625403 -0.1882362352
373175000.0 -0.5784893973 -0.1254104739
378150000.0 -0.5463662342 -0.0689413481
383125000.0 -0.5081625774 -0.0199997264
388100000.0 -0.4655862656 0.0205620426
393075000.0 -0.4209922644 0.0519644223
398050000.0 -0.3756064293 0.0747618477
403025000.0 -0.3304066332 0.0898507931
408000000.0 -0.2869655628 0.0978295191
412975000.0 -0.2458399927 0.0990737287
417950000.0 -0.2073099015 0.0950824046
422925000.0 -0.1717744117 0.0868354318
427900000.0 -0.1398069417 0.0751548861
432875000.0 -0.1115043044 0.0612941621
437850000.0 -0.0870556983 0.0460054538
442825000.0 -0.0663616186 0.0299415337
447800000.0 -0.0489678396 0.0136626156
452775000.0 -0.0349390806 -0.0024742203
457750000.0 -0.0238124001 -0.0180149837
462725000.0 -0.014972823 -0.0327865465
467700000.0 -0.0085019466 -0.0464722338
472675000.0 -0.0041808814 -0.0587028609
477650000.0 -0.0013550116 -0.069659094
482625000.0 -0.0001599897 -0.0793055069
487600000.0 -0.0015580149 -0.0871273529
492575000.0 -0.0008362243 -0.0833446824
497550000.0 0.0126457047 -0.0997371015
502525000.0 0.0096543425 -0.1061139614
507500000.0 0.0080999795 -0.1104121511
512475000.0 0.0066417053 -0.1134027502
517450000.0 0.005338975 -0.1152797158
522425000.0 0.0042440176 -0.1161495514
527400000.0 0.0028487614 -0.115734924
532375000.0 0.0014061183 -0.1138768608
537350000.0 0.0003362858 -0.1109381186
542325000.0 -0.0007890494 -0.1070429979
547300000.0 -0.0022311949 -0.1022895545
552275000.0 -0.0035635435 -0.0961539091
557250000.0 -0.0045961705 -0.0888887291
562225000.0 -0.0056702416 -0.0809775399
567200000.0 -0.0066718513 -0.0722485867
572175000.0 -0.0072287491 -0.0624235901
577150000.0 -0.0070121524 -0.052054144
582125000.0 -0.0062249765 -0.0412575915
587100000.0 -0.0046006474 -0.0298155113
592075000.0 -0.0021146225 -0.0181187055
597050000.0 0.001949397 -0.0066022955
602025000.0 0.0070069509 0.005065911
607000000.0 0.0136493114 0.0168525842
611975000.0 0.0214135246 0.0281906098
616950000.0 0.030163526 0.0391546335
621925000.0 0.0394249171 0.0497926358
626900000.0 0.049591626 0.0596844297
631875000.0 0.0602490005 0.0688317524
636850000.0 0.0707445626 0.0775684293
641825000.0 0.0811371461 0.0850670544
646800000.0 0.0910153364 0.0921081528
651775000.0 0.1002728818 0.0983868469
656750000.0 0.1092746609 0.1043744779
661725000.0 0.1176425827 0.1096534809
666700000.0 0.1254398492 0.1144005127
671675000.0 0.1335378508 0.1185740736
676650000.0 0.1420062129 0.1222975164
681625000.0 0.1512402222 0.125410334
686600000.0 0.1611949542 0.1280750836
691575000.0 0.1718318185 0.130045921
696550000.0 0.1830423055 0.1307438447
701525000.0 0.1947561421 0.1302963734
706500000.0 0.2068970356 0.1287967507
711475000.0 0.2188964313 0.1258778351
716450000.0 0.2306900005 0.1219545738
721425000.0 0.2420887959 0.1167345212
726400000.0 0.2528895889 0.110164315
731375000.0 0.2626927135 0.102239685
736350000.0 0.2715037224 0.0930658715
741325000.0 0.2790512168 0.0823758978
746300000.0 0.2853897426 0.0702946871
751275000.0 0.2905927712 0.0569319797
756250000.0 0.2941550162 0.0428312508
761225000.0 0.2962091094 0.0270380337
766200000.0 0.2973229011 0.0112616471
771175000.0 0.2962096036 -0.0057254185
776150000.0 0.2934213574 -0.0232459772
781125000.0 0.2891037525 -0.0414039657
786100000.0 0.2830696333 -0.0596134348
791075000.0 0.2752101007 -0.0779133241
796050000.0 0.2653941555 -0.095924873
801025000.0 0.2537713918 -0.1136101716
806000000.0 0.2400967308 -0.1303369429
810975000.0 0.2247448534 -0.1462393983
815950000.0 0.2075317223 -0.161197716
820925000.0 0.1887417597 -0.1751645954
825900000.0 0.1692639762 -0.1878584693
830875000.0 0.1495155616 -0.1990925722
835850000.0 0.1293538196 -0.2088906711
840825000.0 0.1095383293 -0.2178960185
845800000.0 0.0900385187 -0.2258449004
850775000.0 0.070886524 -0.2331146236
855750000.0 0.0515127607 -0.2401349181
860725000.0 0.0314268913 -0.2470402429
865700000.0 0.0100305015 -0.2530402089
870675000.0 -0.0131060756 -0.2583881385
875650000.0 -0.0384964744 -0.2624510144
880625000.0 -0.0662145899 -0.2634382191
885600000.0 -0.0958712789 -0.2622671267
890575000.0 -0.1275942355 -0.2579226914
895550000.0 -0.1604267884 -0.2503382499
900525000.0 -0.1934246538 -0.2394189754
905500000.0 -0.2261680126 -0.2244019151
910475000.0 -0.2580106878 -0.2058817774
915450000.0 -0.2883456064 -0.1841124341
920425000.0 -0.3166223534 -0.1583837466
925400000.0 -0.3425745948 -0.1296395751
930375000.0 -0.3660069981 -0.0974005352
935350000.0 -0.3867120312 -0.0623719432
940325000.0 -0.4046943333 -0.024155894
945300000.0 -0.4199063846 0.0178114724
950275000.0 -0.432169004 0.06384351
955250000.0 -0.4412780988 0.1137340683
960225000.0 -0.4457240167 0.1684259702
965200000.0 -0.4443943225 0.2273489714
970175000.0 -0.4359009325 0.2901433971
975150000.0 -0.4179916365 0.3551356578
980125000.0 -0.3897070458 0.4209366444
985100000.0 -0.3491233658 0.4847239979
990075000.0 -0.2959998117 0.543013745
995050000.0 -0.2299836994 0.5917031903
1000025000.0 -0.1520052558 0.6264191477
1005000000.0 -0.0646859546 0.6423638129
1009975000.0 0.0275808256 0.6351648508
1014950000.0 0.1182238132 0.6056260597
1019925000.0 0.2009998324 0.5631663186
1024900000.0 0.2743686887 0.5166352309
1029875000.0 0.3420230086 0.4627139953
1034850000.0 0.4041022002 0.393220439
1039825000.0 0.4575402622 0.304948859
1044800000.0 0.4988901068 0.2006222045
1049775000.0 0.5248711618 0.085624997
1054750000.0 0.5329337227 -0.0322864036
1059725000.0 0.5324754308 -0.148541518
1064700000.0 0.518518692 -0.2650681865
1069675000.0 0.483894086 -0.3754098265
1074650000.0 0.4235271046 -0.4613131616
1079625000.0 0.3804265037 -0.5127511512
1084600000.0 0.3258593342 -0.6010079315
1089575000.0 0.2490821512 -0.6696426602
1094550000.0 0.1655270338 -0.7187298021
1099525000.0 0.0803881355 -0.7509926609
1104500000.0 -0.0041809047 -0.7683569078
1109475000.0 -0.0844599325 -0.7732743134
1114450000.0 -0.1598183909 -0.7672449917
1119425000.0 -0.230075267 -0.7526145608
1124400000.0 -0.2945273615 -0.7298096644
1129375000.0 -0.353485404 -0.700392888
1134350000.0 -0.4076097544 -0.6655263395
1139325000.0 -0.456313802 -0.6254471056
1144300000.0 -0.4995248004 -0.5812993187
1149275000.0 -0.5371239987 -0.5340796179
1154250000.0 -0.568557452 -0.4849516717
1159225000.0 -0.5929905137 -0.4350205171
1164200000.0 -0.612328389 -0.3862469053
1169175000.0 -0.6274995424 -0.3391473655
1174150000.0 -0.6396985456 -0.2918082625
1179125000.0 -0.647517645 -0.2447651189
1184100000.0 -0.6512157646 -0.1985766446
1189075000.0 -0.6506970511 -0.1538531703
1194050000.0 -0.6459265256 -0.1111813062
1199025000.0 -0.637649588 -0.0707543325
1204000000.0 -0.6257725066 -0.0324664499
1208975000.0 -0.6112604301 0.002601529
1213950000.0 -0.5948059171 0.0357687428
1218925000.0 -0.5775425016 0.0660998898
1223900000.0 -0.5608795303 0.0931618162
1228875000.0 -0.5448137489 0.1181082275
1233850000.0 -0.5305410954 0.1416170514
1238825000.0 -0.5180137272 0.1639844031
1243800000.0 -0.5063789774 0.1854140057
1248775000.0 -0.4953600609 0.207199289
1253750000.0 -0.4837479753 0.2285455068
1258725000.0 -0.4712134467 0.2492763984
1263700000.0 -0.4574603272 0.2698444108
1268675000.0 -0.4385925368 0.3292120575
1273650000.0 -0.4225599888 0.3472417368
1278625000.0 -0.4050373156 0.3635318845
1283600000.0 -0.3862851042 0.3781720571
1288575000.0 -0.3654735197 0.3909711363
1293550000.0 -0.3448048279 0.4028044706
1298525000.0 -0.3234198542 0.4119738337
1303500000.0 -0.302633152 0.4197539639
1308475000.0 -0.2828436707 0.4262252622
1313450000.0 -0.265218099 0.4303738784
1318425000.0 -0.2367929373 0.4049402315
1323400000.0 -0.2259352587 0.4054553128
1328375000.0 -0.220629441 0.405795147
1333350000.0 -0.2330269339 0.4394891953
1338325000.0 -0.2335829491 0.4450450061
1343300000.0 -0.2238770667 0.4202741667
1348275000.0 -0.2250891519 0.4307315033
1353250000.0 -0.2230843763 0.4435404942
1358225000.0 -0.217557745 0.4570503919
1363200000.0 -0.1866069461 0.4263141674
1368175000.0 -0.1702225134 0.442014384
1373150000.0 -0.1500207308 0.4567760661
1378125000.0 -0.1263219503 0.4705289119
1383100000.0 -0.1000061532 0.4821362083
1388075000.0 -0.0721635696 0.4918559619
1393050000.0 -0.0437877507 0.498702308
1398025000.0 -0.0153925877 0.5034232995
1403000000.0 0.0116233938 0.5054937295
1407975000.0 0.0027257864 0.5253856694
1412950000.0 0.0209037532 0.5226638172
1417925000.0 0.0344871596 0.5181408932
1422900000.0 0.0417802636 0.5123587205
1427875000.0 0.0429933953 0.5071471982
1432850000.0 0.0389077322 0.5032761076
1437825000.0 0.0311561892 0.5024079561
1442800000.0 0.0224292018 0.5055109949
1447775000.0 0.0156783792 0.5119526201
1452750000.0 0.0129729241 0.5203136608
1457725000.0 0.0154591164 0.5293737686
1462700000.0 0.0231079267 0.5390900211
1467675000.0 0.0347823458 0.5482900612
1472650000.0 0.0502355837 0.5553914131
1477625000.0 0.0667518366 0.5615302643
1482600000.0 0.0858532054 0.5665222685
1487575000.0 0.1051083838 0.5692318734
1492550000.0 0.0957732226 0.5754733933
1497525000.0 0.0892750536 0.5837784656
1502500000.0 0.1397334743 0.5755922366
1507475000.0 0.1566376882 0.573259086
1512450000.0 0.172185893 0.5697461304
1517425000.0 0.1858921686 0.5651998068
1522400000.0 0.1973609849 0.5597387442
1527375000.0 0.2071785443 0.5539771328
1532350000.0 0.2154687583 0.5474424338
1537325000.0 0.222575913 0.5408698198
1542300000.0 0.2293424598 0.5344583489
1547275000.0 0.236859822 0.5278013633
1552250000.0 0.2450752903 0.5214147054
1557225000.0 0.2537526211 0.514535724
1562200000.0 0.2634383752 0.5072966971
1567175000.0 0.2736653702 0.499058443
1572150000.0 0.2840203573 0.4899966289
1577125000.0 0.2940124221 0.4798409601
1582100000.0 0.304204215 0.4692131197
1587075000.0 0.3137117409 0.4576146366
1592050000.0 0.3230112061 0.4454821803
1597025000.0 0.3313693122 0.4330916103
1602000000.0 0.3401010493 0.420477276
1606975000.0 0.3481275217 0.4071282364
1611950000.0 0.3556686418 0.3937094031
1616925000.0 0.3631340486 0.3801408476
1621900000.0 0.3704132074 0.3667044328
1626875000.0 0.3774614566 0.3536669303
1631850000.0 0.3849661676 0.3402244149
1636825000.0 0.3922208643 0.3274358347
1641800000.0 0.3998184594 0.3146802893
1646775000.0 0.4071230646 0.3016460314
1651750000.0 0.4140918838 0.2887518224
1656725000.0 0.4199799537 0.2758860301
1661700000.0 0.4252216464 0.2629319785
1666675000.0 0.4289204004 0.2496920984
1671650000.0 0.4314873617 0.236818104
1676625000.0 0.4322400375 0.2237069
1681600000.0 0.4313702208 0.2103871677
1686575000.0 0.4282399968 0.1965422062
1691550000.0 0.4232978951 0.1831704655
1696525000.0 0.4165123279 0.1704607273
1701500000.0 0.4121241194 0.1573130388
1706475000.0 0.4015670123 0.1431920059
1711450000.0 0.3918145487 0.1309021073
1716425000.0 0.3832598277 0.1201505476
1721400000.0 0.376507104 0.1103893548
1726375000.0 0.3722641302 0.1017845032
1731350000.0 0.3703810606 0.0941791704
1736325000.0 0.371518618 0.0861431437
1741300000.0 0.374672179 0.0781634693
1746275000.0 0.3792946853 0.0696126145
1751250000.0 0.384180668 0.06063563
1756225000.0 0.3882775094 0.0510992394
1761200000.0 0.3910543532 0.0415174518
1766175000.0 0.3918667998 0.0319585244
1771150000.0 0.3911132375 0.0231842003
1776125000.0 0.3886771502 0.0146539038
1781100000.0 0.3841588672 0.0059051839
1786075000.0 0.3784484606 -0.0022048148
1791050000.0 0.3699273468 -0.0096584834
1796025000.0 0.3601404425 -0.0160376722
1801000000.0 0.3520562277 -0.0183993319
1805975000.0 0.3408478905 -0.0209043287
1810950000.0 0.3328315468 -0.0209553406
1815925000.0 0.3258152062 -0.0197407067
1820900000.0 0.3223455233 -0.0180007548
1825875000.0 0.3225499996 -0.0162067126
1830850000.0 0.3256835144 -0.0144273549
1835825000.0 0.3316376 -0.0142296907
1840800000.0 0.3384007157 -0.0156147632
1845775000.0 0.3453211996 -0.0186736725
1850750000.0 0.3507219391 -0.0232673469
1855725000.0 0.3541327109 -0.0290338419
1860700000.0 0.3550488251 -0.0359131597
1865675000.0 0.3523283211 -0.0429468674
1870650000.0 0.3472901076 -0.0509774813
1875625000.0 0.3396801211 -0.0583039271
1880600000.0 0.3291945223 -0.0642904175
1885575000.0 0.3169574125 -0.07020344
1890550000.0 0.3021245493 -0.0753767321
1895525000.0 0.2855627493 -0.0786815724
1900500000.0 0.2683463142 -0.0797580009
1905475000.0 0.2515216999 -0.079424277
1910450000.0 0.2369704054 -0.0766921381
1915425000.0 0.2256371309 -0.0718848617
1920400000.0 0.2175514511 -0.0666876983
1925375000.0 0.2136724146 -0.0615184182
1930350000.0 0.2121055395 -0.057554691
1935325000.0 0.2116853461 -0.0551329412
1940300000.0 0.2111607664 -0.054830464
1945275000.0 0.2085288588 -0.0553476212
1950250000.0 0.203914896 -0.0565584026
1955225000.0 0.1974169634 -0.0596093323
1960200000.0 0.1888599754 -0.0613446699
1965175000.0 0.1789578309 -0.0623843317
1970150000.0 0.1649933578 -0.0631066514
1975125000.0 0.149811151 -0.0623704318
1980100000.0 0.1314388189 -0.060929662
1985075000.0 0.1097536327 -0.0579334446
1990050000.0 0.0863078603 -0.0540441468
1995025000.0 0.0585167515 -0.0475961639
2000000000.0 0.0263807648 -0.0372917583
