!Created with skrf (http://scikit-rf.org).
# GHz S RI R 50.0 
!freq ReS11 ImS11
10000000.0 -0.7943022596 0.0571459233
14975000.0 -0.7988802064 0.0883612265
19950000.0 -0.8038181408 0.1221436735
24925000.0 -0.8073480826 0.1592214527
29900000.0 -0.8091364325 0.1984192471
34875000.0 -0.8067432647 0.2403132054
39850000.0 -0.7998485953 0.2843366247
44825000.0 -0.7881992542 0.330101359
49800000.0 -0.7720874509 0.3771461796
54775000.0 -0.7511856766 0.4250349719
59750000.0 -0.7257516132 0.4736534896
64725000.0 -0.6961624387 0.5226950795
69700000.0 -0.6621975857 0.5719461438
74675000.0 -0.6237495098 0.6216576965
79650000.0 -0.580592325 0.6718916277
84625000.0 -0.5321172207 0.722738352
89600000.0 -0.4770215891 0.7740434732
94575000.0 -0.413764295 0.82501141
99550000.0 -0.3401380091 0.8739984313
104525000.0 -0.254457198 0.9182230015
109500000.0 -0.1566451018 0.953656722
114475000.0 -0.0445776304 0.9758513043
119450000.0 0.0716671505 0.9825356538
124425000.0 0.2019180584 0.9675206365
129400000.0 0.3159225313 0.9315754163
134375000.0 0.4565079531 0.8748072914
139350000.0 0.5760025193 0.7958131357
144325000.0 0.6819607097 0.6985034342
149300000.0 0.7707263995 0.5861363198
154275000.0 0.839489372 0.4635285345
159250000.0 0.8869148314 0.3354668589
164225000.0 0.9125367207 0.2073296695
169200000.0 0.9179239207 0.0833170805
174175000.0 0.905283033 -0.0326895944
179150000.0 0.8787974921 -0.1375996639
184125000.0 0.8428585855 -0.2304555849
189100000.0 0.8018163862 -0.3118738982
194075000.0 0.7585033482 -0.383373073
199050000.0 0.7147267265 -0.4466706408
204025000.0 0.6706755964 -0.5037725133
209000000.0 0.6269741525 -0.5554481933
213975000.0 0.5823049852 -0.6032146717
218950000.0 0.5341004123 -0.6408232368
223925000.0 0.4822424898 -0.6686472476
228900000.0 0.4329415842 -0.7043936111
233875000.0 0.3807949736 -0.7354980099
238850000.0 0.3237427487 -0.7618863811
243825000.0 0.2523849675 -0.7836034646
248800000.0 0.3376879546 -0.6155146671
253775000.0 0.2233228511 -0.790248502
258750000.0 0.1605647081 -0.8048622414
263725000.0 0.107504073 -0.8111289104
268700000.0 0.0583465593 -0.8136335737
273675000.0 0.0118069014 -0.8133228631
278650000.0 -0.0328388765 -0.8114505101
283625000.0 -0.0764482759 -0.8083871889
288600000.0 -0.1201113859 -0.8043552176
293575000.0 -0.1644104267 -0.7988641345
298550000.0 -0.2100979142 -0.79110554
303525000.0 -0.2576315252 -0.779792081
308500000.0 -0.3064655757 -0.7631783215
313475000.0 -0.355683319 -0.7401873461
318450000.0 -0.4043786068 -0.7101796068
323425000.0 -0.4513108131 -0.6726082014
328400000.0 -0.4953800189 -0.6281221018
333375000.0 -0.5345678846 -0.5758700823
338350000.0 -0.5683492472 -0.5170708364
343325000.0 -0.5955850949 -0.4534763441
348300000.0 -0.6140155416 -0.3855447169
353275000.0 -0.6229711709 -0.3147029006
358250000.0 -0.6227171381 -0.2444602224
363225000.0 -0.6120107067 -0.1760155444
368200000.0 -0.591596839 -0.1098675862
373175000.0 -0.5631580139 -0.0495688187
378150000.0 -0.5272523386 0.002502274
383125000.0 -0.4855268397 0.0476634236
388100000.0 -0.4398134577 0.0853091072
393075000.0 -0.3915744325 0.1133809074
398050000.0 -0.3423223798 0.133671158
403025000.0 -0.2943458546 0.1478235116
408000000.0 -0.2480131245 0.1548433604
412975000.0 -0.2037432668 0.1552820255
417950000.0 -0.1629573256 0.1520799161
422925000.0 -0.1264444437 0.1454555467
427900000.0 -0.093712796 0.135038358
432875000.0 -0.0655366084 0.1222129133
437850000.0 -0.0433090535 0.1072817786
442825000.0 -0.0245969315 0.0903109821
447800000.0 -0.0086324041 0.0729308157
452775000.0 0.0027908351 0.0553249337
457750000.0 0.010546223 0.0375076622
462725000.0 0.0164768942 0.0206633917
467700000.0 0.0195270969 0.0047521556
472675000.0 0.0199136686 -0.010615057
477650000.0 0.0180273732 -0.0245065443
482625000.0 0.0127403731 -0.0380723059
487600000.0 -0.0002643051 -0.0518643901
492575000.0 -0.0544865743 -0.0320038347
497550000.0 0.0352079729 -0.0193028657
502525000.0 0.0249322898 -0.0487512437
507500000.0 0.0166684385 -0.0590203806
512475000.0 0.0085267549 -0.0640561936
517450000.0 0.0006721414 -0.0668049036
522425000.0 -0.0071293598 -0.0681872795
527400000.0 -0.0154366176 -0.0691514933
532375000.0 -0.0239335472 -0.0690758482
537350000.0 -0.0326186465 -0.0684242028
542325000.0 -0.043372636 -0.0671677875
547300000.0 -0.0528703332 -0.0611908533
552275000.0 -0.0586117978 -0.0547892716
557250000.0 -0.0634499384 -0.0493481784
562225000.0 -0.0675762855 -0.0438948917
567200000.0 -0.0714435786 -0.0371960407
572175000.0 -0.075244343 -0.0292574582
577150000.0 -0.0778122282 -0.0207689166
582125000.0 -0.0793889757 -0.0119671766
587100000.0 -0.0805540236 -0.0019384824
592075000.0 -0.0810697465 0.0085624517
597050000.0 -0.0800587548 0.019245177
602025000.0 -0.0786443626 0.0301751553
607000000.0 -0.0816523241 0.0509494183
611975000.0 -0.0792677015 0.0611406925
616950000.0 -0.0762705766 0.0705232582
621925000.0 -0.0723856931 0.0785172985
626900000.0 -0.0675666086 0.085662056
631875000.0 -0.0619828652 0.0922139687
636850000.0 -0.0558083243 0.0981231853
641825000.0 -0.0488994317 0.1027311153
646800000.0 -0.0414166616 0.1069030088
651775000.0 -0.0327816574 0.1107756839
656750000.0 -0.0239396477 0.1145624307
661725000.0 -0.0154607081 0.1172694099
666700000.0 -0.0062758158 0.1197298433
671675000.0 0.003830392 0.122272556
676650000.0 0.0141583497 0.1248724395
681625000.0 0.0244156255 0.1268511065
686600000.0 0.0347387682 0.1284140282
691575000.0 0.0454187707 0.1289284276
696550000.0 0.0569256697 0.1274658761
701525000.0 0.0774033893 0.1199322429
706500000.0 0.0894735629 0.1169647366
711475000.0 0.1014222516 0.1122563265
716450000.0 0.1134047554 0.1055436588
721425000.0 0.1255834973 0.0972245299
726400000.0 0.1377557434 0.0877656239
731375000.0 0.1493305848 0.0767953483
736350000.0 0.1607972381 0.06395659
741325000.0 0.1719909712 0.0505525338
746300000.0 0.1820339383 0.0366686667
751275000.0 0.1905799361 0.0212322152
756250000.0 0.1981674132 0.0050194472
761225000.0 0.2044271146 -0.0114188172
766200000.0 0.2086543807 -0.0284480645
771175000.0 0.21095776 -0.045937952
776150000.0 0.211365885 -0.063818729
781125000.0 0.2099266185 -0.0824592992
786100000.0 0.2068926238 -0.1011726879
791075000.0 0.2018290874 -0.1195992036
796050000.0 0.1951718848 -0.1384545041
801025000.0 0.1871397239 -0.1571379127
806000000.0 0.1775226934 -0.1749599443
810975000.0 0.1665792185 -0.1926725128
815950000.0 0.1549424918 -0.2098357546
820925000.0 0.1424536529 -0.2252957849
825900000.0 0.1290166143 -0.2392276277
830875000.0 0.1146135159 -0.2515430826
835850000.0 0.0995510743 -0.2625284202
840825000.0 0.0842559929 -0.2721850092
845800000.0 0.0685576173 -0.2799232316
850775000.0 0.0520126644 -0.2866376338
855750000.0 0.0349943736 -0.2933005098
860725000.0 0.0170407713 -0.2992879672
865700000.0 -0.0022941269 -0.3047445379
870675000.0 -0.0230752501 -0.30973816
875650000.0 -0.0454414584 -0.3135491465
880625000.0 -0.0697576937 -0.3161339325
885600000.0 -0.095278327 -0.3173518695
890575000.0 -0.1218202237 -0.316226163
895550000.0 -0.1490975754 -0.312328306
900525000.0 -0.1767759844 -0.3050348923
905500000.0 -0.2045828624 -0.2944514905
910475000.0 -0.231930304 -0.2801738982
915450000.0 -0.2585262442 -0.2619416848
920425000.0 -0.2841827934 -0.2395651866
925400000.0 -0.3085759023 -0.2132273324
930375000.0 -0.3314737975 -0.1823120205
935350000.0 -0.3528946106 -0.1474269835
940325000.0 -0.372447091 -0.1089358931
945300000.0 -0.3896068847 -0.0658188181
950275000.0 -0.4035680543 -0.0181887673
955250000.0 -0.4140936089 0.0342343988
960225000.0 -0.4191881549 0.0921890663
965200000.0 -0.4174338767 0.1544832995
970175000.0 -0.4069969977 0.2208673253
975150000.0 -0.3852681389 0.2905830378
980125000.0 -0.3502978131 0.3608670867
985100000.0 -0.3013969649 0.429247202
990075000.0 -0.2378945257 0.4927928057
995050000.0 -0.1601137705 0.5479443078
1000025000.0 -0.0693232522 0.5910190072
1005000000.0 0.0318230873 0.6183773848
1009975000.0 0.139801612 0.627003168
1014950000.0 0.2502768235 0.6144723644
1019925000.0 0.357799794 0.5805909301
1024900000.0 0.4576739683 0.5263576502
1029875000.0 0.5444679747 0.4535880387
1034850000.0 0.6149351221 0.365030958
1039825000.0 0.6657077598 0.2637874067
1044800000.0 0.6930084843 0.1524860208
1049775000.0 0.6854539706 0.0377114582
1054750000.0 0.6297874197 -0.0388832692
1059725000.0 0.6274258341 -0.0383322502
1064700000.0 0.6787500112 -0.1095102347
1069675000.0 0.6875164378 -0.2165875588
1074650000.0 0.6615893499 -0.322246805
1079625000.0 0.6106950874 -0.405243085
1084600000.0 0.5641905545 -0.4764440146
1089575000.0 0.5061683746 -0.5450352481
1094550000.0 0.4377969485 -0.6028743387
1099525000.0 0.3626720401 -0.648595515
1104500000.0 0.2828935914 -0.682112138
1109475000.0 0.2005189649 -0.7041966819
1114450000.0 0.1170030765 -0.7150277938
1119425000.0 0.0336518491 -0.7159529174
1124400000.0 -0.0479429575 -0.7068351372
1129375000.0 -0.1267099616 -0.6884241671
1134350000.0 -0.2018978285 -0.660814677
1139325000.0 -0.2714670915 -0.6252762869
1144300000.0 -0.3344762882 -0.5824795222
1149275000.0 -0.3896333266 -0.5339256578
1154250000.0 -0.4364528286 -0.4809457707
1159225000.0 -0.473818737 -0.4270395626
1164200000.0 -0.5042501144 -0.3742740485
1169175000.0 -0.5305303633 -0.3213088628
1174150000.0 -0.5516872743 -0.2664318683
1179125000.0 -0.5664926572 -0.2108597823
1184100000.0 -0.5757765123 -0.1560346924
1189075000.0 -0.5795762093 -0.1030848376
1194050000.0 -0.5785589776 -0.0528961169
1199025000.0 -0.5742207985 -0.0059995151
1204000000.0 -0.5669552779 0.037786797
1208975000.0 -0.5571901066 0.0777467558
1213950000.0 -0.545693466 0.1140067844
1218925000.0 -0.5332500223 0.1463257417
1223900000.0 -0.5206946235 0.1753453198
1228875000.0 -0.5080488555 0.2012385091
1233850000.0 -0.4956955666 0.2245665256
1238825000.0 -0.4844539854 0.2462359273
1243800000.0 -0.4734103869 0.266893165
1248775000.0 -0.4618654382 0.2873920563
1253750000.0 -0.4503347998 0.3079047217
1258725000.0 -0.4387845912 0.3280388104
1263700000.0 -0.4258890305 0.347672505
1268675000.0 -0.4132512581 0.36676912
1273650000.0 -0.3956847688 0.3970199114
1278625000.0 -0.3821034659 0.4147341719
1283600000.0 -0.3695886225 0.4296984946
1288575000.0 -0.3571500625 0.4421226726
1293550000.0 -0.3445514674 0.4533518636
1298525000.0 -0.332413908 0.4620409281
1303500000.0 -0.3206961213 0.4677931791
1308475000.0 -0.3095718417 0.4719644664
1313450000.0 -0.3001738373 0.4733321721
1318425000.0 -0.2920894441 0.4723077408
1323400000.0 -0.2861134452 0.4706424304
1328375000.0 -0.2831858887 0.4688517054
1333350000.0 -0.2821935552 0.468181179
1338325000.0 -0.2827476747 0.4700056422
1343300000.0 -0.2835819765 0.4746382007
1348275000.0 -0.2834476186 0.4825046892
1353250000.0 -0.2817767142 0.4924894874
1358225000.0 -0.2782624858 0.5033320292
1363200000.0 -0.2724010449 0.5151340291
1368175000.0 -0.2650566227 0.5268039614
1373150000.0 -0.2561408262 0.5372022779
1378125000.0 -0.2458502966 0.5468482219
1383100000.0 -0.2350605711 0.5546378873
1388075000.0 -0.2234418286 0.5605544639
1393050000.0 -0.2111458208 0.563912065
1398025000.0 -0.1993817919 0.5652712565
1403000000.0 -0.1875316267 0.563828
1407975000.0 -0.1754324801 0.560198303
1412950000.0 -0.1647673128 0.5543794215
1417925000.0 -0.1563993589 0.5464348146
1422900000.0 -0.1506716178 0.5369913492
1427875000.0 -0.1483538084 0.5283252499
1432850000.0 -0.1491437891 0.5203751646
1437825000.0 -0.1532376606 0.5150536683
1442800000.0 -0.1591375392 0.513827861
1447775000.0 -0.1645841435 0.5167094035
1452750000.0 -0.1677525696 0.5224380023
1457725000.0 -0.1683235669 0.5302758217
1462700000.0 -0.1653719155 0.5404499162
1467675000.0 -0.1595625657 0.5505689093
1472650000.0 -0.1504084346 0.5585594223
1477625000.0 -0.138725474 0.5660248518
1482600000.0 -0.1261149334 0.5730339423
1487575000.0 -0.1111887951 0.57659432
1492550000.0 -0.0942262035 0.578183967
1497525000.0 -0.077435499 0.5798915218
1502500000.0 -0.0606750509 0.579845862
1507475000.0 -0.0416649513 0.5778445203
1512450000.0 -0.0242051485 0.5759451516
1517425000.0 -0.007642449 0.5729683065
1522400000.0 0.0091272115 0.5699559843
1527375000.0 0.0239144656 0.5661357396
1532350000.0 0.0371761674 0.561055976
1537325000.0 0.0501240105 0.556773758
1542300000.0 0.0624352679 0.5519362019
1547275000.0 0.0753133751 0.5458615225
1552250000.0 0.087588561 0.5406760891
1557225000.0 0.0985762238 0.5342938046
1562200000.0 0.1116214833 0.5265711357
1567175000.0 0.1253690814 0.5202841298
1572150000.0 0.138952366 0.5120048799
1577125000.0 0.1550800217 0.5017254316
1582100000.0 0.1719527966 0.4917301953
1587075000.0 0.1885506889 0.4802358583
1592050000.0 0.2062349381 0.46783298
1597025000.0 0.2242836907 0.455842886
1602000000.0 0.2417092044 0.4438633277
1606975000.0 0.2596766078 0.4314445269
1611950000.0 0.2768473573 0.4189571099
1616925000.0 0.2939628037 0.4067433386
1621900000.0 0.3107306203 0.3947773262
1626875000.0 0.3270128288 0.3817987373
1631850000.0 0.3425583721 0.368591075
1636825000.0 0.3565400396 0.3552578522
1641800000.0 0.3703007818 0.3404267694
1646775000.0 0.3847071034 0.3252877703
1651750000.0 0.396777405 0.3102963828
1656725000.0 0.4084399558 0.2934940348
1661700000.0 0.4207735273 0.2769663212
1666675000.0 0.4314503728 0.2605405913
1671650000.0 0.4412364049 0.2429598807
1676625000.0 0.4514167511 0.2267929269
1681600000.0 0.4592561309 0.2105723004
1686575000.0 0.466699889 0.1935507884
1691550000.0 0.4735664613 0.1780323087
1696525000.0 0.4777544265 0.163344413
1701500000.0 0.4816323498 0.1486130265
1706475000.0 0.4836094523 0.1348184783
1711450000.0 0.4837569766 0.1219169895
1716425000.0 0.4831337389 0.1100623494
1721400000.0 0.4822716378 0.0993509491
1726375000.0 0.4819035577 0.0891255668
1731350000.0 0.4818379595 0.0795616195
1736325000.0 0.483093551 0.0696419838
1741300000.0 0.4863429465 0.0592667949
1746275000.0 0.4903039469 0.0486826996
1751250000.0 0.4936985513 0.0366920445
1756225000.0 0.4982615547 0.0244282282
1761200000.0 0.5019751481 0.0125731486
1766175000.0 0.5036873154 -0.000220923
1771150000.0 0.504452474 -0.012126111
1776125000.0 0.5033306349 -0.0221436294
1781100000.0 0.500182844 -0.0315329925
1786075000.0 0.4948232098 -0.0383966105
1791050000.0 0.4868318795 -0.0419378195
1796025000.0 0.4786012372 -0.0423871289
1801000000.0 0.4709485396 -0.0382061647
1805975000.0 0.4642684396 -0.0316623478
1810950000.0 0.4618984899 -0.0240514187
1815925000.0 0.4630618916 -0.0173797997
1820900000.0 0.4654232959 -0.013568438
1825875000.0 0.4697445178 -0.0119480801
1830850000.0 0.473967078 -0.011805833
1835825000.0 0.4793999176 -0.0135504032
1840800000.0 0.4849702569 -0.017273411
1845775000.0 0.4894558523 -0.0218036579
1850750000.0 0.4931457257 -0.0276336804
1855725000.0 0.4954099987 -0.0341985785
1860700000.0 0.4952054131 -0.040830503
1865675000.0 0.493242775 -0.047270941
1870650000.0 0.489211327 -0.0531732181
1875625000.0 0.4832404307 -0.0587770273
1880600000.0 0.4747472977 -0.0640453716
1885575000.0 0.4639716862 -0.0682491671
1890550000.0 0.4337095801 -0.0725197196
1895525000.0 0.4193319139 -0.0756184291
1900500000.0 0.4038185275 -0.0767975896
1905475000.0 0.3882575697 -0.076596553
1910450000.0 0.3737469579 -0.0741207831
1915425000.0 0.3613299014 -0.0701515996
1920400000.0 0.3705072474 -0.0653513726
1925375000.0 0.3625204366 -0.0613124918
1930350000.0 0.355705207 -0.0585550197
1935325000.0 0.3497203843 -0.0570933095
1940300000.0 0.3430982091 -0.0568082654
1945275000.0 0.3347671938 -0.0576212903
1950250000.0 0.3245109401 -0.0582002677
1955225000.0 0.3120000297 -0.0587724581
1960200000.0 0.2965961258 -0.0596622383
1965175000.0 0.2787454678 -0.058751699
1970150000.0 0.2580417491 -0.0576475842
1975125000.0 0.234591513 -0.0560969897
1980100000.0 0.2088784488 -0.0534371109
1985075000.0 0.1802677385 -0.0499467839
1990050000.0 0.1493142675 -0.0452457952
1995025000.0 0.1165415296 -0.0388260909
2000000000.0 0.0804248882 -0.0300868432
