!Created with skrf (http://scikit-rf.org).
# GHz S RI R 50.0 
!freq ReS11 ImS11
10000000.0 -0.7649011848 0.6784706988
19950000.0 -0.1307286707 0.9887812802
29900000.0 0.5453474771 0.8123296387
39850000.0 0.9465744976 0.2342565543
49800000.0 0.8655802705 -0.4780313591
59750000.0 0.3095535255 -0.9626777311
69700000.0 -0.4503680872 -0.9218658826
79650000.0 -0.9645380374 -0.3316501291
89600000.0 -0.8810418986 0.4640189978
99550000.0 -0.2202996995 0.9424641156
109500000.0 0.5962534115 0.7496757566
119450000.0 0.9745190538 -0.0348509213
129400000.0 0.5582196663 -0.8319784623
139350000.0 -0.3583037142 -0.9435379552
149300000.0 -0.9533351325 -0.249821507
159250000.0 -0.7373327374 0.604281648
169200000.0 0.0377872782 0.9380260753
179150000.0 0.7640865083 0.5689197365
189100000.0 0.959039465 -0.1981038178
199050000.0 0.5325820699 -0.8418151995
209000000.0 -0.2086111111 -0.9666705155
218950000.0 -0.7973428041 -0.5397807616
228900000.0 -0.9228199391 0.1550345435
238850000.0 -0.5500124344 0.7380969873
248800000.0 0.0522453941 0.9102006016
258750000.0 0.7004938933 0.6323398373
268700000.0 0.9625604648 0.0046382035
278650000.0 0.7271265648 -0.6313886437
288600000.0 0.1243725977 -0.9310278579
298550000.0 -0.5115579228 -0.7377166978
308500000.0 -0.8371228433 -0.1688692742
318450000.0 -0.6799074458 0.4566652209
328400000.0 -0.1348771421 0.783067021
338350000.0 0.4626441611 0.6163962745
348300000.0 0.7216187979 0.084504015
358250000.0 0.4980949407 -0.415924366
368200000.0 0.022003514 -0.5424841776
378150000.0 -0.3225879931 -0.2869233623
388100000.0 -0.3311590723 0.0772550385
398050000.0 -0.0944626236 0.2661917544
408000000.0 0.1457389346 0.2003421925
417950000.0 0.2157252722 0.0080466167
427900000.0 0.1170916597 -0.1328804081
437850000.0 -0.0310428819 -0.1357348037
447800000.0 -0.1121330212 -0.0340837852
457750000.0 -0.0863777578 0.0775298273
467700000.0 0.0039404038 0.1208726318
477650000.0 0.0812798743 0.0833228087
487600000.0 0.0849387679 0.0230026197
497550000.0 0.0855023044 -0.0514326919
507500000.0 0.0194554946 -0.0588793437
517450000.0 -0.0141231316 -0.0287555257
527400000.0 -0.0091796979 0.0007016992
537350000.0 0.0129968081 0.0016305636
547300000.0 0.0173683718 -0.0286122847
557250000.0 -0.0179210163 -0.0519791474
567200000.0 -0.0698592462 -0.0367679632
577150000.0 -0.1000491222 0.0224346188
587100000.0 -0.0746080464 0.0959124218
597050000.0 0.0059437604 0.1352501306
607000000.0 0.1022594708 0.1046757231
616950000.0 0.1582523491 0.0089741981
626900000.0 0.1356737917 -0.1070126562
636850000.0 0.0384060421 -0.1824913704
646800000.0 -0.0865234811 -0.1746912061
656750000.0 -0.1736979279 -0.0848362171
666700000.0 -0.1751480855 0.0384750115
676650000.0 -0.091101316 0.1255312599
686600000.0 0.0259090276 0.1293704457
696550000.0 0.1109900788 0.0522656487
706500000.0 0.1148055031 -0.0567727459
716450000.0 0.0422955402 -0.1291680797
726400000.0 -0.0534546408 -0.1205352997
736350000.0 -0.1021619377 -0.042110785
746300000.0 -0.0645881356 0.0444042083
756250000.0 0.0365161907 0.0659857326
766200000.0 0.1262691199 -0.0077447737
776150000.0 0.1276621119 -0.1391698653
786100000.0 0.0183898296 -0.2394920834
796050000.0 -0.1489333994 -0.2262823707
806000000.0 -0.2672190968 -0.0793510049
815950000.0 -0.244421692 0.1312268168
825900000.0 -0.0641564341 0.2809106042
835850000.0 0.1892937108 0.2653672681
845800000.0 0.3769335813 0.0691140704
855750000.0 0.3832378412 -0.2174086788
865700000.0 0.1831290721 -0.4420482803
875650000.0 -0.1245469345 -0.4648483715
885600000.0 -0.3570407239 -0.2740754078
895550000.0 -0.4197650877 0.0209219083
905500000.0 -0.2637666615 0.300160534
915450000.0 0.0531198182 0.4015389992
925400000.0 0.3567250395 0.2492949837
935350000.0 0.4648714386 -0.0775383226
945300000.0 0.3026326413 -0.3845251334
955250000.0 -0.0397960846 -0.4725071242
965200000.0 -0.3384353984 -0.2622930553
975150000.0 -0.3596037264 0.1236043831
985100000.0 -0.034268159 0.3843694844
995050000.0 0.3960629612 0.2401323022
1005000000.0 0.5073162421 -0.2488292187
1014950000.0 0.1106038585 -0.6353350628
1024900000.0 -0.4864348103 -0.492662426
1034850000.0 -0.7175015816 0.1451363536
1044800000.0 -0.2747416094 0.7350762618
1054750000.0 0.4820293605 0.6792320119
1064700000.0 0.8830615474 0.062496395
1074650000.0 0.6413548733 -0.6259058488
1084600000.0 -0.0077826929 -0.8684132786
1094550000.0 -0.6079881659 -0.557903264
1104500000.0 -0.7711701995 0.0906557399
1114450000.0 -0.3792234622 0.6273888884
1124400000.0 0.2685699889 0.6453990319
1134350000.0 0.6475452208 0.1726057329
1144300000.0 0.5196120851 -0.3659975336
1154250000.0 0.0669345689 -0.5926097095
1164200000.0 -0.3685830947 -0.4179824165
1174150000.0 -0.5292909093 0.0066606104
1184100000.0 -0.3142325157 0.4062616566
1194050000.0 0.1280863481 0.4965226051
1204000000.0 0.4761503172 0.2272567934
1213950000.0 0.5135720796 -0.1945632537
1223900000.0 0.2554288521 -0.5112961504
1233850000.0 -0.1390446885 -0.5743484142
1243800000.0 -0.480526544 -0.3658582682
1253750000.0 -0.6077548925 0.0221403323
1263700000.0 -0.44434433 0.4090513174
1273650000.0 -0.0561103222 0.5931104368
1283600000.0 0.358284554 0.4726764418
1293550000.0 0.5913150354 0.1172024641
1303500000.0 0.5510154812 -0.294008741
1313450000.0 0.2782888156 -0.5900020216
1323400000.0 -0.1117816931 -0.6682401993
1333350000.0 -0.4761823212 -0.5018640763
1343300000.0 -0.6747633515 -0.1420483394
1353250000.0 -0.6092704324 0.2773014935
1363200000.0 -0.2858986742 0.5698923986
1373150000.0 0.1528982005 0.5902495994
1383100000.0 0.5009151122 0.3327013115
1393050000.0 0.6138441697 -0.0707080802
1403000000.0 0.4694713311 -0.4472200551
1412950000.0 0.1425146283 -0.6614955702
1422900000.0 -0.2424460613 -0.6475860086
1432850000.0 -0.545953476 -0.4103825942
1442800000.0 -0.6484270139 -0.0341427994
1452750000.0 -0.4953052591 0.3318375693
1462700000.0 -0.1412262746 0.5220820556
1472650000.0 0.251602211 0.4451157752
1482600000.0 0.5013228726 0.1441109201
1492550000.0 0.5052060912 -0.2322312806
1502500000.0 0.2819118025 -0.5180030382
1512450000.0 -0.0586816549 -0.6011279664
1522400000.0 -0.3703431691 -0.4576603182
1532350000.0 -0.5198026755 -0.1521057356
1542300000.0 -0.435998803 0.1776373325
1552250000.0 -0.1565799136 0.3683396841
1562200000.0 0.1740514393 0.3238182444
1572150000.0 0.3813651047 0.0737057321
1582100000.0 0.3628591719 -0.2399285482
1592050000.0 0.1419027234 -0.4494035333
1602000000.0 -0.156907054 -0.4547250663
1611950000.0 -0.3812457471 -0.2565031621
1621900000.0 -0.4148425112 0.0457799097
1631850000.0 -0.2298591858 0.2981874933
1641800000.0 0.086621387 0.3573772116
1651750000.0 0.3643632423 0.1774254687
1661700000.0 0.4418759041 -0.1458907101
1671650000.0 0.2783495904 -0.4362332311
1681600000.0 -0.0371797601 -0.5463412365
1691550000.0 -0.352232161 -0.4280845292
1701500000.0 -0.52706052 -0.13370153
1711450000.0 -0.4802865715 0.2154755827
1721400000.0 -0.2141062365 0.4679606982
1731350000.0 0.166033528 0.4934487615
1741300000.0 0.4795406927 0.2635184763
1751250000.0 0.5686009817 -0.1154611322
1761200000.0 0.396528313 -0.4581340661
1771150000.0 0.0566874516 -0.6171029917
1781100000.0 -0.30327192 -0.5437862146
1791050000.0 -0.5469727234 -0.2726409546
1801000000.0 -0.5552895508 0.0918767565
1810950000.0 -0.4391294303 0.305831666
1820900000.0 -0.1488997597 0.5444363703
1830850000.0 0.243102351 0.4995403865
1840800000.0 0.5072944003 0.2109898162
1850750000.0 0.523596721 -0.1673675887
1860700000.0 0.3120359013 -0.4582343042
1870650000.0 -0.0109991254 -0.5615213312
1880600000.0 -0.3166777222 -0.4680319481
1890550000.0 -0.5084125856 -0.2309702985
1900500000.0 -0.5311335202 0.0636792196
1910450000.0 -0.381855594 0.3118359565
1920400000.0 -0.1186383149 0.4151538795
1930350000.0 0.1383974894 0.33370237
1940300000.0 0.272674376 0.1244358369
1950250000.0 0.2470760234 -0.0940793629
1960200000.0 0.1154231615 -0.2258038964
1970150000.0 -0.0328869775 -0.2449520517
1980100000.0 -0.1254636894 -0.1909866683
1990050000.0 -0.1446338202 -0.1349179699
2000000000.0 -0.1377485372 -0.1361192543
