!Created with skrf (http://scikit-rf.org).
# GHz S RI R 50.0 
!freq ReS11 ImS11
10000000.0 0.8899717752 -0.4702848372
19950000.0 0.5771139469 -0.8300354955
29900000.0 0.1338899254 -1.005374141
39850000.0 -0.3404457471 -0.9547113306
49800000.0 -0.7346054041 -0.6902953308
59750000.0 -0.9596195941 -0.2764291017
69700000.0 -0.9692969731 0.1906618848
79650000.0 -0.7678780273 0.6077752805
89600000.0 -0.4017554784 0.8887143364
99550000.0 0.0510302213 0.9749762845
109500000.0 0.4944870952 0.8476541685
119450000.0 0.8332050008 0.5326138574
129400000.0 0.9904502132 0.0966382321
139350000.0 0.9288212618 -0.3632546002
149300000.0 0.6610598664 -0.7411739669
159250000.0 0.2504176188 -0.9517687227
169200000.0 -0.2088224814 -0.9510056687
179150000.0 -0.6162145212 -0.7430770754
189100000.0 -0.8852752565 -0.3749671072
199050000.0 -0.9601866264 0.0750002969
209000000.0 -0.8227905411 0.5137043079
218950000.0 -0.5030603649 0.8378794734
228900000.0 -0.0683212626 0.9815474051
238850000.0 0.383708335 0.9080693076
248800000.0 0.7493584281 0.6345478805
258750000.0 0.9466872885 0.2245345258
268700000.0 0.9354056772 -0.2285293723
278650000.0 0.7211919586 -0.6257835401
288600000.0 0.3514991531 -0.883577842
298550000.0 -0.0952435202 -0.9474229616
308500000.0 -0.5228601052 -0.8024350376
318450000.0 -0.8386579055 -0.4787478076
328400000.0 -0.9712717323 -0.0460427233
338350000.0 -0.8895852536 0.3984887423
348300000.0 -0.6131993548 0.7542747981
358250000.0 -0.2059598471 0.942997591
368200000.0 0.2408554187 0.9259824291
378150000.0 0.6312118662 0.7092270612
388100000.0 0.8818335459 0.339330988
398050000.0 0.9387951379 -0.1051811818
408000000.0 0.7877217365 -0.5282820563
417950000.0 0.4589512925 -0.8364858509
427900000.0 0.025242689 -0.9583329308
437850000.0 -0.4144585614 -0.8663081752
447800000.0 -0.7609058333 -0.5834894342
457750000.0 -0.9384657679 -0.1761098384
467700000.0 -0.912276444 0.2651084804
477650000.0 -0.6907024214 0.6465210095
487600000.0 -0.3212263221 0.8873605957
497550000.0 0.1195302109 0.9359272513
507500000.0 0.5362314842 0.7776322192
517450000.0 0.8353035296 0.4442983822
527400000.0 0.9466180896 0.0098684987
537350000.0 0.8436038949 -0.42602663
547300000.0 0.5540689961 -0.7631207948
557250000.0 0.1464031236 -0.9299659654
567200000.0 -0.2888965412 -0.8951908197
577150000.0 -0.6609090316 -0.670459247
587100000.0 -0.8931791926 -0.3034866929
597050000.0 -0.9358044863 0.1308461733
607000000.0 -0.7756745925 0.5407788293
616950000.0 -0.4415082891 0.8340797857
626900000.0 -0.0061469129 0.9388172042
636850000.0 0.4282366248 0.8279054373
646800000.0 0.7604281325 0.5304262361
656750000.0 0.9177316756 0.1175242025
666700000.0 0.8723080082 -0.3163216491
676650000.0 0.6399899516 -0.6797869103
686600000.0 0.2728335493 -0.9001256859
696550000.0 -0.1539991823 -0.9339031035
706500000.0 -0.5533903434 -0.7702013818
716450000.0 -0.8365504726 -0.4382533764
726400000.0 -0.9357375483 -0.0082348566
736350000.0 -0.8223333645 0.4222247905
746300000.0 -0.5211995328 0.7515969912
756250000.0 -0.1046066222 0.9042644855
766200000.0 0.3306315236 0.8509331314
776150000.0 0.6895462763 0.6098160218
786100000.0 0.9003522661 0.2388715998
796050000.0 0.9236013031 -0.1838386567
806000000.0 0.7557858755 -0.5722014747
815950000.0 0.4268888646 -0.8435331804
825900000.0 0.0053609945 -0.9364194518
835850000.0 -0.4179576581 -0.8227900185
845800000.0 -0.7448952931 -0.5227602955
855750000.0 -0.8964177374 -0.1028552237
865700000.0 -0.8371487521 0.3380407922
875650000.0 -0.5847386692 0.6985342332
885600000.0 -0.2022344339 0.9010190833
895550000.0 0.2240607104 0.9083797012
905500000.0 0.6028012226 0.7253373335
915450000.0 0.8576453868 0.3941476824
925400000.0 0.9370044333 -0.0177933233
935350000.0 0.8205454433 -0.4263921248
945300000.0 0.5270875444 -0.7433174509
955250000.0 0.1140063703 -0.8938301623
965200000.0 -0.3272257447 -0.8355146895
975150000.0 -0.6917573429 -0.5778630122
985100000.0 -0.8923596443 -0.1828831016
995050000.0 -0.8870826242 0.2522111505
1005000000.0 -0.6868901895 0.6278078561
1014950000.0 -0.3466859035 0.8673807064
1024900000.0 0.0590696685 0.9296642793
1034850000.0 0.4500651322 0.8075923378
1044800000.0 0.7507786865 0.5235730241
1054750000.0 0.8973973832 0.1278361652
1064700000.0 0.8482469549 -0.3027674238
1074650000.0 0.5995456757 -0.6696868068
1084600000.0 0.2012793184 -0.8789267757
1094550000.0 -0.2480238116 -0.8726595246
1104500000.0 -0.633827123 -0.6568578431
1114450000.0 -0.8673766679 -0.2966769571
1124400000.0 -0.9102958494 0.1173024949
1134350000.0 -0.7701852001 0.4979508831
1144300000.0 -0.4832001136 0.7775027137
1154250000.0 -0.1018750567 0.9073455828
1164200000.0 0.3065052496 0.8569513411
1174150000.0 0.6611511301 0.6217036066
1184100000.0 0.8733010174 0.2351473506
1194050000.0 0.8745938592 -0.2174383954
1204000000.0 0.6541181994 -0.6159128967
1213950000.0 0.2741916703 -0.8540479517
1223900000.0 -0.1592432466 -0.8834346005
1233850000.0 -0.542819938 -0.7201391753
1243800000.0 -0.8061858532 -0.4166620787
1253750000.0 -0.9127841533 -0.0383754403
1263700000.0 -0.8490979399 0.3495573872
1273650000.0 -0.618998299 0.6796600815
1283600000.0 -0.2519730644 0.8796321547
1293550000.0 0.1854863584 0.8865261912
1303500000.0 0.5858654543 0.6745480783
1313450000.0 0.834040775 0.2874944158
1323400000.0 0.8615672069 -0.1657508021
1333350000.0 0.6771469667 -0.5639767846
1343300000.0 0.3484797639 -0.8212679875
1353250000.0 -0.0416915285 -0.904865752
1363200000.0 -0.4192529162 -0.8171206471
1373150000.0 -0.7222170064 -0.5792582131
1383100000.0 -0.8973788772 -0.2282107887
1393050000.0 -0.8994808879 0.1795197654
1403000000.0 -0.7046200151 0.5607073659
1412950000.0 -0.3363685362 0.814081188
1422900000.0 0.1187708499 0.857716218
1432850000.0 0.5360775407 0.6759991738
1442800000.0 0.8081400667 0.3286834744
1452750000.0 0.8855441074 -0.0853172403
1462700000.0 0.7760696698 -0.4719521613
1472650000.0 0.519065272 -0.7621054083
1482600000.0 0.1679427728 -0.9128805977
1492550000.0 -0.2183199309 -0.8981306577
1502500000.0 -0.5710465394 -0.7089026955
1512450000.0 -0.8111661215 -0.3642704496
1522400000.0 -0.864963663 0.0726296093
1532350000.0 -0.6978356342 0.4950687218
1542300000.0 -0.3446024876 0.784727755
1552250000.0 0.095184068 0.8653703875
1562200000.0 0.5040867836 0.73378867
1572150000.0 0.7923577438 0.4439821809
1582100000.0 0.9167896989 0.0731438394
1592050000.0 0.8697079288 -0.3053598362
1602000000.0 0.6662008243 -0.6272709893
1611950000.0 0.335503221 -0.8353397575
1621900000.0 -0.0680642837 -0.8801328683
1631850000.0 -0.4663638473 -0.7310122649
1641800000.0 -0.7604750106 -0.3991151499
1651750000.0 -0.8601532021 0.0438746395
1661700000.0 -0.7303586797 0.4776826446
1671650000.0 -0.4145796966 0.7843039487
1681600000.0 -0.0106796126 0.8999205932
1691550000.0 0.3814027043 0.8224011101
1701500000.0 0.6878915938 0.590981837
1711450000.0 0.8642033284 0.2585586748
1721400000.0 0.8859543283 -0.1199873885
1731350000.0 0.7408419789 -0.4828113517
1741300000.0 0.4374533502 -0.7576492359
1751250000.0 0.0206539419 -0.8684142038
1761200000.0 -0.4166362104 -0.7607135147
1771150000.0 -0.7478276374 -0.4433679238
1781100000.0 -0.8744590589 -0.0098612074
1791050000.0 -0.7779148968 0.412064507
1801000000.0 -0.5120726938 0.7228658647
1810950000.0 -0.1570162953 0.8765384279
1820900000.0 0.2156234383 0.8666209081
1830850000.0 0.5475869616 0.7065829471
1840800000.0 0.7884015943 0.4179459358
1850750000.0 0.8866773456 0.0363671631
1860700000.0 0.795984167 -0.3739591441
1870650000.0 0.5031079178 -0.7088977383
1880600000.0 0.0666213085 -0.8573552231
1890550000.0 -0.3841386323 -0.7640383975
1900500000.0 -0.7164875324 -0.471523081
1910450000.0 -0.8629277432 -0.0831399136
1920400000.0 -0.8258375672 0.3026094403
1930350000.0 -0.6416679018 0.6198456701
1940300000.0 -0.3517479892 0.8295885122
1950250000.0 0.0036714863 0.9046728147
1960200000.0 0.3755765231 0.8174476932
1970150000.0 0.6904123231 0.5549548092
1980100000.0 0.8526940518 0.1449556181
1990050000.0 0.7839525494 -0.3140948601
2000000000.0 0.4874017283 -0.6776942598
