!Created with skrf (http://scikit-rf.org).
# GHz S RI R 50.0 
!freq ReS11 ImS11
10000000.0 -0.9996486046 0.1651983493
19950000.0 -0.9434086195 0.3159185337
29900000.0 -0.864088632 0.4600815894
39850000.0 -0.7611309851 0.6020947252
49800000.0 -0.6365847061 0.7361304711
59750000.0 -0.4852862481 0.855402363
69700000.0 -0.299979086 0.9466618237
79650000.0 -0.078205373 0.9910054
89600000.0 0.1766339395 0.9701620262
99550000.0 0.4481834996 0.8653634856
109500000.0 0.7105525981 0.6657604534
119450000.0 0.9195995928 0.3627541777
129400000.0 1.008885 -0.0137776329
139350000.0 0.9339285515 -0.422430047
149300000.0 0.6907232246 -0.7475609652
159250000.0 0.3516460516 -0.9334093595
169200000.0 -0.0003208358 -0.9830509219
179150000.0 -0.3150177522 -0.9282428322
189100000.0 -0.5684007733 -0.8051189607
199050000.0 -0.7528796444 -0.6406505595
209000000.0 -0.8679728751 -0.4532884913
218950000.0 -0.9271487696 -0.2602700944
228900000.0 -0.9415565265 -0.0703464312
238850000.0 -0.9229194945 0.1149671099
248800000.0 -0.7074285313 0.2642674512
258750000.0 -0.8275722983 0.4232103162
268700000.0 -0.7395325918 0.5699191643
278650000.0 -0.6236977979 0.6891565134
288600000.0 -0.4788642566 0.7771931502
298550000.0 -0.30932534 0.8304916401
308500000.0 -0.1208923108 0.8485948373
318450000.0 0.0785861975 0.825185073
328400000.0 0.2762375343 0.7524628174
338350000.0 0.4467293413 0.6232440421
348300000.0 0.5623854407 0.4403882535
358250000.0 0.5972531693 0.2255256703
368200000.0 0.5482765983 0.0169504072
378150000.0 0.4368955871 -0.1498962373
388100000.0 0.2957145482 -0.257369032
398050000.0 0.1548936417 -0.3035043223
408000000.0 0.0362278643 -0.297404427
417950000.0 -0.0516942883 -0.2540746782
427900000.0 -0.1086165699 -0.1911878956
437850000.0 -0.1404740289 -0.122624528
447800000.0 -0.1523524679 -0.060483856
457750000.0 -0.1496664902 -0.0123967816
467700000.0 -0.1361890151 0.0182053881
477650000.0 -0.1145797021 0.0289826425
487600000.0 -0.0872967331 0.0209518539
497550000.0 -0.104102773 -0.0292492568
507500000.0 -0.0425909145 0.0103406364
517450000.0 -0.0207831991 -0.0146855639
527400000.0 -0.0126950302 -0.0345661112
537350000.0 -0.0189384789 -0.0515195723
547300000.0 -0.0364489231 -0.0670746668
557250000.0 -0.0644975231 -0.079695863
567200000.0 -0.0954847324 -0.090462257
577150000.0 -0.1259331015 -0.0974293929
587100000.0 -0.1516352084 -0.0988051545
597050000.0 -0.1698330796 -0.0923262886
607000000.0 -0.1812731046 -0.075822636
616950000.0 -0.1874297221 -0.0505947978
626900000.0 -0.1897664017 -0.018399952
636850000.0 -0.1890930456 0.0147857286
646800000.0 -0.1847945874 0.0454789457
656750000.0 -0.1759515459 0.0703085999
666700000.0 -0.1596754074 0.0867025141
676650000.0 -0.1340860808 0.0933819091
686600000.0 -0.0995817831 0.0914252746
696550000.0 -0.058988411 0.0824727479
706500000.0 -0.0171992663 0.0675283874
716450000.0 0.0209039701 0.0463362428
726400000.0 0.0490802468 0.0178070407
736350000.0 0.0637094322 -0.0195199714
746300000.0 0.0625031656 -0.0657138649
756250000.0 0.0482186137 -0.1192350412
766200000.0 0.020668068 -0.1763699277
776150000.0 -0.0161529354 -0.2306728711
786100000.0 -0.0612766513 -0.2757813602
796050000.0 -0.1118119681 -0.3050154185
806000000.0 -0.1671581225 -0.3156061401
815950000.0 -0.2265058747 -0.3053109965
825900000.0 -0.2881935397 -0.2781539392
835850000.0 -0.3500968648 -0.2374119358
845800000.0 -0.4079599838 -0.1877464152
855750000.0 -0.4568671835 -0.1314596843
865700000.0 -0.4918407892 -0.0701855698
875650000.0 -0.5080888182 -0.0032077923
885600000.0 -0.5033735398 0.0652635658
895550000.0 -0.4784774897 0.1308355109
905500000.0 -0.4352299981 0.1955687523
915450000.0 -0.3764043023 0.2644057064
925400000.0 -0.3025549608 0.3323789431
935350000.0 -0.2137622237 0.3885489798
945300000.0 -0.1095984473 0.4199123201
955250000.0 0.0097396846 0.4131832351
965200000.0 0.1394114618 0.3561701577
975150000.0 0.2675412218 0.2407897511
985100000.0 0.3694972636 0.0632983724
995050000.0 0.406567557 -0.1661542168
1005000000.0 0.3338896476 -0.4101743589
1014950000.0 0.1455002008 -0.6033573743
1024900000.0 -0.1221234522 -0.6892280911
1034850000.0 -0.4072041793 -0.6515373407
1044800000.0 -0.6529674448 -0.5098642252
1054750000.0 -0.8241398046 -0.2962052507
1064700000.0 -0.8941134777 -0.0443842251
1074650000.0 -0.8699691617 0.1940323702
1084600000.0 -0.7359184368 0.4004999789
1094550000.0 -0.6223786822 0.5709275033
1104500000.0 -0.3919980802 0.722104311
1114450000.0 -0.1189339829 0.7827529009
1124400000.0 0.1615111381 0.7356330572
1134350000.0 0.3961467653 0.5763762763
1144300000.0 0.5384452343 0.3355291845
1154250000.0 0.5736415725 0.0708331882
1164200000.0 0.5255959116 -0.1682081865
1174150000.0 0.4219482586 -0.3648178787
1184100000.0 0.2817609125 -0.5024856857
1194050000.0 0.1284587625 -0.5782261908
1204000000.0 -0.0201633691 -0.6004791182
1213950000.0 -0.1557871454 -0.5851888111
1223900000.0 -0.2749061743 -0.5486275509
1233850000.0 -0.3780625536 -0.5025525667
1243800000.0 -0.4661488757 -0.4524315259
1253750000.0 -0.5386669841 -0.4005080172
1263700000.0 -0.5938117025 -0.3445027827
1273650000.0 -0.6327160813 -0.2847033833
1283600000.0 -0.6560702035 -0.2192214362
1293550000.0 -0.6692570703 -0.1500559166
1303500000.0 -0.6776483164 -0.0798703577
1313450000.0 -0.68424466 -0.0110257983
1323400000.0 -0.6916834764 0.0536087287
1333350000.0 -0.6972862928 0.113806337
1343300000.0 -0.6971995501 0.1696036436
1353250000.0 -0.6883142038 0.2194064413
1363200000.0 -0.6665732242 0.2664647051
1373150000.0 -0.6325210146 0.3124053544
1383100000.0 -0.5909349196 0.3583250362
1393050000.0 -0.5450685346 0.4056051357
1403000000.0 -0.4998237248 0.4522924054
1412950000.0 -0.4550006818 0.4958613291
1422900000.0 -0.411058147 0.5331140701
1432850000.0 -0.3651670498 0.5597322168
1442800000.0 -0.315502803 0.575194791
1452750000.0 -0.2612240803 0.5813235769
1462700000.0 -0.199535673 0.5819246731
1472650000.0 -0.1286111794 0.5804408223
1482600000.0 -0.0514907232 0.5768936797
1492550000.0 0.0273481835 0.5682240064
1502500000.0 0.1040873997 0.5500605227
1512450000.0 0.1747892651 0.5187348435
1522400000.0 0.236834768 0.4700574447
1532350000.0 0.28835615 0.4021477259
1542300000.0 0.3295969482 0.3171991964
1552250000.0 0.3606703758 0.2198637815
1562200000.0 0.3825559838 0.1165703669
1572150000.0 0.3908371693 0.0125905434
1582100000.0 0.3812912964 -0.0872840426
1592050000.0 0.3499156462 -0.1787174522
1602000000.0 0.2965472253 -0.2583852597
1611950000.0 0.2246012718 -0.3238972779
1621900000.0 0.1383119221 -0.3776800977
1631850000.0 0.044958306 -0.4213049821
1641800000.0 -0.0493900462 -0.4547130736
1651750000.0 -0.1395486441 -0.4746262001
1661700000.0 -0.2228945447 -0.478188946
1671650000.0 -0.2965150102 -0.4632622432
1681600000.0 -0.3620746302 -0.4325468146
1691550000.0 -0.4218055349 -0.3910649936
1701500000.0 -0.4781625578 -0.3419708409
1711450000.0 -0.5310187902 -0.2907854477
1721400000.0 -0.5777452645 -0.2420586187
1731350000.0 -0.6212979033 -0.197789572
1741300000.0 -0.65507058 -0.1513435463
1751250000.0 -0.6739122534 -0.1030151836
1761200000.0 -0.6790812273 -0.0532523508
1771150000.0 -0.6738528689 -0.0010658033
1781100000.0 -0.6643009447 0.0535100322
1791050000.0 -0.6550809004 0.1070780688
1801000000.0 -0.6491002858 0.1586587277
1810950000.0 -0.6461182117 0.2071655118
1820900000.0 -0.6425264198 0.2506860753
1830850000.0 -0.6326871189 0.287706296
1840800000.0 -0.6126950473 0.3189786574
1850750000.0 -0.581449739 0.3461915715
1860700000.0 -0.5400892313 0.3700201114
1870650000.0 -0.4950099349 0.3932044206
1880600000.0 -0.4512366365 0.414594148
1890550000.0 -0.4129006084 0.4341780272
1900500000.0 -0.3804263986 0.4493727851
1910450000.0 -0.3517678455 0.4574214091
1920400000.0 -0.3248026067 0.4551875603
1930350000.0 -0.2956413849 0.4423679428
1940300000.0 -0.2628911302 0.4184592924
1950250000.0 -0.227384961 0.3859975825
1960200000.0 -0.1929255406 0.3500192999
1970150000.0 -0.1665656669 0.3121311222
1980100000.0 -0.1527355857 0.2740063813
1990050000.0 -0.1577978751 0.2349090392
2000000000.0 -0.184320074 0.193165101
