!Created with skrf (http://scikit-rf.org).
# GHz S RI R 50.0 
!freq ReS11 ImS11
10000000.0 -0.7432185401 0.5714291617
19950000.0 -0.2694353002 0.9038278721
29900000.0 0.3111142177 0.8930582552
39850000.0 0.7822526217 0.5310527201
49800000.0 0.9454949221 -0.0590261112
59750000.0 0.7066615816 -0.6432930002
69700000.0 0.1413322172 -0.9555191924
79650000.0 -0.5049862149 -0.822307745
89600000.0 -0.9128767152 -0.2717252171
99550000.0 -0.8385624291 0.443256584
109500000.0 -0.2601194789 0.924150128
119450000.0 0.5213066125 0.8226324253
129400000.0 0.9695610478 0.1298984208
139350000.0 0.7166659787 -0.6612593726
149300000.0 -0.0518381995 -0.9555778507
159250000.0 -0.7427688357 -0.5640820657
169200000.0 -0.9047352489 0.1748074863
179150000.0 -0.5113596051 0.7687298422
189100000.0 0.1429625379 0.9098293463
199050000.0 0.6951735702 0.5836156608
209000000.0 0.8977512009 -0.0078776635
218950000.0 0.6914752548 -0.5719115026
228900000.0 0.1934867276 -0.875263248
238850000.0 -0.3753961482 -0.8068134948
248800000.0 -0.7573664899 -0.4246047746
258750000.0 -0.8673339823 0.1422749125
268700000.0 -0.6096238714 0.6409505254
278650000.0 -0.1128077751 0.8818629111
288600000.0 0.4223768162 0.7704659055
298550000.0 0.7785793121 0.3513660229
308500000.0 0.8035346676 -0.2038383628
318450000.0 0.4770237188 -0.6530663281
328400000.0 -0.0542754822 -0.7844056823
338350000.0 -0.5243641058 -0.53465168
348300000.0 -0.6878008944 -0.0502460981
358250000.0 -0.4781057939 0.3798157867
368200000.0 -0.0720478448 0.5147417089
378150000.0 0.2508469761 0.3361639246
388100000.0 0.3205976347 0.0364466488
398050000.0 0.1745725796 -0.1634848077
408000000.0 -0.0224842433 -0.1748906178
417950000.0 -0.126071044 -0.0546939986
427900000.0 -0.0994391908 0.0725030781
437850000.0 0.0011609848 0.116207902
447800000.0 0.091156234 0.0671045317
457750000.0 0.1110891054 -0.0318904501
467700000.0 0.0588999923 -0.1131682664
477650000.0 -0.0275780495 -0.1340044707
487600000.0 -0.0988295832 -0.0899108131
497550000.0 -0.1211466237 -0.0190584908
507500000.0 -0.0900927156 0.0493099636
517450000.0 -0.031210467 0.0778076529
527400000.0 0.0184990996 0.0611518842
537350000.0 0.0350390139 0.022950361
547300000.0 0.0195041892 -0.008528647
557250000.0 -0.0110514521 -0.0123192209
567200000.0 -0.026547522 0.0106473381
577150000.0 -0.0106359804 0.0379557582
587100000.0 0.0314002242 0.040202023
597050000.0 0.0716791708 0.0041783713
607000000.0 0.0812014995 -0.0606359345
616950000.0 0.0431110791 -0.1235156205
626900000.0 -0.0309757265 -0.1479777894
636850000.0 -0.1094495739 -0.1168085242
646800000.0 -0.1519067157 -0.0359811884
656750000.0 -0.1362118107 0.0618022844
666700000.0 -0.0624429785 0.1328026073
676650000.0 0.0403806692 0.1432945442
686600000.0 0.1282372439 0.0860680653
696550000.0 0.1612083357 -0.0177655846
706500000.0 0.1231116507 -0.1183211222
716450000.0 0.0298593441 -0.1685921718
726400000.0 -0.0702740216 -0.1446368469
736350000.0 -0.1256128226 -0.0572109019
746300000.0 -0.1032694837 0.0466318506
756250000.0 -0.0114622943 0.1088080569
766200000.0 0.0996181192 0.0927331828
776150000.0 0.1688511213 0.0005064485
786100000.0 0.1523665469 -0.1160549163
796050000.0 0.0494123291 -0.1919328803
806000000.0 -0.0904370224 -0.1730512007
815950000.0 -0.1911865607 -0.0509768753
825900000.0 -0.1887793138 0.1196156402
835850000.0 -0.0691369344 0.2559520597
845800000.0 0.118387489 0.2834175456
855750000.0 0.2885713144 0.1766097051
865700000.0 0.3580927095 -0.0273352594
875650000.0 0.2792417165 -0.2409457222
885600000.0 0.0702781224 -0.36138226
895550000.0 -0.1810516714 -0.311635737
905500000.0 -0.3482320917 -0.0978174028
915450000.0 -0.3344603498 0.1852023371
925400000.0 -0.1339882175 0.3899343264
935350000.0 0.1435077741 0.4030601044
945300000.0 0.3586048602 0.2345170586
955250000.0 0.4180655216 -0.057207081
965200000.0 0.2369259969 -0.3416786991
975150000.0 -0.1319052558 -0.4103578654
985100000.0 -0.4510969913 -0.1504826192
995050000.0 -0.4553247331 0.2954035333
1005000000.0 -0.0893104752 0.6073939603
1014950000.0 0.4246298789 0.5094261547
1024900000.0 0.6954393902 -5.18631e-05
1034850000.0 0.4471555017 -0.5761280397
1044800000.0 -0.1846341439 -0.7365779267
1054750000.0 -0.6910402778 -0.3291012242
1064700000.0 -0.7401647692 0.2586057907
1074650000.0 -0.3701803526 0.7196061529
1084600000.0 0.2058998682 0.7872467906
1094550000.0 0.6611809176 0.4144809365
1104500000.0 0.7153950216 -0.1766886576
1114450000.0 0.3342031943 -0.6250901625
1124400000.0 -0.2244945081 -0.657508106
1134350000.0 -0.6087668001 -0.3037590818
1144300000.0 -0.6383830997 0.1818051919
1154250000.0 -0.3534768687 0.5364679591
1164200000.0 0.0732780115 0.611266018
1174150000.0 0.4391893179 0.3844744551
1184100000.0 0.5516955618 -0.0332507325
1194050000.0 0.3539667879 -0.4090913523
1204000000.0 -0.0228777575 -0.5490870562
1213950000.0 -0.3804805284 -0.4175845335
1223900000.0 -0.569878208 -0.1106052611
1233850000.0 -0.5422048509 0.2357872477
1243800000.0 -0.3182839008 0.4960372741
1253750000.0 0.0209079491 0.5708985673
1263700000.0 0.3465287903 0.4212076202
1273650000.0 0.520761415 0.0994471466
1283600000.0 0.4708200397 -0.2610952922
1293550000.0 0.231290285 -0.5146305729
1303500000.0 -0.0906785494 -0.5825925295
1313450000.0 -0.3810928263 -0.4670997083
1323400000.0 -0.5616741783 -0.2187779438
1333350000.0 -0.5900855518 0.0922329961
1343300000.0 -0.4481275752 0.3810165802
1353250000.0 -0.1563508352 0.547181381
1363200000.0 0.1900326765 0.5120108188
1373150000.0 0.4574917529 0.2782947622
1383100000.0 0.5423350763 -0.0614589892
1393050000.0 0.4294187919 -0.3770480375
1403000000.0 0.1790635873 -0.5702831011
1412950000.0 -0.1165522102 -0.5955271993
1422900000.0 -0.3699309014 -0.4624968821
1432850000.0 -0.5175785487 -0.208703847
1442800000.0 -0.5101013116 0.100302819
1452750000.0 -0.3276791423 0.3650920514
1462700000.0 -0.0199247351 0.4786707253
1472650000.0 0.2916436617 0.3915714511
1482600000.0 0.4875308056 0.1480061817
1492550000.0 0.5062976556 -0.150439061
1502500000.0 0.3594061856 -0.3975250757
1512450000.0 0.1058081109 -0.5148469146
1522400000.0 -0.1654420993 -0.4641675499
1532350000.0 -0.3583852271 -0.2583826355
1542300000.0 -0.3899340922 0.0322367397
1552250000.0 -0.2379261997 0.2874310987
1562200000.0 0.0321892091 0.3931061283
1572150000.0 0.3000359944 0.3164048201
1582100000.0 0.4595910053 0.0993373289
1592050000.0 0.4539704603 -0.1635353001
1602000000.0 0.2915031651 -0.3721346355
1611950000.0 0.0273373219 -0.4446347557
1621900000.0 -0.2405642077 -0.3390265421
1631850000.0 -0.398175953 -0.0819815573
1641800000.0 -0.3660542621 0.2244542926
1651750000.0 -0.1548995215 0.4461396444
1661700000.0 0.1408651232 0.4948601816
1671650000.0 0.4043945831 0.3651741636
1681600000.0 0.5481272182 0.112288232
1691550000.0 0.528085313 -0.1812824581
1701500000.0 0.346900164 -0.4214408479
1711450000.0 0.0531579742 -0.5239727586
1721400000.0 -0.259336726 -0.4367865884
1731350000.0 -0.4752963245 -0.1799900674
1741300000.0 -0.5126609682 0.1556586464
1751250000.0 -0.3620551392 0.4454570988
1761200000.0 -0.0887531774 0.5976147966
1771150000.0 0.2123223953 0.5805142663
1781100000.0 0.4561692657 0.4120257534
1791050000.0 0.5800503669 0.140666181
1801000000.0 0.5476906772 -0.1637518293
1810950000.0 0.36040216 -0.4145530757
1820900000.0 0.0638149204 -0.5269699389
1830850000.0 -0.2504560856 -0.4526923925
1840800000.0 -0.4705038153 -0.2165228169
1850750000.0 -0.527544476 0.0893616105
1860700000.0 -0.4228939152 0.3617282131
1870650000.0 -0.2080443977 0.5291986252
1880600000.0 0.0460731974 0.5601273825
1890550000.0 0.2693109297 0.4572546483
1900500000.0 0.4034985595 0.2523477417
1910450000.0 0.4112828559 0.0040790473
1920400000.0 0.2899842883 -0.2094091916
1930350000.0 0.0814295347 -0.3146167728
1940300000.0 -0.1320603738 -0.284513696
1950250000.0 -0.271366124 -0.1516371473
1960200000.0 -0.2989040957 -0.0027839035
1970150000.0 -0.2629342066 0.1088109189
1980100000.0 -0.1805637322 0.1649705962
1990050000.0 -0.1112924666 0.1425114597
2000000000.0 -0.1181157759 0.082652075
