!Created with skrf (http://scikit-rf.org).
# GHz S RI R 50.0 
!freq ReS11 ImS11
10000000.0 -1.000758272 0.1584196636
19950000.0 -0.9477791447 0.3034656295
29900000.0 -0.8731067229 0.4431064325
39850000.0 -0.7763129811 0.5825106316
49800000.0 -0.6586280355 0.7160103749
59750000.0 -0.5137308352 0.8375490905
69700000.0 -0.3338092694 0.9347702927
79650000.0 -0.1133546752 0.9874197661
89600000.0 0.1462229603 0.9751089724
99550000.0 0.4292242479 0.8749663669
109500000.0 0.7066509592 0.6695309349
119450000.0 0.9255038329 0.3474246386
129400000.0 0.9943863688 -0.0796997138
139350000.0 0.9039640114 -0.4817801022
149300000.0 0.6256372569 -0.7999997953
159250000.0 0.2652803872 -0.9590557676
169200000.0 -0.0883572492 -0.9774348254
179150000.0 -0.3885780029 -0.8994755993
189100000.0 -0.6214306473 -0.7649446531
199050000.0 -0.7851195275 -0.6002348373
209000000.0 -0.8829693278 -0.4213258352
218950000.0 -0.9316107486 -0.2421388426
228900000.0 -0.9422284303 -0.0691760792
238850000.0 -0.9269278633 0.0961079797
248800000.0 -0.8725706281 0.2490151647
258750000.0 -0.8448887501 0.3960631367
268700000.0 -0.7743175615 0.5300436712
278650000.0 -0.6785663658 0.6447344225
288600000.0 -0.5551912773 0.7356273911
298550000.0 -0.4067997001 0.7987913155
308500000.0 -0.2369225308 0.8343607491
318450000.0 -0.0508128663 0.8357214369
328400000.0 0.1429766929 0.7940323634
338350000.0 0.3229705161 0.6966870217
348300000.0 0.4611623049 0.5385691865
358250000.0 0.5252504818 0.3358702618
368200000.0 0.5030435914 0.1261285695
378150000.0 0.4097328332 -0.0501493814
388100000.0 0.2777834614 -0.1675397561
398050000.0 0.1418442379 -0.220944637
408000000.0 0.0263280029 -0.2192252213
417950000.0 -0.0582674533 -0.179459802
427900000.0 -0.1124061127 -0.1193685293
437850000.0 -0.1409644328 -0.0539077728
447800000.0 -0.1505142604 0.0055811367
457750000.0 -0.1462890255 0.0513643111
467700000.0 -0.1316762937 0.0796401357
477650000.0 -0.1093939299 0.0903240784
487600000.0 -0.081503128 0.086400548
497550000.0 -0.0540426886 0.0713015652
507500000.0 -0.0231604929 0.0549027914
517450000.0 -0.0018932448 0.0334286807
527400000.0 0.0084622722 0.0129801931
537350000.0 0.0046786106 -0.006422345
547300000.0 -0.0099376931 -0.0235344722
557250000.0 -0.0357546545 -0.0418210838
567200000.0 -0.0670785921 -0.057906972
577150000.0 -0.0985719902 -0.0695146211
587100000.0 -0.1259111653 -0.0745517282
597050000.0 -0.1464920372 -0.070487737
607000000.0 -0.1606310501 -0.0559177917
616950000.0 -0.1692888404 -0.0319673684
626900000.0 -0.1737818856 -0.0005924916
636850000.0 -0.1753106434 0.032682005
646800000.0 -0.1728981236 0.0638043301
656750000.0 -0.1653991668 0.0890167374
666700000.0 -0.1504858032 0.1053931604
676650000.0 -0.1263792489 0.1124831335
686600000.0 -0.0933489176 0.1117211838
696550000.0 -0.054192605 0.1048380893
706500000.0 -0.0130557585 0.0922052743
716450000.0 0.0246231268 0.0742135085
726400000.0 0.0537265667 0.0485677488
736350000.0 0.0701983497 0.0146227107
746300000.0 0.0718073369 -0.028958993
756250000.0 0.0599742123 -0.0804786905
766200000.0 0.0360151028 -0.1362182182
776150000.0 0.0022253259 -0.1900881508
786100000.0 -0.0394642379 -0.2355051561
796050000.0 -0.0881837022 -0.266325943
806000000.0 -0.1421973691 -0.2782260367
815950000.0 -0.201128861 -0.2692868666
825900000.0 -0.2627738204 -0.2424743207
835850000.0 -0.3244305801 -0.2015211589
845800000.0 -0.3808427556 -0.1504193682
855750000.0 -0.4279334266 -0.0917760574
865700000.0 -0.4590839415 -0.0260865419
875650000.0 -0.4691526582 0.0434338201
885600000.0 -0.456508186 0.1046540158
895550000.0 -0.4211433534 0.167351173
905500000.0 -0.3652572321 0.2420656446
915450000.0 -0.2915216156 0.3176479724
925400000.0 -0.201048248 0.3829141357
935350000.0 -0.094470237 0.425545839
945300000.0 0.0268696575 0.4322555661
955250000.0 0.1587719398 0.3887981896
965200000.0 0.2882345655 0.2837497456
975150000.0 0.394562881 0.1157180048
985100000.0 0.445340087 -0.1074128976
995050000.0 0.4092863172 -0.3542043973
1005000000.0 0.2731525543 -0.5632413795
1014950000.0 0.0361097058 -0.692764952
1024900000.0 -0.240284009 -0.7101501815
1034850000.0 -0.5010199392 -0.6225214288
1044800000.0 -0.7084593925 -0.4558306669
1054750000.0 -0.8431614912 -0.235968883
1064700000.0 -0.8885952168 0.0102588311
1074650000.0 -0.8541602244 0.2409828417
1084600000.0 -0.7341287708 0.4518641953
1094550000.0 -0.565458137 0.6374480946
1104500000.0 -0.3178094479 0.7618648007
1114450000.0 -0.0361517434 0.8002327042
1124400000.0 0.2447492333 0.7310947644
1134350000.0 0.4722262135 0.5543744549
1144300000.0 0.6043825696 0.3040076768
1154250000.0 0.6316096101 0.0362731248
1164200000.0 0.5778978737 -0.2031860879
1174150000.0 0.4729657471 -0.3991518057
1184100000.0 0.3331576055 -0.5387430653
1194050000.0 0.1807419396 -0.6188863711
1204000000.0 0.0309969314 -0.6470435107
1213950000.0 -0.1075177748 -0.6371917947
1223900000.0 -0.2306956835 -0.6051798739
1233850000.0 -0.3390228258 -0.5633521816
1243800000.0 -0.4320316883 -0.5166133626
1253750000.0 -0.5099296976 -0.4675584674
1263700000.0 -0.5709286157 -0.4135676003
1273650000.0 -0.6161015815 -0.3550006094
1283600000.0 -0.6451580809 -0.2897906438
1293550000.0 -0.6636830858 -0.2202773856
1303500000.0 -0.6769626057 -0.1487101331
1313450000.0 -0.6881592066 -0.0785593077
1323400000.0 -0.6999121109 -0.0120217902
1333350000.0 -0.7095598305 0.0497173324
1343300000.0 -0.7130313343 0.1072432038
1353250000.0 -0.7076269881 0.1594443615
1363200000.0 -0.6899035999 0.209320916
1373150000.0 -0.6589354015 0.2584926583
1383100000.0 -0.6198638801 0.3080127077
1393050000.0 -0.576249691 0.3591306296
1403000000.0 -0.5323072068 0.4098710733
1412950000.0 -0.4882363641 0.4581407504
1422900000.0 -0.4434873256 0.5009281978
1432850000.0 -0.3958915845 0.5340114875
1442800000.0 -0.3413539521 0.5564820894
1452750000.0 -0.2783887362 0.5673307528
1462700000.0 -0.2061991884 0.5687000496
1472650000.0 -0.1258674106 0.5630799544
1482600000.0 -0.0417382585 0.5520273585
1492550000.0 0.0417329278 0.533981204
1502500000.0 0.1220166418 0.5064252695
1512450000.0 0.1943823598 0.463422574
1522400000.0 0.2558550593 0.4024305772
1532350000.0 0.3038027908 0.3206348
1542300000.0 0.337727468 0.2221575145
1552250000.0 0.3579233366 0.1122338871
1562200000.0 0.3638033873 -0.0010282913
1572150000.0 0.3524541712 -0.1116275569
1582100000.0 0.3200708734 -0.213000035
1592050000.0 0.2661802333 -0.298830871
1602000000.0 0.1915141205 -0.3665312811
1611950000.0 0.1027145464 -0.4165704091
1621900000.0 0.0056382885 -0.4522826168
1631850000.0 -0.093133717 -0.47625761
1641800000.0 -0.1880550044 -0.4896936819
1651750000.0 -0.2753007965 -0.4908355714
1661700000.0 -0.3519615834 -0.4779167578
1671650000.0 -0.4165934276 -0.4496118076
1681600000.0 -0.4712313121 -0.4090685702
1691550000.0 -0.5201532258 -0.3610035304
1701500000.0 -0.566520778 -0.3085647979
1711450000.0 -0.6103750899 -0.256802164
1721400000.0 -0.6513680435 -0.2068079381
1731350000.0 -0.6879336399 -0.1608119907
1741300000.0 -0.7138233661 -0.1167373351
1751250000.0 -0.7266000036 -0.0711628822
1761200000.0 -0.7267781467 -0.0248774664
1771150000.0 -0.7179187558 0.0238451453
1781100000.0 -0.70571781 0.0744256385
1791050000.0 -0.6949514384 0.1245535049
1801000000.0 -0.6882731872 0.1725412473
1810950000.0 -0.6857757647 0.2178454582
1820900000.0 -0.683262892 0.2589278099
1830850000.0 -0.6757177533 0.2942441276
1840800000.0 -0.6581462958 0.3244839045
1850750000.0 -0.6297789824 0.3512492576
1860700000.0 -0.5911882923 0.3753123583
1870650000.0 -0.5490209148 0.3991813287
1880600000.0 -0.507774173 0.4219552905
1890550000.0 -0.4713352894 0.4438152087
1900500000.0 -0.4410889049 0.4615971277
1910450000.0 -0.4140792412 0.4738297116
1920400000.0 -0.3871064762 0.4766539706
1930350000.0 -0.3566115753 0.4689608013
1940300000.0 -0.3203960091 0.4511847988
1950250000.0 -0.2797651372 0.4241569083
1960200000.0 -0.2376222499 0.3920371523
1970150000.0 -0.2019105399 0.355433798
1980100000.0 -0.1766384478 0.3148583351
1990050000.0 -0.1708857328 0.2685074911
2000000000.0 -0.1882756144 0.2128762176
