!Created with skrf (http://scikit-rf.org).
# GHz S RI R 50.0 
!freq ReS11 ImS11
10000000.0 -0.7690907213 0.6743599918
19950000.0 -0.1418229953 0.9877651112
29900000.0 0.5323924791 0.8211409723
39850000.0 0.9414153984 0.2526754284
49800000.0 0.8750884309 -0.4589747778
59750000.0 0.3296761656 -0.9557647577
69700000.0 -0.4343188539 -0.9295423956
79650000.0 -0.96213857 -0.339754488
89600000.0 -0.878905428 0.4698827075
99550000.0 -0.1939991485 0.94785357
109500000.0 0.6386746994 0.711513875
119450000.0 0.9687723823 -0.1279618777
129400000.0 0.4448268951 -0.901006557
139350000.0 -0.4924631349 -0.8756783509
149300000.0 -0.9757163181 -0.0893559409
159250000.0 -0.6306316096 0.7122949358
169200000.0 0.1719966284 0.922898976
179150000.0 0.8300730617 0.4736578185
189100000.0 0.9401958233 -0.2886751516
199050000.0 0.4763927627 -0.8774479278
209000000.0 -0.2485688188 -0.9580558844
218950000.0 -0.8073185161 -0.5262776691
228900000.0 -0.9253189149 0.1497961824
238850000.0 -0.5721112775 0.7239593486
248800000.0 -0.0311961404 0.8463372839
258750000.0 0.6541706019 0.6839775024
268700000.0 0.9616099908 0.0922247636
278650000.0 0.7950713628 -0.5543709015
288600000.0 0.2394066446 -0.9200714342
298550000.0 -0.4097613319 -0.8149043465
308500000.0 -0.812170204 -0.3026662501
318450000.0 -0.7565995111 0.3370410376
328400000.0 -0.2759231889 0.7476046358
338350000.0 0.3404313146 0.6855135517
348300000.0 0.6868903729 0.2072734458
358250000.0 0.549782014 -0.3154414521
368200000.0 0.1101418096 -0.4994330598
378150000.0 -0.2419443641 -0.2936054138
388100000.0 -0.2775754389 0.0371117809
398050000.0 -0.0749480429 0.206470477
408000000.0 0.1309462497 0.1393496547
417950000.0 0.1727473422 -0.0327289222
427900000.0 0.0622711121 -0.1442130332
437850000.0 -0.0797408898 -0.1209310073
447800000.0 -0.1433647615 -0.0016866989
457750000.0 -0.0903813695 0.1189543248
467700000.0 0.0290868422 0.1604067124
477650000.0 0.127781456 0.1076848429
487600000.0 0.1418676977 0.0051799546
497550000.0 0.1286928254 0.0055604088
507500000.0 0.038536292 -0.0837293944
517450000.0 -0.0219088547 -0.0661273146
527400000.0 -0.0337073808 -0.0293543147
537350000.0 -0.0146362287 -0.0119248578
547300000.0 -0.0031912329 -0.0308004094
557250000.0 -0.0289010472 -0.0445707382
567200000.0 -0.0725111777 -0.024491834
577150000.0 -0.0982781093 0.037359215
587100000.0 -0.0715641707 0.114504463
597050000.0 0.0108785129 0.1572711812
607000000.0 0.1122793295 0.1258502054
616950000.0 0.1765659603 0.0213813361
626900000.0 0.1596018667 -0.1113627844
636850000.0 0.0606665214 -0.2073214088
646800000.0 -0.076179326 -0.2161115443
656750000.0 -0.1855425212 -0.1311286882
666700000.0 -0.2113189777 0.0056165469
676650000.0 -0.1419351602 0.123056872
686600000.0 -0.0176690479 0.1626331671
696550000.0 0.0921526923 0.1110571595
706500000.0 0.1316468084 0.0069580996
716450000.0 0.0904163139 -0.084964604
726400000.0 0.0080937952 -0.1144233314
736350000.0 -0.0505157332 -0.0768960615
746300000.0 -0.0430452807 -0.0187593804
756250000.0 0.0193548067 -0.0018971498
766200000.0 0.0780352537 -0.0578209681
776150000.0 0.0639983261 -0.1550042842
786100000.0 -0.0412935181 -0.2138344071
796050000.0 -0.178829965 -0.1619147025
806000000.0 -0.2480870917 0.0121752216
815950000.0 -0.1869625033 0.1736551915
825900000.0 -0.0008748862 0.2719878909
835850000.0 0.2351331041 0.2198314539
845800000.0 0.3923745431 0.0087430093
855750000.0 0.3710490373 -0.2694016217
865700000.0 0.1596313233 -0.4715917001
875650000.0 -0.150194421 -0.4808618346
885600000.0 -0.4048833239 -0.2723909096
895550000.0 -0.4646317662 0.0623575532
905500000.0 -0.2809728019 0.3545202387
915450000.0 0.0629301728 0.4441862698
925400000.0 0.385669662 0.2715939743
935350000.0 0.5065473727 -0.0700380354
945300000.0 0.3498748023 -0.394413414
955250000.0 -0.0001990149 -0.506527351
965200000.0 -0.3293308086 -0.3209821135
975150000.0 -0.4003996147 0.06280601
985100000.0 -0.1167665851 0.3610227344
995050000.0 0.3248472258 0.2836786164
1005000000.0 0.5072452983 -0.166165137
1014950000.0 0.187712725 -0.5814731355
1024900000.0 -0.3949540833 -0.5129399288
1034850000.0 -0.6989156094 0.0653466996
1044800000.0 -0.3673334439 0.6724668494
1054750000.0 0.3739040749 0.7281341906
1064700000.0 0.85805851 0.1561624381
1074650000.0 0.7319069732 -0.5357531594
1084600000.0 0.1385214341 -0.8698173756
1094550000.0 -0.5041423337 -0.6715653638
1104500000.0 -0.8045712841 -0.0773442107
1114450000.0 -0.5476568281 0.5389556125
1124400000.0 0.0974725294 0.7295820236
1134350000.0 0.6138346955 0.3498450781
1144300000.0 0.6079500052 -0.245613144
1154250000.0 0.1776014364 -0.5835163013
1164200000.0 -0.300763042 -0.4825740052
1174150000.0 -0.5153413606 -0.0760615503
1184100000.0 -0.3245927393 0.3503357163
1194050000.0 0.1210352877 0.4837265434
1204000000.0 0.4613294379 0.2468916868
1213950000.0 0.4856812524 -0.1792504299
1223900000.0 0.224503216 -0.5082396082
1233850000.0 -0.1612240659 -0.572011794
1243800000.0 -0.4922995442 -0.3513572866
1253750000.0 -0.6097857974 0.0527925483
1263700000.0 -0.4315626545 0.443998537
1273650000.0 -0.0273532608 0.61162403
1283600000.0 0.3941080968 0.4624595064
1293550000.0 0.6196404131 0.0844299245
1303500000.0 0.5641963122 -0.3343142694
1313450000.0 0.2746508263 -0.6245642035
1323400000.0 -0.1290559438 -0.6885573597
1333350000.0 -0.5029917725 -0.50357171
1343300000.0 -0.7064721341 -0.1249333615
1353250000.0 -0.6393111636 0.3091806632
1363200000.0 -0.3067283442 0.6067902986
1373150000.0 0.1487666978 0.6207742586
1383100000.0 0.5163332443 0.3496084497
1393050000.0 0.6478726719 -0.0707213538
1403000000.0 0.5159735706 -0.4639199192
1412950000.0 0.1902334985 -0.6890360594
1422900000.0 -0.2078274856 -0.6845975316
1432850000.0 -0.540392624 -0.4580110559
1442800000.0 -0.6840771248 -0.0844104395
1452750000.0 -0.5690211544 0.3044540214
1462700000.0 -0.2271359379 0.536858015
1472650000.0 0.1919512626 0.4978371618
1482600000.0 0.4947870315 0.2058036095
1492550000.0 0.555319326 -0.1892263535
1502500000.0 0.3707716879 -0.5073343942
1512450000.0 0.0370360316 -0.6267302722
1522400000.0 -0.2993117103 -0.5118462131
1532350000.0 -0.4929121377 -0.2184201427
1542300000.0 -0.4566724125 0.1051462654
1552250000.0 -0.2521151151 0.3076349618
1562200000.0 0.0020560675 0.3483818055
1572150000.0 0.2717640125 0.1728504664
1582100000.0 0.3760057617 -0.1391759332
1592050000.0 0.2382456572 -0.3935990409
1602000000.0 -0.042572747 -0.427978673
1611950000.0 -0.2969867993 -0.2821988344
1621900000.0 -0.3773039591 -0.0032451602
1631850000.0 -0.2320953057 0.2510716133
1641800000.0 0.060999318 0.3173054821
1651750000.0 0.3263918764 0.1439661745
1661700000.0 0.3956452404 -0.1717932582
1671650000.0 0.224211979 -0.4426390386
1681600000.0 -0.0889865572 -0.5229067725
1691550000.0 -0.3882049459 -0.3714810653
1701500000.0 -0.5299903039 -0.055436433
1711450000.0 -0.4394992804 0.2893166805
1721400000.0 -0.1328125173 0.5031877622
1731350000.0 0.2620578061 0.4650549354
1741300000.0 0.5498950831 0.1765273351
1751250000.0 0.5828934367 -0.2241703974
1761200000.0 0.3540562321 -0.5433801926
1771150000.0 -0.019432763 -0.653135176
1781100000.0 -0.385621095 -0.5286057973
1791050000.0 -0.6192788441 -0.2242467193
1801000000.0 -0.6395247569 0.1588483685
1810950000.0 -0.4296667469 0.4856765424
1820900000.0 -0.0459467932 0.617848436
1830850000.0 0.3612612171 0.4814265358
1840800000.0 0.6021212515 0.131691955
1850750000.0 0.5738642947 -0.266533209
1860700000.0 0.3149987595 -0.5440716631
1870650000.0 -0.0495350574 -0.6181061912
1880600000.0 -0.3865592642 -0.4921394873
1890550000.0 -0.5998639157 -0.2227475483
1900500000.0 -0.6285233874 0.1048443162
1910450000.0 -0.4596456828 0.3829559432
1920400000.0 -0.1398063378 0.5119800795
1930350000.0 0.1976076092 0.4338152192
1940300000.0 0.411984687 0.1850344842
1950250000.0 0.4185818884 -0.1103046476
1960200000.0 0.2493762701 -0.3297910643
1970150000.0 0.0011481713 -0.4121131076
1980100000.0 -0.2244880661 -0.3628635213
1990050000.0 -0.3597842519 -0.2265420505
2000000000.0 -0.3800892914 -0.0704762322
