!Created with skrf (http://scikit-rf.org).
# GHz S RI R 50.0 
!freq ReS11 ImS11
10000000.0 -0.8079252875 0.6053849191
19950000.0 -0.2920711411 0.9499675645
29900000.0 0.3248907464 0.9287795132
39850000.0 0.817597517 0.5467400768
49800000.0 0.9899561741 -0.0650816232
59750000.0 0.7478014227 -0.6708480854
69700000.0 0.1626356201 -0.9984440806
79650000.0 -0.5132176941 -0.8651767843
89600000.0 -0.942194687 -0.3030069641
99550000.0 -0.8770958252 0.4219483417
109500000.0 -0.3081423898 0.9172094249
119450000.0 0.4762521959 0.8530801064
129400000.0 0.9611090097 0.1874264619
139350000.0 0.7863386726 -0.6116424899
149300000.0 0.0398948873 -0.9800159116
159250000.0 -0.7016971217 -0.6543743597
169200000.0 -0.9455625299 0.0864409282
179150000.0 -0.5927580433 0.7492687992
189100000.0 0.0987753612 0.9642589393
199050000.0 0.7258404448 0.655387958
209000000.0 0.9724017728 0.0255969455
218950000.0 0.7558492686 -0.5864320379
228900000.0 0.2151836027 -0.9145500276
238850000.0 -0.4036563154 -0.837076402
248800000.0 -0.6066977033 -0.3399414399
258750000.0 -0.9241590282 0.1644162021
268700000.0 -0.634807788 0.7019841957
278650000.0 -0.0798378691 0.9388739967
288600000.0 0.4960638243 0.7790952089
298550000.0 0.8423710332 0.29984439
308500000.0 0.8124572562 -0.2856398056
318450000.0 0.4213280699 -0.7153583892
328400000.0 -0.1483202778 -0.7885454404
338350000.0 -0.6099497528 -0.4686640088
348300000.0 -0.7173992834 0.0575423939
358250000.0 -0.4404299913 0.4740271828
368200000.0 0.0051912786 0.5562560513
378150000.0 0.3297069856 0.3218726256
388100000.0 0.3751881163 -0.0210228963
398050000.0 0.1890431335 -0.2469382872
408000000.0 -0.0535248894 -0.2581888652
417950000.0 -0.1935335059 -0.1154482561
427900000.0 -0.1819685679 0.0505366303
437850000.0 -0.0717660487 0.1375199733
447800000.0 0.0468578966 0.1191343083
457750000.0 0.1059574326 0.0355475124
467700000.0 0.089543652 -0.0487080819
477650000.0 0.0300687514 -0.0861737693
487600000.0 -0.0224803094 -0.0680007363
497550000.0 0.0072841247 -0.0454190404
507500000.0 -0.0518571148 -0.0058782957
517450000.0 -0.0165466724 0.0051800194
527400000.0 -0.0015829894 -0.0140060551
537350000.0 -0.0174883967 -0.0355543744
547300000.0 -0.0562639377 -0.0332486959
557250000.0 -0.0859019796 0.0102181219
567200000.0 -0.0760951967 0.0715113374
577150000.0 -0.0206943446 0.1194651354
587100000.0 0.0624466306 0.1210868802
597050000.0 0.1361622989 0.0646511422
607000000.0 0.1619536951 -0.0336233538
616950000.0 0.120541724 -0.1331848726
626900000.0 0.0240787588 -0.1911145379
636850000.0 -0.0905012952 -0.1793749766
646800000.0 -0.1751996247 -0.10031486
656750000.0 -0.1939188171 0.0136388583
666700000.0 -0.1381602391 0.1137845626
676650000.0 -0.0340208146 0.1562560868
686600000.0 0.0707418494 0.1243384196
696550000.0 0.1290361068 0.0376851464
706500000.0 0.1177615059 -0.0584978245
716450000.0 0.0500929031 -0.1160051162
726400000.0 -0.0317753176 -0.1075769621
736350000.0 -0.0768352404 -0.0423159504
746300000.0 -0.0545504996 0.0364489627
756250000.0 0.0260708435 0.0750207489
766200000.0 0.1181237206 0.0390160145
776150000.0 0.1610166704 -0.062685728
786100000.0 0.1155274321 -0.1780695092
796050000.0 -0.0119697603 -0.2374779695
806000000.0 -0.1656663993 -0.1902816244
815950000.0 -0.2640558314 -0.0368959459
825900000.0 -0.2424132451 0.1638355392
835850000.0 -0.0892886858 0.3200193758
845800000.0 0.1392325762 0.3498337134
855750000.0 0.3451408881 0.2315342356
865700000.0 0.4416648938 0.0049248021
875650000.0 0.3778021106 -0.2440069137
885600000.0 0.164666172 -0.4092488571
895550000.0 -0.1167818947 -0.4101497684
905500000.0 -0.348221007 -0.2315876603
915450000.0 -0.4210849868 0.0590741442
925400000.0 -0.2932854408 0.3335978164
935350000.0 -0.0174990143 0.4612081056
945300000.0 0.2752715454 0.3739272997
955250000.0 0.4334500165 0.1056431744
965200000.0 0.3554093634 -0.2091788619
975150000.0 0.0556784064 -0.3826856277
985100000.0 -0.2994049247 -0.2647963042
995050000.0 -0.4449457039 0.1130099291
1005000000.0 -0.2208275855 0.4885570481
1014950000.0 0.2513182022 0.5499057249
1024900000.0 0.6316427778 0.1862148232
1034850000.0 0.5878170009 -0.3966669906
1044800000.0 0.0613037546 -0.7645723944
1054750000.0 -0.592222494 -0.573259624
1064700000.0 -0.8304022699 0.0486537119
1074650000.0 -0.6253234738 0.5852035279
1084600000.0 -0.0660083592 0.8667026192
1094550000.0 0.5211516819 0.6621812067
1104500000.0 0.8016466283 0.0997791594
1114450000.0 0.5799075694 -0.4987638425
1124400000.0 -0.0046543246 -0.7223213507
1134350000.0 -0.5183503335 -0.4437428373
1144300000.0 -0.6383587904 0.0712475222
1154250000.0 -0.3720778012 0.4703571456
1164200000.0 0.0667467294 0.548917567
1174150000.0 0.4138502081 0.3043301372
1184100000.0 0.4835010093 -0.1129412078
1194050000.0 0.2318435171 -0.4464716684
1204000000.0 -0.1642706263 -0.5011348769
1213950000.0 -0.4767118036 -0.2886609607
1223900000.0 -0.5791939878 0.0571412603
1233850000.0 -0.4533713198 0.3876850442
1243800000.0 -0.1517754312 0.5806198335
1253750000.0 0.2167193005 0.5557430963
1263700000.0 0.5049462549 0.3070578048
1273650000.0 0.588492957 -0.0696670895
1283600000.0 0.4357580752 -0.4191653551
1293550000.0 0.123378816 -0.6148683888
1303500000.0 -0.2310124764 -0.6094707005
1313450000.0 -0.5217020546 -0.4242730872
1323400000.0 -0.6733815935 -0.1155328059
1333350000.0 -0.6398165779 0.2332451699
1343300000.0 -0.4147688455 0.5206505393
1353250000.0 -0.0548149822 0.6398797633
1363200000.0 0.3186503689 0.5337842868
1373150000.0 0.5675694183 0.2380638415
1383100000.0 0.6117418646 -0.134507968
1393050000.0 0.4575546732 -0.4579499878
1403000000.0 0.1694478456 -0.645659438
1412950000.0 -0.1650834224 -0.6561213559
1422900000.0 -0.4540996131 -0.4913532311
1432850000.0 -0.6126973761 -0.1942377089
1442800000.0 -0.5843758752 0.1481690461
1452750000.0 -0.369878105 0.4238217667
1462700000.0 -0.0376285216 0.5376927346
1472650000.0 0.2979958077 0.4505606364
1482600000.0 0.5220041692 0.2007065335
1492550000.0 0.5680028156 -0.1172282237
1502500000.0 0.4353776799 -0.396240341
1512450000.0 0.1746907529 -0.5484090711
1522400000.0 -0.1260996891 -0.5232447836
1532350000.0 -0.3574770823 -0.3236781315
1542300000.0 -0.4248263991 -0.0221598803
1552250000.0 -0.2962090276 0.2575401687
1562200000.0 -0.0308336728 0.3953232795
1572150000.0 0.2501317446 0.343318514
1582100000.0 0.4294141455 0.1394862654
1592050000.0 0.4439731571 -0.1226444159
1602000000.0 0.2937136252 -0.3365986368
1611950000.0 0.0364290897 -0.4147713048
1621900000.0 -0.2247348377 -0.314578496
1631850000.0 -0.3738788011 -0.0638499722
1641800000.0 -0.334494743 0.2331072398
1651750000.0 -0.1177934315 0.4431303855
1661700000.0 0.180005603 0.4751828705
1671650000.0 0.4346306459 0.3235950077
1681600000.0 0.5532135331 0.0519114869
1691550000.0 0.4954732068 -0.2450400692
1701500000.0 0.2725979178 -0.466315625
1711450000.0 -0.0504414598 -0.5252694125
1721400000.0 -0.3590185911 -0.3767298179
1731350000.0 -0.5045095531 -0.081855093
1741300000.0 -0.5059632048 0.2013726047
1751250000.0 -0.344149215 0.4955685422
1761200000.0 -0.035034756 0.6334895035
1771150000.0 0.2881606957 0.5815635638
1781100000.0 0.5331679515 0.3737239176
1791050000.0 0.639581678 0.0683261461
1801000000.0 0.5723198615 -0.2585174918
1810950000.0 0.3327667776 -0.5117421386
1820900000.0 -0.0189615559 -0.5961280405
1830850000.0 -0.3612504535 -0.4677981578
1840800000.0 -0.5691878021 -0.1778406538
1850750000.0 -0.5864198268 0.1601532713
1860700000.0 -0.4363562236 0.4383131488
1870650000.0 -0.183798545 0.5951215004
1880600000.0 0.1006632816 0.6073233333
1890550000.0 0.350400987 0.4794592285
1900500000.0 0.5023055937 0.2392393021
1910450000.0 0.5037852508 -0.0497058319
1920400000.0 0.3463777086 -0.2929220534
1930350000.0 0.0890050317 -0.4052276506
1940300000.0 -0.1688505148 -0.3620075484
1950250000.0 -0.3437031774 -0.2066797277
1960200000.0 -0.4032835153 -0.0127901609
1970150000.0 -0.3614603774 0.1547435227
1980100000.0 -0.2574264019 0.2549397052
1990050000.0 -0.1428143015 0.2759602419
2000000000.0 -0.0636634599 0.2388668256
