!Created with skrf (http://scikit-rf.org).
# GHz S RI R 50.0 
!freq ReS11 ImS11
10000000.0 -0.9267965285 0.4577499007
19950000.0 -0.624871982 0.7979512233
29900000.0 -0.2049291649 0.9721062956
39850000.0 0.2560581474 0.946095902
49800000.0 0.6675443903 0.7143324806
59750000.0 0.9382311813 0.3084290901
69700000.0 0.9871247772 -0.1963179749
79650000.0 0.7695051099 -0.6783163898
89600000.0 0.3119283387 -0.9872621724
99550000.0 -0.2644195751 -0.9931518187
109500000.0 -0.7614715164 -0.6553948586
119450000.0 -0.9750149316 -0.067717645
129400000.0 -0.7877323558 0.5439461386
139350000.0 -0.2396663216 0.9368685676
149300000.0 0.438129871 0.8866133477
159250000.0 0.9198919808 0.4173643889
169200000.0 0.9871593818 -0.226716281
179150000.0 0.6627268318 -0.74297262
189100000.0 0.1349617015 -0.9591887597
199050000.0 -0.3914593252 -0.8610997123
209000000.0 -0.7767202849 -0.523523463
218950000.0 -0.9394329625 -0.061674341
228900000.0 -0.8631135152 0.4138238346
238850000.0 -0.5677476255 0.7924029985
248800000.0 -0.2445298438 0.8335786358
258750000.0 0.2948523666 0.937810186
268700000.0 0.6820730096 0.6848276795
278650000.0 0.8948259753 0.2857772105
288600000.0 0.8945761514 -0.1602701068
298550000.0 0.6884841484 -0.5513927488
308500000.0 0.3240245481 -0.7983389239
318450000.0 -0.1134569499 -0.8384535287
328400000.0 -0.509670635 -0.653265167
338350000.0 -0.7434669754 -0.2898305521
348300000.0 -0.7323724977 0.1295761421
358250000.0 -0.4908630392 0.4450631091
368200000.0 -0.1399073319 0.5441950143
378150000.0 0.1625286649 0.4281068396
388100000.0 0.3127057164 0.1916998946
398050000.0 0.2955831889 -0.0441494465
408000000.0 0.1671855754 -0.1903441091
417950000.0 0.0107271606 -0.2199810296
427900000.0 -0.1040472536 -0.1571384632
437850000.0 -0.1452730175 -0.0541647347
447800000.0 -0.1168710486 0.0371084814
457750000.0 -0.0492153032 0.0856675569
467700000.0 0.0224894657 0.0855326769
477650000.0 0.0705393796 0.0504604165
487600000.0 0.0767748888 0.0025789697
497550000.0 0.1112351371 -0.0117646588
507500000.0 0.0579189009 -0.0525450613
517450000.0 0.0210054821 -0.0449878108
527400000.0 0.0026213182 -0.0174846515
537350000.0 0.0074765908 0.0134765526
547300000.0 0.0376507796 0.0324648103
557250000.0 0.0709369779 0.0206461384
567200000.0 0.0905345193 -0.0133667644
577150000.0 0.086850429 -0.0599510039
587100000.0 0.05450896 -0.1057697405
597050000.0 -0.0034537015 -0.1338443471
607000000.0 -0.0749725194 -0.1312103925
616950000.0 -0.1404984306 -0.0932024013
626900000.0 -0.1809069858 -0.0273672507
636850000.0 -0.1854350339 0.0506883904
646800000.0 -0.150497865 0.1213226719
656750000.0 -0.083973562 0.1663589141
666700000.0 -0.0020684531 0.172246186
676650000.0 0.0735561224 0.1371118677
686600000.0 0.1233053131 0.0698307739
696550000.0 0.1348819903 -0.0113195958
706500000.0 0.1059414021 -0.0838677315
716450000.0 0.0470339981 -0.127305654
726400000.0 -0.0219838415 -0.1286452174
736350000.0 -0.0756762245 -0.0881821321
746300000.0 -0.0925479096 -0.0197110482
756250000.0 -0.0619741905 0.0527409308
766200000.0 0.0125861305 0.099666852
776150000.0 0.1102247972 0.0978352657
786100000.0 0.1986173089 0.0404552554
796050000.0 0.2468543696 -0.0615752878
806000000.0 0.2336808279 -0.182098874
815950000.0 0.1508855075 -0.2858594258
825900000.0 0.0116398835 -0.3346949415
835850000.0 -0.147776754 -0.2965056657
845800000.0 -0.2669192551 -0.1839803634
855750000.0 -0.3343312785 -0.023600888
865700000.0 -0.3221276183 0.1648168877
875650000.0 -0.2207780109 0.3342670019
885600000.0 -0.0488036999 0.4391443165
895550000.0 0.1551803257 0.4500366747
905500000.0 0.3415543454 0.3590416083
915450000.0 0.4604597554 0.1823919682
925400000.0 0.4729588337 -0.03916468
935350000.0 0.3624828846 -0.2459014201
945300000.0 0.1464005465 -0.3710398345
955250000.0 -0.1203674116 -0.3568503862
965200000.0 -0.3449004796 -0.1806318418
975150000.0 -0.420345942 0.1140812811
985100000.0 -0.279589864 0.4083722631
995050000.0 0.0454734298 0.5457380702
1005000000.0 0.4164647736 0.4204258547
1014950000.0 0.634054922 0.0352693499
1024900000.0 0.5279138225 -0.4474417533
1034850000.0 0.0899245924 -0.7604433214
1044800000.0 -0.4695918734 -0.6942061866
1054750000.0 -0.8274438929 -0.2641149656
1064700000.0 -0.8476630286 0.1886909747
1074650000.0 -0.6334766558 0.6344285798
1084600000.0 -0.1897454665 0.8549654168
1094550000.0 0.288564827 0.7853138382
1104500000.0 0.6447280964 0.4638115092
1114450000.0 0.752885523 -0.0040654787
1124400000.0 0.5627710119 -0.4391021222
1134350000.0 0.1613709018 -0.6564767765
1144300000.0 -0.2572702183 -0.583683941
1154250000.0 -0.5200991353 -0.3005937853
1164200000.0 -0.5672871534 0.0450247406
1174150000.0 -0.4343498506 0.3382857048
1184100000.0 -0.1764167859 0.5129316999
1194050000.0 0.1302562587 0.5242317047
1204000000.0 0.3945759675 0.3725870464
1213950000.0 0.5377972059 0.1052512941
1223900000.0 0.5198542537 -0.1947666697
1233850000.0 0.3555591724 -0.438356889
1243800000.0 0.1032379349 -0.5677516961
1253750000.0 -0.1685836917 -0.5692569258
1263700000.0 -0.40561508 -0.4611428578
1273650000.0 -0.5737007439 -0.2742697142
1283600000.0 -0.654559932 -0.0423622261
1293550000.0 -0.6405466115 0.2023272193
1303500000.0 -0.5309130929 0.4253229324
1313450000.0 -0.3362144822 0.5907121443
1323400000.0 -0.0823723049 0.6642049721
1333350000.0 0.1873790658 0.6237217549
1343300000.0 0.4205821125 0.4716115275
1353250000.0 0.5712793462 0.2367729185
1363200000.0 0.6161155427 -0.0335866931
1373150000.0 0.5565589825 -0.2920268194
1383100000.0 0.4125156727 -0.5009008571
1393050000.0 0.2118592166 -0.6382978048
1403000000.0 -0.0167109775 -0.6927679324
1412950000.0 -0.244896092 -0.660457255
1422900000.0 -0.443454126 -0.5459708083
1432850000.0 -0.5836319953 -0.3615286566
1442800000.0 -0.6418003628 -0.131227183
1452750000.0 -0.603066242 0.1110393041
1462700000.0 -0.4660478327 0.3253703036
1472650000.0 -0.2484740178 0.4701495672
1482600000.0 0.0099810868 0.5136190365
1492550000.0 0.2582301387 0.4495295885
1502500000.0 0.4510349216 0.2960014482
1512450000.0 0.5577530453 0.0872771807
1522400000.0 0.5674711628 -0.1350146513
1532350000.0 0.4840033498 -0.331423662
1542300000.0 0.3265645237 -0.4683098068
1552250000.0 0.1241072635 -0.5202537713
1562200000.0 -0.0834546379 -0.4752862827
1572150000.0 -0.2539206883 -0.3383829674
1582100000.0 -0.3468089331 -0.1347353019
1592050000.0 -0.3371708395 0.09018352
1602000000.0 -0.2289366518 0.2845003439
1611950000.0 -0.0457746714 0.4028253937
1621900000.0 0.1643669614 0.4207099176
1631850000.0 0.352103526 0.3389326353
1641800000.0 0.4769355318 0.1804641684
1651750000.0 0.5140473819 -0.0187785138
1661700000.0 0.4565266073 -0.2177804563
1671650000.0 0.3129888834 -0.3773514565
1681600000.0 0.1068103203 -0.4619776837
1691550000.0 -0.1215597488 -0.4467854411
1701500000.0 -0.3105206356 -0.3352571405
1711450000.0 -0.4535173597 -0.1892078405
1721400000.0 -0.5419912457 0.0421816197
1731350000.0 -0.503148442 0.2920689895
1741300000.0 -0.3596408551 0.4916507231
1751250000.0 -0.152286984 0.6075250021
1761200000.0 0.0762602404 0.6302429238
1771150000.0 0.2905542592 0.5671365059
1781100000.0 0.4651160064 0.4337120581
1791050000.0 0.5819415582 0.2483920306
1801000000.0 0.6267132081 0.0314320625
1810950000.0 0.5903263284 -0.1921343662
1820900000.0 0.4699006408 -0.3925429154
1830850000.0 0.2751836029 -0.5333814887
1840800000.0 0.0352264158 -0.5842739822
1850750000.0 -0.2051346526 -0.531691153
1860700000.0 -0.3986190959 -0.387739268
1870650000.0 -0.5136719516 -0.1866233665
1880600000.0 -0.5421701603 0.0294311363
1890550000.0 -0.4942951032 0.2264588955
1900500000.0 -0.388879399 0.381932503
1910450000.0 -0.2472879727 0.4839611217
1920400000.0 -0.0899812396 0.5269226514
1930350000.0 0.0631772707 0.5101491794
1940300000.0 0.1911151649 0.4376988267
1950250000.0 0.2729998659 0.3242983502
1960200000.0 0.2955328423 0.193891661
1970150000.0 0.2591204586 0.0775963079
1980100000.0 0.1829998781 0.0021340275
1990050000.0 0.0992480619 -0.020144069
2000000000.0 0.0429691914 0.0031675885
