!Created with skrf (http://scikit-rf.org).
# GHz S RI R 50.0 
!freq ReS11 ImS11
10000000.0 -0.999224197 0.1605684141
19950000.0 -0.9461222451 0.3068525058
29900000.0 -0.8710991651 0.4477018092
39850000.0 -0.7733740396 0.5874013816
49800000.0 -0.6540791539 0.7205223572
59750000.0 -0.5074525115 0.8406328558
69700000.0 -0.3257210896 0.9359290002
79650000.0 -0.1044107164 0.9867192284
89600000.0 0.1551211403 0.9727690793
99550000.0 0.4371994391 0.8711880423
109500000.0 0.7124961213 0.6646350278
119450000.0 0.9280684743 0.3418291794
129400000.0 1.009094944 -0.0714766722
139350000.0 0.8996165434 -0.4872401981
149300000.0 0.6185756448 -0.8042834518
159250000.0 0.2565661992 -0.9614987662
169200000.0 -0.0981641392 -0.9767594716
179150000.0 -0.3986726121 -0.8946953243
189100000.0 -0.6305125068 -0.7558257889
199050000.0 -0.7919728197 -0.5870242994
209000000.0 -0.8878340582 -0.405514595
218950000.0 -0.9343797729 -0.2249070099
228900000.0 -0.9431724396 -0.0512121077
238850000.0 -0.9255681454 0.1140157277
248800000.0 -0.8641147204 0.2595637292
258750000.0 -0.8379246201 0.4102786816
268700000.0 -0.7649696601 0.5420087893
278650000.0 -0.6679221302 0.6538198629
288600000.0 -0.5451404235 0.7424174474
298550000.0 -0.398589566 0.8036676756
308500000.0 -0.2322874633 0.8378202005
318450000.0 -0.0511273413 0.8389080541
328400000.0 0.1370753474 0.7988311105
338350000.0 0.3131916349 0.705556994
348300000.0 0.4503330346 0.5535949983
358250000.0 0.5179211326 0.3574822704
368200000.0 0.5030337465 0.1513171929
378150000.0 0.4167473626 -0.0250809191
388100000.0 0.2883692673 -0.1457787843
398050000.0 0.1517947082 -0.2016160379
408000000.0 0.0348668066 -0.2011187399
417950000.0 -0.0514556985 -0.1612927722
427900000.0 -0.1062236088 -0.1009703724
437850000.0 -0.1345920833 -0.0347481841
447800000.0 -0.143344298 0.0252057665
457750000.0 -0.1374742575 0.0715681598
467700000.0 -0.1209229405 0.1006505566
477650000.0 -0.0965385514 0.1108675394
487600000.0 -0.0678056231 0.1055600853
497550000.0 -0.0424161924 0.0918394702
507500000.0 -0.0103796218 0.0728270137
517450000.0 0.0098441823 0.0506080757
527400000.0 0.0194989838 0.0295480749
537350000.0 0.0151750504 0.0103254782
547300000.0 0.0004336764 -0.0061212686
557250000.0 -0.023971754 -0.0231415951
567200000.0 -0.0538140795 -0.0378087361
577150000.0 -0.0839792457 -0.0487697145
587100000.0 -0.110428352 -0.0539771443
597050000.0 -0.1311059642 -0.0503680042
607000000.0 -0.1457457876 -0.0366982034
616950000.0 -0.1554933306 -0.0134507785
626900000.0 -0.1610086185 0.0169661776
636850000.0 -0.1628941571 0.0497177291
646800000.0 -0.160441672 0.0810116536
656750000.0 -0.152653023 0.1065023922
666700000.0 -0.1372682742 0.1245051013
676650000.0 -0.1124746677 0.1336284006
686600000.0 -0.0790662505 0.13508473
696550000.0 -0.0391284662 0.1297803836
706500000.0 0.0024527977 0.1184286927
716450000.0 0.0412435098 0.101221878
726400000.0 0.0716267056 0.0757238064
736350000.0 0.0898912807 0.0416279563
746300000.0 0.0946187618 -0.0025775131
756250000.0 0.084999772 -0.0550099541
766200000.0 0.0633362818 -0.1111959492
776150000.0 0.0314117413 -0.1658603309
786100000.0 -0.0094816049 -0.2121830147
796050000.0 -0.0583176031 -0.2435942264
806000000.0 -0.1129925875 -0.2562409306
815950000.0 -0.173528225 -0.2484456242
825900000.0 -0.236746782 -0.2225914419
835850000.0 -0.2996778415 -0.1826866435
845800000.0 -0.357550576 -0.132688209
855750000.0 -0.4046907817 -0.0750875039
865700000.0 -0.4345087472 -0.0117764068
875650000.0 -0.4418606016 0.0566243766
885600000.0 -0.4234616225 0.1289096157
895550000.0 -0.3802803073 0.2044930534
905500000.0 -0.3149475844 0.2803450951
915450000.0 -0.2328381817 0.3512838443
925400000.0 -0.1436156554 0.4082034697
935350000.0 -0.050014654 0.4409178128
945300000.0 0.0559200148 0.4359834523
955250000.0 0.1757949448 0.382097135
965200000.0 0.299851054 0.2698759685
975150000.0 0.4069274859 0.0984387261
985100000.0 0.4644343741 -0.1235925711
995050000.0 0.4348470674 -0.3659628297
1005000000.0 0.2918534807 -0.5790014072
1014950000.0 0.049506828 -0.703040488
1024900000.0 -0.2430785041 -0.7043342503
1034850000.0 -0.5248207816 -0.5897145205
1044800000.0 -0.7447912475 -0.3883360844
1054750000.0 -0.8723103473 -0.1367222246
1064700000.0 -0.8903949904 0.1281664934
1074650000.0 -0.815391431 0.369060966
1084600000.0 -0.6472638911 0.5618171772
1094550000.0 -0.4354707314 0.7100750636
1104500000.0 -0.1768377563 0.7929842944
1114450000.0 0.0966356772 0.7896277318
1124400000.0 0.3484650067 0.6888973807
1134350000.0 0.5367372806 0.5032135909
1144300000.0 0.6374614406 0.2660216701
1154250000.0 0.6510112375 0.0211063505
1164200000.0 0.5981508177 -0.197784754
1174150000.0 0.5039060214 -0.3787850749
1184100000.0 0.3785457866 -0.5155949166
1194050000.0 0.2362773462 -0.6013625307
1204000000.0 0.0913169894 -0.6381592403
1213950000.0 -0.0472410784 -0.637269337
1223900000.0 -0.1735247679 -0.6126065914
1233850000.0 -0.2863569754 -0.575203802
1243800000.0 -0.3840952543 -0.531339556
1253750000.0 -0.4673146876 -0.4825676282
1263700000.0 -0.533755598 -0.4276519754
1273650000.0 -0.5842942304 -0.3668878598
1283600000.0 -0.6182071246 -0.2992065446
1293550000.0 -0.6409488402 -0.2262657387
1303500000.0 -0.6569681592 -0.1511839201
1313450000.0 -0.6696413266 -0.0776346341
1323400000.0 -0.6812156067 -0.0074484179
1333350000.0 -0.6893966769 0.058624668
1343300000.0 -0.6906441134 0.1204327156
1353250000.0 -0.6824798059 0.1771777348
1363200000.0 -0.6613109427 0.2316165237
1373150000.0 -0.6269870896 0.284409504
1383100000.0 -0.5841150396 0.3370578537
1393050000.0 -0.5366851665 0.389709166
1403000000.0 -0.4882534836 0.4407574571
1412950000.0 -0.4400250909 0.4884110718
1422900000.0 -0.3906641918 0.5291163729
1432850000.0 -0.3384395388 0.5590538547
1442800000.0 -0.2805496918 0.5784500396
1452750000.0 -0.2147091827 0.586011887
1462700000.0 -0.1404465211 0.5834776875
1472650000.0 -0.0594392747 0.5741553373
1482600000.0 0.0241169989 0.5593620152
1492550000.0 0.1066816705 0.5381534685
1502500000.0 0.1856279502 0.5079397824
1512450000.0 0.2562331732 0.4636124697
1522400000.0 0.3152682865 0.4027307853
1532350000.0 0.361345637 0.3234528071
1542300000.0 0.3944783274 0.2281947273
1552250000.0 0.414745306 0.1219437764
1562200000.0 0.4225758561 0.0116837251
1572150000.0 0.4141434414 -0.0968942438
1582100000.0 0.3861540489 -0.1981606899
1592050000.0 0.3381813807 -0.2860362571
1602000000.0 0.2696343353 -0.3590779621
1611950000.0 0.1859015447 -0.4150030123
1621900000.0 0.0933427956 -0.4571046098
1631850000.0 -0.0020404207 -0.4873456226
1641800000.0 -0.0957239661 -0.5071328814
1651750000.0 -0.1833948833 -0.5144204057
1661700000.0 -0.2635213196 -0.5080608593
1671650000.0 -0.3350085433 -0.4858723063
1681600000.0 -0.3981043515 -0.4501337072
1691550000.0 -0.455727517 -0.4043731549
1701500000.0 -0.5099871977 -0.3531687673
1711450000.0 -0.5607832328 -0.3004789138
1721400000.0 -0.6072974202 -0.2478178509
1731350000.0 -0.6453589995 -0.1983931314
1741300000.0 -0.6677229809 -0.1532337392
1751250000.0 -0.6547191509 -0.1160574712
1761200000.0 -0.6463147778 -0.0807589487
1771150000.0 -0.6797328886 -0.0322828558
1781100000.0 -0.6832423132 0.0246765836
1791050000.0 -0.67812608 0.0813707109
1801000000.0 -0.6735055065 0.1367275437
1810950000.0 -0.6711781786 0.1874475462
1820900000.0 -0.6673718871 0.2332692967
1830850000.0 -0.6583613903 0.2733041747
1840800000.0 -0.6394358068 0.3076489026
1850750000.0 -0.6099232917 0.3379227936
1860700000.0 -0.5706507423 0.3648210593
1870650000.0 -0.5272742841 0.3909441108
1880600000.0 -0.4846404165 0.415141518
1890550000.0 -0.4466185079 0.438107682
1900500000.0 -0.4128005854 0.4567678876
1910450000.0 -0.3830015635 0.4688279537
1920400000.0 -0.3523850617 0.4714580817
1930350000.0 -0.3192245366 0.4641009257
1940300000.0 -0.2816750526 0.4468928752
1950250000.0 -0.2411000443 0.4215068856
1960200000.0 -0.1998107981 0.3913605981
1970150000.0 -0.165084083 0.3574015223
1980100000.0 -0.1402845123 0.3207727842
1990050000.0 -0.131354754 0.2792634543
2000000000.0 -0.1420422886 0.2295241706
