!Created with skrf (http://scikit-rf.org).
# GHz S RI R 50.0 
!freq ReS11 ImS11
10000000.0 -0.7674922784 0.6794253863
19950000.0 -0.1321536445 0.9898368048
29900000.0 0.5448844408 0.8129137645
39850000.0 0.9466616271 0.2337228956
49800000.0 0.8656820186 -0.4794525009
59750000.0 0.309481877 -0.9655601125
69700000.0 -0.4521771503 -0.9261462751
79650000.0 -0.9689608738 -0.3357125927
89600000.0 -0.8858416159 0.4625734863
99550000.0 -0.2225819932 0.9434920102
109500000.0 0.5956638228 0.7503941039
119450000.0 0.9747978718 -0.0344242778
129400000.0 0.5592271446 -0.8344460941
139350000.0 -0.3576262753 -0.9492947291
149300000.0 -0.9569325937 -0.2567461094
159250000.0 -0.7417952885 0.6024623881
169200000.0 0.0366290335 0.9399155712
179150000.0 0.7658573189 0.569277016
189100000.0 0.9612891654 -0.2011244772
199050000.0 0.5327268531 -0.8470908064
209000000.0 -0.212034008 -0.97216426
218950000.0 -0.8032182309 -0.5424089203
228900000.0 -0.9267169659 0.1582697635
238850000.0 -0.542596647 0.7470079941
248800000.0 0.0294463126 0.9113340309
258750000.0 0.7009571444 0.6376573376
268700000.0 0.9667536783 0.0055333055
278650000.0 0.731665126 -0.6339125046
288600000.0 0.1276633339 -0.9359932507
298550000.0 -0.5108772385 -0.7456914948
308500000.0 -0.8412285318 -0.1770526217
318450000.0 -0.6888543524 0.4536411282
328400000.0 -0.1446060589 0.7889955534
338350000.0 0.4588632201 0.6302589705
348300000.0 0.7293241975 0.0995771981
358250000.0 0.5158337499 -0.4100710515
368200000.0 0.0395741656 -0.5521950451
378150000.0 -0.3175069699 -0.3064280219
388100000.0 -0.3413415295 0.0617284796
398050000.0 -0.1111707411 0.2635519557
408000000.0 0.1323953788 0.2088046716
417950000.0 0.2100942962 0.0216409068
427900000.0 0.1190936094 -0.119690013
437850000.0 -0.0238127718 -0.1255985816
447800000.0 -0.1018748595 -0.0285565247
457750000.0 -0.0748413631 0.0775290645
467700000.0 0.0146703484 0.1143688118
477650000.0 0.0867499434 0.0682163645
487600000.0 0.0691509792 -0.0105645772
497550000.0 0.0887642156 -0.0399600683
507500000.0 0.0143414876 -0.057027296
517450000.0 -0.0223880991 -0.0222336732
527400000.0 -0.0150531863 0.0134348371
537350000.0 0.0160021295 0.0192273254
547300000.0 0.0319850304 -0.0215681871
557250000.0 -0.0057885737 -0.0545865992
567200000.0 -0.0633051507 -0.0457557542
577150000.0 -0.1016299703 0.0106160977
587100000.0 -0.0845173669 0.0872813708
597050000.0 -0.0087852985 0.1344363032
607000000.0 0.088748265 0.112424664
616950000.0 0.1505816411 0.0221853759
626900000.0 0.1358637061 -0.0937584838
636850000.0 0.0444579553 -0.1738228199
646800000.0 -0.0786693449 -0.1727189178
656750000.0 -0.168771952 -0.0883901902
666700000.0 -0.1749674195 0.0330694561
676650000.0 -0.0953054202 0.1225751693
686600000.0 0.0231297293 0.1285718989
696550000.0 0.1081652759 0.0489334067
706500000.0 0.1070002049 -0.0643581498
716450000.0 0.0184365135 -0.1303310571
726400000.0 -0.062624779 -0.0737837276
736350000.0 -0.0697141231 -0.0462909705
746300000.0 -0.0616222666 0.0242191298
756250000.0 0.0217283768 0.0561105013
766200000.0 0.1095588289 -0.001907255
776150000.0 0.121606367 -0.1233871577
786100000.0 0.0266298231 -0.2257912936
796050000.0 -0.1324021727 -0.2248431817
806000000.0 -0.255230176 -0.0928052206
815950000.0 -0.2468127921 0.1104056158
825900000.0 -0.0825097194 0.2660118471
835850000.0 0.1645591308 0.265434793
845800000.0 0.3559278129 0.084891508
855750000.0 0.378100477 -0.1866230379
865700000.0 0.2077888508 -0.4143590737
875650000.0 -0.0833613507 -0.471764392
885600000.0 -0.3477927466 -0.3115600872
895550000.0 -0.4380947133 -0.0034272666
905500000.0 -0.2896609138 0.2944033174
915450000.0 0.0302029942 0.4130983007
925400000.0 0.347560517 0.2739366689
935350000.0 0.4769512007 -0.050250342
945300000.0 0.3355725198 -0.3708025478
955250000.0 0.0013776512 -0.4890650203
965200000.0 -0.3185234013 -0.315406881
975150000.0 -0.3960483115 0.057484762
985100000.0 -0.132661282 0.3659617083
995050000.0 0.301714284 0.3266940697
1005000000.0 0.5244344793 -0.0901546133
1014950000.0 0.2751747335 -0.5402615464
1024900000.0 -0.2900925665 -0.583422111
1034850000.0 -0.6816792551 -0.086631259
1044800000.0 -0.4494383185 0.5801734532
1054750000.0 0.2602042647 0.6972108062
1064700000.0 0.7747237281 0.2963285872
1074650000.0 0.7465461712 -0.4610380081
1084600000.0 0.0874455488 -0.7233113417
1094550000.0 -0.4051969904 -0.7074082114
1104500000.0 -0.78793664 -0.1001739695
1114450000.0 -0.5141445762 0.5555196915
1124400000.0 0.1643544652 0.7038919697
1134350000.0 0.6375765722 0.2569992607
1144300000.0 0.5574001157 -0.3257667792
1154250000.0 0.1000390103 -0.5917060306
1164200000.0 -0.354592462 -0.4291097792
1174150000.0 -0.5320056708 -0.0071789437
1184100000.0 -0.3297002502 0.4091781725
1194050000.0 0.1217542404 0.515706681
1204000000.0 0.4853099887 0.245023886
1213950000.0 0.5302492243 -0.1881053842
1223900000.0 0.2703466069 -0.5160189737
1233850000.0 -0.1312081307 -0.5873626554
1243800000.0 -0.4830647986 -0.3819948166
1253750000.0 -0.6231565145 0.0101255196
1263700000.0 -0.4675068928 0.40995327
1273650000.0 -0.0758307516 0.6097385052
1283600000.0 0.3509392316 0.4974384952
1293550000.0 0.5972612244 0.1411200846
1303500000.0 0.5674605456 -0.2783714991
1313450000.0 0.2987008601 -0.585905057
1323400000.0 -0.093532637 -0.6757741187
1333350000.0 -0.4659771169 -0.5189126334
1343300000.0 -0.6783615211 -0.1627935509
1353250000.0 -0.6268082794 0.2622290463
1363200000.0 -0.3102241737 0.5685191691
1373150000.0 0.1331039112 0.6026079315
1383100000.0 0.4923568533 0.352350521
1393050000.0 0.6161654701 -0.0520914347
1403000000.0 0.4785604403 -0.4333628985
1412950000.0 0.1554370689 -0.6536114182
1422900000.0 -0.2273125824 -0.6457966326
1432850000.0 -0.5297044952 -0.417634372
1442800000.0 -0.6383076588 -0.0526076319
1452750000.0 -0.5020408557 0.3095355452
1462700000.0 -0.16293337 0.5121289913
1472650000.0 0.2299571966 0.4537469229
1482600000.0 0.4910141628 0.16234545
1492550000.0 0.507537442 -0.215899509
1502500000.0 0.291311031 -0.5088591896
1512450000.0 -0.0486547464 -0.5995937337
1522400000.0 -0.3639743649 -0.4595482292
1532350000.0 -0.5158274559 -0.1532947363
1542300000.0 -0.4316769431 0.1780929343
1552250000.0 -0.1490658287 0.368452935
1562200000.0 0.1825220676 0.3183507664
1572150000.0 0.3847294557 0.0625493558
1582100000.0 0.3574688916 -0.2519716641
1592050000.0 0.1297663585 -0.4556650731
1602000000.0 -0.1702158094 -0.4520432867
1611950000.0 -0.3905352291 -0.2454360706
1621900000.0 -0.4159375892 0.0628927556
1631850000.0 -0.2199286614 0.3156425239
1641800000.0 0.1066921704 0.3673288883
1651750000.0 0.3863905938 0.17470855
1661700000.0 0.4571258482 -0.1608272102
1671650000.0 0.2808697824 -0.4559100694
1681600000.0 -0.045886643 -0.5609259962
1691550000.0 -0.3659327186 -0.4309224284
1701500000.0 -0.5361580951 -0.1231781775
1711450000.0 -0.4656498333 0.2314717163
1721400000.0 -0.2292366367 0.4104937809
1731350000.0 0.1269228261 0.5250027418
1741300000.0 0.4794827382 0.3106906214
1751250000.0 0.5980522559 -0.0808206436
1761200000.0 0.4401334355 -0.4485356838
1771150000.0 0.0991624036 -0.6338574436
1781100000.0 -0.2743443836 -0.5825504631
1791050000.0 -0.5462836286 -0.3307448538
1801000000.0 -0.6274775556 0.0322398981
1810950000.0 -0.4818969412 0.3830058631
1820900000.0 -0.1454356586 0.5837116739
1830850000.0 0.2526554586 0.5312083021
1840800000.0 0.5276082024 0.2372895355
1850750000.0 0.5534169115 -0.1539587879
1860700000.0 0.3435899429 -0.4614643393
1870650000.0 0.0141591367 -0.5789025705
1880600000.0 -0.303932009 -0.4949788955
1890550000.0 -0.5120537017 -0.2609476755
1900500000.0 -0.5537380396 0.0396769803
1910450000.0 -0.4202880649 0.306022
1920400000.0 -0.1585806749 0.4391448262
1930350000.0 0.1205704297 0.3839300292
1940300000.0 0.293489149 0.1776071512
1950250000.0 0.2987353884 -0.066859857
1960200000.0 0.1717759511 -0.2391672403
1970150000.0 0.0005900264 -0.2925674708
1980100000.0 -0.1331755896 -0.2504142804
1990050000.0 -0.1945794027 -0.1760495746
2000000000.0 -0.2093738087 -0.1305655279
