!Created with skrf (http://scikit-rf.org).
# GHz S RI R 50.0 
!freq ReS11 ImS11
10000000.0 -0.7722079739 0.6755675485
19950000.0 -0.1440564481 0.9884617355
29900000.0 0.5300231044 0.8217312865
39850000.0 0.9394462032 0.2545769346
49800000.0 0.8763657017 -0.4550008008
59750000.0 0.3384307367 -0.9541945317
69700000.0 -0.420922998 -0.9403217178
79650000.0 -0.9577531894 -0.3689869647
89600000.0 -0.9008990693 0.4344933441
99550000.0 -0.2459466273 0.9377363243
109500000.0 0.5864527563 0.7564448513
119450000.0 0.9742114869 -0.040822591
129400000.0 0.5324062772 -0.8525857814
139350000.0 -0.3965423273 -0.9343148027
149300000.0 -0.9681805169 -0.2042811703
159250000.0 -0.7029073286 0.6449620436
169200000.0 0.0923891773 0.9354239787
179150000.0 0.7950210597 0.5296207002
189100000.0 0.954253094 -0.2392836086
199050000.0 0.5119249599 -0.861151562
209000000.0 -0.2215065646 -0.9707933422
218950000.0 -0.7999923296 -0.5481883722
228900000.0 -0.9310436824 0.1349133339
238850000.0 -0.5816847842 0.7187000115
248800000.0 0.0474648825 0.9055570855
258750000.0 0.6712679467 0.6701881192
268700000.0 0.9669521831 0.0689276998
278650000.0 0.7850148914 -0.5761259718
288600000.0 0.2189675551 -0.9283766286
298550000.0 -0.428560507 -0.8078494151
308500000.0 -0.8199310445 -0.2875436869
318450000.0 -0.7519133441 0.3513543588
328400000.0 -0.2654826159 0.7564713092
338350000.0 0.3482525836 0.6905786918
348300000.0 0.6918188154 0.2159144949
358250000.0 0.5644830001 -0.3044651026
368200000.0 0.134852979 -0.5106833346
378150000.0 -0.2305378281 -0.3286489027
388100000.0 -0.2891696108 0.0022901093
398050000.0 -0.0995992484 0.1929986903
408000000.0 0.1064788379 0.1479110821
417950000.0 0.157132697 -0.0145181953
427900000.0 0.0565357475 -0.1219356898
437850000.0 -0.0759038521 -0.0954523299
447800000.0 -0.1284225952 0.0234389969
457750000.0 -0.0705892297 0.136318218
467700000.0 0.0471849091 0.1644916065
477650000.0 0.142135948 0.0974491452
487600000.0 0.1588259064 -0.0117482769
497550000.0 0.1024128928 -0.0936333801
507500000.0 0.0123083968 -0.1092355936
517450000.0 -0.0515574077 -0.0664063732
527400000.0 -0.0650236654 -0.0077113957
537350000.0 -0.0401898455 0.0246195443
547300000.0 -0.0137178499 0.021564822
557250000.0 -0.0127682915 0.0027116039
567200000.0 -0.0373221814 0.0020623203
577150000.0 -0.0570220799 0.0346403307
587100000.0 -0.0389134654 0.0825394338
597050000.0 0.0232149368 0.1066796224
607000000.0 0.1001281157 0.0735683391
616950000.0 0.1417383473 -0.0150916844
626900000.0 0.1113746344 -0.1200625803
636850000.0 0.0103433962 -0.1843458646
646800000.0 -0.1163942576 -0.1648276476
656750000.0 -0.1961330318 -0.0577717251
666700000.0 -0.1789331441 0.0632888876
676650000.0 -0.088769031 0.1492146506
686600000.0 0.0403952583 0.1518700254
696550000.0 0.1361371126 0.0654841149
706500000.0 0.1455804946 -0.0604294296
716450000.0 0.0679461959 -0.1540474522
726400000.0 -0.0463463671 -0.1628727867
736350000.0 -0.1227762489 -0.0872813391
746300000.0 -0.1117208574 0.016854521
756250000.0 -0.0221933468 0.0725994284
766200000.0 0.0809191873 0.0335660275
776150000.0 0.1157097516 -0.0787792387
786100000.0 0.0457390532 -0.1866555646
796050000.0 -0.0956049846 -0.2038923886
806000000.0 -0.2134228441 -0.0956049863
815950000.0 -0.2127108941 0.0860090506
825900000.0 -0.0655634112 0.2274139252
835850000.0 0.1591409884 0.223252613
845800000.0 0.330843321 0.0512519463
855750000.0 0.3379380993 -0.2078601003
865700000.0 0.1557648955 -0.4124509808
875650000.0 -0.1307028398 -0.4371335166
885600000.0 -0.3678664298 -0.2480395627
895550000.0 -0.4120391192 0.0675651433
905500000.0 -0.2174379742 0.3378837572
915450000.0 0.1224495224 0.3978220036
925400000.0 0.412299618 0.1945568794
935350000.0 0.4717891592 -0.1612096963
945300000.0 0.2506136611 -0.4547098537
955250000.0 -0.1277173229 -0.4895798954
965200000.0 -0.4172030918 -0.2130904187
975150000.0 -0.3834699191 0.2144275584
985100000.0 0.0121805943 0.4617852607
995050000.0 0.4795518269 0.2571939844
1005000000.0 0.5667089649 -0.2910457665
1014950000.0 0.1177814042 -0.6902714031
1024900000.0 -0.5119586481 -0.5245241302
1034850000.0 -0.7489271921 0.1425449715
1044800000.0 -0.2942258316 0.7562136785
1054750000.0 0.4999026424 0.7102913412
1064700000.0 0.8926617621 0.0503233817
1074650000.0 0.6405843015 -0.6381710417
1084600000.0 -0.0249901634 -0.8760656124
1094550000.0 -0.6248291951 -0.5511121142
1104500000.0 -0.7868985137 0.1031839512
1114450000.0 -0.3973857019 0.6541049752
1124400000.0 0.2643344641 0.6964144486
1134350000.0 0.6838324689 0.2286159223
1144300000.0 0.5971140409 -0.3443499582
1154250000.0 0.1524336361 -0.6348411193
1164200000.0 -0.3293966044 -0.5202839057
1174150000.0 -0.5788483065 -0.1128115953
1184100000.0 -0.4565386954 0.3520233219
1194050000.0 -0.0260374214 0.569111309
1204000000.0 0.4135379615 0.3913575541
1213950000.0 0.5755760829 -0.0345850365
1223900000.0 0.4007054705 -0.4316285923
1233850000.0 0.0191667164 -0.6016381224
1243800000.0 -0.3761340386 -0.4848580058
1253750000.0 -0.6056475456 -0.1375732361
1263700000.0 -0.5503759117 0.2844381969
1273650000.0 -0.218430407 0.5687426309
1283600000.0 0.2230386612 0.5558770328
1293550000.0 0.540956189 0.257924196
1303500000.0 0.5915304922 -0.1611085389
1313450000.0 0.3791700458 -0.5115909488
1323400000.0 0.007401795 -0.6630916367
1333350000.0 -0.3810903145 -0.5666118753
1343300000.0 -0.639613334 -0.2511346948
1353250000.0 -0.6491147053 0.1702065725
1363200000.0 -0.382859717 0.5136324554
1373150000.0 0.0466941684 0.6074353341
1383100000.0 0.4319710457 0.4058850404
1393050000.0 0.6020181075 0.0185966806
1403000000.0 0.5070324639 -0.3769872323
1412950000.0 0.2075435253 -0.6304975525
1422900000.0 -0.1768622081 -0.6590845548
1432850000.0 -0.5037870437 -0.4538335491
1442800000.0 -0.6430434873 -0.0873459613
1452750000.0 -0.5221413449 0.2922439821
1462700000.0 -0.1821730607 0.5081199925
1472650000.0 0.2165877184 0.4545187433
1482600000.0 0.4827332625 0.1653898201
1492550000.0 0.5022704658 -0.2099410116
1502500000.0 0.288106766 -0.4999419132
1512450000.0 -0.0506832182 -0.5903738053
1522400000.0 -0.3644391332 -0.4525806462
1532350000.0 -0.5140294887 -0.1490239215
1542300000.0 -0.4265176775 0.1811345386
1552250000.0 -0.1395878064 0.3728474195
1562200000.0 0.1961331606 0.3216154507
1572150000.0 0.3984443871 0.057459227
1582100000.0 0.3649621053 -0.2676067704
1592050000.0 0.1267461277 -0.4782988859
1602000000.0 -0.1846262079 -0.4718033461
1611950000.0 -0.4124998004 -0.2533321934
1621900000.0 -0.4392515814 0.0707635264
1631850000.0 -0.2386705309 0.3382561537
1641800000.0 0.1003559342 0.3989327517
1651750000.0 0.3990617716 0.2032483666
1661700000.0 0.4816258955 -0.14761117
1671650000.0 0.3304754869 -0.4216052098
1681600000.0 0.0054581486 -0.5943299347
1691550000.0 -0.3479578022 -0.4861846117
1701500000.0 -0.5581561867 -0.1841394681
1711450000.0 -0.5405451912 0.1892324482
1721400000.0 -0.2860256834 0.4830512076
1731350000.0 0.1124519757 0.5570732126
1741300000.0 0.4748038342 0.3570687088
1751250000.0 0.6216022208 -0.0315425252
1761200000.0 0.4883766093 -0.4194950726
1771150000.0 0.1546267042 -0.6376542335
1781100000.0 -0.2302110537 -0.6183623032
1791050000.0 -0.5281700635 -0.3872561069
1801000000.0 -0.6444037318 -0.0274258338
1810950000.0 -0.5338273043 0.3433390291
1820900000.0 -0.2167650949 0.5854134622
1830850000.0 0.1927789994 0.5810032049
1840800000.0 0.5111141019 0.3151392418
1850750000.0 0.5887383155 -0.0849759915
1860700000.0 0.4115726151 -0.4298901566
1870650000.0 0.0843493958 -0.5916942289
1880600000.0 -0.2562389175 -0.5422250661
1890550000.0 -0.5022932322 -0.3237507187
1900500000.0 -0.5839349129 -0.0163868886
1910450000.0 -0.4778626971 0.2781565881
1920400000.0 -0.2210785723 0.4507722665
1930350000.0 0.079979059 0.4310381378
1940300000.0 0.2904784407 0.2387269598
1950250000.0 0.3311736484 -0.0201095766
1960200000.0 0.2196352727 -0.2256087524
1970150000.0 0.0381280186 -0.3125670965
1980100000.0 -0.1258037017 -0.2844034565
1990050000.0 -0.2162000245 -0.1920996523
2000000000.0 -0.2284377706 -0.1061890463
