!Created with skrf (http://scikit-rf.org).
# GHz S RI R 50.0 
!freq ReS11 ImS11
10000000.0 -1.001470197 0.1631444727
19950000.0 -0.9455962556 0.3117464118
29900000.0 -0.8673676321 0.4541553893
39850000.0 -0.7666251458 0.5948066399
49800000.0 -0.6456291302 0.728204046
59750000.0 -0.4996976004 0.8479363774
69700000.0 -0.3212602563 0.9414713718
79650000.0 -0.1071174924 0.9902837658
89600000.0 0.140459922 0.9773705082
99550000.0 0.4075715862 0.8856686868
109500000.0 0.6715897157 0.7037646715
119450000.0 0.893151375 0.4205349554
129400000.0 1.007797713 0.0522190703
139350000.0 0.9626861361 -0.3568727527
149300000.0 0.7408508549 -0.7022471911
159250000.0 0.4063369554 -0.9138118655
169200000.0 0.0451867124 -0.9826279208
179150000.0 -0.2824022596 -0.9390288695
189100000.0 -0.5500344984 -0.8198878806
199050000.0 -0.7452862448 -0.6533751342
209000000.0 -0.8663769367 -0.4608491552
218950000.0 -0.9280546922 -0.2619012013
228900000.0 -0.9421578271 -0.066350941
238850000.0 -0.9208687268 0.1260691034
248800000.0 -0.7829989083 0.1039662005
258750000.0 -0.8276081817 0.4259571876
268700000.0 -0.7392958417 0.5746167373
278650000.0 -0.624162617 0.6934165682
288600000.0 -0.4815041147 0.780010202
298550000.0 -0.315757154 0.8322876066
308500000.0 -0.1327496128 0.8511314527
318450000.0 0.0603109619 0.8319780671
328400000.0 0.2525946019 0.7683533522
338350000.0 0.4214123771 0.6525422522
348300000.0 0.5416958432 0.4854961747
358250000.0 0.5894054928 0.283679627
368200000.0 0.5572933107 0.079811696
378150000.0 0.4617607123 -0.0906118663
388100000.0 0.3325198881 -0.2074049834
398050000.0 0.1979686808 -0.265309832
408000000.0 0.0808287152 -0.269694903
417950000.0 -0.008005357 -0.2342625728
427900000.0 -0.0672503678 -0.1765912205
437850000.0 -0.1016198334 -0.1114853283
447800000.0 -0.1162724163 -0.0514023361
457750000.0 -0.1158836275 -0.0048256348
467700000.0 -0.1041882329 0.024238453
477650000.0 -0.0830185842 0.0329198155
487600000.0 -0.053657747 0.0194037101
497550000.0 -0.1101105589 0.02597635
507500000.0 -0.0204765119 0.0135457838
517450000.0 0.002893059 -0.0111362695
527400000.0 0.0116223981 -0.0316626151
537350000.0 0.0055780205 -0.0498951741
547300000.0 -0.015292727 -0.0685463935
557250000.0 -0.048240367 -0.0807707095
567200000.0 -0.0848529957 -0.0908577881
577150000.0 -0.1258933751 -0.0928207791
587100000.0 -0.1477249513 -0.0475924753
597050000.0 -0.1247729558 -0.0892603948
607000000.0 -0.1525943287 -0.0829119259
616950000.0 -0.16722794 -0.0578770408
626900000.0 -0.1757571103 -0.0245939871
636850000.0 -0.1802824902 0.0113888841
646800000.0 -0.1808958554 0.0454844085
656750000.0 -0.1760921169 0.0743685394
666700000.0 -0.1628368451 0.0947280895
676650000.0 -0.1391748371 0.1061956915
686600000.0 -0.1055086217 0.1096167071
696550000.0 -0.0638116717 0.1068950198
706500000.0 -0.0197464801 0.0987989853
716450000.0 0.0222934129 0.0849475861
726400000.0 0.0557070903 0.0636702794
736350000.0 0.0775023017 0.0330514362
746300000.0 0.0852342631 -0.008091719
756250000.0 0.08020064 -0.0599496529
766200000.0 0.0627011639 -0.1174899753
776150000.0 0.0362717054 -0.1753158058
786100000.0 0.001022354 -0.2265721439
796050000.0 -0.0418581654 -0.2646913948
806000000.0 -0.0916608315 -0.2849366423
815950000.0 -0.1488264658 -0.2849168527
825900000.0 -0.2114190611 -0.2674206159
835850000.0 -0.276540034 -0.2359016567
845800000.0 -0.3395915002 -0.194634498
855750000.0 -0.3945508171 -0.1459241022
865700000.0 -0.4358737765 -0.0909113646
875650000.0 -0.4579205885 -0.0291037034
885600000.0 -0.457792707 0.0396188911
895550000.0 -0.4361460013 0.115070481
905500000.0 -0.3948182876 0.1956490049
915450000.0 -0.3359644683 0.2764478181
925400000.0 -0.2601816696 0.349364776
935350000.0 -0.1655699678 0.4050306781
945300000.0 -0.0513227586 0.4296728385
955250000.0 0.0810878141 0.4102619361
965200000.0 0.2227592114 0.333830664
975150000.0 0.3554933135 0.1927353532
985100000.0 0.4467081257 -0.0131381978
995050000.0 0.453484585 -0.2621668957
1005000000.0 0.346772047 -0.5077058825
1014950000.0 0.1188173622 -0.6853696767
1024900000.0 -0.1798214588 -0.737792785
1034850000.0 -0.4782969566 -0.6581922078
1044800000.0 -0.7189367067 -0.4720359819
1054750000.0 -0.8580238022 -0.2122964777
1064700000.0 -0.8374236184 0.0220743348
1074650000.0 -0.8446362615 0.2226906026
1084600000.0 -0.7321926419 0.4541010782
1094550000.0 -0.5391999529 0.6289273975
1104500000.0 -0.2983894648 0.7381366753
1114450000.0 -0.0351307683 0.7656342575
1124400000.0 0.2189229396 0.6984587697
1134350000.0 0.4211633915 0.540412208
1144300000.0 0.5415929478 0.3195745082
1154250000.0 0.5729565295 0.0811652589
1164200000.0 0.5326891789 -0.1351023192
1174150000.0 0.4555948092 -0.3112302433
1184100000.0 0.3476528894 -0.4541573888
1194050000.0 0.2146567252 -0.5467596984
1204000000.0 0.0749657803 -0.5882065005
1213950000.0 -0.0602652484 -0.5901858891
1223900000.0 -0.1844181128 -0.5677865273
1233850000.0 -0.2950055581 -0.5324777964
1243800000.0 -0.3914385815 -0.4911739079
1253750000.0 -0.4727373966 -0.4459624623
1263700000.0 -0.5366265065 -0.3950466368
1273650000.0 -0.5838188038 -0.3381654803
1283600000.0 -0.6146860441 -0.2737137063
1293550000.0 -0.6343935577 -0.2034532041
1303500000.0 -0.648588679 -0.130682848
1313450000.0 -0.6606712829 -0.0586200898
1323400000.0 -0.6728211628 0.0102296343
1333350000.0 -0.6826352924 0.0741351875
1343300000.0 -0.6860708759 0.1334804665
1353250000.0 -0.6799382683 0.1868355032
1363200000.0 -0.6600337531 0.2372750724
1373150000.0 -0.6267887788 0.2865864608
1383100000.0 -0.5852444764 0.3362483626
1393050000.0 -0.5392319881 0.3868231246
1403000000.0 -0.4934843306 0.437398685
1412950000.0 -0.4484083804 0.484827852
1422900000.0 -0.4038758613 0.5252744668
1432850000.0 -0.3571972725 0.5545559192
1442800000.0 -0.3068743894 0.5717480127
1452750000.0 -0.2525005518 0.5784360365
1462700000.0 -0.192016922 0.5813498958
1472650000.0 -0.1209559995 0.583220357
1482600000.0 -0.0433922721 0.5828966333
1492550000.0 0.0354944297 0.5779283743
1502500000.0 0.1123443926 0.5648060821
1512450000.0 0.1838192927 0.5390715728
1522400000.0 0.2473393467 0.496749562
1532350000.0 0.3018493294 0.4354596127
1542300000.0 0.3479195624 0.3573190355
1552250000.0 0.3863707193 0.2665487855
1562200000.0 0.4193048674 0.1693724926
1572150000.0 0.441298487 0.0700056972
1582100000.0 0.4476936885 -0.0284345686
1592050000.0 0.4333445588 -0.1214546312
1602000000.0 0.3958645501 -0.2075971169
1611950000.0 0.3366247386 -0.2834360374
1621900000.0 0.2613077899 -0.3501553831
1631850000.0 0.1766594095 -0.4089356036
1641800000.0 0.0887515365 -0.4593792602
1651750000.0 0.0013276645 -0.4974708051
1661700000.0 -0.0825635767 -0.5193863425
1671650000.0 -0.1617663819 -0.5218360994
1681600000.0 -0.235622885 -0.5049368838
1691550000.0 -0.3057692344 -0.4738192503
1701500000.0 -0.3740040169 -0.4327040172
1711450000.0 -0.4396046836 -0.3874809491
1721400000.0 -0.500986648 -0.3413919395
1731350000.0 -0.5559636338 -0.2968322092
1741300000.0 -0.5999319424 -0.251944245
1751250000.0 -0.6298131816 -0.2028816819
1761200000.0 -0.6449898501 -0.1500846685
1771150000.0 -0.6482091658 -0.0927022745
1781100000.0 -0.6458016996 -0.0321587281
1791050000.0 -0.6419467466 0.0288090813
1801000000.0 -0.6403564698 0.0872100632
1810950000.0 -0.6416530069 0.1425228242
1820900000.0 -0.6416248443 0.1919095295
1830850000.0 -0.634338222 0.2348297584
1840800000.0 -0.6161777687 0.2732206597
1850750000.0 -0.5843914398 0.3072393318
1860700000.0 -0.5413327544 0.3383404687
1870650000.0 -0.4926271335 0.3693735444
1880600000.0 -0.4431800098 0.3990591251
1890550000.0 -0.3955708727 0.4272531293
1900500000.0 -0.3421422803 0.4451240575
1910450000.0 -0.3178278561 0.411329538
1920400000.0 -0.3178874256 0.4340316782
1930350000.0 -0.2800589998 0.4381988375
1940300000.0 -0.2347356918 0.4225812207
1950250000.0 -0.1839462215 0.3932628298
1960200000.0 -0.1333680876 0.355943607
1970150000.0 -0.0915980023 0.3125000313
1980100000.0 -0.0642111124 0.2649236941
1990050000.0 -0.0590705556 0.2108755182
2000000000.0 -0.0816360818 0.1501074069
