!Created with skrf (http://scikit-rf.org).
# GHz S RI R 50.0 
!freq ReS11 ImS11
10000000.0 -0.9998668063 0.1649831261
19950000.0 -0.9436228821 0.3151606079
29900000.0 -0.8648199094 0.4584913702
39850000.0 -0.7631749329 0.5995268842
49800000.0 -0.640700732 0.7325612902
59750000.0 -0.4928669641 0.8508883603
69700000.0 -0.313108391 0.9427059192
79650000.0 -0.0980940428 0.9896101572
89600000.0 0.1491552982 0.9751038914
99550000.0 0.4146804655 0.8822395987
109500000.0 0.6761646874 0.6999378085
119450000.0 0.8947151551 0.4174296253
129400000.0 1.008875295 0.0482767506
139350000.0 0.9617034065 -0.355699537
149300000.0 0.7412693227 -0.7000956886
159250000.0 0.4084407345 -0.9125931932
169200000.0 0.0479615425 -0.9830865265
179150000.0 -0.2809398191 -0.9396963625
189100000.0 -0.5488682324 -0.8193476011
199050000.0 -0.74430172 -0.6515658989
209000000.0 -0.8655547497 -0.4583914383
218950000.0 -0.9272093925 -0.2593962678
228900000.0 -0.9417579256 -0.0649018829
238850000.0 -0.9215312645 0.123553964
248800000.0 -0.7232898037 0.1910912447
258750000.0 -0.8240605391 0.4314717757
268700000.0 -0.7364064083 0.5758783189
278650000.0 -0.6230031619 0.6920138632
288600000.0 -0.483429085 0.7771934373
298550000.0 -0.3216683162 0.8296344661
308500000.0 -0.1432802159 0.8498305714
318450000.0 0.0447668025 0.8336275884
328400000.0 0.2331773916 0.7749205686
338350000.0 0.4003249366 0.665285045
348300000.0 0.5227799692 0.5045651171
358250000.0 0.5752864315 0.3073989952
368200000.0 0.5496894681 0.1055832495
378150000.0 0.4589730892 -0.0656567241
388100000.0 0.3321008907 -0.1841264543
398050000.0 0.1982159121 -0.2429063585
408000000.0 0.0804870895 -0.2475911409
417950000.0 -0.0093307245 -0.2119718744
427900000.0 -0.0689435432 -0.1537624845
437850000.0 -0.1035003056 -0.0883652252
447800000.0 -0.1178279437 -0.0279037008
457750000.0 -0.1166942074 0.0196821348
467700000.0 -0.104144949 0.0501529038
477650000.0 -0.0824569338 0.060973083
487600000.0 -0.0525359843 0.0533906237
497550000.0 -0.0896814715 0.0031606854
507500000.0 -0.0170764053 0.0384645353
517450000.0 0.0069334648 0.0163674621
527400000.0 0.0162581364 -0.0028881297
537350000.0 0.011631155 -0.0203120098
547300000.0 -0.0056143826 -0.0415171555
557250000.0 -0.0423137214 -0.056487557
567200000.0 -0.0859653209 -0.066217342
577150000.0 -0.1518350238 -0.0466973583
587100000.0 -0.0615343705 -0.0222931346
597050000.0 -0.1077271369 -0.0655345048
607000000.0 -0.1326179474 -0.0563328779
616950000.0 -0.1480090659 -0.0328123609
626900000.0 -0.1573073624 -0.0007532263
636850000.0 -0.1626982436 0.034204627
646800000.0 -0.1633401113 0.0675590341
656750000.0 -0.1585985425 0.0958428249
666700000.0 -0.1460192098 0.1163831542
676650000.0 -0.1227338988 0.1282385887
686600000.0 -0.0896926918 0.1327489448
696550000.0 -0.0492784445 0.1312121276
706500000.0 -0.0058802699 0.1243363666
716450000.0 0.0354994394 0.1120785204
726400000.0 0.0694975838 0.0917358519
736350000.0 0.0927306305 0.0619070706
746300000.0 0.1020460916 0.0213971884
756250000.0 0.0998267031 -0.0296020706
766200000.0 0.0849877992 -0.0871168773
776150000.0 0.061138618 -0.1456169168
786100000.0 0.0274004774 -0.1983925676
796050000.0 -0.0145406303 -0.2385806877
806000000.0 -0.0647660396 -0.2619652706
815950000.0 -0.1235513934 -0.2655276447
825900000.0 -0.1883520354 -0.250962842
835850000.0 -0.2564797861 -0.221666649
845800000.0 -0.3220895052 -0.1816421451
855750000.0 -0.3797988813 -0.1334074749
865700000.0 -0.4231605456 -0.0782588964
875650000.0 -0.4487636166 -0.0154490237
885600000.0 -0.4521729449 0.0543194816
895550000.0 -0.4349111463 0.1306035191
905500000.0 -0.3989193916 0.211920761
915450000.0 -0.3467770808 0.2937165058
925400000.0 -0.2802681411 0.3689081594
935350000.0 -0.1973806071 0.4301720232
945300000.0 -0.0974975161 0.4670335074
955250000.0 0.0198069253 0.4697616785
965200000.0 0.1506468728 0.4288640047
975150000.0 0.2868626186 0.3408081768
985100000.0 0.4113296271 0.1967855493
995050000.0 0.4912254374 -0.0025617121
1005000000.0 0.4889223794 -0.2343707595
1014950000.0 0.3844335284 -0.4653288016
1024900000.0 0.1615274751 -0.6455354963
1034850000.0 -0.1453595689 -0.7134136776
1044800000.0 -0.4654826492 -0.6426553604
1054750000.0 -0.7260375392 -0.4442524347
1064700000.0 -0.8532164004 -0.1661739286
1074650000.0 -0.8800396966 0.1023644293
1084600000.0 -0.7670895744 0.3735581485
1094550000.0 -0.6374373844 0.5444500784
1104500000.0 -0.4180440015 0.7149782306
1114450000.0 -0.1598394142 0.795131516
1124400000.0 0.1024948486 0.7811950044
1134350000.0 0.3320101782 0.6743662398
1144300000.0 0.4992026835 0.4925162007
1154250000.0 0.5890987087 0.2722330174
1164200000.0 0.6061043728 0.0477066735
1174150000.0 0.5709815252 -0.1546262431
1184100000.0 0.4915988139 -0.3274397566
1194050000.0 0.3761614786 -0.4562308589
1204000000.0 0.2403038324 -0.5350526401
1213950000.0 0.0979338941 -0.5693938813
1223900000.0 -0.0396715208 -0.5714787404
1233850000.0 -0.1667089876 -0.5528300389
1243800000.0 -0.2796177069 -0.521322484
1253750000.0 -0.3766698307 -0.4811446774
1263700000.0 -0.4551672241 -0.4315529322
1273650000.0 -0.5163876767 -0.3728015047
1283600000.0 -0.5592235684 -0.3044573337
1293550000.0 -0.5890540307 -0.2288494105
1303500000.0 -0.6107088033 -0.1499298175
1313450000.0 -0.6277577876 -0.0714142759
1323400000.0 -0.6425417778 0.0036422932
1333350000.0 -0.6536606296 0.0736661329
1343300000.0 -0.6571461555 0.1385945093
1353250000.0 -0.6497386261 0.1974437252
1363200000.0 -0.6285873124 0.2529048375
1373150000.0 -0.5936497647 0.3062760126
1383100000.0 -0.5500748591 0.3592257499
1393050000.0 -0.5020177477 0.4121110922
1403000000.0 -0.453824649 0.4635905704
1412950000.0 -0.405899645 0.511537687
1422900000.0 -0.3589785629 0.5523451487
1432850000.0 -0.3101874972 0.5811370183
1442800000.0 -0.258229585 0.5983436211
1452750000.0 -0.2016473627 0.6062009275
1462700000.0 -0.1382719662 0.6085792182
1472650000.0 -0.0672300727 0.6080514428
1482600000.0 0.0089423403 0.6060908749
1492550000.0 0.0856739998 0.6002750442
1502500000.0 0.1596743975 0.5874176109
1512450000.0 0.2281068837 0.56322806
1522400000.0 0.2890095587 0.525029291
1532350000.0 0.3422827275 0.4700694367
1542300000.0 0.3883692842 0.3999460895
1552250000.0 0.4289072847 0.3185927239
1562200000.0 0.4662141185 0.2318966481
1572150000.0 0.4956856054 0.1430295909
1582100000.0 0.5134253422 0.0536561436
1592050000.0 0.514667621 -0.0347620065
1602000000.0 0.4941767377 -0.1206814264
1611950000.0 0.4529096561 -0.2010412269
1621900000.0 0.393854274 -0.2768333261
1631850000.0 0.3231775544 -0.347438447
1641800000.0 0.2464835951 -0.4121825216
1651750000.0 0.1670391402 -0.4669927251
1661700000.0 0.086893978 -0.5072528027
1671650000.0 0.0069125251 -0.5289682464
1681600000.0 -0.0726924363 -0.530491203
1691550000.0 -0.1515914602 -0.5154515078
1701500000.0 -0.2306448881 -0.4871621139
1711450000.0 -0.3078434426 -0.450657481
1721400000.0 -0.3812030613 -0.4106911296
1731350000.0 -0.4470685307 -0.3698463486
1741300000.0 -0.5026050044 -0.3259866366
1751250000.0 -0.5442835579 -0.2757388801
1761200000.0 -0.5706617038 -0.21895726
1771150000.0 -0.5832329017 -0.1543957351
1781100000.0 -0.5874834665 -0.0813962916
1791050000.0 -0.5824286465 0.0030695474
1801000000.0 -0.5297053107 0.041879309
1810950000.0 -0.5567808064 0.0318921858
1820900000.0 -0.5974241895 0.108937321
1830850000.0 -0.5973334069 0.1664692913
1840800000.0 -0.5820773101 0.2144358368
1850750000.0 -0.5525847395 0.2561058479
1860700000.0 -0.5107867607 0.2929785833
1870650000.0 -0.4638680753 0.3278739261
1880600000.0 -0.4164872967 0.359629956
1890550000.0 -0.374080768 0.3889995608
1900500000.0 -0.3372333609 0.4117858492
1910450000.0 -0.3043025667 0.4272185031
1920400000.0 -0.2717036272 0.4328782694
1930350000.0 -0.2366107583 0.4271412716
1940300000.0 -0.1958082642 0.4110335298
1950250000.0 -0.1500625751 0.3864275652
1960200000.0 -0.1029858734 0.3567716132
1970150000.0 -0.0617676184 0.3232254514
1980100000.0 -0.0310170418 0.2870556545
1990050000.0 -0.0158267026 0.2462636687
2000000000.0 -0.0199384906 0.1988224995
