!Created with skrf (http://scikit-rf.org).
# GHz S RI R 50.0 
!freq ReS11 ImS11
10000000.0 -0.8759489425 0.4392983246
19950000.0 -0.5916573521 0.772063515
29900000.0 -0.1904274806 0.9499180968
39850000.0 0.2551281812 0.9344364821
49800000.0 0.6561211648 0.7161570387
59750000.0 0.9199803023 0.3258242426
69700000.0 0.9683125642 -0.1596251046
79650000.0 0.7636144273 -0.6229949207
89600000.0 0.333864943 -0.9282473325
99550000.0 -0.2156074936 -0.9593651542
109500000.0 -0.7131781524 -0.6683257721
119450000.0 -0.964633691 -0.1184271231
129400000.0 -0.8291526147 0.5021060109
139350000.0 -0.3216380423 0.915773444
149300000.0 0.3469505066 0.9083348792
159250000.0 0.8462113703 0.4769983752
169200000.0 0.9528123461 -0.1473689163
179150000.0 0.6727602141 -0.6742438243
189100000.0 0.1723868314 -0.9239599767
199050000.0 -0.3501601189 -0.8616032495
209000000.0 -0.7441849678 -0.5492339492
218950000.0 -0.9178959912 -0.1008835528
228900000.0 -0.8497140742 0.3643531895
238850000.0 -0.5665521334 0.7323441071
248800000.0 -0.0586514493 0.8465573633
258750000.0 0.266438407 0.8825782136
268700000.0 0.6441496401 0.6494091045
278650000.0 0.8610603961 0.2733594591
288600000.0 0.875516401 -0.1560296656
298550000.0 0.6866086645 -0.5397944227
308500000.0 0.3361715819 -0.7853983169
318450000.0 -0.091090403 -0.8259965747
328400000.0 -0.4783442624 -0.6423940346
338350000.0 -0.7053843334 -0.284302471
348300000.0 -0.6951600305 0.1273415672
358250000.0 -0.4627080865 0.4402695692
368200000.0 -0.1208970728 0.5463720077
378150000.0 0.1791090259 0.4402349339
388100000.0 0.3311103457 0.2108756956
398050000.0 0.3174558723 -0.0226095834
408000000.0 0.189577756 -0.1704911812
417950000.0 0.031159235 -0.2041102457
427900000.0 -0.0902317201 -0.1457955368
437850000.0 -0.1403025175 -0.0463399909
447800000.0 -0.1233488135 0.045571765
457750000.0 -0.0646735664 0.0982134198
467700000.0 0.0012284699 0.1032338001
477650000.0 0.047550464 0.0723814574
487600000.0 0.0605003022 0.0270948746
497550000.0 0.0171547434 0.0082930201
507500000.0 0.0451580894 -0.0253430668
517450000.0 0.0085836968 -0.0263949982
527400000.0 -0.0083902941 -0.0071191975
537350000.0 -0.0036239193 0.0147479674
547300000.0 0.0210815671 0.0284254399
557250000.0 0.0546854525 0.0133709756
567200000.0 0.0742190891 -0.0236130548
577150000.0 0.0706681499 -0.0722041575
587100000.0 0.0392710838 -0.1185728418
597050000.0 -0.0163025357 -0.1461439744
607000000.0 -0.083310509 -0.1432948422
616950000.0 -0.1444240999 -0.1061990066
626900000.0 -0.1817647953 -0.0412952784
636850000.0 -0.1838226502 0.0368517209
646800000.0 -0.1469461369 0.1091065
656750000.0 -0.0783962447 0.1566342387
666700000.0 0.0061385532 0.1663693033
676650000.0 0.0853939685 0.1352824153
686600000.0 0.1400258862 0.0712352352
696550000.0 0.1566570212 -0.0092212554
706500000.0 0.1312987116 -0.0840862934
716450000.0 0.0726655919 -0.1319529889
726400000.0 -0.0008834439 -0.1387403125
736350000.0 -0.0634405311 -0.1022993564
746300000.0 -0.0938682313 -0.0341389658
756250000.0 -0.0773601799 0.043336346
766200000.0 -0.0158489629 0.1007815123
776150000.0 0.073760351 0.114615119
786100000.0 0.1621174747 0.0736654884
796050000.0 0.2173883423 -0.0152825337
806000000.0 0.2164511102 -0.1276943885
815950000.0 0.1497489111 -0.2309926977
825900000.0 0.0296066267 -0.2901082515
835850000.0 -0.1158554368 -0.2801178332
845800000.0 -0.2475511707 -0.1936094111
855750000.0 -0.3265902728 -0.0447355024
865700000.0 -0.324837844 0.1323507883
875650000.0 -0.2359916191 0.2938705832
885600000.0 -0.0769607105 0.3960437235
895550000.0 0.1162889674 0.4098412999
905500000.0 0.2956891317 0.3263677663
915450000.0 0.413795696 0.1607694823
925400000.0 0.4334104554 -0.0495879269
935350000.0 0.3371356488 -0.2496682747
945300000.0 0.1373508332 -0.375570947
955250000.0 -0.1160627076 -0.3687774151
965200000.0 -0.3345665182 -0.2029309991
975150000.0 -0.4113498291 0.0858553235
985100000.0 -0.2724289132 0.3818927432
995050000.0 0.0549053026 0.5250796389
1005000000.0 0.4322438446 0.4019152081
1014950000.0 0.6495342845 0.0169862272
1024900000.0 0.5394185813 -0.4549759236
1034850000.0 0.1119418095 -0.7477285046
1044800000.0 -0.4168584368 -0.6783655071
1054750000.0 -0.7685647903 -0.2822503517
1064700000.0 -0.7659800058 0.2083388824
1074650000.0 -0.562058007 0.5760971082
1084600000.0 -0.2035018662 0.741031406
1094550000.0 0.2177912487 0.7651551666
1104500000.0 0.580207061 0.5099729631
1114450000.0 0.7272807531 0.0959221492
1124400000.0 0.607581144 -0.3216215892
1134350000.0 0.2732092551 -0.5810386033
1144300000.0 -0.1300862091 -0.5898611048
1154250000.0 -0.4376952932 -0.374064256
1164200000.0 -0.5537106823 -0.0497785527
1174150000.0 -0.4804203227 0.2570821275
1184100000.0 -0.2651181528 0.4684644512
1194050000.0 0.0229955064 0.5267452358
1204000000.0 0.2920560093 0.4233754949
1213950000.0 0.4636815334 0.1963676447
1223900000.0 0.4930269464 -0.0831826129
1233850000.0 0.3804804408 -0.3350414501
1243800000.0 0.1668076349 -0.4967231025
1253750000.0 -0.0881788713 -0.5404064827
1263700000.0 -0.3271676662 -0.4698437472
1273650000.0 -0.5070657013 -0.3108893656
1283600000.0 -0.6030407749 -0.0978929564
1293550000.0 -0.6048830416 0.1331295734
1303500000.0 -0.5142482938 0.3461225624
1313450000.0 -0.3437091665 0.507683934
1323400000.0 -0.1177814511 0.5897844611
1333350000.0 0.127755478 0.5738850569
1343300000.0 0.3506964136 0.4588640924
1353250000.0 0.5101802918 0.2628732077
1363200000.0 0.5793529508 0.0219909292
1373150000.0 0.5504702833 -0.221811985
1383100000.0 0.4340727254 -0.4297011807
1393050000.0 0.2544344734 -0.5734687419
1403000000.0 0.0405979309 -0.638438776
1412950000.0 -0.1776973709 -0.6190540432
1422900000.0 -0.3710633761 -0.5205669801
1432850000.0 -0.512681368 -0.3554360147
1442800000.0 -0.5819423706 -0.1465967051
1452750000.0 -0.5667169533 0.0769567503
1462700000.0 -0.4644377408 0.2836254757
1472650000.0 -0.2847321362 0.4381845294
1482600000.0 -0.0546473213 0.5087719971
1492550000.0 0.1829916071 0.4789866651
1502500000.0 0.3825465648 0.3563063728
1512450000.0 0.5086464549 0.1682232651
1522400000.0 0.5440350182 -0.0468235092
1532350000.0 0.4875960165 -0.2496730428
1542300000.0 0.3541294069 -0.4061444769
1552250000.0 0.1670765685 -0.4898570493
1562200000.0 -0.0392071675 -0.4842141221
1572150000.0 -0.2256782564 -0.3866902322
1582100000.0 -0.3513473937 -0.2125545228
1592050000.0 -0.3845087603 0.0020811349
1602000000.0 -0.3170300289 0.2077653456
1611950000.0 -0.1619740159 0.3561259105
1621900000.0 0.0390122497 0.4139702386
1631850000.0 0.2387107597 0.3732499429
1641800000.0 0.3943865844 0.2472152612
1651750000.0 0.474716845 0.0655303646
1661700000.0 0.4649776788 -0.1341423645
1671650000.0 0.3656770434 -0.3122043789
1681600000.0 0.1935156752 -0.4314636255
1691550000.0 -0.0204702595 -0.4640206671
1701500000.0 -0.2311903233 -0.395884284
1711450000.0 -0.3863354734 -0.2411030014
1721400000.0 -0.4599380816 -0.0517861528
1731350000.0 -0.4717007344 0.1579070315
1741300000.0 -0.3846745924 0.3653532216
1751250000.0 -0.217246976 0.5116050602
1761200000.0 -0.0107113771 0.5745689628
1771150000.0 0.198820147 0.5530604355
1781100000.0 0.3812759812 0.455619335
1791050000.0 0.514086779 0.2988010497
1801000000.0 0.5792691558 0.1028145675
1810950000.0 0.5668366314 -0.1065091998
1820900000.0 0.4745246672 -0.2986727677
1830850000.0 0.3126584068 -0.443430689
1840800000.0 0.1049786392 -0.5144443697
1850750000.0 -0.1140049018 -0.4985205511
1860700000.0 -0.3059145518 -0.3996873991
1870650000.0 -0.440724681 -0.2395731869
1880600000.0 -0.5024169173 -0.0496385863
1890550000.0 -0.4902970487 0.1386572065
1900500000.0 -0.4153609962 0.2992481471
1910450000.0 -0.2950494317 0.4143847912
1920400000.0 -0.1498622483 0.4740435374
1930350000.0 -0.0007793494 0.4745791013
1940300000.0 0.1310577757 0.4198559894
1950250000.0 0.2249948206 0.3212995609
1960200000.0 0.2672827696 0.1992283248
1970150000.0 0.2541943451 0.0804862557
1980100000.0 0.1971260992 -0.0092832459
1990050000.0 0.1200719553 -0.0533902933
2000000000.0 0.0535870062 -0.0503435018
