!Created with skrf (http://scikit-rf.org).
# GHz S RI R 50.0 
!freq ReS11 ImS11
10000000.0 -1.000687502 0.1595921721
19950000.0 -0.9470010007 0.3051999216
29900000.0 -0.8715160229 0.4452689534
39850000.0 -0.7741317714 0.5844185299
49800000.0 -0.6559171042 0.7177069484
59750000.0 -0.5114730234 0.8386135575
69700000.0 -0.3323978446 0.935053375
79650000.0 -0.1140603768 0.9871865638
89600000.0 0.1426656412 0.9755527136
99550000.0 0.423061278 0.8776267376
109500000.0 0.6990919641 0.676825491
119450000.0 0.9199308927 0.360513696
129400000.0 1.010837074 -0.0501542915
139350000.0 0.9118643609 -0.468270795
149300000.0 0.6362627846 -0.7927134181
159250000.0 0.2726974943 -0.9572030737
169200000.0 -0.0861781931 -0.9771341422
179150000.0 -0.3918363255 -0.8974093125
189100000.0 -0.6277671807 -0.7591366079
199050000.0 -0.7920319379 -0.5899048099
209000000.0 -0.8887274187 -0.4073218683
218950000.0 -0.9348206732 -0.2254021635
228900000.0 -0.9424951975 -0.0511580015
238850000.0 -0.9241251179 0.1148276066
248800000.0 -0.8710964231 0.2385241091
258750000.0 -0.8390760063 0.4091888198
268700000.0 -0.7681534162 0.5404996723
278650000.0 -0.6739455607 0.6517682277
288600000.0 -0.5541984948 0.7388155717
298550000.0 -0.411781177 0.7997038802
308500000.0 -0.2501847227 0.8351436155
318450000.0 -0.0737359761 0.8404944837
328400000.0 0.1106590261 0.8082394215
338350000.0 0.2850712068 0.7261585836
348300000.0 0.4256868388 0.5871326893
358250000.0 0.50242276 0.4006317804
368200000.0 0.4990146915 0.1979973715
378150000.0 0.4235405455 0.019452937
388100000.0 0.3039317143 -0.1074119813
398050000.0 0.1732131687 -0.1717594664
408000000.0 0.0577808264 -0.1792209477
417950000.0 -0.0293241906 -0.1451222395
427900000.0 -0.0862443109 -0.0883753801
437850000.0 -0.1174880227 -0.0245777731
447800000.0 -0.1298427836 0.0344077242
457750000.0 -0.1279856111 0.0807731526
467700000.0 -0.1150026007 0.1108334507
477650000.0 -0.092981341 0.1235603006
487600000.0 -0.0642875062 0.1216748625
497550000.0 -0.0361947012 0.1064638985
507500000.0 -0.0041710375 0.0931341232
517450000.0 0.0196632547 0.0729601904
527400000.0 0.032939664 0.0530777794
537350000.0 0.0315934097 0.0338601361
547300000.0 0.0195649053 0.015380626
557250000.0 -0.0046201929 -0.0045519955
567200000.0 -0.0350175094 -0.022172811
577150000.0 -0.0663327585 -0.0354129621
587100000.0 -0.0937693329 -0.0422281192
597050000.0 -0.114536126 -0.039571739
607000000.0 -0.1292066538 -0.025947795
616950000.0 -0.1389812283 -0.0026353339
626900000.0 -0.1450165007 0.0285345819
636850000.0 -0.1481196585 0.0623740732
646800000.0 -0.1471533149 0.0943822999
656750000.0 -0.1413415766 0.1207876064
666700000.0 -0.1274265598 0.1391393656
676650000.0 -0.1041422477 0.1485855858
686600000.0 -0.0715822115 0.1506146569
696550000.0 -0.0322251532 0.1473688056
706500000.0 0.0099844834 0.1388739919
716450000.0 0.0502666389 0.1252947558
726400000.0 0.0831831791 0.1043318988
736350000.0 0.1049048617 0.0740418722
746300000.0 0.1131459385 0.0332143029
756250000.0 0.1090839822 -0.0179099287
766200000.0 0.0929382273 -0.0752713178
776150000.0 0.0672051165 -0.1332243394
786100000.0 0.0322743854 -0.1849471299
796050000.0 -0.0118248503 -0.2240531997
806000000.0 -0.0637631084 -0.2450010469
815950000.0 -0.1239133439 -0.2453557124
825900000.0 -0.1895756741 -0.2266497457
835850000.0 -0.2573627799 -0.1924266079
845800000.0 -0.3217272897 -0.1467364677
855750000.0 -0.3767358797 -0.0919961183
865700000.0 -0.4155451154 -0.0297242545
875650000.0 -0.4335108215 0.0384986604
885600000.0 -0.4270955023 0.1134207239
895550000.0 -0.397459592 0.1931072104
905500000.0 -0.3464676969 0.2754203359
915450000.0 -0.2773875194 0.3544967078
925400000.0 -0.191616306 0.4217124752
935350000.0 -0.0897275875 0.4675424536
945300000.0 0.026382941 0.480259103
955250000.0 0.1533495138 0.4501796803
965200000.0 0.2825181215 0.3704597003
975150000.0 0.4016043521 0.243928937
985100000.0 0.491842557 0.0738015816
995050000.0 0.5278299264 -0.1347583618
1005000000.0 0.4782274987 -0.3644358969
1014950000.0 0.3224903329 -0.573941175
1024900000.0 0.0686647443 -0.7067338487
1034850000.0 -0.2371357318 -0.7236714662
1044800000.0 -0.5333627815 -0.6138009497
1054750000.0 -0.7580720773 -0.3911568563
1064700000.0 -0.8281932923 -0.1172335583
1074650000.0 -0.8664128973 0.1031104254
1084600000.0 -0.7877611208 0.3826689527
1094550000.0 -0.6064725026 0.597586857
1104500000.0 -0.3678682443 0.7513960627
1114450000.0 -0.0949348797 0.817741272
1124400000.0 0.178257722 0.7859689169
1134350000.0 0.4110286345 0.658189071
1144300000.0 0.5726350801 0.4571651189
1154250000.0 0.6513177271 0.2221752069
1164200000.0 0.6543387057 -0.0098967167
1174150000.0 0.6047517247 -0.2111831599
1184100000.0 0.5206285266 -0.3797225686
1194050000.0 0.4039804509 -0.5076095169
1204000000.0 0.2667735872 -0.5868594858
1213950000.0 0.1236067318 -0.6217667932
1223900000.0 -0.0147189612 -0.6247316406
1233850000.0 -0.1432631306 -0.6089938555
1243800000.0 -0.2580054592 -0.5809215728
1253750000.0 -0.3572760506 -0.5442235759
1263700000.0 -0.4397209429 -0.4974597244
1273650000.0 -0.5048648301 -0.4418627282
1283600000.0 -0.5525534408 -0.3757925704
1293550000.0 -0.5869492262 -0.3016709144
1303500000.0 -0.6132267993 -0.2232869016
1313450000.0 -0.6351276623 -0.145034201
1323400000.0 -0.6544315046 -0.0699553423
1333350000.0 -0.6702204983 0.0006130926
1343300000.0 -0.6781436924 0.0670819138
1353250000.0 -0.6753788954 0.1276925702
1363200000.0 -0.6587363308 0.1854177192
1373150000.0 -0.6275505485 0.2418217413
1383100000.0 -0.5871372362 0.298129183
1393050000.0 -0.5414109248 0.3552200352
1403000000.0 -0.4955089282 0.4108942468
1412950000.0 -0.4488545365 0.4636429536
1422900000.0 -0.4019958128 0.5097565373
1432850000.0 -0.3516301004 0.545727617
1442800000.0 -0.2949937605 0.5700575949
1452750000.0 -0.2303609986 0.582746722
1462700000.0 -0.1565587587 0.5858065993
1472650000.0 -0.0757961097 0.5822302307
1482600000.0 0.0082779036 0.5743164681
1492550000.0 0.0914390948 0.5604829702
1502500000.0 0.1708618128 0.5381601718
1512450000.0 0.2427161809 0.502775493
1522400000.0 0.3048403264 0.4508624788
1532350000.0 0.3554586498 0.3805322043
1542300000.0 0.3958773955 0.2948910497
1552250000.0 0.426863041 0.1986301885
1562200000.0 0.4499146404 0.0979957851
1572150000.0 0.4620868662 -0.0028697995
1582100000.0 0.4586629975 -0.1004466157
1592050000.0 0.4355099809 -0.1912685411
1602000000.0 0.3900597602 -0.2731093878
1611950000.0 0.3250927291 -0.3442782793
1621900000.0 0.2452116777 -0.4062168298
1631850000.0 0.1578712695 -0.4594682499
1641800000.0 0.0676904081 -0.5036213827
1651750000.0 -0.021012596 -0.5362042938
1661700000.0 -0.1056840106 -0.5526047308
1671650000.0 -0.1848108911 -0.5512466074
1681600000.0 -0.2579879922 -0.5311487201
1691550000.0 -0.3267135684 -0.4975932005
1701500000.0 -0.3929761997 -0.4542151853
1711450000.0 -0.4559464864 -0.4078654422
1721400000.0 -0.5150156041 -0.3610784713
1731350000.0 -0.5679262138 -0.316312664
1741300000.0 -0.6100953569 -0.2714918003
1751250000.0 -0.6393768135 -0.2228859071
1761200000.0 -0.6546147678 -0.1708764344
1771150000.0 -0.6586511992 -0.1146592367
1781100000.0 -0.6575591188 -0.0552803759
1791050000.0 -0.6549431957 0.0041999745
1801000000.0 -0.6544279208 0.0616725617
1810950000.0 -0.6567138151 0.1158797712
1820900000.0 -0.6583288426 0.1656787594
1830850000.0 -0.6530991382 0.2087628339
1840800000.0 -0.6373366853 0.2485377439
1850750000.0 -0.6091004553 0.2839570241
1860700000.0 -0.5696269417 0.3163078728
1870650000.0 -0.525256602 0.348347165
1880600000.0 -0.4808224417 0.378336392
1890550000.0 -0.4409498561 0.4063432838
1900500000.0 -0.4061786086 0.4301171405
1910450000.0 -0.3748834201 0.4456230257
1920400000.0 -0.3438006495 0.4526312335
1930350000.0 -0.3089801779 0.448095381
1940300000.0 -0.2692227863 0.4328693498
1950250000.0 -0.2244743744 0.4092733447
1960200000.0 -0.1777334305 0.3810590157
1970150000.0 -0.1358957181 0.3494851912
1980100000.0 -0.1035551179 0.3153027585
1990050000.0 -0.0849255502 0.2761297482
2000000000.0 -0.0840831605 0.2270598126
