!Created with skrf (http://scikit-rf.org).
# GHz S RI R 50.0 
!freq ReS11 ImS11
10000000.0 -0.7469108692 0.6766151332
19950000.0 -0.1092553964 0.9837823022
29900000.0 0.5714650006 0.7939778088
39850000.0 0.9591234552 0.1917134735
49800000.0 0.8369918537 -0.5262707959
59750000.0 0.2439702322 -0.9733597471
69700000.0 -0.5058943225 -0.8751490957
79650000.0 -0.9686813943 -0.2614101581
89600000.0 -0.8405483125 0.5112210732
99550000.0 -0.1678632279 0.9500007949
109500000.0 0.6315877743 0.72113931
119450000.0 0.967577524 -0.0774971882
129400000.0 0.5091970939 -0.847244452
139350000.0 -0.3974502492 -0.9081215316
149300000.0 -0.9513008716 -0.1991325658
159250000.0 -0.6985641132 0.6397980812
169200000.0 0.1035894702 0.93111972
179150000.0 0.8094759945 0.4893036424
189100000.0 0.9094579161 -0.3169414797
199050000.0 0.3746025467 -0.8964931835
209000000.0 -0.3868246322 -0.8824432056
218950000.0 -0.8797132171 -0.3415578517
228900000.0 -0.8480480624 0.3686808245
238850000.0 -0.3388854051 0.8511050712
248800000.0 0.3280561893 0.6575688386
258750000.0 0.8406637877 0.4041222891
268700000.0 0.8945776276 -0.2873387108
278650000.0 0.4559820766 -0.8124995232
288600000.0 -0.2140958232 -0.8827756311
298550000.0 -0.7363702876 -0.4764494166
308500000.0 -0.8259330176 0.171086796
318450000.0 -0.4362457351 0.6882851335
328400000.0 0.1970837061 0.7661000489
338350000.0 0.6636060729 0.3573583416
348300000.0 0.6570136878 -0.2368973698
358250000.0 0.2301648136 -0.579606334
368200000.0 -0.2457497493 -0.4723472471
378150000.0 -0.43055255 -0.0845001271
388100000.0 -0.2818358209 0.247546421
398050000.0 0.032248873 0.3088974442
408000000.0 0.2306112522 0.1332157075
417950000.0 0.2037426613 -0.0850786655
427900000.0 0.0398285772 -0.1801513206
437850000.0 -0.1075673976 -0.1199522109
447800000.0 -0.1439456577 0.0130371431
457750000.0 -0.0736061693 0.1120599976
467700000.0 0.0300442133 0.1196325128
477650000.0 0.0894838185 0.0576333929
487600000.0 0.077129424 -0.0134043403
497550000.0 0.1022598401 -0.0184386462
507500000.0 0.0019327055 -0.0619838118
517450000.0 -0.0183470007 -0.032303946
527400000.0 -0.0122289866 -0.0208459996
537350000.0 -0.0111489261 -0.0322348188
547300000.0 -0.0369367549 -0.052210681
557250000.0 -0.0860837857 -0.0332787195
567200000.0 -0.1109145691 0.0283000007
577150000.0 -0.0834473892 0.10100003
587100000.0 0.0029643789 0.1378813639
597050000.0 0.1036333937 0.1090590662
607000000.0 0.1591970502 0.0064019151
616950000.0 0.133981761 -0.1187518793
626900000.0 0.0288144873 -0.1978046785
636850000.0 -0.1057639075 -0.1848550655
646800000.0 -0.2009288047 -0.0838212647
656750000.0 -0.2010150721 0.0530151784
666700000.0 -0.1075986632 0.1556735166
676650000.0 0.0260312455 0.1654116143
686600000.0 0.1270814496 0.0801602822
696550000.0 0.1423338669 -0.0470823162
706500000.0 0.0694302694 -0.138960018
716450000.0 -0.0394655989 -0.1448316979
726400000.0 -0.1097470839 -0.0731709401
736350000.0 -0.0936720521 0.0201134499
746300000.0 -0.0092599619 0.059677536
756250000.0 0.0768262853 0.0104821697
766200000.0 0.0880252136 -0.0959800969
776150000.0 0.0003191755 -0.1802501619
786100000.0 -0.1345222334 -0.16269171
796050000.0 -0.2237319172 -0.0332327947
806000000.0 -0.183759903 0.1432124162
815950000.0 -0.0142836819 0.248984582
825900000.0 0.2034663716 0.1986527382
835850000.0 0.3356314156 -0.0013562838
845800000.0 0.2901842591 -0.2525217763
855750000.0 0.0745029374 -0.4104853674
865700000.0 -0.2031853605 -0.3773918036
875650000.0 -0.3914866441 -0.1528259528
885600000.0 -0.3714863422 0.1513777942
895550000.0 -0.1405944289 0.3650256055
905500000.0 0.1835999673 0.3545024469
915450000.0 0.4080783729 0.1129604101
925400000.0 0.388528471 -0.220567707
935350000.0 0.1252369745 -0.4306725564
945300000.0 -0.2162784721 -0.3621876415
955250000.0 -0.3801186735 -0.033506952
965200000.0 -0.1876052124 0.2907771234
975150000.0 0.2164696116 0.2529620055
985100000.0 0.3836579302 -0.0094229256
995050000.0 0.2514039332 -0.4269364564
1005000000.0 -0.2512618933 -0.5355317397
1014950000.0 -0.6529381891 -0.084197101
1024900000.0 -0.4650313174 0.5580005937
1034850000.0 0.2211707095 0.7602477053
1044800000.0 0.7862239115 0.2921753473
1054750000.0 0.7245062669 -0.4250268141
1064700000.0 0.2117690003 -0.733058873
1074650000.0 -0.376450176 -0.7243290084
1084600000.0 -0.7758662368 -0.2003076505
1094550000.0 -0.6385225627 0.4385094802
1104500000.0 -0.0682650972 0.7431490166
1114450000.0 0.5103826552 0.5004419266
1124400000.0 0.6741235614 -0.0713511326
1134350000.0 0.3577335137 -0.5256922553
1144300000.0 -0.1531793242 -0.574065896
1154250000.0 -0.5000876601 -0.2368627191
1164200000.0 -0.4690570109 0.2249854093
1174150000.0 -0.1052513176 0.4845064441
1184100000.0 0.3131219251 0.3667509346
1194050000.0 0.486145793 -0.0193181917
1204000000.0 0.3178292013 -0.3884862029
1213950000.0 -0.0564029074 -0.519506277
1223900000.0 -0.4113743702 -0.3518329836
1233850000.0 -0.5562249417 0.0116010312
1243800000.0 -0.4112983147 0.3805647479
1253750000.0 -0.0482053024 0.5554962385
1263700000.0 0.3430711875 0.4399230998
1273650000.0 0.558931278 0.0959189903
1283600000.0 0.4998495421 -0.3007016939
1293550000.0 0.2081342233 -0.5696116176
1303500000.0 -0.184571476 -0.602092974
1313450000.0 -0.5134887368 -0.390062669
1323400000.0 -0.6438136814 -0.0132894023
1333350000.0 -0.5085241683 0.3709398608
1343300000.0 -0.1563212395 0.5891061251
1353250000.0 0.258802089 0.5330154547
1363200000.0 0.542680965 0.2276770352
1373150000.0 0.5742381914 -0.1803320686
1383100000.0 0.3560405164 -0.5158976902
1393050000.0 -0.0114919106 -0.6483766765
1403000000.0 -0.3802615463 -0.53382817
1412950000.0 -0.6045858713 -0.2200493251
1422900000.0 -0.5909278004 0.1685455873
1432850000.0 -0.3370909157 0.4647620774
1442800000.0 0.0472783242 0.5354368574
1452750000.0 0.3856452395 0.3493357705
1462700000.0 0.5326095648 0.0005757064
1472650000.0 0.4314254333 -0.3536662388
1482600000.0 0.139280416 -0.5592219043
1492550000.0 -0.2103459997 -0.5375165545
1502500000.0 -0.465811036 -0.301288625
1512450000.0 -0.5093602162 0.0382814197
1522400000.0 -0.3200627813 0.3228200661
1532350000.0 0.0104060653 0.4096338477
1542300000.0 0.3077121006 0.2570869359
1552250000.0 0.419827503 -0.0440827934
1562200000.0 0.300805995 -0.3313910576
1572150000.0 0.0270380564 -0.4609864274
1582100000.0 -0.2557182881 -0.3751054771
1592050000.0 -0.403978824 -0.1212545415
1602000000.0 -0.3355284817 0.1698374797
1611950000.0 -0.0817175612 0.3376804215
1621900000.0 0.2196774451 0.2800720731
1631850000.0 0.3923514306 0.0267385801
1641800000.0 0.3393296435 -0.2793135372
1651750000.0 0.0920646671 -0.4663093519
1661700000.0 -0.2182060077 -0.4387759474
1671650000.0 -0.4361391105 -0.2079354396
1681600000.0 -0.4538091339 0.1212296715
1691550000.0 -0.2480125026 0.3915493994
1701500000.0 0.0946099825 0.4619153027
1711450000.0 0.4050244329 0.2820360186
1721400000.0 0.5216313251 -0.0625369945
1731350000.0 0.3873178091 -0.3988945626
1741300000.0 0.0726638971 -0.5698139583
1751250000.0 -0.2784576927 -0.5085090842
1761200000.0 -0.5201977286 -0.247311928
1771150000.0 -0.5511949442 0.1106817184
1781100000.0 -0.3432713649 0.4160433294
1791050000.0 -0.0609925725 0.5182435342
1801000000.0 0.275477525 0.4198919145
1810950000.0 0.5230042619 0.164479714
1820900000.0 0.5134500505 -0.2043869593
1830850000.0 0.2734096965 -0.4836264481
1840800000.0 -0.0747292926 -0.5576628281
1850750000.0 -0.3860852412 -0.4148811775
1860700000.0 -0.5481179732 -0.1243057589
1870650000.0 -0.5063946071 0.201623459
1880600000.0 -0.2788868056 0.4362745341
1890550000.0 0.0384303996 0.482861114
1900500000.0 0.3054827295 0.3257275395
1910450000.0 0.408787904 0.0453068745
1920400000.0 0.3202451545 -0.2242425567
1930350000.0 0.1058328568 -0.3700664707
1940300000.0 -0.1265166186 -0.3551553112
1950250000.0 -0.2817530147 -0.2173375137
1960200000.0 -0.3143202435 -0.0392920048
1970150000.0 -0.242966294 0.0861334881
1980100000.0 -0.1442625369 0.114858523
1990050000.0 -0.1001762846 0.0757260839
2000000000.0 -0.1277093211 0.0685696483
