!Created with skrf (http://scikit-rf.org).
# GHz S RI R 50.0 
!freq ReS11 ImS11
10000000.0 -0.8082168645 0.6071057783
19950000.0 -0.2921279024 0.9482333474
29900000.0 0.3217057229 0.9250585229
39850000.0 0.8117085703 0.5456945617
49800000.0 0.9867720689 -0.061290087
59750000.0 0.7526160629 -0.6665471764
69700000.0 0.1744581616 -1.000861676
79650000.0 -0.5010244997 -0.8777071346
89600000.0 -0.9365493655 -0.3232943268
99550000.0 -0.8839186052 0.3996363474
109500000.0 -0.3307466131 0.9047147832
119450000.0 0.4486290359 0.8665167857
129400000.0 0.9411410091 0.2408035549
139350000.0 0.81845357 -0.5788966559
149300000.0 0.0868738298 -0.9803080958
159250000.0 -0.6700660563 -0.6823324542
169200000.0 -0.9412531782 0.0516433896
179150000.0 -0.6122412158 0.7267703326
189100000.0 0.0703631876 0.9655511518
199050000.0 0.7064906915 0.6772981634
209000000.0 0.9703803546 0.0531837554
218950000.0 0.7673842305 -0.5648665965
228900000.0 0.2311663846 -0.9030339644
238850000.0 -0.3895217394 -0.8334869517
248800000.0 -0.6274192011 -0.4530992216
258750000.0 -0.921016191 0.1559768044
268700000.0 -0.6407558515 0.6953840321
278650000.0 -0.09078301 0.938319114
288600000.0 0.4849775701 0.7832236706
298550000.0 0.8331402551 0.305449238
308500000.0 0.8040791524 -0.281042257
318450000.0 0.4131272622 -0.7104443148
328400000.0 -0.1543273189 -0.7826419668
338350000.0 -0.6114654409 -0.4644883363
348300000.0 -0.7159894162 0.0570276492
358250000.0 -0.4400631781 0.4683932123
368200000.0 0.0028526221 0.5470237865
378150000.0 0.32431256 0.3123367843
388100000.0 0.368045496 -0.0287175309
398050000.0 0.1824880468 -0.2516154388
408000000.0 -0.0573814356 -0.2616592554
417950000.0 -0.1948008896 -0.1188426156
427900000.0 -0.1826553808 0.0467026204
437850000.0 -0.0714992271 0.1340692059
447800000.0 0.0491562352 0.11731835
457750000.0 0.1111069868 0.033476181
467700000.0 0.0953469828 -0.0529859104
477650000.0 0.0348117161 -0.0904114882
487600000.0 -0.0174838546 -0.0659963171
497550000.0 -0.036575867 -0.0988424536
507500000.0 -0.0479344064 -0.0156522704
517450000.0 -0.0205454019 0.0025449805
527400000.0 -0.0049436827 -0.0071693655
537350000.0 -0.0146037771 -0.0235919547
547300000.0 -0.0507002712 -0.0228705731
557250000.0 -0.0763705032 0.0207930576
567200000.0 -0.0642959652 0.078118282
577150000.0 -0.0100540805 0.1207145892
587100000.0 0.0684270036 0.1176323217
597050000.0 0.135968544 0.0594001178
607000000.0 0.1547570578 -0.0376085664
616950000.0 0.1081971984 -0.1332516302
626900000.0 0.0101391932 -0.1850550036
636850000.0 -0.1010280753 -0.1684156594
646800000.0 -0.1809534452 -0.0864934873
656750000.0 -0.1936840565 0.026565394
666700000.0 -0.1329688582 0.1219778503
676650000.0 -0.0258921244 0.158710605
686600000.0 0.0789685644 0.1195115837
696550000.0 0.1345149687 0.0255638994
706500000.0 0.1174932106 -0.0755649529
716450000.0 0.0429112819 -0.1345405094
726400000.0 -0.044974106 -0.1231566153
736350000.0 -0.0927281296 -0.051821594
746300000.0 -0.0699690781 0.034335653
756250000.0 0.0163434346 0.0805331734
766200000.0 0.1178560712 0.0489532031
776150000.0 0.171671013 -0.0528581099
786100000.0 0.1359028031 -0.17406702
796050000.0 0.0132621826 -0.2427464264
806000000.0 -0.1416036873 -0.2053509563
815950000.0 -0.2466021186 -0.0593436787
825900000.0 -0.2352436631 0.1389403358
835850000.0 -0.0939815913 0.2998521276
845800000.0 0.1270757869 0.3422555432
855750000.0 0.3353492478 0.2352722049
865700000.0 0.4362185433 0.0149228173
875650000.0 0.3746897846 -0.2309405784
885600000.0 0.1625166329 -0.3908052731
895550000.0 -0.1156917452 -0.3820928924
905500000.0 -0.3350802575 -0.1947390025
915450000.0 -0.3857621368 0.0967103877
925400000.0 -0.2339919158 0.350915376
935350000.0 0.0465486897 0.4369722354
945300000.0 0.3109944791 0.3053102651
955250000.0 0.408525125 0.0141926553
965200000.0 0.2521724214 -0.2781255264
975150000.0 -0.1029636108 -0.3616339929
985100000.0 -0.4236636223 -0.1133784914
995050000.0 -0.4202623924 0.3342679879
1005000000.0 -0.0231123699 0.6256786971
1014950000.0 0.4987956214 0.4731232364
1024900000.0 0.7262341233 -0.0809674352
1034850000.0 0.4157820191 -0.6540452241
1044800000.0 -0.2589860248 -0.7778589076
1054750000.0 -0.7591717697 -0.3203790608
1064700000.0 -0.7907452759 0.2161837049
1074650000.0 -0.4343527287 0.7087445967
1084600000.0 0.0896163909 0.8002295484
1094550000.0 0.595333797 0.5138487896
1104500000.0 0.7467442762 -0.0568387105
1114450000.0 0.442081393 -0.5587511419
1124400000.0 -0.1107263546 -0.6710759971
1134350000.0 -0.5345010929 -0.364163511
1144300000.0 -0.6007582342 0.1092700892
1154250000.0 -0.3368470928 0.4617580224
1164200000.0 0.0690584975 0.5290499147
1174150000.0 0.4052868772 0.3084726567
1184100000.0 0.4892677566 -0.0889410933
1194050000.0 0.2683728932 -0.4220625821
1204000000.0 -0.1072537475 -0.5055661692
1213950000.0 -0.4282890277 -0.3288117625
1223900000.0 -0.5629350351 -0.0043220883
1233850000.0 -0.4781327091 0.3285830662
1243800000.0 -0.2114848329 0.549264528
1253750000.0 0.1437583846 0.5703953096
1263700000.0 0.4508418106 0.3670608566
1273650000.0 0.5761606464 0.0137192074
1283600000.0 0.469585254 -0.3437318015
1293550000.0 0.1863248034 -0.5704742091
1303500000.0 -0.1612783943 -0.6046935151
1313450000.0 -0.464641275 -0.4549947003
1323400000.0 -0.6440436452 -0.1733309508
1333350000.0 -0.6500451917 0.165132809
1343300000.0 -0.4670929227 0.4650574068
1353250000.0 -0.1348075423 0.6187885117
1363200000.0 0.2373980157 0.5561168201
1373150000.0 0.5114878743 0.2932072254
1383100000.0 0.5916445523 -0.0690258969
1393050000.0 0.4709788058 -0.4013282835
1403000000.0 0.2076160966 -0.6102047279
1412950000.0 -0.112598976 -0.649684548
1422900000.0 -0.4001775366 -0.5187696416
1432850000.0 -0.574376273 -0.2545192441
1442800000.0 -0.5805469437 0.0670068739
1452750000.0 -0.409607577 0.3486475149
1462700000.0 -0.105722824 0.4971144131
1472650000.0 0.2312779041 0.4531182244
1482600000.0 0.4805074597 0.234339987
1492550000.0 0.562022695 -0.0725725254
1502500000.0 0.4633809537 -0.3595930352
1512450000.0 0.2272344651 -0.5358635987
1522400000.0 -0.0659331756 -0.544791217
1532350000.0 -0.3126172373 -0.3784599335
1542300000.0 -0.416349787 -0.0929420191
1552250000.0 -0.3288612238 0.2002310815
1562200000.0 -0.0879874295 0.3768092134
1572150000.0 0.1967642458 0.3725750173
1582100000.0 0.4092160606 0.2045307354
1592050000.0 0.4698339296 -0.048638517
1602000000.0 0.3629909544 -0.2819893547
1611950000.0 0.1307755261 -0.4034697178
1621900000.0 -0.1385497978 -0.3584206648
1631850000.0 -0.3335693281 -0.1496941715
1641800000.0 -0.3590593147 0.1445753953
1651750000.0 -0.1951316748 0.3924098564
1661700000.0 0.0827446816 0.483620715
1671650000.0 0.3538386268 0.3899979934
1681600000.0 0.5177369341 0.1569452526
1691550000.0 0.5208079201 -0.1336071855
1701500000.0 0.355476305 -0.3854372238
1711450000.0 0.0640346911 -0.5083122999
1721400000.0 -0.2615242251 -0.4399559021
1731350000.0 -0.4932260749 -0.1886610461
1741300000.0 -0.5344322543 0.1510918896
1751250000.0 -0.3735307838 0.4432621488
1761200000.0 -0.0906970213 0.5815342974
1771150000.0 0.1884885814 0.5522788844
1781100000.0 0.4259991043 0.4188862598
1791050000.0 0.5802560485 0.1638598507
1801000000.0 0.575949411 -0.1511540388
1810950000.0 0.3960499214 -0.4266617557
1820900000.0 0.0829613344 -0.5616488458
1830850000.0 -0.2570799738 -0.4949186976
1840800000.0 -0.4958508774 -0.2513199994
1850750000.0 -0.5579970452 0.0685928895
1860700000.0 -0.4487505865 0.3527351092
1870650000.0 -0.2263318087 0.5302214835
1880600000.0 0.0395773357 0.5713085761
1890550000.0 0.282703521 0.4773640104
1900500000.0 0.4418052701 0.272638134
1910450000.0 0.4674647966 0.0135217322
1920400000.0 0.3459159204 -0.2164324195
1930350000.0 0.1228569495 -0.3342529287
1940300000.0 -0.1082059705 -0.3079972571
1950250000.0 -0.2672802413 -0.175845401
1960200000.0 -0.3173226321 -0.0104192432
1970150000.0 -0.2752616376 0.1207575709
1980100000.0 -0.1911369875 0.1754202358
1990050000.0 -0.1311158547 0.1538211236
2000000000.0 -0.1473675957 0.1111062844
