!Created with skrf (http://scikit-rf.org).
# GHz S RI R 50.0 
!freq ReS11 ImS11
10000000.0 -0.8287484711 0.0592667662
14975000.0 -0.8310299239 0.0910244339
19950000.0 -0.83332284 0.1254223388
24925000.0 -0.8342024846 0.162330964
29900000.0 -0.8330453424 0.2015772182
34875000.0 -0.8284899916 0.2433865846
39850000.0 -0.8202059769 0.2873522522
44825000.0 -0.807934429 0.3332564656
49800000.0 -0.7920240527 0.3807547441
54775000.0 -0.7718402909 0.4294936296
59750000.0 -0.7473087654 0.4791959475
64725000.0 -0.7186095217 0.529493715
69700000.0 -0.6849380658 0.5803296347
74675000.0 -0.6460747035 0.6314329068
79650000.0 -0.6014095359 0.6829952227
84625000.0 -0.550251515 0.7346564096
89600000.0 -0.491524132 0.7862070619
94575000.0 -0.4236128966 0.836760953
99550000.0 -0.3448538373 0.8845251048
104525000.0 -0.2537850259 0.9270099992
109500000.0 -0.1498891951 0.9603987796
114475000.0 -0.0336266251 0.9804366333
119450000.0 0.0923898876 0.9837811855
124425000.0 0.2244060621 0.9669932198
129400000.0 0.3387730759 0.9281835735
134375000.0 0.4808771586 0.869187755
139350000.0 0.5995358757 0.7865777785
144325000.0 0.7033483912 0.6849591021
149300000.0 0.7889148515 0.5681715279
154275000.0 0.8534813362 0.4415033887
159250000.0 0.8963948704 0.3100053359
164225000.0 0.917652822 0.17904854
169200000.0 0.9193437814 0.0531612206
174175000.0 0.904232074 -0.0641835462
179150000.0 0.8763328444 -0.1703066592
184125000.0 0.8400820349 -0.2644986253
189100000.0 0.7992788871 -0.3471735624
194075000.0 0.7563969349 -0.4195561073
199050000.0 0.712990106 -0.4833273095
204025000.0 0.6693292584 -0.5398549618
209000000.0 0.6247443235 -0.590952711
213975000.0 0.5795900537 -0.6366157224
218950000.0 0.5330852021 -0.6776138719
223925000.0 0.4849403232 -0.7144278852
228900000.0 0.4349944809 -0.7470073851
233875000.0 0.3829962116 -0.7753822907
238850000.0 0.3276759113 -0.8001729882
243825000.0 0.2598773644 -0.821478144
248800000.0 0.3097202981 -0.7481045642
253775000.0 0.2088311844 -0.8347348421
258750000.0 0.1519836885 -0.8476088489
263725000.0 0.1015383223 -0.8544530241
268700000.0 0.0540627928 -0.8578037581
273675000.0 0.0087079882 -0.8582865044
278650000.0 -0.0352267999 -0.8562291629
283625000.0 -0.0787223513 -0.8521608056
288600000.0 -0.1222605798 -0.8459592488
293575000.0 -0.1669292925 -0.8372631289
298550000.0 -0.2132576673 -0.825467993
303525000.0 -0.2613005914 -0.8098368993
308500000.0 -0.31064841 -0.7890664411
313475000.0 -0.3606737061 -0.7622434778
318450000.0 -0.4100621485 -0.7287638021
323425000.0 -0.4575560782 -0.6880596403
328400000.0 -0.5020641939 -0.6409229053
333375000.0 -0.5412511312 -0.5873266575
338350000.0 -0.5744298765 -0.5272343017
343325000.0 -0.600874555 -0.4620799156
348300000.0 -0.6181541808 -0.3929210238
353275000.0 -0.6251224699 -0.320396677
358250000.0 -0.6226259712 -0.2472610232
363225000.0 -0.6095819916 -0.1760728347
368200000.0 -0.5856715098 -0.1075099031
373175000.0 -0.5539104653 -0.0437656267
378150000.0 -0.5155856313 0.0120293603
383125000.0 -0.4707841158 0.0597538239
388100000.0 -0.4219612252 0.0997401337
393075000.0 -0.3721340386 0.1297562375
398050000.0 -0.3217653396 0.1509268574
403025000.0 -0.2722494994 0.1655330538
408000000.0 -0.2259913099 0.1725562565
412975000.0 -0.182673574 0.1717508926
417950000.0 -0.1421373439 0.1663841294
422925000.0 -0.1058176969 0.1582137369
427900000.0 -0.0739271792 0.1458195511
432875000.0 -0.0457796331 0.1310029637
437850000.0 -0.02229217 0.1160208652
442825000.0 -0.003163947 0.0996604627
447800000.0 0.0131202737 0.0822502274
452775000.0 0.0255280993 0.0652883566
457750000.0 0.0344805934 0.0489758808
462725000.0 0.0413097579 0.0335444115
467700000.0 0.0449229688 0.0191089691
472675000.0 0.0451147525 0.0058807549
477650000.0 0.0429803543 -0.0056287985
482625000.0 0.0377201602 -0.0158681501
487600000.0 0.0246638878 -0.0229182957
492575000.0 0.0159206291 0.0332337373
497550000.0 0.0563094274 -0.0278555836
502525000.0 0.040575819 -0.0423788478
507500000.0 0.0306879106 -0.0494501458
512475000.0 0.021442359 -0.0531842294
517450000.0 0.0128637852 -0.0554756193
522425000.0 0.0049638875 -0.0567142759
527400000.0 -0.0029944795 -0.056326556
532375000.0 -0.0109979374 -0.0547554933
537350000.0 -0.0185741518 -0.0520624112
542325000.0 -0.0267798008 -0.0483407365
547300000.0 -0.0343599104 -0.0423118635
552275000.0 -0.0403472732 -0.0356377116
557250000.0 -0.0458975169 -0.028530281
562225000.0 -0.0513207954 -0.0213437561
567200000.0 -0.0562229099 -0.0131134708
572175000.0 -0.0607678693 -0.0037958626
577150000.0 -0.0648422531 0.0053608221
582125000.0 -0.0679371934 0.0145467132
587100000.0 -0.0704299382 0.0242874798
592075000.0 -0.0719480218 0.0341109866
597050000.0 -0.0717756601 0.0435606271
602025000.0 -0.0707467062 0.0532721807
607000000.0 -0.0691664625 0.062996939
611975000.0 -0.0657860765 0.0724114517
616950000.0 -0.0616671352 0.0815637308
621925000.0 -0.0566475538 0.089770522
626900000.0 -0.0507429211 0.097550149
631875000.0 -0.0439181529 0.1049829218
636850000.0 -0.0368554375 0.1116581757
641825000.0 -0.0294514323 0.1171639429
646800000.0 -0.0216515491 0.1224442945
651775000.0 -0.0139075944 0.1266859041
656750000.0 -0.0053823819 0.1305191027
661725000.0 0.0026244939 0.133642274
666700000.0 0.0102245046 0.1358717077
671675000.0 0.0188767614 0.1371185381
676650000.0 0.0283689721 0.1377807542
681625000.0 0.03824921 0.1373718416
686600000.0 0.0489670675 0.1366650149
691575000.0 0.0601187678 0.1356609238
696550000.0 0.0712301225 0.132732455
701525000.0 0.0830568405 0.128654554
706500000.0 0.0950828909 0.1235614545
711475000.0 0.107164114 0.1169692201
716450000.0 0.1193494512 0.1092884383
721425000.0 0.1312064004 0.1005740136
726400000.0 0.1422397148 0.0904804645
731375000.0 0.1525606746 0.0787387949
736350000.0 0.1624612608 0.0658787425
741325000.0 0.171132064 0.0519319338
746300000.0 0.1786978184 0.0366932716
751275000.0 0.1853354862 0.0199837793
756250000.0 0.1906215238 0.002269781
761225000.0 0.1946796006 -0.016498368
766200000.0 0.1977946782 -0.0359658514
771175000.0 0.1987914357 -0.0559501373
776150000.0 0.1983611931 -0.0763792493
781125000.0 0.1962958273 -0.0972779062
786100000.0 0.1927598834 -0.1180243994
791075000.0 0.1877719034 -0.1387417238
796050000.0 0.1808325587 -0.1586871045
801025000.0 0.1721424579 -0.1780143317
806000000.0 0.1617793393 -0.1965767261
810975000.0 0.1497725042 -0.2143073358
815950000.0 0.1361656737 -0.2308064718
820925000.0 0.1210765578 -0.246381788
825900000.0 0.1052796098 -0.2610607089
830875000.0 0.0887231724 -0.2741582855
835850000.0 0.0712313465 -0.2859395384
840825000.0 0.0535870276 -0.2971435426
845800000.0 0.0356073356 -0.3070902941
850775000.0 0.0173934359 -0.3157006082
855750000.0 -0.0013455048 -0.3241292819
860725000.0 -0.0203867151 -0.3314593297
865700000.0 -0.0404605085 -0.3378401949
870675000.0 -0.0611053547 -0.3433284261
875650000.0 -0.0834272414 -0.3468932268
880625000.0 -0.1066262498 -0.3482584133
885600000.0 -0.13088044 -0.3475407428
890575000.0 -0.1564922996 -0.3441113196
895550000.0 -0.1831006002 -0.3382804767
900525000.0 -0.2096493151 -0.3293936087
905500000.0 -0.2363807183 -0.3170549383
910475000.0 -0.2631489032 -0.3014574441
915450000.0 -0.2895456444 -0.2829024899
920425000.0 -0.3149480558 -0.2604654545
925400000.0 -0.339283612 -0.2348658565
930375000.0 -0.3619600327 -0.2057486651
935350000.0 -0.3828919822 -0.1729048572
940325000.0 -0.4013820015 -0.1363050911
945300000.0 -0.4172676264 -0.0951641007
950275000.0 -0.430058275 -0.0494428475
955250000.0 -0.4391429595 0.0009912737
960225000.0 -0.442814586 0.0566600213
965200000.0 -0.4401062037 0.1172731116
970175000.0 -0.4295706599 0.1828570082
975150000.0 -0.4091943424 0.2515520144
980125000.0 -0.3774628771 0.3220970994
985100000.0 -0.3329737655 0.392273698
990075000.0 -0.2747633894 0.4589311524
995050000.0 -0.2019674127 0.5185398727
1000025000.0 -0.1156415309 0.5673982717
1005000000.0 -0.0175290154 0.6011411569
1009975000.0 0.0895447894 0.6153287469
1014950000.0 0.2011135201 0.606638911
1019925000.0 0.310789766 0.5744805078
1024900000.0 0.4119998845 0.5201243859
1029875000.0 0.4988619986 0.4479058087
1034850000.0 0.5675012199 0.3650198452
1039825000.0 0.6198797405 0.279106555
1044800000.0 0.6611526488 0.1910161922
1049775000.0 0.690044297 0.0959429058
1054750000.0 0.6974322953 0.0050224928
1059725000.0 0.7135486235 -0.0724382277
1064700000.0 0.72569953 -0.1747738461
1069675000.0 0.7103325044 -0.2839760162
1074650000.0 0.6667175522 -0.382067354
1079625000.0 0.6249629219 -0.4554271543
1084600000.0 0.5740129613 -0.5419272484
1089575000.0 0.5033346885 -0.6160129113
1094550000.0 0.4226827243 -0.6751188126
1099525000.0 0.3362057721 -0.7195692572
1104500000.0 0.247363488 -0.7496481507
1109475000.0 0.1570989081 -0.7662126903
1114450000.0 0.0681930057 -0.7699798516
1119425000.0 -0.0175536101 -0.7625012627
1124400000.0 -0.0990440075 -0.7446066346
1129375000.0 -0.1754329922 -0.7174281911
1134350000.0 -0.2465660842 -0.6820273395
1139325000.0 -0.3114105528 -0.6395846983
1144300000.0 -0.3697634254 -0.5907243419
1149275000.0 -0.4209991635 -0.5369381849
1154250000.0 -0.464071826 -0.4798371937
1159225000.0 -0.4990798559 -0.4211394701
1164200000.0 -0.527223419 -0.3629717484
1169175000.0 -0.5499205084 -0.3063165358
1174150000.0 -0.5687345514 -0.2496360395
1179125000.0 -0.5823999688 -0.1929110804
1184100000.0 -0.5901271871 -0.1370638179
1189075000.0 -0.5928332081 -0.083427406
1194050000.0 -0.5906487236 -0.0327194387
1199025000.0 -0.5843871776 0.0148418115
1204000000.0 -0.5746273669 0.0594333242
1208975000.0 -0.5620100685 0.1003886521
1213950000.0 -0.5474141469 0.1385070278
1218925000.0 -0.5320787684 0.1725656625
1223900000.0 -0.5166010478 0.2036124815
1228875000.0 -0.5011556201 0.2323661829
1233850000.0 -0.4872721091 0.2581357991
1238825000.0 -0.4739388794 0.2824143477
1243800000.0 -0.4614857794 0.3058049684
1248775000.0 -0.4496667378 0.328258661
1253750000.0 -0.4376795071 0.34945105
1258725000.0 -0.4258860765 0.3700924079
1263700000.0 -0.4137278225 0.389783699
1268675000.0 -0.4010220346 0.4081707848
1273650000.0 -0.388111221 0.4247859995
1278625000.0 -0.3745150723 0.4396790478
1283600000.0 -0.3599897467 0.4536001991
1288575000.0 -0.3453573062 0.464972105
1293550000.0 -0.3303891448 0.474752312
1298525000.0 -0.3148780139 0.4834347484
1303500000.0 -0.3004073921 0.4900705451
1308475000.0 -0.2865459867 0.4945657523
1313450000.0 -0.2743532566 0.4976445533
1318425000.0 -0.2645975966 0.4996051495
1323400000.0 -0.2572786854 0.5005366577
1328375000.0 -0.2528105989 0.5017440901
1333350000.0 -0.2513118714 0.5041366799
1338325000.0 -0.2514022725 0.5086781866
1343300000.0 -0.2520588193 0.5152390653
1348275000.0 -0.2514149243 0.5237278409
1353250000.0 -0.2489787137 0.5333700311
1358225000.0 -0.2452694435 0.5437697351
1363200000.0 -0.238582565 0.5538022572
1368175000.0 -0.2299010779 0.5631194049
1373150000.0 -0.2194451906 0.5719236522
1378125000.0 -0.2081516365 0.5795290423
1383100000.0 -0.195713802 0.5856782628
1388075000.0 -0.182446623 0.5903542601
1393050000.0 -0.1693357088 0.59380677
1398025000.0 -0.1560970534 0.5953855303
1403000000.0 -0.1434196791 0.595418098
1407975000.0 -0.1315979122 0.5937987314
1412950000.0 -0.1214848096 0.5900137595
1417925000.0 -0.1136613471 0.5851537315
1422900000.0 -0.1087264469 0.5793965073
1427875000.0 -0.1072809745 0.5734951253
1432850000.0 -0.1093891524 0.5681970177
1437825000.0 -0.1136481248 0.565569042
1442800000.0 -0.1181066866 0.5657904712
1447775000.0 -0.1213392941 0.5677799397
1452750000.0 -0.1220870739 0.5723580657
1457725000.0 -0.1198604052 0.5790153103
1462700000.0 -0.1140034677 0.5848269418
1467675000.0 -0.1055558651 0.5900232983
1472650000.0 -0.0951572363 0.595868642
1477625000.0 -0.0831197664 0.6003289611
1482600000.0 -0.0688762485 0.6028828172
1487575000.0 -0.0551272342 0.6053880378
1492550000.0 -0.0408386479 0.6062770493
1497525000.0 -0.0248383683 0.6055408421
1502500000.0 -0.0092805533 0.604586845
1507475000.0 0.005271815 0.6027708833
1512450000.0 0.0200684435 0.6001073927
1517425000.0 0.0344634002 0.5965817902
1522400000.0 0.047011796 0.5916692209
1527375000.0 0.0591823429 0.5866420549
1532350000.0 0.0702659262 0.5814847645
1537325000.0 0.0812845123 0.5750506544
1542300000.0 0.0921742759 0.5691966213
1547275000.0 0.1034814332 0.5632975651
1552250000.0 0.1161238561 0.5568189842
1557225000.0 0.1290272884 0.5502174771
1562200000.0 0.142043601 0.5430151544
1567175000.0 0.1560838632 0.5345745394
1572150000.0 0.1702097361 0.5256636339
1577125000.0 0.1838303999 0.5157243177
1582100000.0 0.1985995273 0.5049544798
1587075000.0 0.2128944803 0.4940872419
1592050000.0 0.2271268321 0.4820563378
1597025000.0 0.2418303578 0.4695210277
1602000000.0 0.2570995625 0.4568373355
1606975000.0 0.2713082912 0.4432943947
1611950000.0 0.2857138964 0.4293321239
1616925000.0 0.3002881739 0.4151254161
1621900000.0 0.3146784023 0.4003584268
1626875000.0 0.3285595783 0.3860203165
1631850000.0 0.3423762819 0.3710688801
1636825000.0 0.3566077091 0.3563323149
1641800000.0 0.369898207 0.3413085697
1646775000.0 0.3823543075 0.3257839067
1651750000.0 0.3953626423 0.3105677058
1656725000.0 0.4067725657 0.2950506729
1661700000.0 0.416945206 0.2787057893
1666675000.0 0.4263509578 0.2629318672
1671650000.0 0.4337327062 0.2464729003
1676625000.0 0.4396502099 0.2289640697
1681600000.0 0.4435925558 0.2119474132
1686575000.0 0.4445180016 0.1945160506
1691550000.0 0.4427787376 0.177260652
1696525000.0 0.4373814269 0.1639137989
1701500000.0 0.4327993908 0.157772308
1706475000.0 0.4335051437 0.154467543
1711450000.0 0.4392366394 0.1479241855
1716425000.0 0.4453912994 0.1376089422
1721400000.0 0.4509910537 0.1252424598
1726375000.0 0.4561293286 0.1126650158
1731350000.0 0.4618728191 0.1006913664
1736325000.0 0.467997656 0.0884584254
1741300000.0 0.4739216481 0.0763655036
1746275000.0 0.4807156864 0.0640063673
1751250000.0 0.4872100847 0.0520318672
1756225000.0 0.4928094632 0.0398351281
1761200000.0 0.4976373845 0.0274180575
1766175000.0 0.5009725403 0.0153207611
1771150000.0 0.5029287568 0.0035885497
1776125000.0 0.5039590458 -0.007903888
1781100000.0 0.502715933 -0.0187136976
1786075000.0 0.500483674 -0.0287417278
1791050000.0 0.4973165909 -0.0374275907
1796025000.0 0.4926380593 -0.0453409831
1801000000.0 0.4873818847 -0.0516390512
1805975000.0 0.4818392021 -0.0561975657
1810950000.0 0.4765091811 -0.0592108361
1815925000.0 0.4727817018 -0.061525421
1820900000.0 0.4701517932 -0.0624077715
1825875000.0 0.4697519196 -0.0630466964
1830850000.0 0.4704468574 -0.0642798956
1835825000.0 0.4722918841 -0.0662286938
1840800000.0 0.47420763 -0.0696021063
1845775000.0 0.4754629583 -0.0734686392
1850750000.0 0.4760673252 -0.0782744797
1855725000.0 0.4746729639 -0.0846935756
1860700000.0 0.4713386158 -0.0900954284
1865675000.0 0.4671830226 -0.0957959343
1870650000.0 0.4609357235 -0.102288782
1875625000.0 0.4528651428 -0.1073484815
1880600000.0 0.4435606532 -0.1125564536
1885575000.0 0.4324051449 -0.1169481282
1890550000.0 0.4203127045 -0.1201472234
1895525000.0 0.4066300912 -0.1230857236
1900500000.0 0.3926188453 -0.1233293183
1905475000.0 0.3784355655 -0.1226965275
1910450000.0 0.3642564307 -0.1210589784
1915425000.0 0.3521692903 -0.1172982755
1920400000.0 0.341297003 -0.1132930402
1925375000.0 0.3311756544 -0.1094946888
1930350000.0 0.3224702055 -0.1059711492
1935325000.0 0.3132013649 -0.1038424292
1940300000.0 0.3026813354 -0.1019352547
1945275000.0 0.2913988978 -0.1005048458
1950250000.0 0.2783492957 -0.0988193853
1955225000.0 0.2632489545 -0.0965178403
1960200000.0 0.2460996184 -0.0939518021
1965175000.0 0.2275872694 -0.0895158253
1970150000.0 0.2074966711 -0.0839436835
1975125000.0 0.1843106262 -0.077320409
1980100000.0 0.1600251226 -0.0687451871
1985075000.0 0.1339131275 -0.0583552062
1990050000.0 0.1048388544 -0.0459598454
1995025000.0 0.0731358636 -0.0307092582
2000000000.0 0.0390387866 -0.0120863542
