!Created with skrf (http://scikit-rf.org).
# GHz S RI R 50.0 
!freq ReS11 ImS11
10000000.0 -0.9985077967 0.1646394841
19950000.0 -0.9434405348 0.3141117263
29900000.0 -0.865951326 0.4566280903
39850000.0 -0.765763206 0.5969166089
49800000.0 -0.6445121494 0.729095699
59750000.0 -0.4979508589 0.846687779
69700000.0 -0.3191389077 0.9384837682
79650000.0 -0.1057375433 0.9867257394
89600000.0 0.1405014526 0.9752775788
99550000.0 0.4060726171 0.886329503
109500000.0 0.6686414611 0.7080332352
119450000.0 0.8892861265 0.4286307938
129400000.0 0.9971817132 0.069335106
139350000.0 0.9637124727 -0.3427928915
149300000.0 0.747864168 -0.6902504966
159250000.0 0.4175976729 -0.9075576111
169200000.0 0.0588086722 -0.9827092864
179150000.0 -0.270115681 -0.9432037253
189100000.0 -0.5386445065 -0.8250462215
199050000.0 -0.7351114564 -0.6592332175
209000000.0 -0.858445133 -0.4676077321
218950000.0 -0.9230551838 -0.27031214
228900000.0 -0.9404518709 -0.0768047377
238850000.0 -0.9233430534 0.1104965027
248800000.0 -0.7153424655 0.2902475943
258750000.0 -0.8298890108 0.4180178398
268700000.0 -0.7438484162 0.5635268402
278650000.0 -0.6319219642 0.6814965939
288600000.0 -0.4934716668 0.7696338997
298550000.0 -0.3328883423 0.8251756649
308500000.0 -0.1549597867 0.8489585787
318450000.0 0.0339273491 0.8359472566
328400000.0 0.2240299634 0.7788671895
338350000.0 0.3939996439 0.6698646845
348300000.0 0.5188632375 0.509689995
358250000.0 0.5752196867 0.3125406647
368200000.0 0.5549648609 0.1065590687
378150000.0 0.4667720231 -0.0694845329
388100000.0 0.3392815844 -0.1921526498
398050000.0 0.2024565921 -0.2539981681
408000000.0 0.0807147749 -0.2601971951
417950000.0 -0.0130443266 -0.2252811898
427900000.0 -0.0762236303 -0.1667715808
437850000.0 -0.1135459561 -0.1003356338
447800000.0 -0.1292513265 -0.0386372153
457750000.0 -0.1287897087 0.0105645582
467700000.0 -0.1161102287 0.0430721803
477650000.0 -0.093967287 0.0567314982
487600000.0 -0.0640780528 0.0527118937
497550000.0 -0.0376554269 -0.0037498683
507500000.0 -0.0283914784 0.0423330002
517450000.0 -0.0009269104 0.0201687732
527400000.0 0.0106793006 0.0007944888
537350000.0 0.0079765095 -0.017100714
547300000.0 -0.0063967175 -0.0366828724
557250000.0 -0.0347238037 -0.0522814177
567200000.0 -0.0654527219 -0.06484609
577150000.0 -0.095997538 -0.0738063381
587100000.0 -0.1229546624 -0.0768991897
597050000.0 -0.1437624231 -0.0717530614
607000000.0 -0.1583405749 -0.0560758938
616950000.0 -0.1681847311 -0.0307138958
626900000.0 -0.1743697659 0.0014385562
636850000.0 -0.1770031954 0.0363804863
646800000.0 -0.1750945019 0.0692664223
656750000.0 -0.1679968934 0.0978249722
666700000.0 -0.1522317575 0.1186614178
676650000.0 -0.1258755801 0.1307829932
686600000.0 -0.0882655744 0.1345044356
696550000.0 -0.0426688481 0.1274582004
706500000.0 -0.0098771988 0.1079589621
716450000.0 0.0216657933 0.1023176685
726400000.0 0.057126696 0.0875110516
736350000.0 0.0829885189 0.058844571
746300000.0 0.0959069371 0.0183947044
756250000.0 0.0951779957 -0.0331543773
766200000.0 0.082260399 -0.0914550338
776150000.0 0.0591746699 -0.1504602343
786100000.0 0.0256385923 -0.204240621
796050000.0 -0.0170545447 -0.2456020645
806000000.0 -0.0687068357 -0.2701174532
815950000.0 -0.1288790946 -0.2749986795
825900000.0 -0.195015986 -0.2621761449
835850000.0 -0.2640829973 -0.2341027961
845800000.0 -0.3308897208 -0.1950422664
855750000.0 -0.3897267492 -0.1473553864
865700000.0 -0.4349656459 -0.0919684954
875650000.0 -0.4619624694 -0.0292224751
885600000.0 -0.4681963919 0.040781685
895550000.0 -0.4545775292 0.1178117964
905500000.0 -0.4222893455 0.2000367122
915450000.0 -0.3741640025 0.2830222727
925400000.0 -0.3114451858 0.3606885173
935350000.0 -0.2324511946 0.4256068404
945300000.0 -0.1358994128 0.4685106454
955250000.0 -0.0203643903 0.4802040472
965200000.0 0.1112471404 0.4513678072
975150000.0 0.2519078837 0.3758781578
985100000.0 0.3851718121 0.2464312648
995050000.0 0.4837890978 0.0607667714
1005000000.0 0.5110824674 -0.1690571255
1014950000.0 0.4328251726 -0.4133526567
1024900000.0 0.2318769612 -0.6158918819
1034850000.0 -0.0623628877 -0.7160674818
1044800000.0 -0.3860733762 -0.6816039213
1054750000.0 -0.6663446514 -0.5120504119
1064700000.0 -0.8127028918 -0.241142239
1074650000.0 -0.8674714686 -0.0205908275
1084600000.0 -0.840051237 0.2562044975
1094550000.0 -0.7000643759 0.4948259845
1104500000.0 -0.4949888725 0.6729456549
1114450000.0 -0.2466413568 0.7753864729
1124400000.0 0.0148639276 0.7869337227
1134350000.0 0.2544397107 0.7075493189
1144300000.0 0.4457736252 0.5454818216
1154250000.0 0.5618869627 0.3293125113
1164200000.0 0.5979534303 0.0994505382
1174150000.0 0.574589535 -0.1097253085
1184100000.0 0.5054452471 -0.2927285442
1194050000.0 0.3934208111 -0.4336697995
1204000000.0 0.2566511261 -0.5227515407
1213950000.0 0.1116718817 -0.564571832
1223900000.0 -0.0287918177 -0.5717579758
1233850000.0 -0.1578076191 -0.5563735167
1243800000.0 -0.2718857061 -0.5270999935
1253750000.0 -0.3700420212 -0.488163045
1263700000.0 -0.4495128083 -0.4398624352
1273650000.0 -0.5114716668 -0.382612541
1283600000.0 -0.5558444371 -0.3161585775
1293550000.0 -0.5874098514 -0.2427175457
1303500000.0 -0.6106692252 -0.1659601193
1313450000.0 -0.6296278988 -0.0900429275
1323400000.0 -0.6458597628 -0.0169708915
1333350000.0 -0.658868656 0.0517204843
1343300000.0 -0.6638657878 0.1160269196
1353250000.0 -0.6586274041 0.1750435079
1363200000.0 -0.6396102279 0.2311224305
1373150000.0 -0.6073214847 0.2856215457
1383100000.0 -0.5660408636 0.3399201078
1393050000.0 -0.5202364463 0.3937478706
1403000000.0 -0.4735765199 0.4456791108
1412950000.0 -0.4272038867 0.4940806628
1422900000.0 -0.3811451028 0.5347120967
1432850000.0 -0.3337622117 0.5636875764
1442800000.0 -0.2839706499 0.5820349888
1452750000.0 -0.2308939749 0.5920652285
1462700000.0 -0.171056147 0.5983349083
1472650000.0 -0.1022113889 0.6029002016
1482600000.0 -0.0275339652 0.6055953309
1492550000.0 0.0487726043 0.6039703631
1502500000.0 0.1233780879 0.5946053323
1512450000.0 0.193588666 0.5739777022
1522400000.0 0.2570644851 0.5386589788
1532350000.0 0.3138220299 0.4865566326
1542300000.0 0.3637749526 0.4187976741
1552250000.0 0.4077047192 0.3393983002
1562200000.0 0.4478877231 0.2536355241
1572150000.0 0.4803711972 0.1658953822
1582100000.0 0.5014434581 0.0768438863
1592050000.0 0.506122376 -0.0117722863
1602000000.0 0.4897054974 -0.098482845
1611950000.0 0.4526464325 -0.1807901005
1621900000.0 0.3982898855 -0.2584066819
1631850000.0 0.3322280068 -0.331689343
1641800000.0 0.2593286459 -0.3991870331
1651750000.0 0.1826078152 -0.4577699542
1661700000.0 0.1039189014 -0.5012781966
1671650000.0 0.0243171563 -0.5265231096
1681600000.0 -0.0554805128 -0.5314533173
1691550000.0 -0.1346001056 -0.5194943781
1701500000.0 -0.2139229086 -0.494402029
1711450000.0 -0.2917486703 -0.4621200971
1721400000.0 -0.3654052379 -0.4263699899
1731350000.0 -0.4320251768 -0.3891347433
1741300000.0 -0.4880768837 -0.3486783354
1751250000.0 -0.5309416223 -0.3024653023
1761200000.0 -0.5602880288 -0.250135195
1771150000.0 -0.5771948951 -0.1918005591
1781100000.0 -0.5871412802 -0.1288768675
1791050000.0 -0.5934546902 -0.0647471681
1801000000.0 -0.5998570505 -0.0023282764
1810950000.0 -0.6065688822 0.0570884662
1820900000.0 -0.6110915321 0.1105815565
1830850000.0 -0.6081549615 0.1583797795
1840800000.0 -0.5941121478 0.2014998646
1850750000.0 -0.5673554939 0.2406450517
1860700000.0 -0.5284695827 0.2767290593
1870650000.0 -0.4838833571 0.3122401915
1880600000.0 -0.4393894874 0.3451527917
1890550000.0 -0.3991841949 0.3755558985
1900500000.0 -0.3625660117 0.4001404319
1910450000.0 -0.3294324229 0.4175733621
1920400000.0 -0.2944790597 0.4256706305
1930350000.0 -0.2564656118 0.4218360612
1940300000.0 -0.213073834 0.4071639155
1950250000.0 -0.1652310403 0.3831405247
1960200000.0 -0.1156713779 0.3541774727
1970150000.0 -0.0726354087 0.3199323469
1980100000.0 -0.04994245 0.2798211233
1990050000.0 -0.0520099375 0.2361735962
2000000000.0 -0.0556264234 0.1997300571
