!Created with skrf (http://scikit-rf.org).
# GHz S RI R 50.0 
!freq ReS11 ImS11
10000000.0 -0.7431436604 0.5698634151
19950000.0 -0.2672707187 0.8953917241
29900000.0 0.3109519965 0.8726903969
39850000.0 0.7741286827 0.4997996213
49800000.0 0.9254863828 -0.0954764538
59750000.0 0.6740971288 -0.6773285903
69700000.0 0.1004880436 -0.9763768875
79650000.0 -0.5391055881 -0.8216038414
89600000.0 -0.9232737826 -0.2588332043
99550000.0 -0.8296173956 0.4469809177
109500000.0 -0.2561841673 0.9163634868
119450000.0 0.5142734482 0.8309388464
129400000.0 0.9851651816 0.1751958815
139350000.0 0.7836798752 -0.6338764617
149300000.0 0.0388750625 -0.9807196562
159250000.0 -0.6821623922 -0.641329992
169200000.0 -0.9066141472 0.0888907058
179150000.0 -0.5613827321 0.7240207017
189100000.0 0.0902737709 0.9213752044
199050000.0 0.6729900218 0.6242479417
209000000.0 0.9035436369 0.0266176194
218950000.0 0.7027661858 -0.5531522626
228900000.0 0.1942474877 -0.86065246
238850000.0 -0.3868830367 -0.7767969991
248800000.0 -0.6470682964 -0.4209851544
258750000.0 -0.8472567635 0.1934642167
268700000.0 -0.5568212713 0.6934517907
278650000.0 -0.0328193744 0.8981904601
288600000.0 0.4946635091 0.7266210458
298550000.0 0.799927288 0.2587161546
308500000.0 0.7505472287 -0.3033760483
318450000.0 0.3606170219 -0.7097868393
328400000.0 -0.1939006897 -0.7658610883
338350000.0 -0.6336301069 -0.4389845768
348300000.0 -0.7194622313 0.084520508
358250000.0 -0.4292488985 0.4900700059
368200000.0 0.0180675786 0.5594669651
378150000.0 0.338112061 0.3179775276
388100000.0 0.3813946093 -0.0245126322
398050000.0 0.2005252299 -0.246575442
408000000.0 -0.0332148033 -0.2588871585
417950000.0 -0.1686290656 -0.1238219961
427900000.0 -0.1615703532 0.0291841044
437850000.0 -0.0650021675 0.1053416674
447800000.0 0.0333276452 0.0840241962
457750000.0 0.0745972249 0.008411293
467700000.0 0.0510830922 -0.0595146574
477650000.0 -0.0017654503 -0.0783460696
487600000.0 -0.0361703692 -0.0463386166
497550000.0 -0.0643941344 -0.0383235601
507500000.0 -0.0236561296 0.0270586758
517450000.0 0.0215445225 0.0292953051
527400000.0 0.0435552041 0.0009109599
537350000.0 0.0299521855 -0.0312229413
547300000.0 -0.0145883239 -0.0411493834
557250000.0 -0.05629373 -0.0091279411
567200000.0 -0.0658190164 0.0452567085
577150000.0 -0.0325135891 0.0920688421
587100000.0 0.0312260572 0.1006564924
597050000.0 0.0917041372 0.0563202899
607000000.0 0.1129791466 -0.0242183116
616950000.0 0.0771435957 -0.1053718957
626900000.0 -0.0009686268 -0.1456574837
636850000.0 -0.0897109951 -0.1263261215
646800000.0 -0.1450394312 -0.0528387588
656750000.0 -0.1434664575 0.0416243173
666700000.0 -0.0843026812 0.1149875784
676650000.0 0.0064518979 0.1318851949
686600000.0 0.0867725701 0.0839566428
696550000.0 0.1165968358 -0.0088723199
706500000.0 0.0801183697 -0.0993002184
716450000.0 -0.0039004649 -0.1396722028
726400000.0 -0.0889651626 -0.1104895977
736350000.0 -0.1225080157 -0.0258073953
746300000.0 -0.0785334725 0.063996825
756250000.0 0.0257057203 0.1017956697
766200000.0 0.136350218 0.0569618578
776150000.0 0.1893773272 -0.0575843726
786100000.0 0.1445418517 -0.1817523993
796050000.0 0.0175553949 -0.2418145676
806000000.0 -0.1323850076 -0.1964330991
815950000.0 -0.2288907143 -0.0498039253
825900000.0 -0.2111519398 0.139892813
835850000.0 -0.0739698857 0.2847049063
845800000.0 0.1305470881 0.3124242852
855750000.0 0.3162547111 0.2010987388
865700000.0 0.40037214 -0.0128721764
875650000.0 0.3320099868 -0.2419576578
885600000.0 0.1252510026 -0.3831260836
895550000.0 -0.1350616353 -0.3573999714
905500000.0 -0.3299343958 -0.1616196875
915450000.0 -0.3589643772 0.1208082681
925400000.0 -0.2062149315 0.3592583288
935350000.0 0.0597433813 0.4445891854
945300000.0 0.3166124252 0.3272147408
955250000.0 0.4275081541 0.0472077821
965200000.0 0.3064043164 -0.254304531
975150000.0 -0.0178122543 -0.391327899
985100000.0 -0.3645870639 -0.2295479101
995050000.0 -0.4671447961 0.1724302526
1005000000.0 -0.2005611892 0.5309479728
1014950000.0 0.2861266866 0.544195478
1024900000.0 0.6305856547 0.1290129097
1034850000.0 0.5140020326 -0.4529654938
1044800000.0 -0.0509874228 -0.735820222
1054750000.0 -0.6277305779 -0.4333307753
1064700000.0 -0.7551509092 0.1256197148
1074650000.0 -0.4837994926 0.6602058911
1084600000.0 0.0942087286 0.790203705
1094550000.0 0.591078265 0.5009826814
1104500000.0 0.7310833326 -0.0850165191
1114450000.0 0.4033872351 -0.5924406566
1124400000.0 -0.167315097 -0.6849460944
1134350000.0 -0.5841484646 -0.3389135215
1144300000.0 -0.6153293041 0.164963486
1154250000.0 -0.3065668021 0.5171421927
1164200000.0 0.13335686 0.5509095188
1174150000.0 0.4607989275 0.2814292703
1184100000.0 0.5088458479 -0.1364099043
1194050000.0 0.2525215247 -0.4580715997
1204000000.0 -0.1363848353 -0.5060361499
1213950000.0 -0.4418231252 -0.2963775984
1223900000.0 -0.5470648828 0.0410818781
1233850000.0 -0.4342851982 0.3627825611
1243800000.0 -0.1538095885 0.5518942706
1253750000.0 0.1935347126 0.5298253913
1263700000.0 0.4659673587 0.2914214782
1273650000.0 0.5401203153 -0.0684983332
1283600000.0 0.3884124986 -0.3951399524
1293550000.0 0.0903993777 -0.5657433055
1303500000.0 -0.2328187621 -0.5427149787
1313450000.0 -0.483110712 -0.3562614477
1323400000.0 -0.6028645878 -0.068372399
1333350000.0 -0.562364214 0.2486069749
1343300000.0 -0.3517189236 0.5044546018
1353250000.0 -0.0167038989 0.596189865
1363200000.0 0.3232033176 0.4689122595
1373150000.0 0.530637501 0.164987492
1383100000.0 0.5333714145 -0.1937559304
1393050000.0 0.3523891797 -0.4834429706
1403000000.0 0.0654314187 -0.6259760617
1412950000.0 -0.2352174497 -0.5960945019
1422900000.0 -0.4688567544 -0.4137252892
1432850000.0 -0.5776606566 -0.1247549369
1442800000.0 -0.5181737934 0.1959052324
1452750000.0 -0.2841640178 0.4403173217
1462700000.0 0.0519804798 0.5101440972
1472650000.0 0.3645718991 0.3787012056
1482600000.0 0.5420071091 0.1024806198
1492550000.0 0.5352867673 -0.2136737775
1502500000.0 0.3612272857 -0.464482645
1512450000.0 0.0851229252 -0.5732568922
1522400000.0 -0.1997536419 -0.5048505423
1532350000.0 -0.3950305316 -0.2778056854
1542300000.0 -0.4241273684 0.0313509165
1552250000.0 -0.2664656357 0.3029317817
1562200000.0 0.0132070982 0.4258511191
1572150000.0 0.2980889346 0.3620860154
1582100000.0 0.4790446914 0.1490473237
1592050000.0 0.4929500172 -0.1219922173
1602000000.0 0.3424766021 -0.3470853278
1611950000.0 0.076745018 -0.4418513773
1621900000.0 -0.2016498666 -0.352692056
1631850000.0 -0.3777459393 -0.107444802
1641800000.0 -0.3686871353 0.1971981846
1651750000.0 -0.1747623291 0.4286028659
1661700000.0 0.115035211 0.489219909
1671650000.0 0.3779441674 0.3645099998
1681600000.0 0.5172909876 0.1122837517
1691550000.0 0.4888619792 -0.1756878936
1701500000.0 0.302020576 -0.4018823183
1711450000.0 0.0145772104 -0.4861161214
1721400000.0 -0.2823811838 -0.3866201888
1731350000.0 -0.4771218973 -0.1261931075
1741300000.0 -0.4896101382 0.2003932582
1751250000.0 -0.3154770096 0.4663718012
1761200000.0 -0.0305705021 0.5795337301
1771150000.0 0.2614127701 0.5178508862
1781100000.0 0.4732322151 0.313497871
1791050000.0 0.5497751655 0.0282663235
1801000000.0 0.4703069089 -0.2606126715
1810950000.0 0.2506575015 -0.4689427739
1820900000.0 -0.0509603051 -0.5219238463
1830850000.0 -0.3366902485 -0.3886055097
1840800000.0 -0.4993265075 -0.1164041863
1850750000.0 -0.4886017558 0.1883855171
1860700000.0 -0.329313156 0.4251736958
1870650000.0 -0.0878234189 0.5382048583
1880600000.0 0.1610062107 0.5115569372
1890550000.0 0.3507767012 0.3626354634
1900500000.0 0.4333569168 0.1351483657
1910450000.0 0.3822299784 -0.1022735242
1920400000.0 0.2202160379 -0.2770850369
1930350000.0 -0.0021763164 -0.3283968088
1940300000.0 -0.2042285126 -0.2470526799
1950250000.0 -0.312132418 -0.0856540246
1960200000.0 -0.3139245866 0.0831092401
1970150000.0 -0.2360166731 0.2019545918
1980100000.0 -0.1289546254 0.2410860766
1990050000.0 -0.0514527092 0.2067667616
2000000000.0 -0.04381244 0.1465240019
