!Created with skrf (http://scikit-rf.org).
# GHz S RI R 50.0 
!freq ReS11 ImS11
10000000.0 -1.000378254 0.1625711603
19950000.0 -0.9453848483 0.31050642
29900000.0 -0.8683316802 0.4521153524
39850000.0 -0.769130199 0.5917690099
49800000.0 -0.6496513959 0.724340539
59750000.0 -0.5053606722 0.8431917934
69700000.0 -0.3288674783 0.9368986344
79650000.0 -0.1174772702 0.9873147021
89600000.0 0.1276399131 0.9779877152
99550000.0 0.3933606411 0.8916803219
109500000.0 0.6578273477 0.7162952515
119450000.0 0.8827397696 0.4393197996
129400000.0 0.9734346931 0.0728006365
139350000.0 0.9690039557 -0.3332750674
149300000.0 0.7551018392 -0.6852526193
159250000.0 0.4234611801 -0.90589117
169200000.0 0.0610721314 -0.9824624158
179150000.0 -0.2708825963 -0.9429377417
189100000.0 -0.5419759319 -0.8241785186
199050000.0 -0.7398887826 -0.656984741
209000000.0 -0.863369674 -0.4634794567
218950000.0 -0.9266153837 -0.263379495
228900000.0 -0.9417227288 -0.0667112645
238850000.0 -0.9209431516 0.1265702507
248800000.0 -0.7178359177 0.0977763782
258750000.0 -0.8272242322 0.4248241391
268700000.0 -0.7378885808 0.5739833149
278650000.0 -0.6221812396 0.6926221134
288600000.0 -0.4794763131 0.7792096972
298550000.0 -0.3140674408 0.831957
308500000.0 -0.1315366817 0.8512542466
318450000.0 0.0611911547 0.832131261
328400000.0 0.2528953565 0.7681461854
338350000.0 0.4215084897 0.6517030549
348300000.0 0.5418543335 0.4838776967
358250000.0 0.5893833886 0.2815352059
368200000.0 0.557511417 0.0775590948
378150000.0 0.4616746707 -0.0931014641
388100000.0 0.3315262282 -0.2093455588
398050000.0 0.1960974448 -0.266273919
408000000.0 0.0779883155 -0.2698014007
417950000.0 -0.0116527777 -0.2334241438
427900000.0 -0.0712570893 -0.1752119027
437850000.0 -0.1059003161 -0.109791168
447800000.0 -0.1202821294 -0.0496582005
457750000.0 -0.1193365003 -0.0024768853
467700000.0 -0.1071583382 0.0271703943
477650000.0 -0.0862671616 0.0370552043
487600000.0 -0.0588501366 0.02815161
497550000.0 -0.0572030806 -0.0346012386
507500000.0 -0.0206995671 0.0202527814
517450000.0 0.0032727271 -0.006786048
527400000.0 0.0116514556 -0.0282579262
537350000.0 0.0050326327 -0.046557929
547300000.0 -0.0140657971 -0.0643823855
557250000.0 -0.0449396976 -0.0780995415
567200000.0 -0.0791457843 -0.0893983131
577150000.0 -0.1140060169 -0.0963010934
587100000.0 -0.1456660956 -0.095590409
597050000.0 -0.1735823186 -0.0798702974
607000000.0 -0.1797783762 -0.0086347402
616950000.0 -0.1354607051 -0.0593556016
626900000.0 -0.1673590986 -0.0297035596
636850000.0 -0.1776254614 0.0074073875
646800000.0 -0.180118772 0.0422209132
656750000.0 -0.1764084196 0.0714334982
666700000.0 -0.1639522546 0.0926135399
676650000.0 -0.1412161865 0.1050043569
686600000.0 -0.1082173314 0.1097252508
696550000.0 -0.067718211 0.1077963644
706500000.0 -0.024520279 0.1004820945
716450000.0 0.0164569687 0.0873750776
726400000.0 0.0494579911 0.0665909169
736350000.0 0.0714505858 0.0361312544
746300000.0 0.0791261743 -0.0048596597
756250000.0 0.0746824673 -0.0559986522
766200000.0 0.057465105 -0.1129956718
776150000.0 0.0305905978 -0.1698334488
786100000.0 -0.0050372042 -0.2201462896
796050000.0 -0.0489746134 -0.2577203815
806000000.0 -0.0998526642 -0.2771972092
815950000.0 -0.1581061753 -0.2767905401
825900000.0 -0.2214003262 -0.2589371873
835850000.0 -0.2871053172 -0.2263647721
845800000.0 -0.3493589296 -0.1836693918
855750000.0 -0.4033415899 -0.1341593666
865700000.0 -0.4436848193 -0.0782787138
875650000.0 -0.464988199 -0.0157810618
885600000.0 -0.465326986 0.0534163568
895550000.0 -0.4446894904 0.129103514
905500000.0 -0.4052513003 0.2095767014
915450000.0 -0.3493059465 0.2904427849
925400000.0 -0.2769831023 0.3644439734
935350000.0 -0.1875902356 0.4231726703
945300000.0 -0.0797212434 0.4547825206
955250000.0 0.0465781347 0.4482280469
965200000.0 0.1856617284 0.3923269086
975150000.0 0.3247494452 0.2800672296
985100000.0 0.4398347519 0.107137075
995050000.0 0.4948716332 -0.1194285901
1005000000.0 0.4511078671 -0.369122745
1014950000.0 0.2871656701 -0.5899232732
1024900000.0 0.0214881405 -0.719273733
1034850000.0 -0.2879053168 -0.7232223974
1044800000.0 -0.5750660624 -0.6037009394
1054750000.0 -0.7880991556 -0.3867044767
1064700000.0 -0.8754209321 -0.1116497855
1074650000.0 -0.8702985171 0.1204828397
1084600000.0 -0.7509677119 0.3639939223
1094550000.0 -0.6351886853 0.5358603933
1104500000.0 -0.4081836269 0.70267203
1114450000.0 -0.1376922672 0.7729328068
1124400000.0 0.1361938904 0.7373010867
1134350000.0 0.3656538353 0.5983677087
1144300000.0 0.5147377714 0.3838850691
1154250000.0 0.5706829048 0.14011385
1164200000.0 0.5458330645 -0.0893973232
1174150000.0 0.470954109 -0.2765427917
1184100000.0 0.367426847 -0.4260571066
1194050000.0 0.2350578211 -0.5281594029
1204000000.0 0.0926005899 -0.5767178614
1213950000.0 -0.0463415174 -0.5833835562
1223900000.0 -0.1736253408 -0.563336377
1233850000.0 -0.2872368991 -0.5287773294
1243800000.0 -0.3856420646 -0.486763056
1253750000.0 -0.4685654768 -0.4393894273
1263700000.0 -0.5336767189 -0.3863998803
1273650000.0 -0.5819425616 -0.3270956632
1283600000.0 -0.6132330513 -0.2608711603
1293550000.0 -0.6336307009 -0.1890821006
1303500000.0 -0.6476917556 -0.1148568261
1313450000.0 -0.659283131 -0.0420307981
1323400000.0 -0.6701655404 0.0273761181
1333350000.0 -0.6787610569 0.0919408539
1343300000.0 -0.680523472 0.1517934346
1353250000.0 -0.673018568 0.2060152862
1363200000.0 -0.6520574368 0.2571584577
1373150000.0 -0.6180821729 0.3067212187
1383100000.0 -0.5755119737 0.3565464331
1393050000.0 -0.529377356 0.4067639493
1403000000.0 -0.4828134313 0.4561010531
1412950000.0 -0.4368857996 0.502343643
1422900000.0 -0.3914364102 0.5421861338
1432850000.0 -0.3441072986 0.5705914396
1442800000.0 -0.2935421632 0.5876648278
1452750000.0 -0.2381475168 0.5956828302
1462700000.0 -0.1762645981 0.597941398
1472650000.0 -0.1059328421 0.5983371529
1482600000.0 -0.0296582191 0.5971976941
1492550000.0 0.0484763886 0.5922122735
1502500000.0 0.124443889 0.5788618701
1512450000.0 0.1954992761 0.5532416522
1522400000.0 0.2585445544 0.5121928767
1532350000.0 0.3132090616 0.4532465559
1542300000.0 0.3602269713 0.3781322837
1552250000.0 0.4004385248 0.2908942473
1562200000.0 0.4348994225 0.1965000329
1572150000.0 0.4594214483 0.1001817265
1582100000.0 0.4694497119 0.0042128883
1592050000.0 0.459621967 -0.0883407227
1602000000.0 0.4269674047 -0.1753189119
1611950000.0 0.3732331174 -0.2536075264
1621900000.0 0.3033569521 -0.3242992518
1631850000.0 0.2225137673 -0.3880182462
1641800000.0 0.1368778191 -0.4435332558
1651750000.0 0.0499570059 -0.4870528024
1661700000.0 -0.0345252399 -0.5144604691
1671650000.0 -0.1158922139 -0.5217622336
1681600000.0 -0.1932648476 -0.5097397314
1691550000.0 -0.2675699796 -0.4822193069
1701500000.0 -0.3395348321 -0.4431384237
1711450000.0 -0.4089874544 -0.3978536821
1721400000.0 -0.4736557469 -0.3494413661
1731350000.0 -0.5304277977 -0.2985724894
1741300000.0 -0.5700961121 -0.2376383714
1751250000.0 -0.543628144 -0.1811814113
1761200000.0 -0.5856654589 -0.2122790887
1771150000.0 -0.6224821591 -0.1421004291
1781100000.0 -0.6302678142 -0.0728251916
1791050000.0 -0.6310497513 -0.0066876824
1801000000.0 -0.6325254716 0.0554168501
1810950000.0 -0.6353842212 0.1136389288
1820900000.0 -0.6362532223 0.1654550177
1830850000.0 -0.6306025158 0.2114608029
1840800000.0 -0.6139457592 0.2518021262
1850750000.0 -0.5844670346 0.2879375947
1860700000.0 -0.5436001527 0.3208626831
1870650000.0 -0.4980494679 0.3526316926
1880600000.0 -0.4526141699 0.3824502075
1890550000.0 -0.4120974607 0.4099418729
1900500000.0 -0.3764021424 0.4325226589
1910450000.0 -0.3446883767 0.4483898476
1920400000.0 -0.3132914248 0.4537408585
1930350000.0 -0.2782392825 0.4482900756
1940300000.0 -0.2375042708 0.4324618802
1950250000.0 -0.1915860733 0.4074547722
1960200000.0 -0.1445412822 0.3775629861
1970150000.0 -0.1037837824 0.3433924167
1980100000.0 -0.0743175291 0.3052169768
1990050000.0 -0.0627162462 0.261617176
2000000000.0 -0.0750456126 0.2098525063
