!Created with skrf (http://scikit-rf.org).
# GHz S RI R 50.0 
!freq ReS11 ImS11
10000000.0 -0.8092973495 0.6063602472
19950000.0 -0.2924011364 0.9501603642
29900000.0 0.3245099449 0.9277078505
39850000.0 0.816386153 0.5456066536
49800000.0 0.9888355462 -0.0652311694
59750000.0 0.7484454304 -0.6702928054
69700000.0 0.1657520754 -0.9991774148
79650000.0 -0.5090047854 -0.8693666917
89600000.0 -0.9401753054 -0.3115553137
99550000.0 -0.881466688 0.4114631295
109500000.0 -0.3206233868 0.9116995525
119450000.0 0.4622783221 0.8604010789
129400000.0 0.9663412154 0.2258039359
139350000.0 0.8006518967 -0.5973171545
149300000.0 0.0601747799 -0.9809046464
159250000.0 -0.6892048774 -0.6672800497
169200000.0 -0.9450399486 0.0724426535
179150000.0 -0.5989832538 0.7421222799
189100000.0 0.0934544558 0.9640868165
199050000.0 0.7244060452 0.6570490191
209000000.0 0.971975816 0.0253947688
218950000.0 0.7532136012 -0.5870486479
228900000.0 0.2104716347 -0.9124461267
238850000.0 -0.4071204829 -0.8314580269
248800000.0 -0.6460777611 -0.380019524
258750000.0 -0.919511073 0.1795449508
268700000.0 -0.6226312638 0.7117552217
278650000.0 -0.0641691188 0.9396312785
288600000.0 0.5087287301 0.7695796445
298550000.0 0.8456451183 0.2842040551
308500000.0 0.804682587 -0.3002613819
318450000.0 0.4056138262 -0.7223606491
328400000.0 -0.1651809812 -0.7841989168
338350000.0 -0.6196989476 -0.4558193281
348300000.0 -0.716333976 0.0712118591
358250000.0 -0.4319147809 0.481128378
368200000.0 0.0144068253 0.5547520539
378150000.0 0.3343323862 0.3144955552
388100000.0 0.3732485803 -0.0293594075
398050000.0 0.1824621111 -0.2509135074
408000000.0 -0.0593422051 -0.2564044526
417950000.0 -0.1944922345 -0.1104847184
427900000.0 -0.1776945141 0.0539597826
437850000.0 -0.0647653131 0.1365549538
447800000.0 0.0525659733 0.1136620909
457750000.0 0.108025836 0.0281081496
467700000.0 0.0882547054 -0.0553791474
477650000.0 0.0273638448 -0.0900951818
487600000.0 -0.024001011 -0.0703383425
497550000.0 -0.025059168 -0.0996550788
507500000.0 -0.049714954 0.0013370436
517450000.0 -0.01409815 0.0101748666
527400000.0 0.0020320835 -0.0095704714
537350000.0 -0.012949921 -0.0314699032
547300000.0 -0.0498374718 -0.0288340937
557250000.0 -0.0769704889 0.011946066
567200000.0 -0.0667851798 0.0700163537
577150000.0 -0.0123315492 0.113921369
587100000.0 0.0672917353 0.1119717765
597050000.0 0.1352304917 0.0536077556
607000000.0 0.1540977497 -0.0430601117
616950000.0 0.1070224362 -0.1371278344
626900000.0 0.0089273025 -0.1866189986
636850000.0 -0.1022395861 -0.1668090503
646800000.0 -0.179057085 -0.0829077624
656750000.0 -0.1883743151 0.0307332592
666700000.0 -0.1248070455 0.1249137482
676650000.0 -0.0174408699 0.1581867486
686600000.0 0.084985853 0.1170815059
696550000.0 0.1362849705 0.0238351603
706500000.0 0.1161900405 -0.0737940586
716450000.0 0.0410658332 -0.1279409266
726400000.0 -0.0447112608 -0.11291116
736350000.0 -0.0887335843 -0.0407036644
746300000.0 -0.0621311532 0.042689959
756250000.0 0.0236413695 0.0819140423
766200000.0 0.1192369399 0.0437271513
776150000.0 0.1630438008 -0.0604631828
786100000.0 0.1164740633 -0.1767595774
796050000.0 -0.0116450296 -0.2348025444
806000000.0 -0.1632405137 -0.1851811969
815950000.0 -0.256807706 -0.031516574
825900000.0 -0.2300321948 0.1652830892
835850000.0 -0.075750242 0.3143457597
845800000.0 0.1497375664 0.3388511612
855750000.0 0.3515225221 0.2143614781
865700000.0 0.4369114926 -0.0172078008
875650000.0 0.3572287723 -0.2617492323
885600000.0 0.1325329486 -0.4109093823
895550000.0 -0.1483191703 -0.3875669011
905500000.0 -0.360063812 -0.1874739605
915450000.0 -0.3990982787 0.1022239757
925400000.0 -0.2504645332 0.3539876217
935350000.0 0.0289262294 0.453932611
945300000.0 0.3080380739 0.3385643678
955250000.0 0.4351230964 0.0536631871
965200000.0 0.3167984514 -0.2531950923
975150000.0 -0.0115388955 -0.3861141635
985100000.0 -0.3548731566 -0.2103423862
995050000.0 -0.4392494898 0.2013117942
1005000000.0 -0.1376733505 0.545921988
1014950000.0 0.3616383815 0.5095108853
1024900000.0 0.6632711361 0.0498425304
1034850000.0 0.4660018038 -0.5105935876
1044800000.0 -0.0970914656 -0.6984052887
1054750000.0 -0.6032834399 -0.4501018667
1064700000.0 -0.8012494956 0.1059227814
1074650000.0 -0.5507846512 0.6561896807
1084600000.0 0.0385464197 0.8557234395
1094550000.0 0.5978413317 0.5846442821
1104500000.0 0.7993115529 -0.0152344567
1114450000.0 0.4953645594 -0.574880051
1124400000.0 -0.1074841271 -0.7118394565
1134350000.0 -0.5708604384 -0.3744859877
1144300000.0 -0.6288964596 0.1409140526
1154250000.0 -0.327721619 0.5047231079
1164200000.0 0.1101215931 0.5476502933
1174150000.0 0.4464052738 0.2784746616
1184100000.0 0.485052796 -0.1502508496
1194050000.0 0.2100697976 -0.4669703671
1204000000.0 -0.1878949942 -0.4985833248
1213950000.0 -0.4886654088 -0.2717340243
1223900000.0 -0.5756577289 0.0776571695
1233850000.0 -0.4363432346 0.4017590071
1243800000.0 -0.1273032109 0.5817348744
1253750000.0 0.2388826445 0.5398746924
1263700000.0 0.5138698575 0.2781735804
1273650000.0 0.5757075806 -0.1008176424
1283600000.0 0.4049273469 -0.4382418012
1293550000.0 0.0842659539 -0.6127767257
1303500000.0 -0.2650998936 -0.5857765074
1313450000.0 -0.5406309771 -0.3836583114
1323400000.0 -0.6694673534 -0.067934247
1333350000.0 -0.6097230219 0.2759797876
1343300000.0 -0.3624414041 0.5422206405
1353250000.0 0.0057865788 0.6275152792
1363200000.0 0.3644211094 0.4855731246
1373150000.0 0.5790806517 0.1685036813
1383100000.0 0.5829140427 -0.2012960063
1393050000.0 0.3969796854 -0.5014428094
1403000000.0 0.0942031606 -0.6532193762
1412950000.0 -0.2358234454 -0.6249350013
1422900000.0 -0.5013813511 -0.4272913676
1432850000.0 -0.6206185056 -0.1117347662
1442800000.0 -0.5451241397 0.2265348624
1452750000.0 -0.2884604305 0.4703926716
1462700000.0 0.0615146851 0.5289394255
1472650000.0 0.3771892243 0.384922116
1482600000.0 0.5515144583 0.1012417525
1492550000.0 0.5396368924 -0.2163759135
1502500000.0 0.3588148545 -0.4640177133
1512450000.0 0.0738757486 -0.5630900212
1522400000.0 -0.2175387609 -0.4774899917
1532350000.0 -0.4041275564 -0.2317555405
1542300000.0 -0.4054271434 0.0797288231
1552250000.0 -0.219365368 0.3233307113
1562200000.0 0.0623011048 0.3992447185
1572150000.0 0.3192431851 0.2993628579
1582100000.0 0.4602830402 0.0739792663
1592050000.0 0.4355843311 -0.1859820757
1602000000.0 0.2562374909 -0.3791652265
1611950000.0 -0.0113028058 -0.4259203763
1621900000.0 -0.2630895663 -0.3002295967
1631850000.0 -0.3985574511 -0.0326603736
1641800000.0 -0.3345861246 0.2706820869
1651750000.0 -0.0971477638 0.469378223
1661700000.0 0.2075518887 0.481882085
1671650000.0 0.4556300213 0.3130752379
1681600000.0 0.5601220383 0.0332226289
1691550000.0 0.488044115 -0.2614938676
1701500000.0 0.2563594401 -0.472975948
1711450000.0 -0.0668547393 -0.5210215445
1721400000.0 -0.3727213758 -0.3694045102
1731350000.0 -0.5368018674 -0.0628680085
1741300000.0 -0.4910560287 0.279387198
1751250000.0 -0.2637638595 0.5249327153
1761200000.0 0.0483950903 0.5976448688
1771150000.0 0.3387314137 0.4932956487
1781100000.0 0.5234501622 0.2558034281
1791050000.0 0.5501259932 -0.0414689023
1801000000.0 0.4047208861 -0.3011883675
1810950000.0 0.1399558108 -0.4216055414
1820900000.0 -0.1186415868 -0.3583947429
1830850000.0 -0.2498884739 -0.1908019958
1840800000.0 -0.2639173899 -0.0610059455
1850750000.0 -0.282972176 0.0084465096
1860700000.0 -0.3328772411 0.1342983662
1870650000.0 -0.2978138008 0.3330309717
1880600000.0 -0.1280273841 0.49072733
1890550000.0 0.1171639676 0.5192151757
1900500000.0 0.3460630563 0.397056128
1910450000.0 0.4729058211 0.1590513839
1920400000.0 0.4443232833 -0.1158299228
1930350000.0 0.2655838024 -0.328579782
1940300000.0 0.0037158715 -0.403858148
1950250000.0 -0.2424520868 -0.3277883889
1960200000.0 -0.3937999362 -0.1499008669
1970150000.0 -0.4241394439 0.0522403604
1980100000.0 -0.3547539065 0.2128156585
1990050000.0 -0.2337662437 0.2943445842
2000000000.0 -0.1189428034 0.2959072182
