!Created with skrf (http://scikit-rf.org).
# GHz S RI R 50.0 
!freq ReS11 ImS11
10000000.0 -0.7633963925 0.5824926614
19950000.0 -0.2772770105 0.9217039818
29900000.0 0.316386169 0.9129006654
39850000.0 0.7979308123 0.548964705
49800000.0 0.9687289297 -0.0457067282
59750000.0 0.7342757197 -0.6366985311
69700000.0 0.1679298672 -0.9586701817
79650000.0 -0.4886480151 -0.8369734144
89600000.0 -0.9153428972 -0.2929644551
99550000.0 -0.8595022359 0.4265509896
109500000.0 -0.290168551 0.9220430504
119450000.0 0.4956512305 0.8380545063
129400000.0 0.9605709867 0.1594013984
139350000.0 0.7240883658 -0.6425664054
149300000.0 -0.0423907202 -0.9550336957
159250000.0 -0.7475878043 -0.5748985813
169200000.0 -0.9218347341 0.170321728
179150000.0 -0.5243149511 0.7771590885
189100000.0 0.1465680272 0.9232343661
199050000.0 0.7131676186 0.5905922031
209000000.0 0.918513677 -0.0120002073
218950000.0 0.7053860769 -0.5857844155
228900000.0 0.1959381817 -0.8938008498
238850000.0 -0.3841893835 -0.8256936708
248800000.0 -0.7563499853 -0.4286235876
258750000.0 -0.8909209659 0.1336620412
268700000.0 -0.6333891051 0.6409081611
278650000.0 -0.1297535851 0.890800427
288600000.0 0.4185500163 0.7861901441
298550000.0 0.7905190035 0.3688598327
308500000.0 0.8287697489 -0.1906408568
318450000.0 0.5109662403 -0.6498290349
328400000.0 -0.019983462 -0.7966518238
338350000.0 -0.5025794653 -0.5616299573
348300000.0 -0.6886423446 -0.0822408464
358250000.0 -0.500658246 0.3588377671
368200000.0 -0.1007842137 0.5156763576
378150000.0 0.2326465624 0.3549495246
388100000.0 0.3180298296 0.0590686585
398050000.0 0.180834982 -0.1467693808
408000000.0 -0.0141969474 -0.1645201907
417950000.0 -0.1182161879 -0.0482649792
427900000.0 -0.0916503366 0.0771732445
437850000.0 0.0101563824 0.1206417489
447800000.0 0.1022821397 0.068966073
457750000.0 0.1218204117 -0.0340683647
467700000.0 0.0652080969 -0.1196287908
477650000.0 -0.029529302 -0.1424804642
487600000.0 -0.1103972428 -0.0965645872
497550000.0 -0.1288846671 -0.0193115748
507500000.0 -0.1088670854 0.0538084173
517450000.0 -0.0465611934 0.087704769
527400000.0 0.009706029 0.0732667853
537350000.0 0.0340722907 0.0327825453
547300000.0 0.0238641389 -0.004318674
557250000.0 -0.0050436129 -0.0144605025
567200000.0 -0.0214226351 0.0042469697
577150000.0 -0.0074224536 0.0295592347
587100000.0 0.0325256627 0.032101163
597050000.0 0.0717135283 -0.0021906114
607000000.0 0.0813032995 -0.0654047158
616950000.0 0.0437417187 -0.1281604989
626900000.0 -0.0312505042 -0.1542780384
636850000.0 -0.1125052782 -0.1239200726
646800000.0 -0.1598590518 -0.042559615
656750000.0 -0.1469006844 0.0594816732
666700000.0 -0.0718706872 0.1366909174
676650000.0 0.0371311962 0.153152579
686600000.0 0.1343809704 0.0984827673
696550000.0 0.1767811992 -0.0071360842
706500000.0 0.1453496822 -0.1140686132
716450000.0 0.0531055767 -0.1738558827
726400000.0 -0.0537500492 -0.1586460192
736350000.0 -0.1210867023 -0.0748536913
746300000.0 -0.1121220825 0.0326762903
756250000.0 -0.0296536862 0.1052879674
766200000.0 0.0799502258 0.1017951069
776150000.0 0.1556147379 0.0197401693
786100000.0 0.1497469238 -0.0935128612
796050000.0 0.0571368258 -0.1738373577
806000000.0 -0.0782742728 -0.1649068984
815950000.0 -0.1816001322 -0.0538002249
825900000.0 -0.1867319845 0.1108696257
835850000.0 -0.0744918189 0.2486660607
845800000.0 0.1112516024 0.2819529132
855750000.0 0.2845704141 0.1801084627
865700000.0 0.3580857025 -0.0221651874
875650000.0 0.2824479271 -0.2373802468
885600000.0 0.0746260632 -0.3636294937
895550000.0 -0.1811282622 -0.3227303676
905500000.0 -0.3588715414 -0.1142288156
915450000.0 -0.357524179 0.1700233556
925400000.0 -0.1679664457 0.389021572
935350000.0 0.1201804728 0.4304134282
945300000.0 0.3703693515 0.264455808
955250000.0 0.447569026 -0.0467218384
965200000.0 0.2708629525 -0.349386249
975150000.0 -0.1040976281 -0.437521756
985100000.0 -0.4450332429 -0.1903296828
995050000.0 -0.4764130939 0.2610526001
1005000000.0 -0.1250976098 0.5999997707
1014950000.0 0.4042866479 0.5352053684
1024900000.0 0.7119981134 0.0323496841
1034850000.0 0.4822264285 -0.5711734909
1044800000.0 -0.172037327 -0.7565475162
1054750000.0 -0.7120640457 -0.3399251759
1064700000.0 -0.7081502527 0.2661210819
1074650000.0 -0.3850864504 0.6916294772
1084600000.0 0.1674524151 0.8035685405
1094550000.0 0.6596845436 0.4532879664
1104500000.0 0.7438638896 -0.1420102129
1114450000.0 0.3806190501 -0.6108900906
1124400000.0 -0.181334221 -0.6731083123
1134350000.0 -0.5914706177 -0.3425213961
1144300000.0 -0.6573054196 0.1406212723
1154250000.0 -0.4001388363 0.5165606359
1164200000.0 0.0196701322 0.6226958048
1174150000.0 0.4011630802 0.4293752663
1184100000.0 0.5529754986 0.0257435933
1194050000.0 0.3915112683 -0.3691355868
1204000000.0 0.0217495984 -0.5461153835
1213950000.0 -0.3526772021 -0.4454536614
1223900000.0 -0.5694765709 -0.150483423
1233850000.0 -0.5645605813 0.2021715427
1243800000.0 -0.3518107297 0.4795553992
1253750000.0 -0.0112986793 0.5757069274
1263700000.0 0.3277899889 0.4445299156
1273650000.0 0.523613315 0.1302426093
1283600000.0 0.4936729039 -0.2384007171
1293550000.0 0.2626633963 -0.5112932846
1303500000.0 -0.06649356 -0.5998119854
1313450000.0 -0.3758485636 -0.4969202625
1323400000.0 -0.5764861141 -0.2486108269
1333350000.0 -0.6160751247 0.071615967
1343300000.0 -0.4752460981 0.3729243424
1353250000.0 -0.1784456942 0.5530301031
1363200000.0 0.1794807494 0.5322988183
1373150000.0 0.4652039088 0.306815796
1383100000.0 0.5699366457 -0.0354120739
1393050000.0 0.4713317741 -0.3642722853
1403000000.0 0.223312443 -0.5769027939
1412950000.0 -0.085150294 -0.6211336649
1422900000.0 -0.3639699714 -0.4983284117
1432850000.0 -0.5377636107 -0.2411172105
1442800000.0 -0.5468704667 0.0812037896
1452750000.0 -0.371796926 0.3653864877
1462700000.0 -0.0597830278 0.5021532645
1472650000.0 0.269529623 0.4348070305
1482600000.0 0.4919602513 0.1986275981
1492550000.0 0.5379989777 -0.1067477903
1502500000.0 0.4115395088 -0.3734372445
1512450000.0 0.1651468781 -0.5205690009
1522400000.0 -0.119331438 -0.5033996064
1532350000.0 -0.3467157497 -0.3210000972
1542300000.0 -0.4239112682 -0.0300944921
1552250000.0 -0.3082196018 0.2538162959
1562200000.0 -0.0469825389 0.4040594549
1572150000.0 0.2399598062 0.3660778914
1582100000.0 0.4365983025 0.1703436541
1592050000.0 0.4746877962 -0.0948670936
1602000000.0 0.3489716102 -0.3295446975
1611950000.0 0.1020342114 -0.4470763677
1621900000.0 -0.1780043636 -0.3902765152
1631850000.0 -0.3750779855 -0.1649940845
1641800000.0 -0.3922417387 0.142345629
1651750000.0 -0.2171223358 0.396515909
1661700000.0 0.0701336882 0.4921337804
1671650000.0 0.3510335197 0.4028841486
1681600000.0 0.5287884639 0.1737695837
1691550000.0 0.5489393114 -0.1189272602
1701500000.0 0.4002665906 -0.3807694036
1711450000.0 0.1182410245 -0.521619086
1721400000.0 -0.2085564185 -0.4737295124
1731350000.0 -0.4560194249 -0.2390909826
1741300000.0 -0.5259546239 0.0973826227
1751250000.0 -0.3977036078 0.4065633203
1761200000.0 -0.1325978849 0.587658714
1771150000.0 0.1751324887 0.5998148288
1781100000.0 0.4374428644 0.4537218087
1791050000.0 0.5892174688 0.1925661287
1801000000.0 0.5842638967 -0.1184193376
1810950000.0 0.411681492 -0.391168102
1820900000.0 0.1106414168 -0.5314867997
1830850000.0 -0.2224638992 -0.480327235
1840800000.0 -0.4684152874 -0.2555917957
1850750000.0 -0.5497504407 0.0534474287
1860700000.0 -0.4622548137 0.3404331408
1870650000.0 -0.2539759637 0.5289897624
1880600000.0 0.0066450406 0.5824342609
1890550000.0 0.2503706839 0.49714462
1900500000.0 0.4135378023 0.2976709094
1910450000.0 0.4485581306 0.037940129
1920400000.0 0.3386449824 -0.2006397115
1930350000.0 0.1222116233 -0.3346458418
1940300000.0 -0.1137651442 -0.324765186
1950250000.0 -0.2820552238 -0.1988417112
1960200000.0 -0.3389286688 -0.0375613128
1970150000.0 -0.3158288389 0.1012570405
1980100000.0 -0.2299750984 0.1877948219
1990050000.0 -0.1343687997 0.1926410814
2000000000.0 -0.0909647429 0.1374043397
