!Created with skrf (http://scikit-rf.org).
# GHz S RI R 50.0 
!freq ReS11 ImS11
10000000.0 -0.9994087897 0.1592330183
19950000.0 -0.946860053 0.3045208303
29900000.0 -0.8729424089 0.4440383002
39850000.0 -0.7769345256 0.5822511798
49800000.0 -0.6606840785 0.7142853543
59750000.0 -0.5183538824 0.8336801881
69700000.0 -0.3427762828 0.9294706471
79650000.0 -0.1290705874 0.9836148422
89600000.0 0.1222033299 0.9774288535
99550000.0 0.3979488358 0.889559026
109500000.0 0.6731962104 0.7029424974
119450000.0 0.9012816004 0.4026682689
129400000.0 1.00984741 0.0034921925
139350000.0 0.9344418123 -0.4161824084
149300000.0 0.6772325488 -0.7574337169
159250000.0 0.3190901828 -0.9439825596
169200000.0 -0.0453114859 -0.9813604085
179150000.0 -0.3606992895 -0.9108716074
189100000.0 -0.6062067206 -0.7751132753
199050000.0 -0.7783886393 -0.6050612208
209000000.0 -0.8810095531 -0.4201017807
218950000.0 -0.9313716053 -0.235548798
228900000.0 -0.942106973 -0.058871958
238850000.0 -0.9253791611 0.1084372872
248800000.0 -0.8687887115 0.2602636885
258750000.0 -0.839264142 0.4064993541
268700000.0 -0.7678748656 0.5371192787
278650000.0 -0.6732456822 0.6474934769
288600000.0 -0.5554836557 0.7342293341
298550000.0 -0.4158725261 0.7961864952
308500000.0 -0.2578011868 0.8328226764
318450000.0 -0.0858754922 0.840105569
328400000.0 0.0935096373 0.8115607483
338350000.0 0.2645221679 0.7355890542
348300000.0 0.4052926084 0.6046796961
358250000.0 0.4875627804 0.4267904818
368200000.0 0.4940575645 0.230108776
378150000.0 0.4296784822 0.0515129944
388100000.0 0.3186396273 -0.0797175783
398050000.0 0.191548458 -0.1504202931
408000000.0 0.0760186605 -0.1637033645
417950000.0 -0.0136202429 -0.1344262682
427900000.0 -0.0736165358 -0.0804912933
437850000.0 -0.1077593605 -0.0176689214
447800000.0 -0.1213613456 0.0413261015
457750000.0 -0.1194626808 0.0882632321
467700000.0 -0.1056711742 0.1189447004
477650000.0 -0.0829364189 0.1318786209
487600000.0 -0.0546813066 0.129532317
497550000.0 -0.0250055675 0.1160847526
507500000.0 0.002640113 0.1011377529
517450000.0 0.0245108316 0.0809806742
527400000.0 0.0360208283 0.0611940758
537350000.0 0.0338583136 0.0423814773
547300000.0 0.0215854217 0.0260914192
557250000.0 -0.0003051179 0.0076736416
567200000.0 -0.0285511628 -0.0093056018
577150000.0 -0.0578274001 -0.0222711886
587100000.0 -0.08429216 -0.0290590328
597050000.0 -0.1055043966 -0.0269794112
607000000.0 -0.1212906424 -0.0146745375
616950000.0 -0.1328030888 0.0077019517
626900000.0 -0.1408839423 0.0380737257
636850000.0 -0.1451516671 0.0716024145
646800000.0 -0.1454921768 0.1042869744
656750000.0 -0.1400656584 0.1321701123
666700000.0 -0.1267636113 0.1524927863
676650000.0 -0.1032849685 0.1653053522
686600000.0 -0.0706184055 0.1710295933
696550000.0 -0.0309124907 0.1709764551
706500000.0 0.0119504804 0.1655496062
716450000.0 0.0536186168 0.1546705946
726400000.0 0.0888358591 0.1357805093
736350000.0 0.1143885328 0.1070592107
746300000.0 0.1271194962 0.0675581051
756250000.0 0.1282481816 0.0168272795
766200000.0 0.1173031289 -0.0407467092
776150000.0 0.0962254682 -0.0991717213
786100000.0 0.0649225861 -0.1523337353
796050000.0 0.0257233062 -0.195199747
806000000.0 -0.0240317435 -0.2218773786
815950000.0 -0.0839439546 -0.2283126843
825900000.0 -0.1510844198 -0.215645099
835850000.0 -0.2210492854 -0.1865061024
845800000.0 -0.2882955794 -0.1442603767
855750000.0 -0.3466680583 -0.0913033919
865700000.0 -0.3890329267 -0.0295894119
875650000.0 -0.40924287 0.0410508844
885600000.0 -0.4054093191 0.118450128
895550000.0 -0.3774147721 0.200947663
905500000.0 -0.3272783042 0.28591128
915450000.0 -0.2577151134 0.3669563817
925400000.0 -0.1702859623 0.4366315803
935350000.0 -0.0648229513 0.4844823383
945300000.0 0.0565602499 0.4993047978
955250000.0 0.190932981 0.4705571028
965200000.0 0.329974319 0.3889474974
975150000.0 0.4595888238 0.2509223751
985100000.0 0.5540807544 0.0535585839
995050000.0 0.5782716783 -0.1912234629
1005000000.0 0.4934264227 -0.4493248969
1014950000.0 0.2803060702 -0.662242658
1024900000.0 -0.0352957297 -0.7589221736
1034850000.0 -0.3762569602 -0.6951977835
1044800000.0 -0.6380393203 -0.4806978787
1054750000.0 -0.7368063494 -0.2038680932
1064700000.0 -0.7469373265 0.0051619992
1074650000.0 -0.7126188652 0.152785342
1084600000.0 -0.7030401062 0.3645304779
1094550000.0 -0.5717250931 0.602115565
1104500000.0 -0.3234871857 0.7578661647
1114450000.0 -0.0566809841 0.812234233
1124400000.0 0.1980744427 0.7750090737
1134350000.0 0.4107964983 0.6573605929
1144300000.0 0.5621920631 0.4791410856
1154250000.0 0.6450886833 0.2706827669
1164200000.0 0.6647719737 0.060533125
1174150000.0 0.6391260857 -0.1297186491
1184100000.0 0.5794498902 -0.2981708647
1194050000.0 0.4849238258 -0.4353894997
1204000000.0 0.3645230783 -0.5311463704
1213950000.0 0.2306667733 -0.586483501
1223900000.0 0.0949310864 -0.6097684676
1233850000.0 -0.0351843003 -0.6106778303
1243800000.0 -0.154863874 -0.5962058367
1253750000.0 -0.2612140732 -0.5698345902
1263700000.0 -0.3522591962 -0.5314676513
1273650000.0 -0.4278123074 -0.4821661422
1283600000.0 -0.4861536559 -0.4201836919
1293550000.0 -0.5309324919 -0.3483652819
1303500000.0 -0.5669629929 -0.27103257
1313450000.0 -0.5969558592 -0.1922668421
1323400000.0 -0.6231129684 -0.1156505328
1333350000.0 -0.6441758253 -0.0428740927
1343300000.0 -0.656956471 0.0268982501
1353250000.0 -0.6579720419 0.0921546605
1363200000.0 -0.6448901445 0.1551851133
1373150000.0 -0.6163533995 0.2174530242
1383100000.0 -0.5776904875 0.2793935243
1393050000.0 -0.5331278936 0.3410879777
1403000000.0 -0.4866252998 0.4009808791
1412950000.0 -0.4391731663 0.4568046203
1422900000.0 -0.3908517022 0.5054794867
1432850000.0 -0.3389107275 0.5435188571
1442800000.0 -0.281364848 0.5699681469
1452750000.0 -0.2164820615 0.584773538
1462700000.0 -0.1439838978 0.5898020257
1472650000.0 -0.0656485886 0.5886725006
1482600000.0 0.0155461928 0.5835586183
1492550000.0 0.0962088991 0.5733802064
1502500000.0 0.1740162675 0.555680148
1512450000.0 0.2458428095 0.5263923104
1522400000.0 0.3097153984 0.4825780487
1532350000.0 0.3646427393 0.4223917677
1542300000.0 0.412039114 0.3477031117
1552250000.0 0.452951221 0.2618650126
1562200000.0 0.4879603014 0.1698670952
1572150000.0 0.5124283084 0.0747409085
1582100000.0 0.5224629898 -0.0203709269
1592050000.0 0.5139966415 -0.1128101304
1602000000.0 0.483646062 -0.2006932828
1611950000.0 0.4331928426 -0.2815717476
1621900000.0 0.3668218163 -0.3556078398
1631850000.0 0.2911621639 -0.422607786
1641800000.0 0.2106647175 -0.4814887574
1651750000.0 0.1289995457 -0.5293971581
1661700000.0 0.048066932 -0.56290561
1671650000.0 -0.0314844727 -0.5782175602
1681600000.0 -0.1090593653 -0.5746554924
1691550000.0 -0.1850636152 -0.5554158946
1701500000.0 -0.260954201 -0.5252062565
1711450000.0 -0.3350147997 -0.4888680706
1721400000.0 -0.4057122129 -0.4494980375
1731350000.0 -0.4702391225 -0.4098865951
1741300000.0 -0.5257541032 -0.3676994788
1751250000.0 -0.5680492052 -0.3192430312
1761200000.0 -0.5963185375 -0.2644942697
1771150000.0 -0.6111442679 -0.201366958
1781100000.0 -0.616531824 -0.1307689202
1791050000.0 -0.6116544361 -0.0514643968
1801000000.0 -0.5710041702 0.0326638496
1810950000.0 -0.5204904616 -0.0627762767
1820900000.0 -0.633207973 0.0160633344
1830850000.0 -0.6483460656 0.0872755002
1840800000.0 -0.6406285023 0.1441960566
1850750000.0 -0.6179494801 0.1929218101
1860700000.0 -0.5829801032 0.2367513947
1870650000.0 -0.5416230375 0.2781712518
1880600000.0 -0.4988605142 0.3163645523
1890550000.0 -0.4593783257 0.351921614
1900500000.0 -0.4243368508 0.3815815861
1910450000.0 -0.3918404907 0.4036609758
1920400000.0 -0.3579865721 0.4165643186
1930350000.0 -0.3200548998 0.4188532523
1940300000.0 -0.2770780126 0.4111394376
1950250000.0 -0.2277743837 0.3949360055
1960200000.0 -0.1756809045 0.3741419172
1970150000.0 -0.1266145259 0.3490071203
1980100000.0 -0.0845997373 0.3198369376
1990050000.0 -0.0544075729 0.2831220114
2000000000.0 -0.0387969172 0.2347530138
