!Created with skrf (http://scikit-rf.org).
# GHz S RI R 50.0 
!freq ReS11 ImS11
10000000.0 -0.7422367105 0.5563800731
19950000.0 -0.2736001659 0.8782623303
29900000.0 0.2991493596 0.862493066
39850000.0 0.7633443275 0.5017192725
49800000.0 0.9234180321 -0.0833177428
59750000.0 0.6833379858 -0.6621546882
69700000.0 0.1157176287 -0.9658519986
79650000.0 -0.5279369682 -0.8181285328
89600000.0 -0.9205349151 -0.2569605975
99550000.0 -0.8262198145 0.4536896322
109500000.0 -0.2364082093 0.9209649658
119450000.0 0.5485786319 0.8085517039
129400000.0 0.9966722438 0.10958143
139350000.0 0.730139725 -0.692095485
149300000.0 -0.0512004856 -0.9733601741
159250000.0 -0.7363846734 -0.567906397
169200000.0 -0.8886130708 0.1697935087
179150000.0 -0.4956010149 0.7577163115
189100000.0 0.153783479 0.9002218435
199050000.0 0.7020620183 0.5809781067
209000000.0 0.9026953584 -0.0028261689
218950000.0 0.6922020952 -0.5562018272
228900000.0 0.1958771882 -0.8496073599
238850000.0 -0.366672394 -0.7781069159
248800000.0 -0.7411472662 -0.3705614271
258750000.0 -0.8548786592 0.1631924594
268700000.0 -0.5971138492 0.6549423539
278650000.0 -0.1015393502 0.8862346813
288600000.0 0.4266858663 0.7661083587
298550000.0 0.7721877987 0.3466404611
308500000.0 0.7913077028 -0.2015545901
318450000.0 0.4675061935 -0.6462037798
328400000.0 -0.0622677064 -0.7835023882
338350000.0 -0.5427893441 -0.5406853646
348300000.0 -0.7198685272 -0.0514093904
358250000.0 -0.5137723587 0.390366668
368200000.0 -0.0991619101 0.5358454668
378150000.0 0.2409705754 0.3625446434
388100000.0 0.3310206494 0.054298748
398050000.0 0.1962861075 -0.1650348976
408000000.0 -0.0020233281 -0.1957395992
417950000.0 -0.1143643759 -0.088886333
427900000.0 -0.0987077883 0.0333345755
437850000.0 -0.0067089616 0.0793393001
447800000.0 0.0759834728 0.0361641026
457750000.0 0.0921881878 -0.0495713946
467700000.0 0.0426044456 -0.1168318188
477650000.0 -0.0362989984 -0.1256368839
487600000.0 -0.0973700437 -0.0750657199
497550000.0 -0.1048453687 0.001227785
507500000.0 -0.0659982329 0.0662138505
517450000.0 0.0021061174 0.0856862881
527400000.0 0.0549600136 0.0585795379
537350000.0 0.0675868072 0.0092613604
547300000.0 0.0406177489 -0.0279071751
557250000.0 -0.0025368495 -0.0313113822
567200000.0 -0.0316300639 -0.0015354433
577150000.0 -0.0250591423 0.0388565792
587100000.0 0.0145438118 0.0559457948
597050000.0 0.0597565191 0.0313321731
607000000.0 0.0755418429 -0.0273956126
616950000.0 0.0448461746 -0.0895901127
626900000.0 -0.0233368611 -0.1195227885
636850000.0 -0.1003778651 -0.0959917789
646800000.0 -0.1459077908 -0.0256663889
656750000.0 -0.1359118395 0.0628553545
666700000.0 -0.0711513657 0.1285653291
676650000.0 0.0251441515 0.1394572376
686600000.0 0.1109460554 0.0827882158
696550000.0 0.1433979473 -0.0198033476
706500000.0 0.1056592333 -0.1209634522
716450000.0 0.0138286763 -0.173935201
726400000.0 -0.0880109181 -0.1526943789
736350000.0 -0.1453241033 -0.064724536
746300000.0 -0.1235740937 0.0406242332
756250000.0 -0.0306679562 0.1061986544
766200000.0 0.0854904868 0.0932967815
776150000.0 0.1633558776 0.0026139775
786100000.0 0.1562744862 -0.1182151364
796050000.0 0.0595095709 -0.1985716452
806000000.0 -0.0756780913 -0.1856287686
815950000.0 -0.1754265988 -0.0721715644
825900000.0 -0.1767295092 0.0939859218
835850000.0 -0.0629965535 0.229027366
845800000.0 0.1195404581 0.2605116121
855750000.0 0.2863386731 0.1625715804
865700000.0 0.3567570677 -0.0295647275
875650000.0 0.2819238637 -0.2346716874
885600000.0 0.0787395387 -0.3486857025
895550000.0 -0.1653514859 -0.3001856172
905500000.0 -0.3319390817 -0.0939282792
915450000.0 -0.3275033042 0.1830597823
925400000.0 -0.1402894769 0.3964481109
935350000.0 0.1444701942 0.4324790137
945300000.0 0.385208019 0.2586596622
955250000.0 0.4456444332 -0.0545338611
965200000.0 0.2558857241 -0.3467267057
975150000.0 -0.119101307 -0.4240570427
985100000.0 -0.4557073362 -0.1780572565
995050000.0 -0.4905226148 0.2704477848
1005000000.0 -0.1445889307 0.6062027186
1014950000.0 0.3738075256 0.5430657205
1024900000.0 0.6754917293 0.0584467725
1034850000.0 0.4729484466 -0.5256664862
1044800000.0 -0.1413841824 -0.7379354301
1054750000.0 -0.6969394884 -0.3760511211
1064700000.0 -0.7700411415 0.2704002029
1074650000.0 -0.3576628751 0.7333927071
1084600000.0 0.2199404608 0.750366744
1094550000.0 0.6611040192 0.3740196582
1104500000.0 0.7012429325 -0.2150843958
1114450000.0 0.3095433461 -0.6537636407
1124400000.0 -0.2556639277 -0.6688100838
1134350000.0 -0.6329693835 -0.2938953158
1144300000.0 -0.6410876053 0.2032227782
1154250000.0 -0.3333732696 0.5523808097
1164200000.0 0.107754841 0.6082284859
1174150000.0 0.4690544487 0.3680618313
1184100000.0 0.5783694617 -0.0561304325
1194050000.0 0.3693644335 -0.4348998168
1204000000.0 -0.0235652614 -0.5658626562
1213950000.0 -0.3840605494 -0.4173834622
1223900000.0 -0.5665627145 -0.0974978214
1233850000.0 -0.5272591553 0.2533754403
1243800000.0 -0.2924028691 0.5123590599
1253750000.0 0.0558977654 0.5811011257
1263700000.0 0.3833889771 0.41859106
1273650000.0 0.5445752075 0.0844453126
1283600000.0 0.471045895 -0.2751814795
1293550000.0 0.2125761737 -0.5123887275
1303500000.0 -0.1201832754 -0.5664256198
1313450000.0 -0.4093048226 -0.4328508333
1323400000.0 -0.5829485322 -0.1740424031
1333350000.0 -0.5982084334 0.1411376624
1343300000.0 -0.4376156963 0.4275526967
1353250000.0 -0.1256782062 0.5784633131
1363200000.0 0.2287829085 0.5157442324
1373150000.0 0.4846594081 0.2547686618
1383100000.0 0.5445628821 -0.0979432228
1393050000.0 0.4079666673 -0.4104471396
1403000000.0 0.1402329935 -0.5905188168
1412950000.0 -0.1642850105 -0.5993596324
1422900000.0 -0.4215079094 -0.4493420497
1432850000.0 -0.5627791325 -0.1778323579
1442800000.0 -0.5342352249 0.1428283776
1452750000.0 -0.3212461228 0.4040431846
1462700000.0 0.0092281724 0.4974982003
1472650000.0 0.3299264306 0.3864232038
1482600000.0 0.5226047244 0.1223704372
1492550000.0 0.5330272217 -0.1910174177
1502500000.0 0.3710120877 -0.4452412131
1512450000.0 0.1002793568 -0.5594382146
1522400000.0 -0.1866539186 -0.4958552983
1532350000.0 -0.3864913628 -0.2718156225
1542300000.0 -0.4193457301 0.0369327851
1552250000.0 -0.2606153552 0.309215722
1562200000.0 0.0244505528 0.4301480547
1572150000.0 0.314151869 0.3574975114
1582100000.0 0.4915307938 0.1325602306
1592050000.0 0.4970570444 -0.1471463365
1602000000.0 0.3312293188 -0.373561117
1611950000.0 0.0550624128 -0.462762626
1621900000.0 -0.231574692 -0.3638113017
1631850000.0 -0.4087383208 -0.1043266778
1641800000.0 -0.3942597287 0.2141730682
1651750000.0 -0.1902208365 0.4572618966
1661700000.0 0.1137082271 0.525139864
1671650000.0 0.3924904537 0.4001717953
1681600000.0 0.545727724 0.1394730733
1691550000.0 0.5256605266 -0.1629971191
1701500000.0 0.3405986124 -0.4079607484
1711450000.0 0.0455585118 -0.5141090205
1721400000.0 -0.2697575737 -0.4354430302
1731350000.0 -0.4935824315 -0.184858911
1741300000.0 -0.5353220067 0.1517093134
1751250000.0 -0.3795158887 0.4456655156
1761200000.0 -0.0945999527 0.5947091784
1771150000.0 0.2147704757 0.5650585162
1781100000.0 0.4569581298 0.3821791566
1791050000.0 0.5713278655 0.1032508621
1801000000.0 0.5366718331 -0.2046607158
1810950000.0 0.3383450749 -0.4506787165
1820900000.0 0.0308440636 -0.5543653935
1830850000.0 -0.2899688726 -0.4656731416
1840800000.0 -0.5050316594 -0.210371285
1850750000.0 -0.5422721054 0.1101625731
1860700000.0 -0.4115674438 0.3842566574
1870650000.0 -0.1755397304 0.5424219971
1880600000.0 0.0922146517 0.5579312034
1890550000.0 0.3205113829 0.4394157042
1900500000.0 0.453502673 0.2218689945
1910450000.0 0.455043555 -0.0363796501
1920400000.0 0.3166359886 -0.2562724336
1930350000.0 0.0834121689 -0.3579424291
1940300000.0 -0.1497331832 -0.3125279208
1950250000.0 -0.3034332024 -0.1674864781
1960200000.0 -0.3527272393 0.0120779598
1970150000.0 -0.2976294878 0.1656892821
1980100000.0 -0.1896525192 0.2430002043
1990050000.0 -0.0867141973 0.2335231855
2000000000.0 -0.0441454266 0.1683348044
