!Created with skrf (http://scikit-rf.org).
# GHz S RI R 50.0 
!freq ReS11 ImS11
10000000.0 -1.000246426 0.1604068939
19950000.0 -0.9461173565 0.3069404671
29900000.0 -0.8704326161 0.4476193805
39850000.0 -0.77209599 0.5872751228
49800000.0 -0.6529075086 0.720411459
59750000.0 -0.5073813254 0.8406553067
69700000.0 -0.3274040315 0.9363146288
79650000.0 -0.1084229069 0.9873675178
89600000.0 0.1480087585 0.9746612873
99550000.0 0.4271587025 0.8757131915
109500000.0 0.7015711424 0.6748684514
119450000.0 0.9207620393 0.3594311116
129400000.0 1.010695882 -0.0508751209
139350000.0 0.9137298169 -0.4645218086
149300000.0 0.6401830866 -0.7897284696
159250000.0 0.2781878632 -0.9561319505
169200000.0 -0.0809035747 -0.9777780436
179150000.0 -0.3876050777 -0.8988639927
189100000.0 -0.6246053157 -0.7603759543
199050000.0 -0.7897524325 -0.5911650231
209000000.0 -0.8874623622 -0.4082632266
218950000.0 -0.9341352479 -0.2262684879
228900000.0 -0.9424488773 -0.051954375
238850000.0 -0.9243062239 0.1134993939
248800000.0 -0.8830425034 0.251878941
258750000.0 -0.8384580483 0.4087649536
268700000.0 -0.7684782033 0.538414348
278650000.0 -0.6754758705 0.6484741314
288600000.0 -0.5580713436 0.7351301213
298550000.0 -0.4183782221 0.7961104795
308500000.0 -0.2604064114 0.8324730832
318450000.0 -0.0883082849 0.8402456579
328400000.0 0.0920429784 0.8123343028
338350000.0 0.2642055815 0.7369279631
348300000.0 0.4058252969 0.6062377237
358250000.0 0.4878486207 0.4275425195
368200000.0 0.4935104512 0.2290450744
378150000.0 0.4274081286 0.0498076389
388100000.0 0.314661282 -0.0818784246
398050000.0 0.1867173223 -0.1522245286
408000000.0 0.0703443689 -0.1643745004
417950000.0 -0.0188062679 -0.1332980645
427900000.0 -0.0776878907 -0.0777447164
437850000.0 -0.1108801021 -0.0139423165
447800000.0 -0.1230495214 0.0456856098
457750000.0 -0.1207224066 0.0928750095
467700000.0 -0.1069548591 0.1233765362
477650000.0 -0.0848903892 0.1355668821
487600000.0 -0.0563970739 0.1333571686
497550000.0 -0.0279300353 0.1194182321
507500000.0 0.0040817149 0.1059518244
517450000.0 0.0273313465 0.0857682459
527400000.0 0.0406573124 0.0662916929
537350000.0 0.0396061058 0.0476896856
547300000.0 0.0279212161 0.0298959559
557250000.0 0.0054240147 0.0105545723
567200000.0 -0.022690517 -0.0077642766
577150000.0 -0.0522258283 -0.0223980986
587100000.0 -0.0780768688 -0.0311694828
597050000.0 -0.0988267688 -0.0305373325
607000000.0 -0.113911851 -0.0187945858
616950000.0 -0.1251945839 0.0033281011
626900000.0 -0.1332862794 0.0331062079
636850000.0 -0.138194869 0.065842249
646800000.0 -0.1392493959 0.0979579556
656750000.0 -0.1354266016 0.1252834952
666700000.0 -0.1229965219 0.1450689951
676650000.0 -0.1007100022 0.1565964458
686600000.0 -0.0690011891 0.1610232413
696550000.0 -0.0296580655 0.1598663649
706500000.0 0.0129408835 0.1538556995
716450000.0 0.0542212101 0.142425833
726400000.0 0.0877228117 0.1235231846
736350000.0 0.1107198735 0.0950093234
746300000.0 0.121136398 0.0557613896
756250000.0 0.1201959954 0.0053579818
766200000.0 0.1087745014 -0.0521021581
776150000.0 0.0874361266 -0.1110657954
786100000.0 0.0567326559 -0.1655716887
796050000.0 0.0164329027 -0.2080754446
806000000.0 -0.0333868734 -0.2334801802
815950000.0 -0.0927346055 -0.2380598191
825900000.0 -0.159173297 -0.2228498527
835850000.0 -0.2288525837 -0.1907834336
845800000.0 -0.2960580106 -0.1453844573
855750000.0 -0.3551042883 -0.0872064035
865700000.0 -0.3990687142 -0.0168740463
875650000.0 -0.422243385 0.0621945862
885600000.0 -0.4217855961 0.1130224741
895550000.0 -0.3979248658 0.158211564
905500000.0 -0.3549348392 0.2363350938
915450000.0 -0.2940289671 0.3219168391
925400000.0 -0.2174177482 0.3996270055
935350000.0 -0.124476018 0.4593347113
945300000.0 -0.0165523258 0.4915741938
955250000.0 0.1061288313 0.4884202998
965200000.0 0.2384781245 0.4417067548
975150000.0 0.3720581723 0.3492305289
985100000.0 0.4897103863 0.2074360085
995050000.0 0.5673427522 0.0171974461
1005000000.0 0.5704708915 -0.224581832
1014950000.0 0.4627548124 -0.4571284094
1024900000.0 0.2404745331 -0.6439262066
1034850000.0 -0.0674255414 -0.7340061809
1044800000.0 -0.3975376541 -0.6948869122
1054750000.0 -0.6822339285 -0.5207516504
1064700000.0 -0.8553097438 -0.2434166612
1074650000.0 -0.8827921907 0.0727676563
1084600000.0 -0.7733095532 0.3711789827
1094550000.0 -0.6016658341 0.542950269
1104500000.0 -0.3868797497 0.7345216682
1114450000.0 -0.1211256392 0.8172179322
1124400000.0 0.1463207592 0.7993637209
1134350000.0 0.3801146793 0.6897094197
1144300000.0 0.5503361785 0.5086463544
1154250000.0 0.6436301285 0.2924469269
1164200000.0 0.6672112606 0.0737605167
1174150000.0 0.6444594695 -0.121817097
1184100000.0 0.586065498 -0.2960646138
1194050000.0 0.4898762362 -0.4386001872
1204000000.0 0.3663009409 -0.5370969629
1213950000.0 0.2293311091 -0.5931517389
1223900000.0 0.0903965555 -0.6158431836
1233850000.0 -0.0417530223 -0.6159699923
1243800000.0 -0.1629390289 -0.6009625034
1253750000.0 -0.2702243909 -0.5740284423
1263700000.0 -0.361377637 -0.535180729
1273650000.0 -0.4366256834 -0.4851322518
1283600000.0 -0.4943596091 -0.4226504385
1293550000.0 -0.5386049728 -0.3500588365
1303500000.0 -0.5735299008 -0.2716252412
1313450000.0 -0.6029253969 -0.1914050186
1323400000.0 -0.6287420493 -0.1141372307
1333350000.0 -0.6498824653 -0.0407795034
1343300000.0 -0.6627151002 0.0291219601
1353250000.0 -0.6639561439 0.0942862065
1363200000.0 -0.6507980478 0.1569085868
1373150000.0 -0.6222253048 0.2185549513
1383100000.0 -0.5835606918 0.2796162589
1393050000.0 -0.5390225175 0.3410772905
1403000000.0 -0.4930016277 0.4005297173
1412950000.0 -0.4464167514 0.4564176136
1422900000.0 -0.398931768 0.5054308472
1432850000.0 -0.3481766253 0.5439915542
1442800000.0 -0.290980882 0.5712373964
1452750000.0 -0.2262410901 0.5861763305
1462700000.0 -0.153171085 0.5915055401
1472650000.0 -0.0739589664 0.5910952826
1482600000.0 0.0082139231 0.5870728944
1492550000.0 0.0892757922 0.5781352259
1502500000.0 0.1673062711 0.5621513633
1512450000.0 0.2389916267 0.5346965504
1522400000.0 0.3033314684 0.4924166884
1532350000.0 0.3585695394 0.4320782576
1542300000.0 0.4064808534 0.3556929462
1552250000.0 0.4480609968 0.266849811
1562200000.0 0.4847566164 0.162191698
1572150000.0 0.5142173754 0.0760033568
1582100000.0 0.5193106725 -0.0157353539
1592050000.0 0.5135800536 -0.1074120738
1602000000.0 0.4868170536 -0.1947707428
1611950000.0 0.4385912863 -0.2743828979
1621900000.0 0.3734467534 -0.3471157593
1631850000.0 0.2980938621 -0.4135382724
1641800000.0 0.2180817488 -0.4726641508
1651750000.0 0.1361427569 -0.521778072
1661700000.0 0.0555857493 -0.5571351434
1671650000.0 -0.0232096694 -0.5753118567
1681600000.0 -0.100364158 -0.5742692674
1691550000.0 -0.1759562207 -0.5581189185
1701500000.0 -0.2515120791 -0.5296546767
1711450000.0 -0.3251857609 -0.4956711086
1721400000.0 -0.3956623264 -0.4585632092
1731350000.0 -0.4604855943 -0.4212921003
1741300000.0 -0.5157843228 -0.3814230021
1751250000.0 -0.5592443272 -0.3368788068
1761200000.0 -0.5888065101 -0.2858210347
1771150000.0 -0.6058584713 -0.227801988
1781100000.0 -0.6163053994 -0.1653662943
1791050000.0 -0.6232917306 -0.1016697743
1801000000.0 -0.6303720316 -0.0398970968
1810950000.0 -0.6386887709 0.0183239038
1820900000.0 -0.6457416986 0.0725077272
1830850000.0 -0.6459372996 0.1202586406
1840800000.0 -0.6350688923 0.1646361646
1850750000.0 -0.6116278107 0.2052364585
1860700000.0 -0.5760509167 0.243446026
1870650000.0 -0.5342373247 0.2808214433
1880600000.0 -0.4917163578 0.3160087343
1890550000.0 -0.4525135045 0.3494692837
1900500000.0 -0.4182342279 0.3770586092
1910450000.0 -0.3867226126 0.3985057004
1920400000.0 -0.3558317244 0.4099143386
1930350000.0 -0.3211971892 0.4106432788
1940300000.0 -0.2815833772 0.4016768077
1950250000.0 -0.2363555567 0.3847741046
1960200000.0 -0.1880004145 0.3637768756
1970150000.0 -0.1430813638 0.3393855284
1980100000.0 -0.1052899555 0.3123795782
1990050000.0 -0.0801422228 0.2795054571
2000000000.0 -0.0684165302 0.2383326671
