!Created with skrf (http://scikit-rf.org).
# GHz S RI R 50.0 
!freq ReS11 ImS11
10000000.0 -0.7707853569 0.6792225784
19950000.0 -0.1366744616 0.990057978
29900000.0 0.539047259 0.8157322275
39850000.0 0.9428870724 0.2411833555
49800000.0 0.8694400432 -0.469602151
59750000.0 0.3228379007 -0.9610529982
69700000.0 -0.4349436895 -0.935418553
79650000.0 -0.9615687218 -0.3606259076
89600000.0 -0.9013827808 0.4334922033
99550000.0 -0.2608656124 0.9330839285
109500000.0 0.5576294582 0.7769201086
119450000.0 0.973797242 0.0193319893
129400000.0 0.61063179 -0.7973892136
139350000.0 -0.2951335292 -0.9735119101
149300000.0 -0.9400970798 -0.3226079544
159250000.0 -0.7811499482 0.5517446396
169200000.0 -0.0208873295 0.9382120761
179150000.0 0.7324885082 0.6073253715
189100000.0 0.9683711742 -0.1567669457
199050000.0 0.5672709983 -0.825470718
209000000.0 -0.1758766176 -0.9807558264
218950000.0 -0.7837573338 -0.5701336775
228900000.0 -0.9293275996 0.1272043633
238850000.0 -0.5667140538 0.7248692771
248800000.0 -0.008925771 0.8551445318
258750000.0 0.6927095292 0.6432916068
268700000.0 0.9662219895 0.0137410479
278650000.0 0.7358342386 -0.6289197601
288600000.0 0.1322627679 -0.9343206353
298550000.0 -0.5066162414 -0.7444689029
308500000.0 -0.8356079563 -0.1756288823
318450000.0 -0.6805794144 0.4536680974
328400000.0 -0.1342071054 0.7843843571
338350000.0 0.4661246447 0.6181030292
348300000.0 0.7266179185 0.083793702
358250000.0 0.5021680242 -0.4188062079
368200000.0 0.0247241121 -0.5476715245
378150000.0 -0.3243909358 -0.2933913063
388100000.0 -0.3390627459 0.0755105032
398050000.0 -0.1022953818 0.2735848883
408000000.0 0.1451484923 0.2142169575
417950000.0 0.2253062563 0.0201467669
427900000.0 0.1321609754 -0.1293143475
437850000.0 -0.0187184704 -0.1422333339
447800000.0 -0.1088484603 -0.0463258691
457750000.0 -0.0933490906 0.0674265685
467700000.0 -0.0088704912 0.1193189149
477650000.0 0.0701214773 0.0917509284
487600000.0 0.0902990654 0.028101912
497550000.0 0.1108730031 -0.0333931737
507500000.0 0.0256737195 -0.0492740532
517450000.0 -0.005371356 -0.0230421811
527400000.0 -0.000513765 0.0005268864
537350000.0 0.0176420087 -0.0043028398
547300000.0 0.015433446 -0.0349165534
557250000.0 -0.024659177 -0.0574676404
567200000.0 -0.081392112 -0.0385593834
577150000.0 -0.1128719283 0.0261279445
587100000.0 -0.0856308183 0.105778989
597050000.0 -0.0001016287 0.1490119001
607000000.0 0.1032060493 0.1184238938
616950000.0 0.1649397929 0.0178542715
626900000.0 0.1446397681 -0.1056249995
636850000.0 0.044793407 -0.188931054
646800000.0 -0.0869051422 -0.1861246611
656750000.0 -0.1828448314 -0.096391937
666700000.0 -0.1918002073 0.0323587013
676650000.0 -0.1105227499 0.1289233191
686600000.0 0.012704131 0.1409195187
696550000.0 0.105511318 0.0657589387
706500000.0 0.1159594925 -0.0450715313
716450000.0 0.048118511 -0.1209627287
726400000.0 -0.0419007405 -0.119104158
736350000.0 -0.0888651733 -0.0564678199
746300000.0 -0.0687745082 0.0199459428
756250000.0 0.0138733966 0.050464217
766200000.0 0.0998023531 -0.004656173
776150000.0 0.1120354982 -0.1225042658
786100000.0 0.018980529 -0.2210990869
796050000.0 -0.1362067938 -0.2178442298
806000000.0 -0.2543716209 -0.085945287
815950000.0 -0.2413952959 0.1145293277
825900000.0 -0.074694225 0.2649323057
835850000.0 0.1706489516 0.2598884682
845800000.0 0.360836995 0.0780001717
855750000.0 0.3803950311 -0.1989067953
865700000.0 0.20175289 -0.4276992361
875650000.0 -0.0957652553 -0.4795660067
885600000.0 -0.3611905967 -0.3106692813
895550000.0 -0.4464974151 0.0046905954
905500000.0 -0.2902518685 0.3046114436
915450000.0 0.0368985299 0.4202086243
925400000.0 0.3576321404 0.2746877885
935350000.0 0.4851449071 -0.0566876994
945300000.0 0.3374147759 -0.3807822673
955250000.0 -0.0037536498 -0.495963019
965200000.0 -0.32560286 -0.3136374233
975150000.0 -0.3964807696 0.0669445307
985100000.0 -0.1193699052 0.372775964
995050000.0 0.3233326555 0.3151691218
1005000000.0 0.5298453364 -0.1231174246
1014950000.0 0.2449424465 -0.5679219542
1024900000.0 -0.3351769906 -0.5733805352
1034850000.0 -0.699269324 -0.0482255141
1044800000.0 -0.4457786424 0.6090245234
1054750000.0 0.2920026325 0.7683680114
1064700000.0 0.8137477751 0.265634049
1074650000.0 0.7744161167 -0.4547847757
1084600000.0 0.1925999434 -0.861917092
1094550000.0 -0.4718740996 -0.7073653425
1104500000.0 -0.8030545735 -0.1079450427
1114450000.0 -0.5601387298 0.5349850675
1124400000.0 0.0899409389 0.7371286145
1134350000.0 0.6124802123 0.3539317768
1144300000.0 0.619846397 -0.2384039308
1154250000.0 0.2067504336 -0.579225303
1164200000.0 -0.2781986175 -0.4950579014
1174150000.0 -0.5241406353 -0.1005340279
1184100000.0 -0.3882992133 0.3383464716
1194050000.0 0.037056363 0.508930734
1204000000.0 0.4288182004 0.2928588575
1213950000.0 0.519816493 -0.126751087
1223900000.0 0.2927182541 -0.4712912758
1233850000.0 -0.0959770533 -0.5685335651
1243800000.0 -0.4507875674 -0.3865299579
1253750000.0 -0.6027420247 -0.0096678456
1263700000.0 -0.464194868 0.3862613758
1273650000.0 -0.0869996164 0.5921195422
1283600000.0 0.3337222943 0.4903035869
1293550000.0 0.5815384118 0.1420273153
1303500000.0 0.5552624738 -0.2728355697
1313450000.0 0.2903604585 -0.5779259672
1323400000.0 -0.0984153959 -0.6664242871
1333350000.0 -0.4683094597 -0.5094602998
1343300000.0 -0.6776143908 -0.1545297977
1353250000.0 -0.624214039 0.2672380744
1363200000.0 -0.3065933872 0.5702565152
1373150000.0 0.1365340331 0.6021638736
1383100000.0 0.4951390166 0.3509896204
1393050000.0 0.6186029717 -0.0544558238
1403000000.0 0.4805090257 -0.4388047726
1412950000.0 0.1542162886 -0.6638391969
1422900000.0 -0.2347543428 -0.6587905484
1432850000.0 -0.5465142356 -0.4269182635
1442800000.0 -0.6599325052 -0.0487384829
1452750000.0 -0.5165841546 0.3266846914
1462700000.0 -0.1651898626 0.5320067683
1472650000.0 0.2369969849 0.4680798263
1482600000.0 0.5040652332 0.1704946277
1492550000.0 0.5247157867 -0.2146076696
1502500000.0 0.3092177454 -0.5164528877
1512450000.0 -0.0350770592 -0.6176416782
1522400000.0 -0.3619629973 -0.4872468724
1532350000.0 -0.5325164378 -0.1838733298
1542300000.0 -0.4673785236 0.1588363318
1552250000.0 -0.1925275991 0.3762368708
1562200000.0 0.1518902779 0.3562222208
1572150000.0 0.3847224181 0.1150857109
1582100000.0 0.3919353552 -0.2109268177
1592050000.0 0.1839820878 -0.4470193101
1602000000.0 -0.1207331071 -0.4798209713
1611950000.0 -0.3667919002 -0.2981715368
1621900000.0 -0.4296712738 0.0056147469
1631850000.0 -0.2683920013 0.2793125321
1641800000.0 0.0442658318 0.3714538315
1651750000.0 0.3425193009 0.2180662655
1661700000.0 0.4540318416 -0.1017641153
1671650000.0 0.3153419848 -0.4109929385
1681600000.0 0.0058453915 -0.5474857608
1691550000.0 -0.3207861144 -0.4517388704
1701500000.0 -0.5172417221 -0.1679552965
1711450000.0 -0.4949458293 0.1849391838
1721400000.0 -0.246723 0.4574601378
1731350000.0 0.132102298 0.5131168019
1741300000.0 0.4648860906 0.3057885672
1751250000.0 0.5830360029 -0.0719620699
1761200000.0 0.4331151106 -0.43292314
1771150000.0 0.1001889486 -0.617980421
1781100000.0 -0.2672099564 -0.5693216949
1791050000.0 -0.5350236457 -0.3216569572
1801000000.0 -0.6145806782 0.0363000498
1810950000.0 -0.4700951511 0.3816862908
1820900000.0 -0.1369727428 0.5779445872
1830850000.0 0.2550335043 0.5231825786
1840800000.0 0.5246949058 0.230399159
1850750000.0 0.5467765819 -0.1585720217
1860700000.0 0.3344284889 -0.4627167454
1870650000.0 0.0033067603 -0.5756911344
1880600000.0 -0.3150568338 -0.4862733459
1890550000.0 -0.5213090759 -0.2455095263
1900500000.0 -0.5565672986 0.0616357791
1910450000.0 -0.4097965835 0.3303814808
1920400000.0 -0.1338418427 0.4546035037
1930350000.0 0.1491891965 0.3797569488
1940300000.0 0.3081664288 0.1520942186
1950250000.0 0.2906203378 -0.0988610002
1960200000.0 0.1523149779 -0.2537496893
1970150000.0 -0.0238392764 -0.295431901
1980100000.0 -0.1667431296 -0.2450825825
1990050000.0 -0.2312234641 -0.1461353145
2000000000.0 -0.2247497692 -0.0684541941
