!Created with skrf (http://scikit-rf.org).
# GHz S RI R 50.0 
!freq ReS11 ImS11
10000000.0 -0.9952807349 0.070715491
14975000.0 -0.9915853229 0.1061084635
19950000.0 -0.9867869114 0.1420132721
24925000.0 -0.9804805836 0.1790654927
29900000.0 -0.9726286878 0.2164505058
34875000.0 -0.962370441 0.2554172177
39850000.0 -0.9498115785 0.2960898477
44825000.0 -0.9345953012 0.3386669261
49800000.0 -0.9168921754 0.3834257
54775000.0 -0.8957546438 0.4303403952
59750000.0 -0.8706522647 0.4795473288
64725000.0 -0.8409557949 0.5309919151
69700000.0 -0.8054294423 0.5843729768
74675000.0 -0.7627682329 0.6393345503
79650000.0 -0.7121153879 0.6955467397
84625000.0 -0.6523277778 0.7519147976
89600000.0 -0.5820870817 0.8073744788
94575000.0 -0.5007167281 0.8603310357
99550000.0 -0.4071224621 0.908478112
104525000.0 -0.300998131 0.9490607471
109500000.0 -0.1823951573 0.9786439489
114475000.0 -0.0520451147 0.9933756208
119450000.0 0.0873872417 0.9900922349
124425000.0 0.2322265803 0.9656346703
129400000.0 0.3755836327 0.8804602221
134375000.0 0.5118521759 0.8497198862
139350000.0 0.6399145425 0.7569860791
144325000.0 0.7509153342 0.6456877058
149300000.0 0.8414028736 0.5200231784
154275000.0 0.9093945629 0.3860594666
159250000.0 0.9550450362 0.2489410096
164225000.0 0.9792739801 0.1138861278
169200000.0 0.9847369555 -0.0155611385
174175000.0 0.9739509348 -0.1365655789
179150000.0 0.9504019627 -0.2474193718
184125000.0 0.9175378411 -0.3474764684
189100000.0 0.8779990981 -0.4366097152
194075000.0 0.8338080104 -0.5154097468
199050000.0 0.786877885 -0.5844672472
204025000.0 0.7379736103 -0.6447080243
209000000.0 0.6884090687 -0.6974841009
213975000.0 0.6384355559 -0.743053628
218950000.0 0.5886259719 -0.7825714492
223925000.0 0.5390780459 -0.8168600516
228900000.0 0.4893590133 -0.84667097
233875000.0 0.4395082286 -0.872518775
238850000.0 0.3869593425 -0.8952978822
243825000.0 0.3224665551 -0.9158994038
248800000.0 0.3547067336 -0.6917163864
253775000.0 0.2935236212 -0.9230115093
258750000.0 0.2345741617 -0.9398631449
263725000.0 0.1838556282 -0.949291604
268700000.0 0.1350199904 -0.9550653658
273675000.0 0.0864681002 -0.9574433939
278650000.0 0.0379586445 -0.9565398399
283625000.0 -0.0111878231 -0.9524550647
288600000.0 -0.0608575794 -0.9448870738
293575000.0 -0.1112526164 -0.9333598038
298550000.0 -0.1625536893 -0.9175294491
303525000.0 -0.2141360132 -0.897193504
308500000.0 -0.2659051286 -0.8712183683
313475000.0 -0.3172391093 -0.8393252826
318450000.0 -0.3671025159 -0.8008509774
323425000.0 -0.4154096795 -0.7554098882
328400000.0 -0.4606138539 -0.703608867
333375000.0 -0.5008259803 -0.6450939769
338350000.0 -0.5351993805 -0.5796914292
343325000.0 -0.563506659 -0.509029011
348300000.0 -0.5826139597 -0.4340928598
353275000.0 -0.5911815609 -0.3551541805
358250000.0 -0.5902188792 -0.275195284
363225000.0 -0.5779892456 -0.1972904136
368200000.0 -0.553600794 -0.1217192746
373175000.0 -0.5207208509 -0.0510703225
378150000.0 -0.4808009971 0.0109690595
383125000.0 -0.4335356093 0.0643970617
388100000.0 -0.3817406016 0.1096711087
393075000.0 -0.3287825077 0.1443945589
398050000.0 -0.2751017697 0.1695735565
403025000.0 -0.2224118278 0.1879958069
408000000.0 -0.1735663843 0.1985626593
412975000.0 -0.1285207657 0.2005088726
417950000.0 -0.0865130337 0.1979528059
422925000.0 -0.0492407916 0.1928577897
427900000.0 -0.0170294874 0.1833495867
432875000.0 0.0113421516 0.1712906547
437850000.0 0.0343530893 0.1591388467
442825000.0 0.0527728286 0.1450944968
447800000.0 0.0684580471 0.1296974385
452775000.0 0.0801196431 0.1144564713
457750000.0 0.0882279243 0.099515921
462725000.0 0.0942672249 0.08481237
467700000.0 0.0969092318 0.0706770953
472675000.0 0.095687549 0.0573595007
477650000.0 0.0919275622 0.045490133
482625000.0 0.0847045826 0.0344643616
487600000.0 0.0702775735 0.0247576466
492575000.0 0.0312440647 0.0394895962
497550000.0 0.1053089121 0.0434342507
502525000.0 0.0806408801 0.0136615701
507500000.0 0.0647839464 0.0045348669
512475000.0 0.0503220848 0.0007497984
517450000.0 0.0366532096 -0.0012286178
522425000.0 0.0238959067 -0.0019809029
527400000.0 0.0110190148 -0.0010286347
532375000.0 -0.0021535996 0.0011831281
537350000.0 -0.0145654818 0.0042936097
542325000.0 -0.0277076953 0.0083225901
547300000.0 -0.0398852356 0.0146501856
552275000.0 -0.0497860142 0.0217188015
557250000.0 -0.0589916711 0.0287205907
562225000.0 -0.0677285106 0.0354500145
567200000.0 -0.0757693684 0.0431774149
572175000.0 -0.0833472244 0.0519444796
577150000.0 -0.0905570988 0.0604258233
582125000.0 -0.0967726307 0.0687185866
587100000.0 -0.1023508779 0.0776469837
592075000.0 -0.1071854075 0.0863693887
597050000.0 -0.1106901223 0.0946136954
602025000.0 -0.113419689 0.1033086187
607000000.0 -0.1157697672 0.1120220792
611975000.0 -0.1164318747 0.1202623389
616950000.0 -0.1163907609 0.1283671485
621925000.0 -0.1155640051 0.135505333
626900000.0 -0.113489917 0.1423514607
631875000.0 -0.1105275884 0.1488470856
636850000.0 -0.1063342915 0.1543023205
641825000.0 -0.1014699802 0.1590513753
646800000.0 -0.0958749933 0.1634476139
651775000.0 -0.0892141037 0.1669571538
656750000.0 -0.0812809251 0.1699352992
661725000.0 -0.0735197766 0.1723811472
666700000.0 -0.0654545118 0.1731927507
671675000.0 -0.0562825287 0.1728133999
676650000.0 -0.0464473454 0.1715573182
681625000.0 -0.0360582212 0.1691194418
686600000.0 -0.0249451641 0.1661264319
691575000.0 -0.0137534311 0.1625919628
696550000.0 -0.0029987704 0.1570680294
701525000.0 0.0085948075 0.1499425252
706500000.0 0.0203541789 0.1417662792
711475000.0 0.032364543 0.1321435557
716450000.0 0.0444602198 0.1212840182
721425000.0 0.0568056206 0.1092720639
726400000.0 0.0684521629 0.0958208247
731375000.0 0.0799079864 0.080674236
736350000.0 0.0912155547 0.0647188129
741325000.0 0.1012211992 0.0474349587
746300000.0 0.1109546319 0.0291546264
751275000.0 0.1198462439 0.0094235189
756250000.0 0.1270760725 -0.0111863456
761225000.0 0.1335312326 -0.0330758809
766200000.0 0.139320859 -0.0554644605
771175000.0 0.1430206744 -0.0777183594
776150000.0 0.1453188022 -0.1008883155
781125000.0 0.1460131922 -0.1247512066
786100000.0 0.1455419868 -0.1486471362
791075000.0 0.1434324433 -0.1726262814
796050000.0 0.1401031457 -0.1959083346
801025000.0 0.1347818696 -0.219146614
806000000.0 0.1280529415 -0.2419538586
810975000.0 0.1200985996 -0.2639905933
815950000.0 0.1103950551 -0.2851031962
820925000.0 0.0993721308 -0.3055041356
825900000.0 0.0874423558 -0.3250674245
830875000.0 0.0747466307 -0.3431981305
835850000.0 0.0599968628 -0.3599957772
840825000.0 0.0449028259 -0.3761423709
845800000.0 0.0285422192 -0.3905027621
850775000.0 0.0109959613 -0.4031444125
855750000.0 -0.0072620122 -0.4150837285
860725000.0 -0.0264570953 -0.425111356
865700000.0 -0.0464338454 -0.4335149731
870675000.0 -0.0669297779 -0.4407750686
875650000.0 -0.0877099561 -0.4458143639
880625000.0 -0.1097875774 -0.4481814759
885600000.0 -0.1320188814 -0.4489595923
890575000.0 -0.1552869616 -0.4470850254
895550000.0 -0.1789557305 -0.4432300834
900525000.0 -0.2024547138 -0.4368026234
905500000.0 -0.2261517582 -0.4270473906
910475000.0 -0.2504768569 -0.4144498297
915450000.0 -0.2750266374 -0.398960636
920425000.0 -0.2993778596 -0.3792802923
925400000.0 -0.3239602125 -0.3561580009
930375000.0 -0.3477737336 -0.3289610376
935350000.0 -0.3709581909 -0.2972077477
940325000.0 -0.3927030275 -0.2604926167
945300000.0 -0.4126506598 -0.218251353
950275000.0 -0.4300319051 -0.1700362539
955250000.0 -0.4440600239 -0.1155767023
960225000.0 -0.45243327 -0.0545899088
965200000.0 -0.4540223427 0.0129340273
970175000.0 -0.446863334 0.0868721662
975150000.0 -0.4291643812 0.1657105191
980125000.0 -0.3981753607 0.2483955533
985100000.0 -0.3516268155 0.332054204
990075000.0 -0.2885144872 0.4135232936
995050000.0 -0.2074464253 0.4884637734
1000025000.0 -0.1090684081 0.5529240999
1005000000.0 0.0040782816 0.601805348
1009975000.0 0.1293993018 0.6300924239
1014950000.0 0.2617676479 0.6341560767
1019925000.0 0.3953838215 0.6127478103
1024900000.0 0.523813978 0.5657360848
1029875000.0 0.6404511032 0.4946554185
1034850000.0 0.7406325637 0.4032079613
1039825000.0 0.8198433965 0.29520704
1044800000.0 0.875766106 0.1756551308
1049775000.0 0.9054823993 0.0492264054
1054750000.0 0.9040690493 -0.0772761783
1059725000.0 0.8661986546 -0.1809342893
1064700000.0 0.8463529925 -0.23961154
1069675000.0 0.8453112332 -0.3307929647
1074650000.0 0.8114811042 -0.4328058828
1079625000.0 0.7526051231 -0.5226526639
1084600000.0 0.6843656989 -0.5919620897
1089575000.0 0.6127115077 -0.6511202498
1094550000.0 0.5361337983 -0.7009652102
1099525000.0 0.4546801132 -0.7427618194
1104500000.0 0.366472071 -0.7735343328
1109475000.0 0.2733964911 -0.7921772773
1114450000.0 0.1784426197 -0.7968668947
1119425000.0 0.0852181835 -0.7883741414
1124400000.0 -0.0044461032 -0.7679345124
1129375000.0 -0.0881772189 -0.7372348507
1134350000.0 -0.1653859715 -0.6979282912
1139325000.0 -0.2345093727 -0.6515715587
1144300000.0 -0.2963203307 -0.5998550791
1149275000.0 -0.3504135772 -0.5448750776
1154250000.0 -0.3970601395 -0.4882840541
1159225000.0 -0.4381772382 -0.4298873571
1164200000.0 -0.4737398869 -0.3693219727
1169175000.0 -0.5025936568 -0.3089593196
1174150000.0 -0.5255765301 -0.2485088894
1179125000.0 -0.544873333 -0.1890903577
1184100000.0 -0.5584835369 -0.1295367759
1189075000.0 -0.5669846463 -0.0712580965
1194050000.0 -0.5707090929 -0.0158924378
1199025000.0 -0.5701185436 0.036462131
1204000000.0 -0.5657940116 0.0858095024
1208975000.0 -0.5590451663 0.1315406557
1213950000.0 -0.5501725927 0.1746859144
1218925000.0 -0.5402151239 0.2136210815
1223900000.0 -0.5293470772 0.2498970024
1228875000.0 -0.5172812282 0.2838555458
1233850000.0 -0.5059613364 0.3141064122
1238825000.0 -0.4937688864 0.3419743047
1243800000.0 -0.4816863642 0.3681421077
1248775000.0 -0.4701307708 0.3919558884
1253750000.0 -0.4587788038 0.413375155
1258725000.0 -0.4482753701 0.4335916357
1263700000.0 -0.4385706491 0.452252554
1268675000.0 -0.4295295787 0.4691851981
1273650000.0 -0.4217309315 0.4845448404
1278625000.0 -0.4146311303 0.4983515466
1283600000.0 -0.4075800744 0.5115842641
1288575000.0 -0.4016451734 0.5228584074
1293550000.0 -0.3960064981 0.5331358574
1298525000.0 -0.3904409458 0.5430313798
1303500000.0 -0.3858241833 0.5521609665
1308475000.0 -0.3811064849 0.5598832323
1313450000.0 -0.3767140039 0.5674026617
1318425000.0 -0.3731806095 0.5743757308
1323400000.0 -0.3688961182 0.5806836679
1328375000.0 -0.3643256417 0.5864999967
1333350000.0 -0.3602022992 0.5918650059
1338325000.0 -0.3561643179 0.5977210587
1343300000.0 -0.3518243786 0.6024637548
1348275000.0 -0.3476430866 0.6070781726
1353250000.0 -0.3435833027 0.6116212202
1358225000.0 -0.3394677669 0.6162161616
1363200000.0 -0.3354571596 0.6201818012
1368175000.0 -0.3312314213 0.6234319762
1373150000.0 -0.327164424 0.6267892352
1378125000.0 -0.3233858642 0.629835931
1383100000.0 -0.3196203513 0.6319530972
1388075000.0 -0.3153018188 0.6337089223
1393050000.0 -0.311554811 0.6350224016
1398025000.0 -0.3076613209 0.6356463479
1403000000.0 -0.3037527521 0.6360701921
1407975000.0 -0.299734184 0.6359805248
1412950000.0 -0.2957521546 0.6348859076
1417925000.0 -0.2914766464 0.6337959762
1422900000.0 -0.2868726814 0.6323575432
1427875000.0 -0.2826991473 0.6301123756
1432850000.0 -0.2789101325 0.6272325317
1437825000.0 -0.2754306896 0.6245770241
1442800000.0 -0.2713066077 0.6217205061
1447775000.0 -0.2676545251 0.618129365
1452750000.0 -0.2638860691 0.6154712351
1457725000.0 -0.2598203426 0.6147524749
1462700000.0 -0.2544699509 0.6132135268
1467675000.0 -0.247965526 0.6117772208
1472650000.0 -0.2408075961 0.6125797855
1477625000.0 -0.2325606695 0.6124100244
1482600000.0 -0.22178588 0.6110670197
1487575000.0 -0.2115082573 0.6109695121
1492550000.0 -0.2008915396 0.6094574424
1497525000.0 -0.1874132221 0.607187958
1502500000.0 -0.1736442958 0.6054428425
1507475000.0 -0.1605940957 0.6034112691
1512450000.0 -0.1464932959 0.6013659424
1517425000.0 -0.1311888122 0.5989439381
1522400000.0 -0.1168096106 0.5954454091
1527375000.0 -0.1011940691 0.5916761086
1532350000.0 -0.0861208109 0.5879804585
1537325000.0 -0.0697907641 0.5820745895
1542300000.0 -0.0529394322 0.576066662
1547275000.0 -0.0363063736 0.5690837993
1552250000.0 -0.0182227421 0.5611733994
1557225000.0 0.0002707273 0.552933147
1562200000.0 0.018037842 0.5435072113
1567175000.0 0.036734131 0.5330177302
1572150000.0 0.0559056867 0.5223366258
1577125000.0 0.0749659983 0.5107448883
1582100000.0 0.0957258783 0.4985966974
1587075000.0 0.1157687121 0.4865449943
1592050000.0 0.136097038 0.4735742441
1597025000.0 0.1579157689 0.4600997386
1602000000.0 0.1800922261 0.4466504535
1606975000.0 0.2010067919 0.432539218
1611950000.0 0.2226465736 0.4183321696
1616925000.0 0.2444770035 0.4038988759
1621900000.0 0.2661849634 0.3887693434
1626875000.0 0.2866059664 0.3741683799
1631850000.0 0.3073131879 0.3588501881
1636825000.0 0.3284330892 0.3431759297
1641800000.0 0.3477921474 0.327601199
1646775000.0 0.365754372 0.3115679184
1651750000.0 0.3849310461 0.2955872112
1656725000.0 0.4022879026 0.2798588498
1661700000.0 0.4181361131 0.2632238572
1666675000.0 0.4341899332 0.2476743527
1671650000.0 0.4488846441 0.2322187829
1676625000.0 0.4621003324 0.215716916
1681600000.0 0.4748336126 0.2005847687
1686575000.0 0.4863609371 0.18538601
1691550000.0 0.4971795466 0.1692647471
1696525000.0 0.5073709756 0.1541029846
1701500000.0 0.5166576838 0.1388179077
1706475000.0 0.5250698125 0.1230764969
1711450000.0 0.5325585596 0.1078037726
1716425000.0 0.5393953544 0.0922306718
1721400000.0 0.5445661127 0.076078063
1726375000.0 0.5485374517 0.0602842491
1731350000.0 0.5512424112 0.0443705599
1736325000.0 0.5508462005 0.0295814202
1741300000.0 0.5465536468 0.0176395287
1746275000.0 0.5404276197 0.0113589101
1751250000.0 0.5374439264 0.01545606
1756225000.0 0.5444619582 0.0235285055
1761200000.0 0.559610977 0.0264176873
1766175000.0 0.5753208674 0.0230289557
1771150000.0 0.5881354623 0.01580877
1776125000.0 0.5981806984 0.0076226395
1781100000.0 0.6052168904 1.11039e-05
1786075000.0 0.6111176553 -0.0066258831
1791050000.0 0.6157678795 -0.0127378686
1796025000.0 0.6189459065 -0.0178150715
1801000000.0 0.6212366079 -0.0225535905
1805975000.0 0.6229653105 -0.0263146128
1810950000.0 0.6238752752 -0.0295421985
1815925000.0 0.6242227497 -0.0332981998
1820900000.0 0.6238037664 -0.0360392242
1825875000.0 0.6233533337 -0.0385151582
1830850000.0 0.6221096557 -0.0410567019
1835825000.0 0.6204892403 -0.042828981
1840800000.0 0.617914631 -0.0446246898
1845775000.0 0.6154879623 -0.0452618344
1850750000.0 0.6126618016 -0.0459374486
1855725000.0 0.6088178841 -0.0468759391
1860700000.0 0.604311789 -0.046662794
1865675000.0 0.5997592488 -0.046356032
1870650000.0 0.5936272912 -0.0463668438
1875625000.0 0.5871036105 -0.0452487354
1880600000.0 0.579677699 -0.0446605816
1885575000.0 0.5713828162 -0.0435757874
1890550000.0 0.5631332097 -0.0423620828
1895525000.0 0.5527957839 -0.0417217705
1900500000.0 0.542562116 -0.0405010565
1905475000.0 0.5320958488 -0.0393950973
1910450000.0 0.5198781108 -0.0392599034
1915425000.0 0.5075865849 -0.0378771185
1920400000.0 0.4942784907 -0.0371118367
1925375000.0 0.4801670773 -0.0360979571
1930350000.0 0.4653469741 -0.0348690257
1935325000.0 0.4488642886 -0.0336104911
1940300000.0 0.4312613373 -0.0318129718
1945275000.0 0.4131084952 -0.0298562716
1950250000.0 0.3933264584 -0.0270533193
1955225000.0 0.3718208635 -0.0237549451
1960200000.0 0.348489438 -0.0198726271
1965175000.0 0.3240270195 -0.0146240172
1970150000.0 0.2977778825 -0.0087365512
1975125000.0 0.2681669789 -0.0016378784
1980100000.0 0.237352576 0.0066864168
1985075000.0 0.204172554 0.0168464216
1990050000.0 0.1675623651 0.0285645337
1995025000.0 0.1290195447 0.043381083
2000000000.0 0.0878815549 0.06118687
