!Created with skrf (http://scikit-rf.org).
# GHz S RI R 50.0 
!freq ReS11 ImS11
10000000.0 -0.9908075025 0.0701874308
14975000.0 -0.9883274934 0.1050949108
19950000.0 -0.9848136404 0.1403570359
24925000.0 -0.979662111 0.1767264665
29900000.0 -0.9736682012 0.2129279464
34875000.0 -0.9647604251 0.2506888924
39850000.0 -0.9530898262 0.2899559686
44825000.0 -0.9385252561 0.3310301313
49800000.0 -0.9209865798 0.3741231425
54775000.0 -0.8998809529 0.4193567092
59750000.0 -0.8748222752 0.4671002143
64725000.0 -0.8454310006 0.5170884192
69700000.0 -0.8105142714 0.5693114465
74675000.0 -0.7691931868 0.623599301
79650000.0 -0.7205613573 0.6796159263
84625000.0 -0.6635013334 0.7363354488
89600000.0 -0.5966784918 0.7928804463
94575000.0 -0.5192461792 0.8474300594
99550000.0 -0.4299752871 0.897807452
104525000.0 -0.3280621645 0.9411739082
109500000.0 -0.21346432 0.9739431216
114475000.0 -0.0866128459 0.9923218503
119450000.0 0.0500434523 0.9930482743
124425000.0 0.1929528082 0.9730972679
129400000.0 0.3260650734 0.9280960924
134375000.0 0.4756508756 0.8659324665
139350000.0 0.6062469947 0.778321702
144325000.0 0.7217478102 0.6716212058
149300000.0 0.8181714326 0.549977436
154275000.0 0.8928730202 0.4187993024
159250000.0 0.945491117 0.2831891154
164225000.0 0.976050584 0.1484865169
169200000.0 0.9868817291 0.0183345566
174175000.0 0.9800918344 -0.1042062056
179150000.0 0.959303198 -0.2167941234
184125000.0 0.9279170027 -0.3185980783
189100000.0 0.8890373212 -0.4097052129
194075000.0 0.8452072738 -0.4906052113
199050000.0 0.7983209386 -0.5618662693
204025000.0 0.7493823987 -0.6248313358
209000000.0 0.7001825798 -0.6796474876
213975000.0 0.6506038098 -0.7279108295
218950000.0 0.6013180778 -0.769993769
223925000.0 0.5525966491 -0.8066369147
228900000.0 0.5041723674 -0.838516171
233875000.0 0.4557314663 -0.8658567589
238850000.0 0.4057062576 -0.8894510862
243825000.0 0.3482049505 -0.9101389075
248800000.0 0.2698409526 -0.723420986
253775000.0 0.3011867456 -0.9216147595
258750000.0 0.2453005738 -0.9365819977
263725000.0 0.1957602716 -0.9449057841
268700000.0 0.147392702 -0.949897526
273675000.0 0.0991763281 -0.9522168857
278650000.0 0.0506390375 -0.9516468722
283625000.0 0.0012634231 -0.9484182391
288600000.0 -0.0485538291 -0.9422120316
293575000.0 -0.099006088 -0.9326264965
298550000.0 -0.1503867786 -0.9189281257
303525000.0 -0.2019760585 -0.9007217792
308500000.0 -0.2535262545 -0.8768409743
313475000.0 -0.3044888971 -0.8467043541
318450000.0 -0.3538933621 -0.8099263887
323425000.0 -0.4014266679 -0.7658507198
328400000.0 -0.4462280513 -0.715125045
333375000.0 -0.4862038747 -0.657738654
338350000.0 -0.5210321341 -0.5934439032
343325000.0 -0.5502061161 -0.5236604274
348300000.0 -0.5710240484 -0.4493703989
353275000.0 -0.5818064233 -0.3711976231
358250000.0 -0.5833748866 -0.2918485211
363225000.0 -0.5742616125 -0.2144269278
368200000.0 -0.5532216155 -0.1396347376
373175000.0 -0.5233934344 -0.069542913
378150000.0 -0.4864859829 -0.0077294587
383125000.0 -0.4420281149 0.045723133
388100000.0 -0.3922932049 0.091246839
393075000.0 -0.340840908 0.126868231
398050000.0 -0.288143314 0.1532714688
403025000.0 -0.2355327344 0.1731958147
408000000.0 -0.1860781032 0.1857768952
412975000.0 -0.1403632682 0.1900364243
417950000.0 -0.0974019168 0.1896422486
422925000.0 -0.0588002036 0.1865708932
427900000.0 -0.025550487 0.1789500503
432875000.0 0.0033431356 0.1683616038
437850000.0 0.0271733993 0.1572840212
442825000.0 0.0459595662 0.1439833703
447800000.0 0.0612758243 0.1287371701
452775000.0 0.0724969744 0.1132699662
457750000.0 0.080081873 0.0978441328
462725000.0 0.085621114 0.0821509347
467700000.0 0.0878357491 0.0671916057
472675000.0 0.0866283121 0.0533228721
477650000.0 0.0836298414 0.0408105196
482625000.0 0.0779420336 0.0292747048
487600000.0 0.0678428623 0.0187357753
492575000.0 0.0470263374 0.0133907502
497550000.0 0.0635151185 0.0869423952
502525000.0 0.0778706246 0.0156755447
507500000.0 0.0606025515 0.0033151948
512475000.0 0.0463695662 -0.0007583496
517450000.0 0.0326755388 -0.0024197552
522425000.0 0.019542399 -0.0031330799
527400000.0 0.0060185699 -0.0023243018
532375000.0 -0.0077336119 -0.0004155151
537350000.0 -0.0208910402 0.0018753253
542325000.0 -0.0349147722 0.0044307348
547300000.0 -0.0493127985 0.0092788695
552275000.0 -0.0604518274 0.0158995782
557250000.0 -0.0701157986 0.022285465
562225000.0 -0.0790831984 0.0283722738
567200000.0 -0.0868496094 0.0355824772
572175000.0 -0.0938874488 0.044027199
577150000.0 -0.1003136846 0.0526265324
582125000.0 -0.1059605236 0.0612845882
587100000.0 -0.1108586922 0.0708918101
592075000.0 -0.1153136675 0.0804519644
597050000.0 -0.1185308656 0.0898137262
602025000.0 -0.121434528 0.099592065
607000000.0 -0.1241395952 0.1092200603
611975000.0 -0.1256695469 0.118274038
616950000.0 -0.1265290396 0.1266985313
621925000.0 -0.12712053 0.1341764422
626900000.0 -0.1261558212 0.1406669901
631875000.0 -0.1240110114 0.1467297697
636850000.0 -0.1210927326 0.1516465422
641825000.0 -0.1168272937 0.1556365502
646800000.0 -0.1115160725 0.1594924426
651775000.0 -0.1047639201 0.1624391561
656750000.0 -0.0965637524 0.1650600098
661725000.0 -0.0880911189 0.1675076837
666700000.0 -0.0794664042 0.1691521181
671675000.0 -0.0695412172 0.1696125769
676650000.0 -0.0589616191 0.1695683444
681625000.0 -0.0482199723 0.168677786
686600000.0 -0.0368319908 0.1672036774
691575000.0 -0.0254469688 0.1650550652
696550000.0 -0.0146991614 0.1610232172
701525000.0 -0.0036254394 0.1551631411
706500000.0 0.0079131378 0.1479382432
711475000.0 0.0194879936 0.1389479433
716450000.0 0.031409751 0.1282499492
721425000.0 0.0435750797 0.1162643537
726400000.0 0.0554389899 0.102914261
731375000.0 0.0673020336 0.0878067667
736350000.0 0.0794748335 0.0717383205
741325000.0 0.0909259076 0.0547884579
746300000.0 0.1017548422 0.0368489896
751275000.0 0.1120125892 0.0180098613
756250000.0 0.1209065884 -0.0017257504
761225000.0 0.1289032952 -0.0223073355
766200000.0 0.1358174496 -0.0431872348
771175000.0 0.1407313087 -0.0644203676
776150000.0 0.1438752883 -0.0864291823
781125000.0 0.1453426922 -0.109177523
786100000.0 0.1452653284 -0.1322864785
791075000.0 0.1438124536 -0.1560311474
796050000.0 0.1408334334 -0.1794894167
801025000.0 0.1362710292 -0.2032927854
806000000.0 0.1303264727 -0.2269367615
810975000.0 0.123276982 -0.2501941923
815950000.0 0.1148273821 -0.2727016614
820925000.0 0.1050525261 -0.2946095729
825900000.0 0.0944996455 -0.3156225518
830875000.0 0.0830492677 -0.3350050435
835850000.0 0.0698767109 -0.3527597781
840825000.0 0.0555527069 -0.3695765136
845800000.0 0.0402353747 -0.3843226184
850775000.0 0.023343132 -0.3972649457
855750000.0 0.0051184188 -0.4092607466
860725000.0 -0.0139267455 -0.4194529748
865700000.0 -0.0341126719 -0.428020857
870675000.0 -0.0550730872 -0.4356479671
875650000.0 -0.0763934838 -0.4416692579
880625000.0 -0.0985212979 -0.4455231199
885600000.0 -0.1210236205 -0.4481260432
890575000.0 -0.14404366 -0.4485083786
895550000.0 -0.1674649501 -0.4471257231
900525000.0 -0.1906306575 -0.4435141259
905500000.0 -0.2137020139 -0.4368283824
910475000.0 -0.2373033874 -0.4270960612
915450000.0 -0.2611931213 -0.4144402567
920425000.0 -0.2848924188 -0.3977572631
925400000.0 -0.3092117978 -0.3775536169
930375000.0 -0.3332040848 -0.3534452612
935350000.0 -0.3570275628 -0.3250214275
940325000.0 -0.3802101955 -0.292319139
945300000.0 -0.4025045247 -0.2548191606
950275000.0 -0.4234583337 -0.2123571019
955250000.0 -0.442226739 -0.1646886214
960225000.0 -0.4572972667 -0.1115264552
965200000.0 -0.4674442668 -0.0529847003
970175000.0 -0.4715323499 0.0113978388
975150000.0 -0.4679906095 0.0807748074
980125000.0 -0.4546108208 0.1546252606
985100000.0 -0.4295607716 0.2318893546
990075000.0 -0.3913453829 0.3107315224
995050000.0 -0.33839777 0.3884204429
1000025000.0 -0.2704368779 0.4624635233
1005000000.0 -0.1878939552 0.5298284367
1009975000.0 -0.0915166545 0.5861643989
1014950000.0 0.0171701081 0.6275693981
1019925000.0 0.1350165732 0.6516107147
1024900000.0 0.2581335242 0.6552179788
1029875000.0 0.3818037653 0.6366151313
1034850000.0 0.5009604786 0.5955770017
1039825000.0 0.6103301095 0.5322693077
1044800000.0 0.7056070528 0.4491639128
1049775000.0 0.782656486 0.3492703102
1054750000.0 0.8375350657 0.2365508171
1059725000.0 0.8650479311 0.1158119255
1064700000.0 0.8599041114 0.0061291297
1069675000.0 0.8512649232 -0.0840163437
1074650000.0 0.8314374789 -0.1738490279
1079625000.0 0.8014373576 -0.2468159901
1084600000.0 0.7799707878 -0.3118696559
1089575000.0 0.752339242 -0.3793884841
1094550000.0 0.7345472346 -0.4535167348
1099525000.0 0.6930793097 -0.5440593643
1104500000.0 0.6247208208 -0.6270187499
1109475000.0 0.5375119117 -0.6948588651
1114450000.0 0.4378462612 -0.7443597388
1119425000.0 0.3317576254 -0.7757440665
1124400000.0 0.223281283 -0.7891711549
1129375000.0 0.1160635359 -0.7862381239
1134350000.0 0.0126758283 -0.7686794356
1139325000.0 -0.0841243201 -0.738516089
1144300000.0 -0.1734226501 -0.6968150784
1149275000.0 -0.2537322751 -0.6463417586
1154250000.0 -0.3242345014 -0.5890437679
1159225000.0 -0.3841563196 -0.5259861446
1164200000.0 -0.4331672953 -0.4596135342
1169175000.0 -0.4717562734 -0.3929936229
1174150000.0 -0.5014149144 -0.3279363977
1179125000.0 -0.5262394154 -0.2649243325
1184100000.0 -0.5458653664 -0.2025595429
1189075000.0 -0.5601750184 -0.1407688221
1194050000.0 -0.5694139744 -0.0814508279
1199025000.0 -0.5739688736 -0.024714222
1204000000.0 -0.5743907468 0.0290126301
1208975000.0 -0.5719429234 0.0787401014
1213950000.0 -0.5668610861 0.1256646429
1218925000.0 -0.5606398447 0.1683260401
1223900000.0 -0.5527416208 0.2076624084
1228875000.0 -0.5430365347 0.2439089742
1233850000.0 -0.5333728438 0.2768667172
1238825000.0 -0.5223623706 0.3065768326
1243800000.0 -0.5105126309 0.3343594292
1248775000.0 -0.4989646799 0.3595011381
1253750000.0 -0.4874029471 0.3822328084
1258725000.0 -0.4761469795 0.4036918581
1263700000.0 -0.4655650099 0.42350584
1268675000.0 -0.4559335769 0.4416722496
1273650000.0 -0.4476931032 0.4583456522
1278625000.0 -0.4405132084 0.473465694
1283600000.0 -0.4334421959 0.48750096
1288575000.0 -0.4280955067 0.500049399
1293550000.0 -0.4235222678 0.5114684975
1298525000.0 -0.418626988 0.5218636315
1303500000.0 -0.414727377 0.5315617378
1308475000.0 -0.4111921866 0.539543577
1313450000.0 -0.4075482481 0.5467719336
1318425000.0 -0.4040526865 0.5537173443
1323400000.0 -0.3998539661 0.5595189738
1328375000.0 -0.3950798121 0.5646153692
1333350000.0 -0.3901931092 0.5698923362
1338325000.0 -0.3849499855 0.5751117043
1343300000.0 -0.3797241847 0.5800988145
1348275000.0 -0.3745999857 0.5848914832
1353250000.0 -0.3695756853 0.5901270956
1358225000.0 -0.3647668597 0.5955680536
1363200000.0 -0.3603064803 0.6003990422
1368175000.0 -0.3561931107 0.6048890045
1373150000.0 -0.3523546508 0.6094223519
1378125000.0 -0.3489534284 0.6136535696
1383100000.0 -0.3457531542 0.6166403564
1388075000.0 -0.3422742928 0.6188149553
1393050000.0 -0.3387925662 0.6204066202
1398025000.0 -0.3352705642 0.6211427497
1403000000.0 -0.3310884468 0.621299271
1407975000.0 -0.3267035683 0.6204997641
1412950000.0 -0.3219470361 0.6193397899
1417925000.0 -0.3163685901 0.6179154706
1422900000.0 -0.3101073383 0.6160284376
1427875000.0 -0.3041038037 0.6142365882
1432850000.0 -0.2983232219 0.6124130244
1437825000.0 -0.2922049717 0.6107982714
1442800000.0 -0.2860388526 0.6089207458
1447775000.0 -0.2807930765 0.6071097614
1452750000.0 -0.2752778066 0.6064411994
1457725000.0 -0.2689597915 0.6069530787
1462700000.0 -0.2627853082 0.6066139678
1467675000.0 -0.2561643774 0.6066029176
1472650000.0 -0.2475646435 0.6078600713
1477625000.0 -0.2384724431 0.6079910961
1482600000.0 -0.2281022497 0.6063839938
1487575000.0 -0.2163869977 0.6058096782
1492550000.0 -0.2041522724 0.6043097365
1497525000.0 -0.1897034616 0.6006787076
1502500000.0 -0.1742849386 0.5980656367
1507475000.0 -0.1586871997 0.5959022455
1512450000.0 -0.1419269148 0.5933921088
1517425000.0 -0.1241821749 0.590375937
1522400000.0 -0.1070703824 0.5875032174
1527375000.0 -0.0890247409 0.5844178475
1532350000.0 -0.0710823242 0.5814714582
1537325000.0 -0.0531195268 0.5765781033
1542300000.0 -0.0344377361 0.5714764346
1547275000.0 -0.0162916625 0.5660976901
1552250000.0 0.0024487166 0.5589451483
1557225000.0 0.0216637848 0.5508941212
1562200000.0 0.04025464 0.5421181971
1567175000.0 0.0592651985 0.5314727316
1572150000.0 0.0793007256 0.5201321542
1577125000.0 0.0989737226 0.5079517088
1582100000.0 0.1198831285 0.4938562503
1587075000.0 0.1411692833 0.4807278153
1592050000.0 0.1621679397 0.4670014428
1597025000.0 0.1840785494 0.4523297674
1602000000.0 0.2066535498 0.4380653133
1606975000.0 0.2281125852 0.4243190998
1611950000.0 0.2496078575 0.4103333305
1616925000.0 0.2707348563 0.3962863144
1621900000.0 0.2901003798 0.3826606897
1626875000.0 0.3084118201 0.3721480423
1631850000.0 0.3294741345 0.3629006583
1636825000.0 0.3530342722 0.3498942008
1641800000.0 0.374196673 0.3348157361
1646775000.0 0.3924507355 0.319460868
1651750000.0 0.4108535057 0.3026184226
1656725000.0 0.4277167691 0.2868122476
1661700000.0 0.4428008256 0.2712059846
1666675000.0 0.4584671271 0.2557447792
1671650000.0 0.4732311241 0.2408324993
1676625000.0 0.4863055571 0.2261275803
1681600000.0 0.4997980577 0.2120914853
1686575000.0 0.5123857008 0.1989486732
1691550000.0 0.5237402345 0.1858371631
1696525000.0 0.5348654784 0.173314891
1701500000.0 0.5451903848 0.1613029689
1706475000.0 0.5543364031 0.1492261061
1711450000.0 0.5629149543 0.13754812
1716425000.0 0.5705842165 0.1261339574
1721400000.0 0.5767425808 0.1142859111
1726375000.0 0.5828616248 0.1029242024
1731350000.0 0.5888753707 0.0909599975
1736325000.0 0.5943819221 0.0795918513
1741300000.0 0.5994305867 0.0687983039
1746275000.0 0.6050038425 0.0580554525
1751250000.0 0.6112352618 0.0483697852
1756225000.0 0.616790593 0.0396914305
1761200000.0 0.6221921761 0.0319987154
1766175000.0 0.6279781098 0.0255746829
1771150000.0 0.6333371496 0.0200613228
1776125000.0 0.638449011 0.0154432934
1781100000.0 0.6427004078 0.012471619
1786075000.0 0.6465276091 0.009835252
1791050000.0 0.6497137545 0.0078154058
1796025000.0 0.6514969984 0.006719926
1801000000.0 0.652287107 0.0055301023
1805975000.0 0.6525854603 0.0047499509
1810950000.0 0.6519401187 0.004209779
1815925000.0 0.6502686153 0.0026131038
1820900000.0 0.6486891675 0.0019517915
1825875000.0 0.6470206375 0.0007340466
1830850000.0 0.6449449645 -0.0009058382
1835825000.0 0.6429675278 -0.0018618713
1840800000.0 0.6404331187 -0.0021097847
1845775000.0 0.6389328532 -0.002270639
1850750000.0 0.6368315222 -0.0022363121
1855725000.0 0.6335978657 -0.0013247193
1860700000.0 0.6308338666 0.0005081849
1865675000.0 0.6272546689 0.0024251466
1870650000.0 0.6221678531 0.004660759
1875625000.0 0.6169667756 0.0075286721
1880600000.0 0.6099717759 0.0102271306
1885575000.0 0.6020990647 0.0128036948
1890550000.0 0.5933734961 0.0150374557
1895525000.0 0.5828629398 0.016869275
1900500000.0 0.5724801662 0.0183334048
1905475000.0 0.5613022075 0.0188664981
1910450000.0 0.5489225755 0.0190014588
1915425000.0 0.5372516235 0.0187465183
1920400000.0 0.5244999834 0.0185724006
1925375000.0 0.5116857983 0.0184807748
1930350000.0 0.4985271025 0.0179873819
1935325000.0 0.4845372808 0.0182206376
1940300000.0 0.4700415773 0.0188744454
1945275000.0 0.4545794947 0.01985388
1950250000.0 0.4381158052 0.0215783638
1955225000.0 0.4202981607 0.0240982421
1960200000.0 0.4005052534 0.0272240321
1965175000.0 0.3796113789 0.0307600241
1970150000.0 0.3566005088 0.0344734807
1975125000.0 0.3309496874 0.0392305358
1980100000.0 0.3042202844 0.0435562501
1985075000.0 0.2753556468 0.0473518693
1990050000.0 0.2442584204 0.0520013851
1995025000.0 0.2118340895 0.0567819336
2000000000.0 0.1769262067 0.0617641051
