!Created with skrf (http://scikit-rf.org).
# GHz S RI R 50.0 
!freq ReS11 ImS11
10000000.0 -0.8703720763 0.5259970845
19950000.0 -0.4749372788 0.8837208613
29900000.0 0.0474236562 0.9899200247
39850000.0 0.5584383702 0.8092038643
49800000.0 0.9065312411 0.3780392233
59750000.0 0.9698749521 -0.1912731999
69700000.0 0.6943744738 -0.7197024096
79650000.0 0.1392668679 -1.001896228
89600000.0 -0.5017688067 -0.8836301543
99550000.0 -0.9413607601 -0.3627414804
109500000.0 -0.9281143338 0.3486523149
119450000.0 -0.4146667982 0.8801517562
129400000.0 0.3475420184 0.9000201931
139350000.0 0.9008414757 0.3616596314
149300000.0 0.896251404 -0.4078760293
159250000.0 0.3633933988 -0.9264301865
169200000.0 -0.3391508491 -0.9335874095
179150000.0 -0.8377746103 -0.507550811
189100000.0 -0.9575931778 0.095319241
199050000.0 -0.7146866237 0.6240866107
209000000.0 -0.2353093513 0.9136945044
218950000.0 0.3077235585 0.894453755
228900000.0 0.7498187591 0.590688796
238850000.0 0.9599764165 0.0982472342
248800000.0 0.7381477243 -0.4648595581
258750000.0 0.5558206775 -0.7959416257
268700000.0 0.0597856621 -0.9597531139
278650000.0 -0.4370299733 -0.8360582333
288600000.0 -0.7893985615 -0.4723069277
298550000.0 -0.895497209 0.0191725982
308500000.0 -0.7197896998 0.4901666732
318450000.0 -0.3108404627 0.7852678637
328400000.0 0.1923675418 0.7898616471
338350000.0 0.5892713902 0.4929142794
348300000.0 0.7006642523 0.0297011844
358250000.0 0.493280226 -0.3595247666
368200000.0 0.124905031 -0.4858315743
378150000.0 -0.1754383928 -0.3461674291
388100000.0 -0.2703102321 -0.0895359124
398050000.0 -0.1742196919 0.1110189587
408000000.0 -0.0023149324 0.1649943433
417950000.0 0.1270843706 0.0886933117
427900000.0 0.1537824664 -0.038131991
437850000.0 0.0868772656 -0.1346478042
447800000.0 -0.0210546487 -0.1571597382
457750000.0 -0.1124500867 -0.1069954257
467700000.0 -0.1480070797 -0.0165811716
477650000.0 -0.1199887822 0.0687521663
487600000.0 -0.0501263991 0.1122536297
497550000.0 -0.0277987792 0.0950206291
507500000.0 0.055109732 0.0801120154
517450000.0 0.0629277698 0.0212919102
527400000.0 0.0228276223 -0.0207223535
537350000.0 -0.0650315727 -0.001089578
547300000.0 -0.0025300207 0.1183991481
557250000.0 0.0855067498 0.0694683
567200000.0 0.0954779547 0.0369245152
577150000.0 0.1193803748 0.0047235399
587100000.0 0.1310279018 -0.0520887589
597050000.0 0.1085863672 -0.1204471199
607000000.0 0.0465134782 -0.1749778203
616950000.0 -0.0436681407 -0.1918545497
626900000.0 -0.1359762313 -0.1573711733
636850000.0 -0.2002592451 -0.076899566
646800000.0 -0.2130558085 0.0280053152
656750000.0 -0.168215025 0.123997385
666700000.0 -0.0789472514 0.1813651085
676650000.0 0.0253854747 0.1816654424
686600000.0 0.1101257819 0.1273057215
696550000.0 0.1477097306 0.0406749104
706500000.0 0.127779102 -0.0434450995
716450000.0 0.0633353652 -0.0837056952
726400000.0 0.0329933818 -0.0349355266
736350000.0 0.0186478295 -0.1134170941
746300000.0 -0.0405565909 -0.0544578994
756250000.0 -0.0172120675 0.003519871
766200000.0 0.0449879638 0.0141989665
776150000.0 0.1017052655 -0.0350570987
786100000.0 0.1102020743 -0.1272088107
796050000.0 0.0468636766 -0.2203593257
806000000.0 -0.0781021588 -0.2629115912
815950000.0 -0.2239880972 -0.2185743787
825900000.0 -0.3307136035 -0.0840490178
835850000.0 -0.3463354336 0.1059769127
845800000.0 -0.2480864695 0.2895606833
855750000.0 -0.053628202 0.4003898415
865700000.0 0.1829994144 0.3909448853
875650000.0 0.3887314867 0.2527510042
885600000.0 0.4950495943 0.0180634843
895550000.0 0.460348465 -0.2454127334
905500000.0 0.286872003 -0.4557023178
915450000.0 0.0217865838 -0.5414160238
925400000.0 -0.2536047686 -0.4666819595
935350000.0 -0.4448312927 -0.245234236
945300000.0 -0.4746966326 0.0537483584
955250000.0 -0.3134582732 0.3198117783
965200000.0 -0.0060434954 0.4289303575
975150000.0 0.3138083335 0.2966256882
985100000.0 0.4563887505 -0.0474958951
995050000.0 0.2833033245 -0.4154276829
1005000000.0 -0.1499203348 -0.5361104539
1014950000.0 -0.5608006767 -0.2543848163
1024900000.0 -0.6127791169 0.2945880817
1034850000.0 -0.2005681451 0.7283230351
1044800000.0 0.4186184879 0.7166306633
1054750000.0 0.841164206 0.2648827191
1064700000.0 0.8372005229 -0.3375966035
1074650000.0 0.4708135411 -0.7714870507
1084600000.0 -0.0597446196 -0.8883047081
1094550000.0 -0.5412448595 -0.6735301203
1104500000.0 -0.8006067098 -0.2222918475
1114450000.0 -0.7381167143 0.2927006803
1124400000.0 -0.3698170877 0.6556856871
1134350000.0 0.1379886962 0.6926103751
1144300000.0 0.5179755692 0.3973292085
1154250000.0 0.6309844738 -0.0230783283
1164200000.0 0.4446749137 -0.4060120869
1174150000.0 0.0892374708 -0.5685739225
1184100000.0 -0.274327461 -0.4820088891
1194050000.0 -0.4987533482 -0.1936063021
1204000000.0 -0.4931476408 0.1673311495
1213950000.0 -0.2642289795 0.444165285
1223900000.0 0.0833193409 0.5192064087
1233850000.0 0.3972571396 0.3720126993
1243800000.0 0.5614536845 0.0779608441
1253750000.0 0.5372077394 -0.2473166107
1263700000.0 0.3523005166 -0.5054290266
1273650000.0 0.0708090525 -0.6350576281
1283600000.0 -0.2345074281 -0.6133239114
1293550000.0 -0.4947603547 -0.4484728238
1303500000.0 -0.6478962899 -0.1747055682
1313450000.0 -0.6519950124 0.1480283402
1323400000.0 -0.4946657076 0.4400442327
1333350000.0 -0.2095566968 0.6211079599
1343300000.0 0.1295313128 0.6396094795
1353250000.0 0.4322613359 0.4919198864
1363200000.0 0.6240779096 0.2229745106
1373150000.0 0.6689397206 -0.0969186745
1383100000.0 0.5669938048 -0.3945811984
1393050000.0 0.3493492998 -0.6134369078
1403000000.0 0.0624308108 -0.715950946
1412950000.0 -0.2401450858 -0.6841202251
1422900000.0 -0.500905835 -0.5226115771
1432850000.0 -0.6641430686 -0.2569686142
1442800000.0 -0.6887345968 0.0594921383
1452750000.0 -0.5610702884 0.3546651242
1462700000.0 -0.3071851892 0.5551887658
1472650000.0 0.0102883419 0.6103525865
1482600000.0 0.3123579315 0.5083784424
1492550000.0 0.5253964851 0.2793797941
1502500000.0 0.6017947458 -0.015727184
1512450000.0 0.5301215469 -0.3032888653
1522400000.0 0.3348543358 -0.5153630347
1532350000.0 0.0684568616 -0.6031857143
1542300000.0 -0.1953372919 -0.5506118348
1552250000.0 -0.3871900876 -0.3904334643
1562200000.0 -0.493813226 -0.1753537916
1572150000.0 -0.4891425189 0.0850276328
1582100000.0 -0.3368509789 0.3084432824
1592050000.0 -0.0874825261 0.4101328865
1602000000.0 0.1734294958 0.3592457262
1611950000.0 0.3577101968 0.1744221353
1621900000.0 0.4080849839 -0.075279794
1631850000.0 0.313997353 -0.3056164046
1641800000.0 0.1090599514 -0.4420540656
1651750000.0 -0.1367469686 -0.440735773
1661700000.0 -0.3418062431 -0.3016618866
1671650000.0 -0.4178032902 -0.0713584625
1681600000.0 -0.4214548123 0.1505329678
1691550000.0 -0.2526663616 0.361275018
1701500000.0 0.0070292506 0.4450561382
1711450000.0 0.2739434432 0.3721540422
1721400000.0 0.4629541403 0.1621338442
1731350000.0 0.5107700914 -0.1184260913
1741300000.0 0.4051699087 -0.382608578
1751250000.0 0.1822619324 -0.5558578873
1761200000.0 -0.0931166804 -0.5984256079
1771150000.0 -0.3529987327 -0.5066734038
1781100000.0 -0.5404279475 -0.3070499479
1791050000.0 -0.6179971055 -0.0437439746
1801000000.0 -0.5677689767 0.229620977
1810950000.0 -0.3959302054 0.4551902725
1820900000.0 -0.133204411 0.5766395646
1830850000.0 0.1604383282 0.55865712
1840800000.0 0.4106457929 0.3991340443
1850750000.0 0.5504161533 0.1398539735
1860700000.0 0.5475970619 -0.1480147179
1870650000.0 0.4140524329 -0.3913352128
1880600000.0 0.1944364484 -0.5390556104
1890550000.0 -0.0543063323 -0.5720931872
1900500000.0 -0.2794790858 -0.4980570788
1910450000.0 -0.4427547114 -0.3441635451
1920400000.0 -0.5218012625 -0.1438070813
1930350000.0 -0.508084247 0.0633249052
1940300000.0 -0.4102533818 0.2382773302
1950250000.0 -0.2489178975 0.3474877775
1960200000.0 -0.0638253513 0.3675581921
1970150000.0 0.0979451296 0.300843092
1980100000.0 0.1971002346 0.1751597828
1990050000.0 0.2170890697 0.0358195629
2000000000.0 0.1713672287 -0.0725776131
