!Created with skrf (http://scikit-rf.org).
# GHz S RI R 50.0 
!freq ReS11 ImS11
10000000.0 -0.7690892226 0.6722352141
19950000.0 -0.144791934 0.9869063219
29900000.0 0.5282305725 0.8243050037
39850000.0 0.939686401 0.2610716292
49800000.0 0.8812671624 -0.44630103
59750000.0 0.3497415732 -0.9470665507
69700000.0 -0.4048530487 -0.9421384837
79650000.0 -0.9467267562 -0.3839346117
89600000.0 -0.9083150323 0.4146488458
99550000.0 -0.2716746776 0.9318747618
109500000.0 0.5605077551 0.7778590058
119450000.0 0.9735775119 1.21317e-05
129400000.0 0.5686286607 -0.8228686456
139350000.0 -0.3532504772 -0.9458351298
149300000.0 -0.9574713894 -0.2426786567
159250000.0 -0.7272991254 0.6199550074
169200000.0 0.062023955 0.9399858661
179150000.0 0.7791655689 0.5510383439
189100000.0 0.9549676289 -0.2167240191
199050000.0 0.5231405441 -0.847192034
209000000.0 -0.2089292488 -0.968413873
218950000.0 -0.7934733455 -0.5539683168
228900000.0 -0.9329702869 0.1282817027
238850000.0 -0.5885454121 0.7161004425
248800000.0 0.0616075059 0.90305829
258750000.0 0.6632055536 0.675483936
268700000.0 0.9613434139 0.0768399183
278650000.0 0.7846756452 -0.567084973
288600000.0 0.224344408 -0.9230518891
298550000.0 -0.4220766797 -0.8109185991
308500000.0 -0.8197861601 -0.2980513083
318450000.0 -0.7624891021 0.340334614
328400000.0 -0.2848793965 0.7537694561
338350000.0 0.3294637043 0.7030224904
348300000.0 0.6880418556 0.2383310535
358250000.0 0.5772853323 -0.290809601
368200000.0 0.1527750144 -0.5113913983
378150000.0 -0.2179114928 -0.3447624312
388100000.0 -0.2929001312 -0.0195549629
398050000.0 -0.1173609338 0.178428268
408000000.0 0.0856597768 0.1458739469
417950000.0 0.1428678324 -0.006893617
427900000.0 0.051360894 -0.1105135528
437850000.0 -0.0741328876 -0.0863407312
447800000.0 -0.1241990748 0.0280905207
457750000.0 -0.0649357757 0.1359914712
467700000.0 0.0542171758 0.1596522456
477650000.0 0.1487974354 0.0893211039
487600000.0 0.1622246984 -0.0225022289
497550000.0 0.0992771615 -0.1105797743
507500000.0 0.0001511836 -0.1204983627
517450000.0 -0.0668224229 -0.0707112883
527400000.0 -0.076914614 -0.0031560727
537350000.0 -0.0435490533 0.0367642457
547300000.0 -0.0084945781 0.0322511775
557250000.0 -0.0020115683 0.0088039952
567200000.0 -0.0241126427 -0.0009364595
577150000.0 -0.046118337 0.0232804891
587100000.0 -0.0347380812 0.0677822807
597050000.0 0.0197282318 0.0940724048
607000000.0 0.0916276808 0.0675400596
616950000.0 0.1326763155 -0.0138383264
626900000.0 0.1065802971 -0.1132677974
636850000.0 0.0125312035 -0.1763430895
646800000.0 -0.1064850915 -0.1607111508
656750000.0 -0.1874601578 -0.065837658
666700000.0 -0.1818350919 0.0625145926
676650000.0 -0.0883096059 0.154177489
686600000.0 0.044450285 0.1573327026
696550000.0 0.1437653858 0.0689506547
706500000.0 0.1555298603 -0.0608463292
716450000.0 0.0774692927 -0.159146245
726400000.0 -0.0417479415 -0.1715036709
736350000.0 -0.1248479766 -0.095373518
746300000.0 -0.1220445202 0.0110222808
756250000.0 -0.0366922686 0.0781294823
766200000.0 0.0720797948 0.0498932905
776150000.0 0.1196518835 -0.0583760801
786100000.0 0.060933745 -0.1709293618
796050000.0 -0.0763680683 -0.1986346415
806000000.0 -0.1984270272 -0.0992207565
815950000.0 -0.20168186 0.0799568854
825900000.0 -0.0512993121 0.2128167566
835850000.0 0.1491951047 0.1836176331
845800000.0 0.2805468944 0.0455756503
855750000.0 0.3060060302 -0.1706555262
865700000.0 0.1594272876 -0.3676541707
875650000.0 -0.1032335418 -0.4101754827
885600000.0 -0.3365452686 -0.2474393333
895550000.0 -0.3946922963 0.0486148949
905500000.0 -0.2206470566 0.3155682012
915450000.0 0.1040414083 0.3865420022
925400000.0 0.3916121837 0.2005564172
935350000.0 0.4605878491 -0.1430345688
945300000.0 0.2536756439 -0.4368819618
955250000.0 -0.1149354121 -0.4840060156
965200000.0 -0.4073757339 -0.2247893658
975150000.0 -0.3924865862 0.1947901712
985100000.0 -0.0183892832 0.4574121584
995050000.0 0.4509072465 0.2846914243
1005000000.0 0.571943256 -0.2472361519
1014950000.0 0.1587867669 -0.6710574602
1024900000.0 -0.4734587383 -0.5514884127
1034850000.0 -0.7517472087 0.0945501399
1044800000.0 -0.3328698863 0.7314710181
1054750000.0 0.462100798 0.7197785325
1064700000.0 0.8661292191 0.0806539637
1074650000.0 0.6582943615 -0.6109757997
1084600000.0 -0.0041433314 -0.8719628205
1094550000.0 -0.6118208532 -0.5664339015
1104500000.0 -0.7907835987 0.0834344797
1114450000.0 -0.4146914491 0.6427294164
1124400000.0 0.2444744144 0.7011828267
1134350000.0 0.6767758881 0.2466201576
1144300000.0 0.608872326 -0.3281083369
1154250000.0 0.1744338939 -0.6346961591
1164200000.0 -0.3114099583 -0.5405909547
1174150000.0 -0.5799507051 -0.1445790428
1184100000.0 -0.4801100729 0.3257868279
1194050000.0 -0.061941103 0.5666441409
1204000000.0 0.387652398 0.4163526395
1213950000.0 0.5758400568 0.000681961
1223900000.0 0.4244965347 -0.4072551175
1233850000.0 0.0530096752 -0.5996361774
1243800000.0 -0.3473632091 -0.5047629332
1253750000.0 -0.5933926687 -0.171352455
1263700000.0 -0.5605495402 0.2513169159
1273650000.0 -0.246001928 0.551486491
1283600000.0 0.1929385745 0.56254965
1293550000.0 0.524469942 0.2821889329
1303500000.0 0.5948228047 -0.1339688888
1313450000.0 0.3989839483 -0.4927528397
1323400000.0 0.035254342 -0.6585725324
1333350000.0 -0.3547903355 -0.5767043113
1343300000.0 -0.6235963323 -0.2726539107
1353250000.0 -0.6502275541 0.1455815451
1363200000.0 -0.3996002728 0.4971491525
1373150000.0 0.0250082594 0.607426029
1383100000.0 0.4186887087 0.420740154
1393050000.0 0.603500868 0.0401654172
1403000000.0 0.5211021936 -0.3585553976
1412950000.0 0.2281782356 -0.6214436414
1422900000.0 -0.1562794452 -0.6622594442
1432850000.0 -0.4903166741 -0.4685895091
1442800000.0 -0.6414948837 -0.1078547811
1452750000.0 -0.5344557746 0.276426429
1462700000.0 -0.2025255166 0.5088544068
1472650000.0 0.2004867348 0.4736618283
1482600000.0 0.4797432925 0.1933347794
1492550000.0 0.5141850571 -0.1863194931
1502500000.0 0.3115523203 -0.48982434
1512450000.0 -0.023838919 -0.5976995931
1522400000.0 -0.3466168173 -0.4739810361
1532350000.0 -0.5172017166 -0.1751051991
1542300000.0 -0.4537179543 0.1647794447
1552250000.0 -0.1793382574 0.3785368236
1562200000.0 0.1664152422 0.3512321127
1572150000.0 0.3962957818 0.1000048055
1582100000.0 0.3913574736 -0.2313343023
1592050000.0 0.1676950303 -0.4637414468
1602000000.0 -0.1480161305 -0.4846926736
1611950000.0 -0.3972080683 -0.2887592098
1621900000.0 -0.4537163834 0.0290891132
1631850000.0 -0.2790474209 0.313040142
1641800000.0 0.0519205361 0.4078752427
1651750000.0 0.3666038009 0.2470132883
1661700000.0 0.4888099334 -0.089681687
1671650000.0 0.3518797103 -0.4210063403
1681600000.0 0.032817411 -0.579762945
1691550000.0 -0.3147539518 -0.498453985
1701500000.0 -0.5398749504 -0.2163966861
1711450000.0 -0.546517507 0.1530132766
1721400000.0 -0.3142635516 0.4599652617
1731350000.0 0.0743163531 0.5565286466
1741300000.0 0.444468822 0.3768636065
1751250000.0 0.6116844465 -0.0027986691
1761200000.0 0.4993154315 -0.3962453524
1771150000.0 0.1769723556 -0.6286053219
1781100000.0 -0.2082048705 -0.6250520034
1791050000.0 -0.5153950494 -0.4056405084
1801000000.0 -0.6453120237 -0.0506611414
1810950000.0 -0.5474103839 0.3223998284
1820900000.0 -0.2385909445 0.5744608458
1830850000.0 0.1725385105 0.5839853283
1840800000.0 0.5011159673 0.3289008551
1850750000.0 0.5922500775 -0.070433639
1860700000.0 0.4239290167 -0.4238635142
1870650000.0 0.0977050446 -0.5974892549
1880600000.0 -0.2487723172 -0.5577295634
1890550000.0 -0.5039537177 -0.3437625273
1900500000.0 -0.596118037 -0.0323845606
1910450000.0 -0.4972732598 0.2736442641
1920400000.0 -0.2378930911 0.4628463005
1930350000.0 0.0776103312 0.4545212427
1940300000.0 0.3089054058 0.2581601556
1950250000.0 0.3630573327 -0.0202081299
1960200000.0 0.248360763 -0.2490869406
1970150000.0 0.0471845326 -0.351295829
1980100000.0 -0.1448552979 -0.3210480847
1990050000.0 -0.2595424412 -0.2064309238
2000000000.0 -0.2747543163 -0.0813777569
