!Created with skrf (http://scikit-rf.org).
# GHz S RI R 50.0 
!freq ReS11 ImS11
10000000.0 -0.9938451326 0.0648560936
14975000.0 -0.9910916187 0.0972342397
19950000.0 -0.9873881564 0.1302940834
24925000.0 -0.9823834179 0.1644568681
29900000.0 -0.9766011544 0.1987308913
34875000.0 -0.9680047247 0.2349502891
39850000.0 -0.9573167099 0.2729919258
44825000.0 -0.9440258409 0.3130774005
49800000.0 -0.9282182728 0.355585783
54775000.0 -0.9090065558 0.4005777189
59750000.0 -0.8858542315 0.4485170116
64725000.0 -0.8583667627 0.4990757808
69700000.0 -0.8252465643 0.5525112488
74675000.0 -0.784926806 0.6083836817
79650000.0 -0.7365472369 0.6664451641
84625000.0 -0.678579511 0.7257145499
89600000.0 -0.6096698297 0.7851526761
94575000.0 -0.5284160935 0.8426971887
99550000.0 -0.4335720921 0.8959454712
104525000.0 -0.324235594 0.9415236438
109500000.0 -0.2005468701 0.975360199
114475000.0 -0.0629686214 0.9928086728
119450000.0 0.085229475 0.98990682
124425000.0 0.2392086565 0.962695201
129400000.0 0.3938226683 0.9087659957
134375000.0 0.5336530529 0.8326148207
139350000.0 0.6685077288 0.7280329775
144325000.0 0.7805945865 0.6048374767
149300000.0 0.8686695425 0.4685223555
154275000.0 0.9311140808 0.3258441194
159250000.0 0.9691976345 0.1828541582
164225000.0 0.9847491123 0.0452801298
169200000.0 0.9814386284 -0.0835019313
174175000.0 0.9630120704 -0.20107214
179150000.0 0.9333134149 -0.3064566618
184125000.0 0.8958383325 -0.3996565392
189100000.0 0.8535946417 -0.4812157071
194075000.0 0.8085876188 -0.5523151053
199050000.0 0.7625542399 -0.6138671272
204025000.0 0.7162678179 -0.6671012665
209000000.0 0.6707182654 -0.7129732901
213975000.0 0.6261381369 -0.7527593035
218950000.0 0.5826780586 -0.786990795
223925000.0 0.5407659958 -0.8167278727
228900000.0 0.4997955726 -0.8423932564
233875000.0 0.4602196119 -0.8645050085
238850000.0 0.4211185731 -0.883518683
243825000.0 0.3820973187 -0.8998961073
248800000.0 0.331516084 -0.9042482176
253775000.0 0.3117239165 -0.9232655803
258750000.0 0.2733715833 -0.9335974279
263725000.0 0.2356291677 -0.9416405918
268700000.0 0.1978107989 -0.9478628041
273675000.0 0.1593120894 -0.952128972
278650000.0 0.1203312058 -0.9542294249
283625000.0 0.0803755937 -0.9543679078
288600000.0 0.0396133278 -0.9520484623
293575000.0 -0.0024453851 -0.9475819651
298550000.0 -0.0456809941 -0.9396752797
303525000.0 -0.0903650548 -0.9283534321
308500000.0 -0.1360784519 -0.9127334205
313475000.0 -0.1826505242 -0.8918733003
318450000.0 -0.229717879 -0.8651720528
323425000.0 -0.2765990374 -0.8319033524
328400000.0 -0.3226968662 -0.7918659486
333375000.0 -0.3667094339 -0.7446901213
338350000.0 -0.4075160019 -0.6900781467
343325000.0 -0.4433590043 -0.6284904964
348300000.0 -0.4724010309 -0.5600058111
353275000.0 -0.4926780015 -0.4865877374
358250000.0 -0.5026659258 -0.4093438859
363225000.0 -0.5017249633 -0.3306016571
368200000.0 -0.4897180375 -0.2531441058
373175000.0 -0.466822557 -0.1795422046
378150000.0 -0.4338610422 -0.1117251513
383125000.0 -0.3929934154 -0.0515413015
388100000.0 -0.346210695 -0.0002674761
393075000.0 -0.2954606221 0.0415982117
398050000.0 -0.2431681598 0.0742346605
403025000.0 -0.1915610857 0.0978979847
408000000.0 -0.1413462196 0.113598558
412975000.0 -0.0942332164 0.122389566
417950000.0 -0.0511568344 0.1253900309
422925000.0 -0.0121113009 0.1242023199
427900000.0 0.0222741809 0.1196368446
432875000.0 0.0518432091 0.1119879012
437850000.0 0.0766729015 0.1022597377
442825000.0 0.0970689793 0.0910453307
447800000.0 0.1136023065 0.0791590122
452775000.0 0.1265093269 0.0667480173
457750000.0 0.1358464034 0.0543928908
462725000.0 0.1423649869 0.0421842938
467700000.0 0.1463280884 0.0303559024
472675000.0 0.1479972843 0.0192807708
477650000.0 0.1472496635 0.0088394606
482625000.0 0.1446675016 -0.0006503869
487600000.0 0.1397805692 -0.0089094179
492575000.0 0.1334322407 -0.0154710405
497550000.0 0.1258099566 -0.017793838
502525000.0 0.1224391348 -0.026510176
507500000.0 0.110584655 -0.0298965523
512475000.0 0.0994929915 -0.0313616119
517450000.0 0.0881084956 -0.0316695313
522425000.0 0.0761525833 -0.0310795396
527400000.0 0.0638927338 -0.0295071897
532375000.0 0.051306476 -0.026764644
537350000.0 0.0386972211 -0.023042678
542325000.0 0.026201151 -0.0181356411
547300000.0 0.0142911061 -0.0123671827
552275000.0 0.0025958744 -0.0064107537
557250000.0 -0.008324612 0.0004159659
562225000.0 -0.0188436226 0.0082532101
567200000.0 -0.0287413946 0.016876432
572175000.0 -0.0380401727 0.026101841
577150000.0 -0.0467490033 0.0359116589
582125000.0 -0.0545527973 0.0460760612
587100000.0 -0.0615877147 0.0567964444
592075000.0 -0.0680559805 0.0673166882
597050000.0 -0.0733777348 0.0783378881
602025000.0 -0.0778261578 0.0892916017
607000000.0 -0.0817000942 0.0999963146
611975000.0 -0.0846909169 0.1105150216
616950000.0 -0.0868516605 0.1206658512
621925000.0 -0.0879540629 0.1299686508
626900000.0 -0.0881440092 0.1390485799
631875000.0 -0.087280917 0.1472647762
636850000.0 -0.0855996724 0.154496721
641825000.0 -0.082391402 0.161363342
646800000.0 -0.0784131941 0.1679286173
651775000.0 -0.0734767318 0.1737123153
656750000.0 -0.0676019437 0.1786805271
661725000.0 -0.0609031399 0.1828431447
666700000.0 -0.0535955844 0.1863969156
671675000.0 -0.0458319601 0.1890361992
676650000.0 -0.0377821582 0.190697599
681625000.0 -0.0292341078 0.1912645654
686600000.0 -0.0201372787 0.1909718933
691575000.0 -0.0106598098 0.1898983531
696550000.0 -0.0009321422 0.1874926493
701525000.0 0.0087931356 0.1839190003
706500000.0 0.0189038402 0.1787160093
711475000.0 0.0288597237 0.1722119359
716450000.0 0.0392481766 0.1639946938
721425000.0 0.0499822944 0.1543955822
726400000.0 0.0608242593 0.1434655004
731375000.0 0.072072529 0.1313551555
736350000.0 0.0827018354 0.1179982801
741325000.0 0.0926632134 0.1036846151
746300000.0 0.1021453479 0.0877401694
751275000.0 0.1112296321 0.0706240255
756250000.0 0.1190505719 0.0526308044
761225000.0 0.1260707856 0.0332857275
766200000.0 0.1322475989 0.0136315563
771175000.0 0.136672597 -0.0074433508
776150000.0 0.1399198776 -0.0287079974
781125000.0 0.1412868785 -0.0510173238
786100000.0 0.1411752047 -0.0737283801
791075000.0 0.1393358835 -0.0970648389
796050000.0 0.1360809337 -0.1209683861
801025000.0 0.1316045386 -0.1450567177
806000000.0 0.1255705255 -0.1686372734
810975000.0 0.1180734608 -0.1917341371
815950000.0 0.1088056826 -0.2142598166
820925000.0 0.0977415115 -0.2363815767
825900000.0 0.085222687 -0.2574502511
830875000.0 0.0714721669 -0.2775488784
835850000.0 0.0566446556 -0.2963002824
840825000.0 0.0402596676 -0.3137388543
845800000.0 0.0223538646 -0.3296700799
850775000.0 0.0031440077 -0.3438260066
855750000.0 -0.0175355156 -0.3562484686
860725000.0 -0.0395550151 -0.3670622798
865700000.0 -0.0623961431 -0.3762119421
870675000.0 -0.0865284852 -0.3836182686
875650000.0 -0.1108220058 -0.3889592952
880625000.0 -0.135916063 -0.3922079944
885600000.0 -0.1612393633 -0.3933043432
890575000.0 -0.1874447901 -0.392078991
895550000.0 -0.2138880972 -0.3883567711
900525000.0 -0.2403875192 -0.3820887016
905500000.0 -0.2670169007 -0.3725448386
910475000.0 -0.2938760127 -0.3599972075
915450000.0 -0.3202570336 -0.3442045421
920425000.0 -0.3462322301 -0.3247709847
925400000.0 -0.3722020486 -0.3011205415
930375000.0 -0.3971462894 -0.2735241783
935350000.0 -0.4208554081 -0.2420418341
940325000.0 -0.4436882928 -0.2055749209
945300000.0 -0.4640111972 -0.1644441806
950275000.0 -0.4813932175 -0.1187480865
955250000.0 -0.4954658337 -0.0684480796
960225000.0 -0.5047771059 -0.0128669963
965200000.0 -0.5083779827 0.0474759059
970175000.0 -0.5051979755 0.1122811848
975150000.0 -0.4937047382 0.1806286086
980125000.0 -0.4725695283 0.2520443472
985100000.0 -0.4406414582 0.3255554342
990075000.0 -0.3959584315 0.3985712699
995050000.0 -0.3390681965 0.4693775357
1000025000.0 -0.2689497566 0.5355814495
1005000000.0 -0.1857366945 0.5941545718
1009975000.0 -0.0904577495 0.6426684523
1014950000.0 0.0150818703 0.6771432208
1019925000.0 0.128993405 0.6955695722
1024900000.0 0.2482289319 0.6953894545
1029875000.0 0.3689026083 0.675635224
1034850000.0 0.4864272004 0.6351544612
1039825000.0 0.5963195325 0.5737686818
1044800000.0 0.6954994634 0.4932078581
1049775000.0 0.7798218463 0.3966327717
1054750000.0 0.846340958 0.2870925407
1059725000.0 0.8939799225 0.1679979381
1064700000.0 0.9206473069 0.0444095851
1069675000.0 0.9266494962 -0.0788733112
1074650000.0 0.9160247021 -0.2003120482
1079625000.0 0.8861234516 -0.3186035024
1084600000.0 0.8365601227 -0.4291515642
1089575000.0 0.7719291455 -0.5227063676
1094550000.0 0.7005124214 -0.6086826478
1099525000.0 0.6157341946 -0.683165399
1104500000.0 0.521214245 -0.7415858314
1109475000.0 0.4209767092 -0.7852000562
1114450000.0 0.3171386914 -0.8133265563
1119425000.0 0.2126270824 -0.8266619254
1124400000.0 0.1096208772 -0.8262415188
1129375000.0 0.0100945741 -0.8132504573
1134350000.0 -0.0836993512 -0.788848474
1139325000.0 -0.1707712602 -0.754509187
1144300000.0 -0.2502089137 -0.7111780459
1149275000.0 -0.3207897976 -0.661526475
1154250000.0 -0.3824847111 -0.6066742037
1159225000.0 -0.4351493908 -0.5489670488
1164200000.0 -0.4785269999 -0.4899548024
1169175000.0 -0.5142836705 -0.4321102774
1174150000.0 -0.5446900266 -0.3765039167
1179125000.0 -0.5709322148 -0.3200388805
1184100000.0 -0.5918016051 -0.263090656
1189075000.0 -0.6075840115 -0.2076632945
1194050000.0 -0.6191897772 -0.1544803522
1199025000.0 -0.627062565 -0.1034822457
1204000000.0 -0.6305469655 -0.0547663785
1208975000.0 -0.6313174281 -0.0092401745
1213950000.0 -0.6299389194 0.0339583042
1218925000.0 -0.6268024277 0.0744539029
1223900000.0 -0.6221046496 0.1120864016
1228875000.0 -0.616085486 0.147024873
1233850000.0 -0.6089834408 0.1792204174
1238825000.0 -0.6007101484 0.2092294272
1243800000.0 -0.5920752766 0.2377809134
1248775000.0 -0.5827857944 0.2634198714
1253750000.0 -0.5733218809 0.2872683712
1258725000.0 -0.5639670619 0.3102672597
1263700000.0 -0.5544998901 0.33129378
1268675000.0 -0.5461152189 0.3503985673
1273650000.0 -0.5384671074 0.3686733793
1278625000.0 -0.531376582 0.3845526044
1283600000.0 -0.524442884 0.3996247551
1288575000.0 -0.518221265 0.4132703692
1293550000.0 -0.5126006371 0.4257138796
1298525000.0 -0.5068010526 0.437734758
1303500000.0 -0.5014974728 0.4483971886
1308475000.0 -0.4970791121 0.4581170649
1313450000.0 -0.4920270259 0.4666450164
1318425000.0 -0.4871683794 0.4751452555
1323400000.0 -0.4818834114 0.4831424354
1328375000.0 -0.4764582182 0.4904187975
1333350000.0 -0.4705189976 0.4974464175
1338325000.0 -0.4646024862 0.5039492996
1343300000.0 -0.4578714064 0.5108057377
1348275000.0 -0.4514766661 0.5169365381
1353250000.0 -0.4451367925 0.52302159
1358225000.0 -0.4390472972 0.5296843706
1363200000.0 -0.4329190139 0.5357263119
1368175000.0 -0.4264510105 0.5407570165
1373150000.0 -0.4203061357 0.5462662317
1378125000.0 -0.4141863054 0.5516402822
1383100000.0 -0.4080200506 0.5558511184
1388075000.0 -0.4020548254 0.5602513625
1393050000.0 -0.3960149292 0.5634077948
1398025000.0 -0.3896654199 0.5663355356
1403000000.0 -0.3822718209 0.5688230628
1407975000.0 -0.3757101153 0.5709845651
1412950000.0 -0.3688522281 0.5724413957
1417925000.0 -0.3606274668 0.5740560757
1422900000.0 -0.3526890174 0.5749383811
1427875000.0 -0.34501953 0.5763843705
1432850000.0 -0.3362154316 0.5776287954
1437825000.0 -0.326816507 0.579019938
1442800000.0 -0.3178133366 0.5802567106
1447775000.0 -0.307824072 0.5812422665
1452750000.0 -0.2967378398 0.5822044633
1457725000.0 -0.2853823061 0.5834019087
1462700000.0 -0.2730084465 0.5846275782
1467675000.0 -0.2596359133 0.5851431247
1472650000.0 -0.2454527202 0.5860236681
1477625000.0 -0.2305934363 0.5867996702
1482600000.0 -0.2145178294 0.5864979579
1487575000.0 -0.1974738692 0.5859243024
1492550000.0 -0.1798564131 0.5845585794
1497525000.0 -0.1608841165 0.5830374881
1502500000.0 -0.1407348156 0.5810563471
1507475000.0 -0.1204814695 0.5786055401
1512450000.0 -0.100064477 0.5766739529
1517425000.0 -0.0785975398 0.5741138468
1522400000.0 -0.0576857763 0.5703894901
1527375000.0 -0.0371768094 0.5667886229
1532350000.0 -0.0160740199 0.5623421473
1537325000.0 0.0051652779 0.5559296688
1542300000.0 0.0259185996 0.5497904415
1547275000.0 0.0472837585 0.543167127
1552250000.0 0.0684197422 0.534348335
1557225000.0 0.0897316339 0.5255923631
1562200000.0 0.1113054532 0.5160443732
1567175000.0 0.1329733593 0.5047378187
1572150000.0 0.1549369493 0.4926457664
1577125000.0 0.177574182 0.4801474078
1582100000.0 0.2004684567 0.4659965065
1587075000.0 0.2228574161 0.4514243855
1592050000.0 0.2456300458 0.4370045211
1597025000.0 0.2687473383 0.4224893251
1602000000.0 0.2913868735 0.4073818546
1606975000.0 0.3138094867 0.3927148621
1611950000.0 0.3358981935 0.3780247234
1616925000.0 0.3572442225 0.3633717565
1621900000.0 0.3781292572 0.3488007665
1626875000.0 0.3978697971 0.3345624319
1631850000.0 0.4172945011 0.3198905545
1636825000.0 0.435590982 0.3056672296
1641800000.0 0.4530392903 0.2912225149
1646775000.0 0.4700471055 0.2766562735
1651750000.0 0.485715888 0.2623899279
1656725000.0 0.5008212149 0.2485201287
1661700000.0 0.5156455492 0.2348395496
1666675000.0 0.5295586765 0.2215460092
1671650000.0 0.5421887992 0.208690906
1676625000.0 0.5549525708 0.1960655783
1681600000.0 0.5664986367 0.1841231547
1686575000.0 0.5772139678 0.1728348496
1691550000.0 0.5873748264 0.1620003675
1696525000.0 0.5972999545 0.1518474863
1701500000.0 0.6055470103 0.1421919957
1706475000.0 0.6136362855 0.1326112311
1711450000.0 0.6209874806 0.123843959
1716425000.0 0.6272415136 0.1156758578
1721400000.0 0.6323484749 0.1073545913
1726375000.0 0.637856712 0.0995699619
1731350000.0 0.6427074656 0.0920808158
1736325000.0 0.6474874075 0.0850703881
1741300000.0 0.6521574442 0.0780926907
1746275000.0 0.6567574193 0.0721899387
1751250000.0 0.6611508213 0.0666149635
1756225000.0 0.6659745884 0.0620018886
1761200000.0 0.6703864129 0.0578514168
1766175000.0 0.6746600567 0.0546068148
1771150000.0 0.6786652727 0.0523257834
1776125000.0 0.6828993608 0.050551277
1781100000.0 0.6861532718 0.0494671042
1786075000.0 0.6891871142 0.0491601859
1791050000.0 0.691391873 0.0495838943
1796025000.0 0.6934657419 0.0505407163
1801000000.0 0.6946655105 0.0517451181
1805975000.0 0.6946294801 0.0534280803
1810950000.0 0.6942257383 0.0555306471
1815925000.0 0.6936513845 0.0577401251
1820900000.0 0.692072687 0.0595527133
1825875000.0 0.6904782808 0.0618813658
1830850000.0 0.6883612101 0.0645447804
1835825000.0 0.6862539171 0.0668847764
1840800000.0 0.6836624734 0.0696444489
1845775000.0 0.6808432515 0.0727445354
1850750000.0 0.6775153253 0.0761640602
1855725000.0 0.6738478464 0.0793670457
1860700000.0 0.6694841548 0.0828553367
1865675000.0 0.6644455598 0.0864797471
1870650000.0 0.6588898734 0.0900469556
1875625000.0 0.6527339464 0.0934640436
1880600000.0 0.6455203583 0.0965017573
1885575000.0 0.6372085221 0.0997601354
1890550000.0 0.6285943507 0.1026775361
1895525000.0 0.6193478717 0.1047330559
1900500000.0 0.6095741346 0.1072790235
1905475000.0 0.5987983699 0.1084988425
1910450000.0 0.5884213975 0.1098620106
1915425000.0 0.5769953863 0.1110807749
1920400000.0 0.5651415892 0.1118777122
1925375000.0 0.5532166808 0.112955289
1930350000.0 0.5402548364 0.1143026232
1935325000.0 0.5271076275 0.1154887216
1940300000.0 0.5126321047 0.1168880545
1945275000.0 0.4975453851 0.1186096406
1950250000.0 0.4817475236 0.1208880573
1955225000.0 0.4643549231 0.1228603687
1960200000.0 0.4461937736 0.1245572462
1965175000.0 0.4261637024 0.1271184977
1970150000.0 0.4051619514 0.1287098644
1975125000.0 0.382785662 0.1296613156
1980100000.0 0.35821155 0.1307607563
1985075000.0 0.332031544 0.1311912562
1990050000.0 0.3047100565 0.1301290417
1995025000.0 0.2758011465 0.1287871531
2000000000.0 0.2446726995 0.1273551796
