!Created with skrf (http://scikit-rf.org).
# GHz S RI R 50.0 
!freq ReS11 ImS11
10000000.0 -0.7426563917 0.6703524701
19950000.0 -0.1129599269 0.9800589728
29900000.0 0.5651749404 0.799429949
39850000.0 0.9581560685 0.2053593111
49800000.0 0.8456412442 -0.5109979562
59750000.0 0.2601415073 -0.9635778324
69700000.0 -0.488629114 -0.8748252514
79650000.0 -0.958112433 -0.2665990646
89600000.0 -0.8353221184 0.5104297781
99550000.0 -0.1538444024 0.9523151875
109500000.0 0.6551238932 0.7026737069
119450000.0 0.9615442447 -0.1279678529
129400000.0 0.4383216503 -0.8785130075
139350000.0 -0.4844614878 -0.8525507451
149300000.0 -0.960060267 -0.0796968443
159250000.0 -0.6067918463 0.7243539674
169200000.0 0.2202348622 0.9128983438
179150000.0 0.8595035302 0.3965055738
189100000.0 0.8712091948 -0.3994903247
199050000.0 0.3012899781 -0.9143749568
209000000.0 -0.4355919286 -0.8496552088
218950000.0 -0.8897029413 -0.3025244243
228900000.0 -0.8415669023 0.3865319967
238850000.0 -0.3477504487 0.8520345471
248800000.0 0.3280595441 0.8407509438
258750000.0 0.8285543757 0.4262404315
268700000.0 0.9054953632 -0.2408247233
278650000.0 0.5107600532 -0.7786422061
288600000.0 -0.1367396692 -0.9025357643
298550000.0 -0.6890320804 -0.5581574142
308500000.0 -0.8552885963 0.0628204562
318450000.0 -0.5485085527 0.6199685762
328400000.0 0.0546147427 0.7948426397
338350000.0 0.581626339 0.4825573669
348300000.0 0.6898761677 -0.0911567984
358250000.0 0.3478413325 -0.5056166746
368200000.0 -0.1279513294 -0.4979301332
378150000.0 -0.3703557659 -0.1721087221
388100000.0 -0.2738279198 0.1481105291
398050000.0 -0.0188447323 0.2309467061
408000000.0 0.1449363681 0.0958664442
417950000.0 0.117395413 -0.0722179979
427900000.0 -0.0189518817 -0.1247051025
437850000.0 -0.1227042238 -0.043292501
447800000.0 -0.1150823877 0.0822182908
457750000.0 -0.0117363048 0.1509813044
467700000.0 0.1030787674 0.1165939782
477650000.0 0.151620621 0.0114134707
487600000.0 0.1111603639 -0.0892480935
497550000.0 0.0246591806 -0.1315409783
507500000.0 -0.060831049 -0.0988047173
517450000.0 -0.0891295751 -0.032480617
527400000.0 -0.0680488167 0.0188611151
537350000.0 -0.0317372671 0.0301971176
547300000.0 -0.0152190676 0.0158332725
557250000.0 -0.0256904142 0.0067572638
567200000.0 -0.0406102913 0.0243334978
577150000.0 -0.0281013957 0.0585976806
587100000.0 0.0236156559 0.0778395156
597050000.0 0.0874731891 0.0505053805
607000000.0 0.1200334387 -0.0293039492
616950000.0 0.0883163482 -0.1227036004
626900000.0 -0.0066066346 -0.1742006841
636850000.0 -0.1213289635 -0.1466508615
646800000.0 -0.1919435466 -0.0436512592
656750000.0 -0.1729752766 0.0840387926
666700000.0 -0.0697341005 0.1684726806
676650000.0 0.0663866622 0.1586995639
686600000.0 0.1610543711 0.0598803668
696550000.0 0.1622855678 -0.0755312719
706500000.0 0.0731211168 -0.1701123021
716450000.0 -0.0535935668 -0.1735089342
726400000.0 -0.1382976488 -0.0895075622
736350000.0 -0.1292994406 0.0245795016
746300000.0 -0.0374757298 0.0896965998
756250000.0 0.0685219235 0.0592619312
766200000.0 0.1097751556 -0.0457245158
776150000.0 0.0467521135 -0.1476059421
786100000.0 -0.0805476474 -0.1605093462
796050000.0 -0.1808375957 -0.0601908278
806000000.0 -0.1664527647 0.1008595798
815950000.0 -0.0232341716 0.2091358371
825900000.0 0.1757550807 0.1748067784
835850000.0 0.298621631 -0.0056581316
845800000.0 0.2526654054 -0.2374782833
855750000.0 0.0419479786 -0.3767017449
865700000.0 -0.2235182911 -0.323268171
875650000.0 -0.376114213 -0.0804609269
885600000.0 -0.2913337016 0.2084954581
895550000.0 -0.0504752914 0.3204242585
905500000.0 0.1974613898 0.2920303527
915450000.0 0.3916098828 0.0704093918
925400000.0 0.3573580117 -0.2441247561
935350000.0 0.091430807 -0.4364340171
945300000.0 -0.2438033132 -0.3617777677
955250000.0 -0.4096652141 -0.0413751506
965200000.0 -0.2503764739 0.3111498417
975150000.0 0.1611897566 0.3906233058
985100000.0 0.4809174866 0.063246987
995050000.0 0.3607831437 -0.427265572
1005000000.0 -0.170778905 -0.5979502307
1014950000.0 -0.6415183043 -0.1980337347
1024900000.0 -0.5488417102 0.4717426938
1034850000.0 0.1092683911 0.7723531508
1044800000.0 0.738538537 0.3784314181
1054750000.0 0.7797216322 -0.3551091712
1064700000.0 0.2447144223 -0.8133924201
1074650000.0 -0.4208468926 -0.7162244567
1084600000.0 -0.7906342823 -0.1738357566
1094550000.0 -0.6285111004 0.4718308392
1104500000.0 -0.0354245948 0.7591341496
1114450000.0 0.5462944196 0.4940273544
1124400000.0 0.7061399241 -0.0921991098
1134350000.0 0.3861971836 -0.5645137611
1144300000.0 -0.1456236611 -0.637178855
1154250000.0 -0.5388217988 -0.3076348007
1164200000.0 -0.5566399777 0.1876349915
1174150000.0 -0.2042000163 0.5209796258
1184100000.0 0.2647292319 0.472502349
1194050000.0 0.527766262 0.1004114303
1204000000.0 0.4362607923 -0.3269720542
1213950000.0 0.078446968 -0.5513416428
1223900000.0 -0.3235665061 -0.4659456266
1233850000.0 -0.5559722533 -0.1316294862
1243800000.0 -0.4974406002 0.273804848
1253750000.0 -0.1775794042 0.5330871279
1263700000.0 0.2360384583 0.5051895645
1273650000.0 0.5223726629 0.2095345772
1283600000.0 0.5456498484 -0.1949881928
1293550000.0 0.3094858195 -0.5156241671
1303500000.0 -0.069524917 -0.6168557008
1313450000.0 -0.4303248508 -0.4627378923
1323400000.0 -0.6206494186 -0.1142613367
1333350000.0 -0.5485049799 0.2827990685
1343300000.0 -0.2339965944 0.5494617938
1353250000.0 0.1827526983 0.5515237944
1363200000.0 0.5026301209 0.2876570285
1373150000.0 0.5828061501 -0.1111669297
1383100000.0 0.4034471241 -0.46491639
1393050000.0 0.0528051246 -0.6319693764
1403000000.0 -0.3211003767 -0.5538021243
1412950000.0 -0.5710084183 -0.2642777534
1422900000.0 -0.5887726564 0.1206114657
1432850000.0 -0.3587515908 0.4343892096
1442800000.0 0.0203300018 0.5310135017
1452750000.0 0.3703193077 0.3631625168
1462700000.0 0.5282986452 0.0186682789
1472650000.0 0.4345083313 -0.3358612844
1482600000.0 0.1480853652 -0.5450869342
1492550000.0 -0.1970628166 -0.5275898435
1502500000.0 -0.4492457426 -0.298301544
1512450000.0 -0.4943342593 0.0384702974
1522400000.0 -0.3060242518 0.3224117374
1532350000.0 0.0218498806 0.4060759294
1542300000.0 0.3153364096 0.2485776165
1552250000.0 0.4195694962 -0.0574327176
1562200000.0 0.2934507591 -0.3431726542
1572150000.0 0.0158811312 -0.465246669
1582100000.0 -0.2668318077 -0.370948709
1592050000.0 -0.4136450229 -0.1108878977
1602000000.0 -0.344135667 0.186315598
1611950000.0 -0.0827531289 0.357488629
1621900000.0 0.2307500138 0.2974876573
1631850000.0 0.4138889325 0.0327667387
1641800000.0 0.3624779194 -0.2847972041
1651750000.0 0.1098458912 -0.4837036835
1661700000.0 -0.2134491259 -0.4652113622
1671650000.0 -0.4518161892 -0.2369572043
1681600000.0 -0.487395649 0.1015943501
1691550000.0 -0.2882447298 0.393945466
1701500000.0 0.0660910813 0.486815004
1711450000.0 0.3995266888 0.3179833728
1721400000.0 0.5401357587 -0.0307635937
1731350000.0 0.4226751833 -0.3835085166
1741300000.0 0.1134009868 -0.581161537
1751250000.0 -0.2485809845 -0.5479079813
1761200000.0 -0.5177003566 -0.3050723329
1771150000.0 -0.5906044321 0.0548317998
1781100000.0 -0.4290941491 0.3923064455
1791050000.0 -0.0866050576 0.5632770701
1801000000.0 0.292612163 0.4810443331
1810950000.0 0.5345287318 0.1774533426
1820900000.0 0.5314440821 -0.2040593208
1830850000.0 0.2994462712 -0.4933671907
1840800000.0 -0.0477715523 -0.5819235005
1850750000.0 -0.3696169713 -0.4519868813
1860700000.0 -0.5520208905 -0.1684503478
1870650000.0 -0.5371217939 0.1667085664
1880600000.0 -0.3232143637 0.4270390741
1890550000.0 0.0037805243 0.5007379817
1900500000.0 0.298680952 0.3566624058
1910450000.0 0.4326489443 0.0705751652
1920400000.0 0.3628862355 -0.2192922615
1930350000.0 0.1477813829 -0.3929071683
1940300000.0 -0.105768839 -0.401523565
1950250000.0 -0.2948561178 -0.269706109
1960200000.0 -0.3558178918 -0.0722489742
1970150000.0 -0.2888911022 0.0962784608
1980100000.0 -0.1553602776 0.1616215425
1990050000.0 -0.052150942 0.1224425276
2000000000.0 -0.043072688 0.0532930874
