!Created with skrf (http://scikit-rf.org).
# GHz S RI R 50.0 
!freq ReS11 ImS11
10000000.0 -0.9766182468 0.0690415702
19950000.0 -0.9672030594 0.1347071873
29900000.0 -0.9521404087 0.2029875523
39850000.0 -0.9306308119 0.2752092973
49800000.0 -0.899515686 0.3536390785
59750000.0 -0.8567820968 0.4395138146
69700000.0 -0.7985124973 0.5334215354
79650000.0 -0.7196316861 0.6361295403
89600000.0 -0.610581807 0.7442486508
99550000.0 -0.4614005727 0.8491776605
109500000.0 -0.2629243598 0.9347246312
119450000.0 -0.0120651327 0.9739575975
129400000.0 0.281052743 0.9308795463
139350000.0 0.5512461304 0.8072366011
149300000.0 0.7806470591 0.5893649854
159250000.0 0.9233647329 0.3209577354
169200000.0 0.9726859365 0.0472343062
179150000.0 0.9462517551 -0.1954316225
189100000.0 0.873032119 -0.3914549822
199050000.0 0.7786368244 -0.5416401246
209000000.0 0.6774605747 -0.6531704095
218950000.0 0.5782858556 -0.7364368399
228900000.0 0.4828273377 -0.7980024109
238850000.0 0.3860600421 -0.8435507337
248800000.0 0.3671393003 -0.7314544058
258750000.0 0.2363726563 -0.88320062
268700000.0 0.1450814016 -0.895553854
278650000.0 0.0557009401 -0.8972235334
288600000.0 -0.035311684 -0.8890903161
298550000.0 -0.1283753391 -0.8680017997
308500000.0 -0.2247529386 -0.8308717643
318450000.0 -0.3218775265 -0.7719547182
328400000.0 -0.4146507366 -0.6863173702
338350000.0 -0.4941237114 -0.5724707122
348300000.0 -0.5482917815 -0.4326687579
358250000.0 -0.5641387098 -0.2775843512
368200000.0 -0.5354208944 -0.124578995
378150000.0 -0.467217234 0.0061732581
388100000.0 -0.3726189215 0.1034338777
398050000.0 -0.2691183053 0.1632778942
408000000.0 -0.1695670825 0.1911404554
417950000.0 -0.0840661563 0.1942733257
427900000.0 -0.0160137176 0.1814404327
437850000.0 0.0336906653 0.1586282591
447800000.0 0.0666040436 0.1308525022
457750000.0 0.0851935965 0.1017312653
467700000.0 0.0918063559 0.0739395473
477650000.0 0.0876494442 0.0496640893
487600000.0 0.0681532636 0.0311921418
497550000.0 0.0973190648 0.0395493354
507500000.0 0.062034201 0.0113580505
517450000.0 0.0364979049 0.0061269531
527400000.0 0.0112120498 0.0058649544
537350000.0 -0.0138230372 0.0092482384
547300000.0 -0.0385923069 0.0181432394
557250000.0 -0.0587764928 0.0300796329
567200000.0 -0.0760118585 0.0442158881
577150000.0 -0.0899795166 0.0607582149
587100000.0 -0.1008870698 0.0788011381
597050000.0 -0.1087597026 0.0966704905
607000000.0 -0.1136476389 0.1143476317
616950000.0 -0.1156878184 0.1300193197
626900000.0 -0.1141271456 0.1437269137
636850000.0 -0.1085798677 0.155355896
646800000.0 -0.0986349991 0.1643040721
656750000.0 -0.0854971214 0.1711922881
666700000.0 -0.0693739918 0.1758415768
676650000.0 -0.0520948217 0.1772916263
686600000.0 -0.0329840672 0.1750993289
696550000.0 -0.0126420483 0.1684486677
706500000.0 0.0089181695 0.1559047389
716450000.0 0.0321584756 0.1377584825
726400000.0 0.0563303692 0.1142351394
736350000.0 0.0801047009 0.0855429407
746300000.0 0.1019684121 0.0533335426
756250000.0 0.1208523516 0.0166874066
766200000.0 0.1339666245 -0.0233557601
776150000.0 0.1403239984 -0.0670063518
786100000.0 0.1395385301 -0.1124076146
796050000.0 0.1320653073 -0.1575926315
806000000.0 0.1210417868 -0.2023070775
815950000.0 0.1071686431 -0.2454181852
825900000.0 0.0891108774 -0.2852014355
835850000.0 0.0660574351 -0.3199233045
845800000.0 0.0379801971 -0.3477558639
855750000.0 0.0045581438 -0.369148974
865700000.0 -0.0336543033 -0.3848778573
875650000.0 -0.0755818325 -0.3942773688
885600000.0 -0.1203475908 -0.3969865072
895550000.0 -0.1670186478 -0.391453672
905500000.0 -0.2143926584 -0.3760096542
915450000.0 -0.2623299316 -0.3479273336
925400000.0 -0.3101740201 -0.3043200849
935350000.0 -0.3563180793 -0.2416256137
945300000.0 -0.3975957647 -0.157263966
955250000.0 -0.4266531888 -0.0471638259
965200000.0 -0.4302307057 0.0901841575
975150000.0 -0.3915870393 0.2511685096
985100000.0 -0.2890072978 0.4188102389
995050000.0 -0.1128392785 0.5618974621
1005000000.0 0.1271203545 0.6385138628
1014950000.0 0.388406412 0.6163931938
1024900000.0 0.618398988 0.4973252935
1034850000.0 0.7769170055 0.311381073
1044800000.0 0.8508892209 0.09686272
1054750000.0 0.8311918691 -0.1009329086
1064700000.0 0.8125181097 -0.2418712688
1074650000.0 0.7468297878 -0.3892400494
1084600000.0 0.6578136235 -0.5155415287
1094550000.0 0.5389872317 -0.6122910309
1104500000.0 0.4017443825 -0.6802046299
1114450000.0 0.247834652 -0.7170612186
1124400000.0 0.0866268698 -0.7179866231
1134350000.0 -0.0685195167 -0.6826899415
1144300000.0 -0.2072809157 -0.6160675034
1154250000.0 -0.3212860927 -0.5249264212
1164200000.0 -0.4058799767 -0.4216793972
1174150000.0 -0.4705410214 -0.3147848298
1184100000.0 -0.5162911374 -0.2028253638
1194050000.0 -0.5423384549 -0.0932886679
1204000000.0 -0.5522035508 0.0060140819
1213950000.0 -0.5499786118 0.0924622304
1223900000.0 -0.5401829672 0.164841172
1233850000.0 -0.5259051024 0.2246364366
1243800000.0 -0.5089214945 0.2745450377
1253750000.0 -0.4912215937 0.3176175066
1263700000.0 -0.473429837 0.3558085003
1273650000.0 -0.4579299998 0.3885895663
1283600000.0 -0.4447209117 0.4172023297
1293550000.0 -0.434301805 0.4402469127
1303500000.0 -0.4263398649 0.4576476032
1313450000.0 -0.4202875926 0.4705509027
1323400000.0 -0.4150026908 0.479892559
1333350000.0 -0.4091861354 0.4875765076
1343300000.0 -0.4032176354 0.4960941817
1353250000.0 -0.3976611853 0.505139021
1363200000.0 -0.3927700199 0.5143852798
1373150000.0 -0.3872930627 0.5220005656
1383100000.0 -0.3820320779 0.5273334344
1393050000.0 -0.3769580403 0.5292480707
1403000000.0 -0.3708954694 0.5279806044
1412950000.0 -0.3641160434 0.5235152513
1422900000.0 -0.3567526882 0.5182416076
1432850000.0 -0.3499371608 0.5133136775
1442800000.0 -0.3433032165 0.5110046073
1452750000.0 -0.3368868793 0.5126556721
1462700000.0 -0.3278066004 0.5170031968
1472650000.0 -0.3147864363 0.5217267512
1482600000.0 -0.2978353996 0.5251458873
1492550000.0 -0.2777477663 0.5263314522
1502500000.0 -0.2533536422 0.5261115473
1512450000.0 -0.2264328525 0.524777037
1522400000.0 -0.1968820406 0.5236164793
1532350000.0 -0.1651482663 0.5219359707
1542300000.0 -0.1302380242 0.5192734433
1552250000.0 -0.0929858809 0.5144764179
1562200000.0 -0.0540092433 0.5074092962
1572150000.0 -0.013580402 0.4978161115
1582100000.0 0.0284675442 0.4863785412
1592050000.0 0.0717655157 0.4739485846
1602000000.0 0.1147193311 0.4605545452
1611950000.0 0.1576944784 0.4464267516
1621900000.0 0.199663678 0.4304507639
1631850000.0 0.2400579891 0.4108680574
1641800000.0 0.2781809958 0.3876041911
1651750000.0 0.3143183695 0.3608092754
1661700000.0 0.3489184211 0.3324238728
1671650000.0 0.3817732673 0.3045704828
1681600000.0 0.4124362229 0.2783764799
1691550000.0 0.4403556077 0.2544275485
1701500000.0 0.4649712817 0.2331704866
1711450000.0 0.4858181791 0.2133724823
1721400000.0 0.5029918252 0.1945581855
1731350000.0 0.5169890092 0.1753209334
1741300000.0 0.5293337167 0.1564511358
1751250000.0 0.5396357874 0.1390550871
1761200000.0 0.5483480912 0.1239667502
1771150000.0 0.5548722266 0.1125406271
1781100000.0 0.5595436449 0.1048285564
1791050000.0 0.5621245449 0.1008989393
1801000000.0 0.5630685014 0.0984016011
1810950000.0 0.5619226732 0.0954707378
1820900000.0 0.5589585171 0.0913563534
1830850000.0 0.5546916017 0.0852535872
1840800000.0 0.5474887082 0.0787786439
1850750000.0 0.5353125955 0.0735355218
1860700000.0 0.518047621 0.07392229
1870650000.0 0.5022415382 0.0823910245
1880600000.0 0.4916469355 0.0901186703
1890550000.0 0.479636341 0.0913676631
1900500000.0 0.4626305442 0.0880391487
1910450000.0 0.4423476278 0.0812528084
1920400000.0 0.4188167222 0.0731166057
1930350000.0 0.3918748888 0.0639403203
1940300000.0 0.3589675272 0.0544331271
1950250000.0 0.3198663551 0.046098621
1960200000.0 0.2728116447 0.0388511261
1970150000.0 0.2162017417 0.033106967
1980100000.0 0.1483882362 0.0307453971
1990050000.0 0.0682901277 0.0339453808
2000000000.0 -0.0274056029 0.0488117661
