!Created with skrf (http://scikit-rf.org).
# GHz S RI R 50.0 
!freq ReS11 ImS11
10000000.0 -0.7647505335 0.6763629908
19950000.0 -0.1338176289 0.9880107523
29900000.0 0.5414941763 0.8156414602
39850000.0 0.9455180348 0.2411418515
49800000.0 0.8702732587 -0.4694516381
59750000.0 0.3214789226 -0.9577670857
69700000.0 -0.4355073044 -0.9279238286
79650000.0 -0.9582236758 -0.3502784056
89600000.0 -0.8919793769 0.4446805096
99550000.0 -0.2430352166 0.9386523215
109500000.0 0.5770526307 0.7658750123
119450000.0 0.9740736654 -0.007421902
129400000.0 0.5782457965 -0.815643598
139350000.0 -0.3328805658 -0.9528023438
149300000.0 -0.9483919316 -0.2760864436
159250000.0 -0.7530114587 0.5884979472
169200000.0 0.0201405462 0.9409384537
179150000.0 0.7551153981 0.5808401097
189100000.0 0.9592651115 -0.1863050844
199050000.0 0.5393653842 -0.8349282469
209000000.0 -0.2004294358 -0.9685443541
218950000.0 -0.7946687209 -0.5488872183
228900000.0 -0.9277722011 0.1470865675
238850000.0 -0.5560132854 0.7380277554
248800000.0 0.0190041722 0.904610781
258750000.0 0.6921571991 0.6417209831
268700000.0 0.9603982997 0.0142369075
278650000.0 0.7308133513 -0.6232718667
288600000.0 0.1328405905 -0.9295174522
298550000.0 -0.5049857443 -0.7462859209
308500000.0 -0.8392165851 -0.1821813605
318450000.0 -0.6909567873 0.448334996
328400000.0 -0.1484568036 0.7846361534
338350000.0 0.4529044847 0.6255923867
348300000.0 0.7199313096 0.0956085951
358250000.0 0.5039397884 -0.4093202192
368200000.0 0.0300986185 -0.5453677314
378150000.0 -0.3207307801 -0.2963307553
388100000.0 -0.3375597017 0.0690914783
398050000.0 -0.1041214898 0.263978221
408000000.0 0.1378744339 0.2030583548
417950000.0 0.211373466 0.0133973494
427900000.0 0.1167160884 -0.127981661
437850000.0 -0.028423792 -0.1338961364
447800000.0 -0.1089306442 -0.0361600835
457750000.0 -0.0847949011 0.0722837813
467700000.0 0.0021006044 0.1138978638
477650000.0 0.0751442091 0.0763346862
487600000.0 0.0743110147 0.012237191
497550000.0 0.0879700686 -0.0438005986
507500000.0 0.0181515721 -0.053000065
517450000.0 -0.0116039265 -0.0224070541
527400000.0 -0.0020063034 0.0040408373
537350000.0 0.0218544373 -0.0014621981
547300000.0 0.022593917 -0.0394634784
557250000.0 -0.0222548705 -0.0656553958
567200000.0 -0.0846265856 -0.0451082894
577150000.0 -0.1195196 0.0295900458
587100000.0 -0.0713180767 0.1298757589
597050000.0 0.0040371719 0.0962016031
607000000.0 0.0832156078 0.1106089913
616950000.0 0.1548346683 0.026018178
626900000.0 0.146060293 -0.0941117924
636850000.0 0.0545313169 -0.1810393338
646800000.0 -0.0735126735 -0.1852506248
656750000.0 -0.1714596828 -0.10212181
666700000.0 -0.1857599993 0.0234121401
676650000.0 -0.1112499975 0.1227245884
686600000.0 0.0086937716 0.1409985234
696550000.0 0.1039389903 0.0720975275
706500000.0 0.1209662131 -0.0373452002
716450000.0 0.0586736571 -0.1182599725
726400000.0 -0.0353083646 -0.1230861102
736350000.0 -0.0916451266 -0.0553957764
746300000.0 -0.067205474 0.0284578845
756250000.0 0.0223491661 0.057529057
766200000.0 0.1084643023 -0.0039163717
776150000.0 0.115925974 -0.1245899054
786100000.0 0.0184438768 -0.2212920526
796050000.0 -0.1383493187 -0.2132494858
806000000.0 -0.2542704111 -0.0779115551
815950000.0 -0.2378078078 0.1225911699
825900000.0 -0.0692265629 0.2700969575
835850000.0 0.1748778894 0.2614241358
845800000.0 0.360814605 0.0781548632
855750000.0 0.3761419792 -0.1963862405
865700000.0 0.1959417541 -0.4203762784
875650000.0 -0.0983677037 -0.4682545457
885600000.0 -0.3584196714 -0.2992717038
895550000.0 -0.4397201356 0.0126860259
905500000.0 -0.2824425286 0.3069489946
915450000.0 0.0415681888 0.415827964
925400000.0 0.3538281295 0.2651296359
935350000.0 0.4700388799 -0.0616461047
945300000.0 0.3179593797 -0.3740469322
955250000.0 -0.018895907 -0.4767264275
965200000.0 -0.3275545635 -0.2876762799
975150000.0 -0.3795778661 0.0881369199
985100000.0 -0.0893394692 0.3723113243
995050000.0 0.3399330345 0.2846979964
1005000000.0 0.5085007161 -0.1588348022
1014950000.0 0.198976103 -0.5765376658
1024900000.0 -0.3754612483 -0.5434711239
1034850000.0 -0.7025811978 0.0081574209
1044800000.0 -0.3910194913 0.6459110852
1054750000.0 0.3353761478 0.7079303396
1064700000.0 0.8239793222 0.224861334
1074650000.0 0.7348313506 -0.5012375127
1084600000.0 0.1307413721 -0.8655423788
1094550000.0 -0.5291693989 -0.6565918928
1104500000.0 -0.7994118735 -0.0247356952
1114450000.0 -0.4812267326 0.5864800848
1124400000.0 0.1869553054 0.6976915306
1134350000.0 0.6400716064 0.248076751
1144300000.0 0.5576472365 -0.3272255678
1154250000.0 0.1042795259 -0.5941784063
1164200000.0 -0.3531447629 -0.4366914532
1174150000.0 -0.533178989 -0.0111133732
1184100000.0 -0.3272215394 0.4030607602
1194050000.0 0.1211281762 0.5056528298
1204000000.0 0.4790483512 0.2349039778
1213950000.0 0.5186367666 -0.194591045
1223900000.0 0.2566031624 -0.5157150924
1233850000.0 -0.1429495407 -0.578358282
1243800000.0 -0.486878065 -0.3659423141
1253750000.0 -0.6144181534 0.0262279954
1263700000.0 -0.448991182 0.4176617655
1273650000.0 -0.0546501624 0.6048577657
1283600000.0 0.3665002523 0.481242607
1293550000.0 0.6015444296 0.1195541165
1303500000.0 0.5585237713 -0.2975577855
1313450000.0 0.2810668462 -0.5954927448
1323400000.0 -0.1132925767 -0.6722739291
1333350000.0 -0.4794546487 -0.5034062471
1343300000.0 -0.6791850194 -0.1409529451
1353250000.0 -0.6136408861 0.2812179285
1363200000.0 -0.2881666941 0.5773670336
1373150000.0 0.1553826837 0.598781535
1383100000.0 0.507730154 0.338602447
1393050000.0 0.6208532627 -0.0693829484
1403000000.0 0.4732869028 -0.4484360239
1412950000.0 0.1431058394 -0.6617694488
1422900000.0 -0.2424164929 -0.6449907274
1432850000.0 -0.5440290829 -0.4073884867
1442800000.0 -0.646715077 -0.03258002
1452750000.0 -0.4962523214 0.3342468594
1462700000.0 -0.1425476274 0.5288244873
1472650000.0 0.2544847423 0.4543383562
1482600000.0 0.5069328395 0.1494507548
1492550000.0 0.5089939168 -0.2324083826
1502500000.0 0.2810180658 -0.5196442881
1512450000.0 -0.0638802388 -0.6001085175
1522400000.0 -0.3765743913 -0.4507712761
1532350000.0 -0.5224418494 -0.1395735665
1542300000.0 -0.4324443688 0.1925397666
1552250000.0 -0.1448480684 0.3817239873
1562200000.0 0.1912995602 0.3273888689
1572150000.0 0.3935830924 0.064246088
1582100000.0 0.361924274 -0.2552377452
1592050000.0 0.1281662242 -0.4596820342
1602000000.0 -0.1764871062 -0.4525470995
1611950000.0 -0.3977341061 -0.2417107936
1621900000.0 -0.421307508 0.0696524459
1631850000.0 -0.2220481262 0.3232270349
1641800000.0 0.1072548115 0.3741172838
1651750000.0 0.3881120756 0.1788332137
1661700000.0 0.4573180904 -0.1590114208
1671650000.0 0.2798722315 -0.4554975274
1681600000.0 -0.0475311372 -0.5613223028
1691550000.0 -0.3685262558 -0.4334467763
1701500000.0 -0.5440744751 -0.1290411721
1711450000.0 -0.4944762009 0.2289528218
1721400000.0 -0.2219910743 0.4889976486
1731350000.0 0.1684520778 0.5183969483
1741300000.0 0.4931405866 0.2840444324
1751250000.0 0.5898718516 -0.1060897862
1761200000.0 0.4194643134 -0.4624099378
1771150000.0 0.0756500881 -0.6339621683
1781100000.0 -0.292780579 -0.5719163193
1791050000.0 -0.5550260703 -0.3138404686
1801000000.0 -0.6248105795 0.0495724711
1810950000.0 -0.4685411446 0.3942302278
1820900000.0 -0.1267694741 0.5836094699
1830850000.0 0.2679621301 0.5181334237
1840800000.0 0.5321859228 0.2168467692
1850750000.0 0.5459795609 -0.1738671805
1860700000.0 0.3278759764 -0.4748931677
1870650000.0 -0.0052359223 -0.5826980964
1880600000.0 -0.3217071056 -0.4885490742
1890550000.0 -0.5242458487 -0.2458466507
1900500000.0 -0.5544413033 0.060574966
1910450000.0 -0.4057866365 0.3243228092
1920400000.0 -0.1314902732 0.4446418542
1930350000.0 0.1477000841 0.3701566726
1940300000.0 0.3060318112 0.150244878
1950250000.0 0.2916718573 -0.0946651706
1960200000.0 0.1513582457 -0.256466786
1970150000.0 -0.0242788509 -0.2960078934
1980100000.0 -0.1564935647 -0.2392198952
1990050000.0 -0.2126517982 -0.1472075451
2000000000.0 -0.2034140924 -0.0775352002
