!Created with skrf (http://scikit-rf.org).
# GHz S RI R 50.0 
!freq ReS11 ImS11
10000000.0 -0.9982975549 0.1653375317
19950000.0 -0.9428894696 0.3152035789
29900000.0 -0.8646228083 0.45817699
39850000.0 -0.7639083153 0.5985314814
49800000.0 -0.6422623505 0.7307223173
59750000.0 -0.4949851145 0.8480581546
69700000.0 -0.3158601813 0.939356829
79650000.0 -0.1018777167 0.9867543243
89600000.0 0.144638111 0.9742926078
99550000.0 0.4096872068 0.8841446948
109500000.0 0.6718045277 0.7047567221
119450000.0 0.8914012822 0.4242298117
129400000.0 1.003090466 0.0634583812
139350000.0 0.962571055 -0.3479627972
149300000.0 0.7447044738 -0.6946261783
159250000.0 0.4130807436 -0.9100829306
169200000.0 0.0528432436 -0.9828889955
179150000.0 -0.275886224 -0.9408156804
189100000.0 -0.5437860092 -0.821005771
199050000.0 -0.7391248515 -0.6535597246
209000000.0 -0.8610725393 -0.4613942044
218950000.0 -0.9239837318 -0.2634476115
228900000.0 -0.9399458509 -0.0699026056
238850000.0 -0.9215005071 0.117053245
248800000.0 -0.7028053088 0.2436241855
258750000.0 -0.8267556389 0.42268408
268700000.0 -0.7407490639 0.5666785011
278650000.0 -0.6294586105 0.6832111962
288600000.0 -0.4923189775 0.7700842175
298550000.0 -0.3333593574 0.8247722563
308500000.0 -0.1578144912 0.8484158472
318450000.0 0.0287080356 0.8365235844
328400000.0 0.2164344177 0.7822047172
338350000.0 0.3856372658 0.6771761066
348300000.0 0.5123961784 0.519833924
358250000.0 0.5713917711 0.3240146812
368200000.0 0.5524155207 0.1205153391
378150000.0 0.4667390565 -0.0547350395
388100000.0 0.3416153515 -0.1775786178
398050000.0 0.2069307757 -0.2404680273
408000000.0 0.0868851161 -0.2480237027
417950000.0 -0.0058736138 -0.2140021429
427900000.0 -0.0685027335 -0.1568021235
437850000.0 -0.1053449529 -0.0912597408
447800000.0 -0.1211555293 -0.0303488246
457750000.0 -0.1208024945 0.0184431381
467700000.0 -0.1081596409 0.0504023983
477650000.0 -0.085964791 0.0632051468
487600000.0 -0.0558604968 0.0578163646
497550000.0 -0.0285895733 -0.0054185184
507500000.0 -0.0249191431 0.0486798782
517450000.0 0.0041423896 0.0257658256
527400000.0 0.0158888772 0.0057433569
537350000.0 0.0133134439 -0.012601754
547300000.0 -0.0014666645 -0.0334911276
557250000.0 -0.0316026907 -0.048579856
567200000.0 -0.0635520729 -0.0604948
577150000.0 -0.0954643829 -0.0687861299
587100000.0 -0.1242301449 -0.070575406
597050000.0 -0.146889683 -0.0628376796
607000000.0 -0.1637514501 -0.0420537412
616950000.0 -0.1741239035 -0.0038896873
626900000.0 -0.1344325246 0.0603319673
636850000.0 -0.1424748121 0.0139775944
646800000.0 -0.1654200466 0.052695644
656750000.0 -0.1665210023 0.0862595792
666700000.0 -0.1561756142 0.1111668918
676650000.0 -0.1343199282 0.1267088145
686600000.0 -0.101994116 0.13474697
696550000.0 -0.0618688608 0.1364896961
706500000.0 -0.0187875171 0.1325409237
716450000.0 0.0234402773 0.122416135
726400000.0 0.0587606937 0.1039832159
736350000.0 0.08442919 0.0754524639
746300000.0 0.0971785056 0.0364709957
756250000.0 0.0983077172 -0.0147150785
766200000.0 0.0871129529 -0.0725002695
776150000.0 0.0659753629 -0.1314868831
786100000.0 0.0341455454 -0.1858692432
796050000.0 -0.0072543049 -0.2277572892
806000000.0 -0.0582863658 -0.2515051661
815950000.0 -0.1138767088 -0.256613575
825900000.0 -0.1786512024 -0.247625851
835850000.0 -0.2482232443 -0.2222737019
845800000.0 -0.3160101549 -0.1853345013
855750000.0 -0.3760259268 -0.1391497921
865700000.0 -0.4221989412 -0.08505238
875650000.0 -0.4505237913 -0.02349161
885600000.0 -0.4583131792 0.0458012352
895550000.0 -0.445936892 0.1219434131
905500000.0 -0.4154582698 0.2037800659
915450000.0 -0.3703516615 0.2864953987
925400000.0 -0.310503142 0.3638809617
935350000.0 -0.2358313043 0.4296912192
945300000.0 -0.1448799868 0.4745556994
955250000.0 -0.0359746594 0.4908905821
965200000.0 0.0889216153 0.470416774
975150000.0 0.2245155665 0.4087412504
985100000.0 0.3584062275 0.2996788679
995050000.0 0.4701159367 0.1392893655
1005000000.0 0.5268754779 -0.0709206305
1014950000.0 0.4908186764 -0.3103211908
1024900000.0 0.3363587465 -0.5331303613
1034850000.0 0.0737706661 -0.6814046872
1044800000.0 -0.2484437133 -0.7080522031
1054750000.0 -0.5598382697 -0.5947893158
1064700000.0 -0.7779845984 -0.3551556794
1074650000.0 -0.8701938422 -0.0926115507
1084600000.0 -0.8566075373 0.1998478956
1094550000.0 -0.7167292102 0.4479153501
1104500000.0 -0.5387276169 0.6445431999
1114450000.0 -0.2924935561 0.7716662441
1124400000.0 -0.0250276641 0.8034602546
1134350000.0 0.2251391425 0.7354119674
1144300000.0 0.4238844111 0.5814555086
1154250000.0 0.5490189924 0.3717887368
1164200000.0 0.5918144833 0.1448965368
1174150000.0 0.5767740485 -0.0479193353
1184100000.0 0.5357523087 -0.2347965439
1194050000.0 0.4369524647 -0.3907765935
1204000000.0 0.3046946864 -0.494459199
1213950000.0 0.1587408799 -0.5485545354
1223900000.0 0.014639827 -0.5644699103
1233850000.0 -0.1192063034 -0.5552305944
1243800000.0 -0.2389141097 -0.5295982403
1253750000.0 -0.3419801136 -0.492991626
1263700000.0 -0.4260782644 -0.4449654435
1273650000.0 -0.4921381772 -0.3874628088
1283600000.0 -0.53968022 -0.3197361493
1293550000.0 -0.5735380077 -0.2444672121
1303500000.0 -0.5984283236 -0.1660686508
1313450000.0 -0.6182437884 -0.0878406761
1323400000.0 -0.6352238927 -0.0127004779
1333350000.0 -0.6478484542 0.0580494969
1343300000.0 -0.6523221635 0.1242719731
1353250000.0 -0.6462587955 0.1847552186
1363200000.0 -0.6260292515 0.2423168769
1373150000.0 -0.5923510484 0.2978176674
1383100000.0 -0.5500877737 0.352528924
1393050000.0 -0.5031244364 0.4068214219
1403000000.0 -0.4554934744 0.4594679295
1412950000.0 -0.4081852358 0.5075886509
1422900000.0 -0.3613191761 0.5481864921
1432850000.0 -0.3138412481 0.5771103681
1442800000.0 -0.2631403378 0.595486621
1452750000.0 -0.2085639028 0.6053152363
1462700000.0 -0.1477193439 0.6099072687
1472650000.0 -0.0791589862 0.6129798928
1482600000.0 -0.0050827834 0.6145132738
1492550000.0 0.0700310611 0.6121682357
1502500000.0 0.1434920888 0.6025754109
1512450000.0 0.2121245763 0.5818834819
1522400000.0 0.2740140689 0.5477572447
1532350000.0 0.3288729296 0.4971468908
1542300000.0 0.3778795695 0.4316577142
1552250000.0 0.4224897559 0.3548019716
1562200000.0 0.464381592 0.2719355139
1572150000.0 0.4993376018 0.1866819125
1582100000.0 0.5230960796 0.0996696952
1592050000.0 0.5311652135 0.0125389827
1602000000.0 0.519144948 -0.0732384803
1611950000.0 0.4873379177 -0.1555345811
1621900000.0 0.4376387497 -0.23484942
1631850000.0 0.3753791027 -0.3112150909
1641800000.0 0.3057238873 -0.3823810659
1651750000.0 0.2317373831 -0.4445715927
1661700000.0 0.1549231438 -0.4930738796
1671650000.0 0.0764090087 -0.523525527
1681600000.0 -0.003337952 -0.534008949
1691550000.0 -0.0836836951 -0.5277850101
1701500000.0 -0.1655684244 -0.5074293425
1711450000.0 -0.2466977303 -0.4782676565
1721400000.0 -0.3246143676 -0.444052269
1731350000.0 -0.3958299716 -0.4075146065
1741300000.0 -0.4570427758 -0.367779355
1751250000.0 -0.5046275994 -0.3211925795
1761200000.0 -0.5380705039 -0.2682185393
1771150000.0 -0.5583310783 -0.2087150334
1781100000.0 -0.5709043385 -0.1437380242
1791050000.0 -0.578924218 -0.0773810146
1801000000.0 -0.5864175029 -0.0126550609
1810950000.0 -0.5936922304 0.0486460973
1820900000.0 -0.5982075056 0.1050334244
1830850000.0 -0.5954112532 0.1552541688
1840800000.0 -0.5810672632 0.2002269179
1850750000.0 -0.5540143956 0.2411072633
1860700000.0 -0.5152188065 0.2786647195
1870650000.0 -0.4708874924 0.3148582539
1880600000.0 -0.4257953709 0.3482163275
1890550000.0 -0.3844948598 0.3788688733
1900500000.0 -0.3477281252 0.4047701612
1910450000.0 -0.3136407384 0.4228397658
1920400000.0 -0.2797605332 0.4315290286
1930350000.0 -0.2422244158 0.4296960973
1940300000.0 -0.1995053734 0.4174190482
1950250000.0 -0.1509001074 0.3972968332
1960200000.0 -0.0991795869 0.3722374862
1970150000.0 -0.0484470093 0.3410115449
1980100000.0 -0.0232336681 0.2895325713
1990050000.0 -0.0263743733 0.2582919617
2000000000.0 -0.0203462734 0.2310400693
