!Created with skrf (http://scikit-rf.org).
# GHz S RI R 50.0 
!freq ReS11 ImS11
10000000.0 -0.7397867346 0.5645658894
19950000.0 -0.2741154483 0.8893806198
29900000.0 0.2944518575 0.8752178255
39850000.0 0.7574589909 0.5179950086
49800000.0 0.9226556637 -0.0642158287
59750000.0 0.6941824473 -0.6474643921
69700000.0 0.1381710294 -0.9669594143
79650000.0 -0.5028545318 -0.8410020059
89600000.0 -0.9081656019 -0.2964400064
99550000.0 -0.8418165224 0.4130776034
109500000.0 -0.2837039549 0.9046823597
119450000.0 0.4937668072 0.8411917638
129400000.0 0.9826128267 0.1805985056
139350000.0 0.7804244512 -0.6334894308
149300000.0 0.0222961926 -0.9763896453
159250000.0 -0.6945772269 -0.6168148801
169200000.0 -0.896495397 0.1183900495
179150000.0 -0.53764985 0.7361137322
189100000.0 0.1056171144 0.9146031939
199050000.0 0.67092492 0.615284163
209000000.0 0.8950746965 0.029753683
218950000.0 0.7053437554 -0.5389335599
228900000.0 0.217739549 -0.85008041
238850000.0 -0.3456841459 -0.7917118832
248800000.0 -0.7463182284 -0.3871582553
258750000.0 -0.850375189 0.1438181303
268700000.0 -0.6031370805 0.6442760208
278650000.0 -0.1149274896 0.8885451202
288600000.0 0.412104957 0.7784654245
298550000.0 0.7610899898 0.3610393935
308500000.0 0.7847675916 -0.1906512177
318450000.0 0.4645561761 -0.6404252555
328400000.0 -0.0616431911 -0.7820807211
338350000.0 -0.5372831426 -0.543698496
348300000.0 -0.7127684646 -0.0607296678
358250000.0 -0.5117729736 0.3788203977
368200000.0 -0.102821207 0.5276503156
378150000.0 0.2358834103 0.3597471028
388100000.0 0.3295965979 0.0557782529
398050000.0 0.1994568911 -0.1638928693
408000000.0 0.002283005 -0.1970126085
417950000.0 -0.1138405993 -0.0908762379
427900000.0 -0.1033231919 0.0336388014
437850000.0 -0.0152605601 0.0846617337
447800000.0 0.069723997 0.0454301156
457750000.0 0.0907288681 -0.0423240186
467700000.0 0.0450172304 -0.1146201763
477650000.0 -0.0315983191 -0.1298237341
487600000.0 -0.092054369 -0.0840493294
497550000.0 -0.1023594721 -0.0103639455
507500000.0 -0.0662322556 0.0558989139
517450000.0 -0.0012109955 0.0799006127
527400000.0 0.0512303774 0.0585834506
537350000.0 0.0660073182 0.0141167498
547300000.0 0.0414694623 -0.0203561652
557250000.0 -6.17263e-05 -0.0243231728
567200000.0 -0.0283896337 0.0032566306
577150000.0 -0.0226965756 0.0394342183
587100000.0 0.0142684893 0.0528351286
597050000.0 0.0565447013 0.0269603097
607000000.0 0.0729064823 -0.0323078002
616950000.0 0.0433514667 -0.0952062071
626900000.0 -0.0234927848 -0.1249619327
636850000.0 -0.0979589211 -0.101733044
646800000.0 -0.1423460509 -0.0293023953
656750000.0 -0.1326402537 0.0622929958
666700000.0 -0.0669332386 0.1314742668
676650000.0 0.0292376978 0.1436856026
686600000.0 0.1144574356 0.0882099702
696550000.0 0.1477808863 -0.0156461567
706500000.0 0.1108224775 -0.1201316685
716450000.0 0.0169950496 -0.1773664027
726400000.0 -0.0879781303 -0.1591552396
736350000.0 -0.1490227225 -0.0725450892
746300000.0 -0.1298222624 0.0366751828
756250000.0 -0.034899905 0.1082450939
766200000.0 0.0873885595 0.1003723969
776150000.0 0.1730376761 0.0112938583
786100000.0 0.1731131751 -0.1112734931
796050000.0 0.0807553874 -0.1999420771
806000000.0 -0.0585789584 -0.1953785756
815950000.0 -0.1673880561 -0.0842005385
825900000.0 -0.1776715225 0.0821558141
835850000.0 -0.07588713 0.2215782735
845800000.0 0.0948705879 0.2635467096
855750000.0 0.261120894 0.1796169249
865700000.0 0.3431932547 -0.004498865
875650000.0 0.2890197824 -0.2109135269
885600000.0 0.1031069636 -0.3360759253
895550000.0 -0.1360672557 -0.3036225231
905500000.0 -0.3106188434 -0.1101092118
915450000.0 -0.3219871069 0.1619769316
925400000.0 -0.1524985272 0.3821189069
935350000.0 0.1231066769 0.4352624622
945300000.0 0.3687967688 0.2810583677
955250000.0 0.4459992879 -0.0209387309
965200000.0 0.2782741802 -0.3214435345
975150000.0 -0.0843143068 -0.4292701041
985100000.0 -0.4402122625 -0.2218439386
995050000.0 -0.5247302592 0.2170178297
1005000000.0 -0.223769158 0.5906384716
1014950000.0 0.2893624482 0.6006284025
1024900000.0 0.6561064008 0.1810494265
1034850000.0 0.5680102562 -0.4180536618
1044800000.0 0.0242693574 -0.7478785281
1054750000.0 -0.5856166926 -0.5187819213
1064700000.0 -0.8017449704 0.095714632
1074650000.0 -0.5064851625 0.6435727981
1084600000.0 0.0594903385 0.7766869911
1094550000.0 0.5472714373 0.5338366562
1104500000.0 0.7319381513 -0.0330160545
1114450000.0 0.4500213722 -0.5631102139
1124400000.0 -0.1054619797 -0.7134440658
1134350000.0 -0.5627506464 -0.424863313
1144300000.0 -0.6733876276 0.0691783732
1154250000.0 -0.4359489052 0.4796078513
1164200000.0 -0.0097215004 0.6208392769
1174150000.0 0.393682741 0.4511312551
1184100000.0 0.5797786487 0.0505452989
1194050000.0 0.4395818336 -0.3638817918
1204000000.0 0.0658615507 -0.5593704642
1213950000.0 -0.3168173227 -0.4667996134
1223900000.0 -0.5449598161 -0.1731288028
1233850000.0 -0.555344029 0.1825015097
1243800000.0 -0.3593541266 0.4711940084
1253750000.0 -0.0270179791 0.5860602683
1263700000.0 0.3163925901 0.4709095055
1273650000.0 0.5232916844 0.1622979705
1283600000.0 0.503075562 -0.2069708637
1293550000.0 0.2793280617 -0.4823458724
1303500000.0 -0.0421563852 -0.5758768735
1313450000.0 -0.3445238202 -0.4832301359
1323400000.0 -0.5477443244 -0.249602001
1333350000.0 -0.6050525294 0.0597668308
1343300000.0 -0.48909836 0.3628486091
1353250000.0 -0.2103346666 0.5541966477
1363200000.0 0.1414146107 0.5445221989
1373150000.0 0.4276818743 0.3244234178
1383100000.0 0.5361616875 -0.0150283625
1393050000.0 0.4445423188 -0.3439963686
1403000000.0 0.2069795168 -0.5603867324
1412950000.0 -0.0883911978 -0.6132196082
1422900000.0 -0.3559273074 -0.5030546946
1432850000.0 -0.5260254473 -0.2599135799
1442800000.0 -0.5421445563 0.0544559641
1452750000.0 -0.3756535835 0.3380979302
1462700000.0 -0.0693687661 0.4769695813
1472650000.0 0.2568990112 0.4143560427
1482600000.0 0.4803815963 0.1832921547
1492550000.0 0.5299506942 -0.1208210914
1502500000.0 0.4046908919 -0.3883637705
1512450000.0 0.1576190572 -0.5333897127
1522400000.0 -0.1232865415 -0.5090732406
1532350000.0 -0.3390025715 -0.3185313032
1542300000.0 -0.4025115883 -0.0250456892
1552250000.0 -0.2778684043 0.2556606166
1562200000.0 -0.0127866342 0.4027883672
1572150000.0 0.2760695095 0.3602307762
1582100000.0 0.4681429322 0.1575721424
1592050000.0 0.4954064578 -0.1119641822
1602000000.0 0.352135163 -0.3425998571
1611950000.0 0.0912370912 -0.4458147823
1621900000.0 -0.1917809128 -0.3696401481
1631850000.0 -0.3829422091 -0.1289638058
1641800000.0 -0.3909618921 0.1841101414
1651750000.0 -0.2086487148 0.4369298013
1661700000.0 0.0845536894 0.5240947967
1671650000.0 0.3660196226 0.4202816221
1681600000.0 0.5351828526 0.1758989639
1691550000.0 0.5401040192 -0.1238640899
1701500000.0 0.3794536324 -0.3829434231
1711450000.0 0.0962275384 -0.5158398641
1721400000.0 -0.2255036366 -0.4645093584
1731350000.0 -0.4710562145 -0.2307242922
1741300000.0 -0.5440239787 0.1055826269
1751250000.0 -0.4176882649 0.4161792093
1761200000.0 -0.1504272875 0.5945043978
1771150000.0 0.1589843066 0.5980220414
1781100000.0 0.4196090606 0.4432911051
1791050000.0 0.5662150253 0.1779639354
1801000000.0 0.5626284169 -0.1305891791
1810950000.0 0.4015206358 -0.402806754
1820900000.0 0.1154545092 -0.5503689185
1830850000.0 -0.2115145493 -0.5096624769
1840800000.0 -0.4618639186 -0.2873646424
1850750000.0 -0.547544732 0.0276792186
1860700000.0 -0.4597425517 0.3218576511
1870650000.0 -0.2499135233 0.5168738924
1880600000.0 0.0111503131 0.5765787421
1890550000.0 0.2540710473 0.4993314258
1900500000.0 0.4200504821 0.3081135472
1910450000.0 0.466172065 0.0531125883
1920400000.0 0.3745749083 -0.191902798
1930350000.0 0.1679286346 -0.3453002377
1940300000.0 -0.0775568441 -0.3555174568
1950250000.0 -0.2724044215 -0.2380581252
1960200000.0 -0.3641969044 -0.0572331897
1970150000.0 -0.3496848578 0.1190270787
1980100000.0 -0.2583629052 0.239145242
1990050000.0 -0.1393764529 0.2776748499
2000000000.0 -0.0502346157 0.2402526794
