!Created with skrf (http://scikit-rf.org).
# GHz S RI R 50.0 
!freq ReS11 ImS11
10000000.0 -0.8089255423 0.6052629864
19950000.0 -0.2938594825 0.9458040941
29900000.0 0.3196831185 0.9213809835
39850000.0 0.8092909188 0.5398874237
49800000.0 0.9822265081 -0.0696970464
59750000.0 0.7436711834 -0.6754733435
69700000.0 0.1614997748 -1.00594891
79650000.0 -0.5131526937 -0.8748618925
89600000.0 -0.9412906173 -0.3135099064
99550000.0 -0.8776426568 0.4107410024
109500000.0 -0.3136365619 0.90959644
119450000.0 0.470478537 0.8568847633
129400000.0 0.9693568831 0.2099760882
139350000.0 0.8060757017 -0.6081801869
149300000.0 0.0585748863 -0.9873384677
159250000.0 -0.6895759941 -0.6635403174
169200000.0 -0.9375634323 0.0795156168
179150000.0 -0.5891408684 0.745355688
189100000.0 0.100258214 0.9652123544
199050000.0 0.727806333 0.6584324688
209000000.0 0.9745805415 0.0268866851
218950000.0 0.7542793121 -0.5836871762
228900000.0 0.2119978796 -0.9067491273
238850000.0 -0.4030622627 -0.8253982714
248800000.0 -0.6673077952 -0.3362786211
258750000.0 -0.9175287741 0.1848378755
268700000.0 -0.6234428022 0.716606573
278650000.0 -0.0676140593 0.9455785536
288600000.0 0.5033093227 0.7759660156
298550000.0 0.8392572205 0.2915428635
308500000.0 0.7995663752 -0.2924564264
318450000.0 0.4040838058 -0.7169830877
328400000.0 -0.1647728137 -0.785373832
338350000.0 -0.6237433542 -0.4628887557
348300000.0 -0.7257724876 0.0644347385
358250000.0 -0.4424862452 0.478006337
368200000.0 0.0053576194 0.5533549171
378150000.0 0.3272426916 0.3134431589
388100000.0 0.3676101895 -0.0303726614
398050000.0 0.1801731122 -0.2518734849
408000000.0 -0.058647352 -0.2584110236
417950000.0 -0.1918731674 -0.1136409944
427900000.0 -0.1743667135 0.0484079284
437850000.0 -0.0612875946 0.1295633951
447800000.0 0.0550287288 0.1063389406
457750000.0 0.1101620066 0.021296028
467700000.0 0.0905077377 -0.0613095936
477650000.0 0.0294330791 -0.0946305658
487600000.0 -0.0215719324 -0.0717814599
497550000.0 -0.0171809198 -0.1014741859
507500000.0 -0.0453983091 0.0009804543
517450000.0 -0.0095680044 0.0129678391
527400000.0 0.0073279026 -0.0042892174
537350000.0 -0.0059336987 -0.0236986011
547300000.0 -0.0421703762 -0.0207235698
557250000.0 -0.0681519433 0.0197298411
567200000.0 -0.0587117894 0.0763480807
577150000.0 -0.0070336952 0.1181878162
587100000.0 0.0694359448 0.1155662394
597050000.0 0.1342292588 0.056334509
607000000.0 0.1506647079 -0.0392821128
616950000.0 0.101209193 -0.1330593631
626900000.0 0.0026422561 -0.1808861562
636850000.0 -0.1095314043 -0.1602364681
646800000.0 -0.1852596343 -0.075644144
656750000.0 -0.1935107202 0.0374896663
666700000.0 -0.129501133 0.1304210988
676650000.0 -0.0221479444 0.1616148703
686600000.0 0.0806857073 0.1196756179
696550000.0 0.131952924 0.0238319676
706500000.0 0.1127427279 -0.0773236613
716450000.0 0.0373484302 -0.1336452648
726400000.0 -0.0495196518 -0.1216499069
736350000.0 -0.0944145855 -0.0505957002
746300000.0 -0.0689242186 0.0329793585
756250000.0 0.0167300364 0.0736523363
766200000.0 0.113290601 0.0386031141
776150000.0 0.1607961358 -0.0627788984
786100000.0 0.1193654896 -0.1774496604
796050000.0 -0.0038021061 -0.2361199623
806000000.0 -0.1526413488 -0.1881918852
815950000.0 -0.2451952313 -0.0360091077
825900000.0 -0.2179942269 0.1597271901
835850000.0 -0.0645176662 0.3078782541
845800000.0 0.1592652604 0.3316279278
855750000.0 0.3580421177 0.2081866583
865700000.0 0.4420248271 -0.0223119997
875650000.0 0.3608846343 -0.2642851262
885600000.0 0.1343187149 -0.4120503313
895550000.0 -0.1470248575 -0.3862296089
905500000.0 -0.3620602552 -0.1831807364
915450000.0 -0.4050011317 0.1168129926
925400000.0 -0.2452980634 0.3779590941
935350000.0 0.0470355382 0.4708959085
945300000.0 0.3264422914 0.3408551949
955250000.0 0.4395452539 0.042959218
965200000.0 0.3046146752 -0.262710681
975150000.0 -0.0365521452 -0.3846456664
985100000.0 -0.381576604 -0.1884445599
995050000.0 -0.4419775378 0.234351632
1005000000.0 -0.1240068653 0.5673725122
1014950000.0 0.3847230831 0.513913102
1024900000.0 0.6859091202 0.0289076881
1034850000.0 0.476269649 -0.5652407564
1044800000.0 -0.1621514485 -0.786376731
1054750000.0 -0.7486744805 -0.4145838026
1064700000.0 -0.8233318687 0.2389839643
1074650000.0 -0.4599893336 0.7301576626
1084600000.0 0.1205951651 0.8299393099
1094550000.0 0.6388160919 0.5077452819
1104500000.0 0.7745388954 -0.0902502074
1114450000.0 0.4432566305 -0.602874212
1124400000.0 -0.1369989332 -0.7042050866
1134350000.0 -0.5710115443 -0.3687875286
1144300000.0 -0.6235263822 0.1305547741
1154250000.0 -0.3348075113 0.4918905314
1164200000.0 0.0982765348 0.5465177229
1174150000.0 0.4340354813 0.2950438995
1184100000.0 0.497560897 -0.1144001086
1194050000.0 0.2542859574 -0.442394267
1204000000.0 -0.1336927853 -0.5024955432
1213950000.0 -0.44654732 -0.2992036456
1223900000.0 -0.556226126 0.0418564854
1233850000.0 -0.438497502 0.3713888319
1243800000.0 -0.1454005375 0.5662224235
1253750000.0 0.2151676279 0.5444318086
1263700000.0 0.4968127232 0.3013644721
1273650000.0 0.5742070646 -0.0686505185
1283600000.0 0.4184881759 -0.4088093401
1293550000.0 0.1069119553 -0.5937930926
1303500000.0 -0.2416190112 -0.5800272198
1313450000.0 -0.5224529639 -0.3894996174
1323400000.0 -0.6628278969 -0.0816790975
1333350000.0 -0.6190565336 0.2616432084
1343300000.0 -0.386133008 0.5361331521
1353250000.0 -0.0246789767 0.6359062428
1363200000.0 0.3391987047 0.5082504648
1373150000.0 0.5670245741 0.1973106877
1383100000.0 0.5863750812 -0.1755591899
1393050000.0 0.4130288877 -0.4875019496
1403000000.0 0.1167935351 -0.6570157656
1412950000.0 -0.2150308422 -0.6479804094
1422900000.0 -0.4916682257 -0.467292304
1432850000.0 -0.6307634024 -0.1599645123
1442800000.0 -0.5790660053 0.1840846529
1452750000.0 -0.34050222 0.4490052445
1462700000.0 0.0077960538 0.5387238355
1472650000.0 0.3425516274 0.4236383087
1482600000.0 0.5508083072 0.1539590438
1492550000.0 0.5764028768 -0.1707286577
1502500000.0 0.4254602788 -0.4449083023
1512450000.0 0.1530284507 -0.5856975251
1522400000.0 -0.1522061721 -0.5465373315
1532350000.0 -0.3828086897 -0.3333569068
1542300000.0 -0.447933231 -0.0191707007
1552250000.0 -0.315328728 0.2744988312
1562200000.0 -0.0400097438 0.427870562
1572150000.0 0.2579959776 0.3873123403
1582100000.0 0.4607836262 0.1851902872
1592050000.0 0.496614618 -0.0886975056
1602000000.0 0.358715163 -0.3250421388
1611950000.0 0.1002755271 -0.4314770377
1621900000.0 -0.1786231464 -0.3580667706
1631850000.0 -0.36141095 -0.1229190982
1641800000.0 -0.3618038444 0.1798810588
1651750000.0 -0.1744803804 0.4161645579
1661700000.0 0.1134591204 0.4817620242
1671650000.0 0.3698119254 0.3573863287
1681600000.0 0.4925835612 0.1274696625
1691550000.0 0.5010198051 -0.1406117639
1701500000.0 0.3297561188 -0.3954316103
1711450000.0 0.0293589521 -0.5067758507
1721400000.0 -0.2940369888 -0.4191951479
1731350000.0 -0.5112397674 -0.1527978328
1741300000.0 -0.5299721095 0.1912821522
1751250000.0 -0.3495473116 0.4762763584
1761200000.0 -0.0506793555 0.6057784944
1771150000.0 0.2618316932 0.5554814398
1781100000.0 0.4999068021 0.3524640636
1791050000.0 0.6014521755 0.0548163599
1801000000.0 0.5330327582 -0.2606056138
1810950000.0 0.2994006066 -0.5004936837
1820900000.0 -0.0372293852 -0.5724351784
1830850000.0 -0.3589795513 -0.4393486821
1840800000.0 -0.5458015795 -0.1539722554
1850750000.0 -0.5466058089 0.1710351082
1860700000.0 -0.3880213481 0.4311345293
1870650000.0 -0.1356892751 0.5680489589
1880600000.0 0.1388310077 0.5614983438
1890550000.0 0.3677700228 0.4202017535
1900500000.0 0.4904090758 0.178003866
1910450000.0 0.4614974069 -0.0950166367
1920400000.0 0.2853690018 -0.3044772484
1930350000.0 0.031332753 -0.3750491362
1940300000.0 -0.2013265007 -0.2981269651
1950250000.0 -0.3374046789 -0.1290713608
1960200000.0 -0.360307787 0.0567222064
1970150000.0 -0.2918847441 0.1990693812
1980100000.0 -0.1788244094 0.2622397635
1990050000.0 -0.0779222792 0.2433279065
2000000000.0 -0.0388329601 0.1782187647
