!Created with skrf (http://scikit-rf.org).
# GHz S RI R 50.0 
!freq ReS11 ImS11
10000000.0 -0.8017665162 0.6048642545
19950000.0 -0.28849967 0.9449669807
29900000.0 0.3228601356 0.9219146932
39850000.0 0.8109061908 0.542893106
49800000.0 0.9836392682 -0.0634050248
59750000.0 0.747125446 -0.6665009529
69700000.0 0.1688231411 -0.9971043605
79650000.0 -0.50381716 -0.870774235
89600000.0 -0.9350011622 -0.3157361026
99550000.0 -0.8793965653 0.4050566083
109500000.0 -0.3255914305 0.9065709577
119450000.0 0.4514638008 0.8650922425
129400000.0 0.9593346776 0.2210547148
139350000.0 0.8166509791 -0.5771590039
149300000.0 0.088075145 -0.9781884228
159250000.0 -0.6674398189 -0.6831458347
169200000.0 -0.9402568878 0.0478665333
179150000.0 -0.6149375464 0.7217742718
189100000.0 0.0632918019 0.9619085628
199050000.0 0.6970327805 0.6776773794
209000000.0 0.9635540952 0.0580526661
218950000.0 0.765478842 -0.558470581
228900000.0 0.2345044562 -0.8985903375
238850000.0 -0.3827332607 -0.8335614871
248800000.0 -0.6355224392 -0.2898866957
258750000.0 -0.9159234561 0.1523394511
268700000.0 -0.6374971026 0.6897013574
278650000.0 -0.0910164303 0.93212496
288600000.0 0.4819171801 0.7788268416
298550000.0 0.8288317895 0.3033060753
308500000.0 0.8001105589 -0.2804004046
318450000.0 0.411164203 -0.7078394947
328400000.0 -0.1537047756 -0.7795824727
338350000.0 -0.6089081166 -0.4618566912
348300000.0 -0.7119618986 0.0590023414
358250000.0 -0.434268928 0.4689251895
368200000.0 0.0085532428 0.5450188615
378150000.0 0.3273372316 0.3084337181
388100000.0 0.3685226604 -0.0318704855
398050000.0 0.1812815854 -0.2531951405
408000000.0 -0.0595366603 -0.2618360748
417950000.0 -0.1976602044 -0.1173229118
427900000.0 -0.1851261459 0.0509436791
437850000.0 -0.0721637775 0.1405279966
447800000.0 0.051350104 0.122962725
457750000.0 0.1140551775 0.0379110022
467700000.0 0.100931466 -0.0499383298
477650000.0 0.0427165734 -0.0931800992
487600000.0 -0.0132372568 -0.0801189439
497550000.0 0.0096651295 -0.0621989353
507500000.0 -0.0558746914 -0.0160788784
517450000.0 -0.0250072253 0.0042666435
527400000.0 -0.0085935278 -0.0052670317
537350000.0 -0.0184209579 -0.0206922845
547300000.0 -0.0498720937 -0.0167356851
557250000.0 -0.0722672158 0.0233458101
567200000.0 -0.0598350584 0.0773770769
577150000.0 -0.0070560473 0.1164735895
587100000.0 0.0692612194 0.1115968089
597050000.0 0.1333946554 0.0533585992
607000000.0 0.1510259696 -0.0416887513
616950000.0 0.1042534997 -0.1351892413
626900000.0 0.0073068929 -0.1861026162
636850000.0 -0.1028181432 -0.1663713054
646800000.0 -0.1803542693 -0.0844929346
656750000.0 -0.1913703856 0.0282490857
666700000.0 -0.1293168127 0.1237944331
676650000.0 -0.0219121448 0.1586992039
686600000.0 0.082176545 0.1184256316
696550000.0 0.1361123993 0.0242096952
706500000.0 0.11827468 -0.0762750274
716450000.0 0.0426522804 -0.1341486608
726400000.0 -0.0454904883 -0.1219458909
736350000.0 -0.0932216107 -0.0489742333
746300000.0 -0.0684862589 0.0394115201
756250000.0 0.0200534198 0.0845237214
766200000.0 0.123167793 0.0505174297
776150000.0 0.176607884 -0.0546442625
786100000.0 0.1377058284 -0.1777063376
796050000.0 0.0112289851 -0.2467834874
806000000.0 -0.1482067875 -0.207566745
815950000.0 -0.2565839181 -0.056470265
825900000.0 -0.2437981684 0.1486811877
835850000.0 -0.0966545678 0.3132237018
845800000.0 0.13135334 0.3539678586
855750000.0 0.3436138017 0.2416512654
865700000.0 0.4434505139 0.0139216706
875650000.0 0.3777556244 -0.2323829445
885600000.0 0.1693825136 -0.3910075113
895550000.0 -0.1024635399 -0.3905872675
905500000.0 -0.3271588019 -0.2193278353
915450000.0 -0.4005571253 0.0610393083
925400000.0 -0.2799197266 0.3294611378
935350000.0 -0.0130592003 0.4564193057
945300000.0 0.2736936363 0.3691877995
955250000.0 0.4248722014 0.0987116098
965200000.0 0.332550696 -0.2181682967
975150000.0 0.012948579 -0.3790159363
985100000.0 -0.3473169454 -0.2248038405
995050000.0 -0.4552394832 0.1896185843
1005000000.0 -0.1651720732 0.5550638125
1014950000.0 0.3477507889 0.5421122058
1024900000.0 0.6857952474 0.0851457535
1034850000.0 0.5257330415 -0.5188391065
1044800000.0 -0.0842481696 -0.7889242073
1054750000.0 -0.6884134259 -0.4745173218
1064700000.0 -0.8064542235 0.1481270786
1074650000.0 -0.5489865001 0.6420374539
1084600000.0 -0.0006292649 0.8078543118
1094550000.0 0.5259926453 0.6104420159
1104500000.0 0.7702083655 0.0672645804
1114450000.0 0.5535355638 -0.4883647289
1124400000.0 0.0173473265 -0.7064330362
1134350000.0 -0.474570298 -0.4778822354
1144300000.0 -0.6369516835 -0.0075399511
1154250000.0 -0.4380337 0.4050524628
1164200000.0 -0.0358700623 0.5521935449
1174150000.0 0.3396573901 0.3887805804
1184100000.0 0.4931064512 0.0110207564
1194050000.0 0.3311648406 -0.3578697715
1204000000.0 -0.0304704887 -0.4985098321
1213950000.0 -0.37328184 -0.3637433468
1223900000.0 -0.5417631567 -0.0556983944
1233850000.0 -0.4882399988 0.2811909669
1243800000.0 -0.2416241716 0.5182671368
1253750000.0 0.1060238572 0.560673333
1263700000.0 0.4183487704 0.3776663307
1273650000.0 0.5582439429 0.03557231
1283600000.0 0.4674322674 -0.3216484479
1293550000.0 0.1948867239 -0.5546265352
1303500000.0 -0.1471811224 -0.5974314957
1313450000.0 -0.4498682269 -0.4559477957
1323400000.0 -0.6322134089 -0.1801676
1333350000.0 -0.6427460016 0.1549536706
1343300000.0 -0.4659388527 0.454331245
1353250000.0 -0.1386542771 0.6114503755
1363200000.0 0.2319161731 0.5534489509
1373150000.0 0.5075378568 0.2951189206
1383100000.0 0.5921207349 -0.0649008278
1393050000.0 0.4754903398 -0.3988705995
1403000000.0 0.2144429895 -0.6118038952
1412950000.0 -0.1069772389 -0.6561196145
1422900000.0 -0.3993036706 -0.5286379679
1432850000.0 -0.5814002433 -0.2630774386
1442800000.0 -0.5936541081 0.0669288886
1452750000.0 -0.4205714334 0.358798867
1462700000.0 -0.1102215383 0.5119741348
1472650000.0 0.232548741 0.4687266814
1482600000.0 0.4856764705 0.2500380097
1492550000.0 0.5731515237 -0.0569359895
1502500000.0 0.4821695688 -0.3478882068
1512450000.0 0.2526216963 -0.5339303545
1522400000.0 -0.0397712632 -0.5585129306
1532350000.0 -0.2972217571 -0.4088582552
1542300000.0 -0.4236598948 -0.1310773514
1552250000.0 -0.361731416 0.1725441489
1562200000.0 -0.1338736809 0.3762431813
1572150000.0 0.1595272574 0.3990135101
1582100000.0 0.3918209094 0.2472963169
1592050000.0 0.478517955 -0.0013349818
1602000000.0 0.3979227071 -0.245555914
1611950000.0 0.1828118872 -0.3939815672
1621900000.0 -0.0884773555 -0.3808958498
1631850000.0 -0.3040496171 -0.1973373493
1641800000.0 -0.3603194588 0.0871003774
1651750000.0 -0.2270900831 0.3431225574
1661700000.0 0.0291702151 0.4544848698
1671650000.0 0.2762113293 0.3920594254
1681600000.0 0.4687081384 0.2205224234
1691550000.0 0.5206422924 -0.0650677531
1701500000.0 0.3892986599 -0.3314039012
1711450000.0 0.1212150674 -0.4813424987
1721400000.0 -0.198601121 -0.4495793079
1731350000.0 -0.4493504585 -0.2320986042
1741300000.0 -0.5265482155 0.0939773434
1751250000.0 -0.4031155907 0.398656402
1761200000.0 -0.138902842 0.5742969503
1771150000.0 0.1680293573 0.5794829785
1781100000.0 0.4275558176 0.4277717057
1791050000.0 0.5744996472 0.164341119
1801000000.0 0.5651445094 -0.1451312479
1810950000.0 0.3879277258 -0.4132079956
1820900000.0 0.0829076122 -0.5447778087
1830850000.0 -0.2473437505 -0.480852089
1840800000.0 -0.4812926067 -0.2461783421
1850750000.0 -0.5452608972 0.0647597387
1860700000.0 -0.4424413334 0.3445515955
1870650000.0 -0.2260280168 0.5215128437
1880600000.0 0.0359446288 0.5640006575
1890550000.0 0.2761563025 0.4717847841
1900500000.0 0.4334561277 0.269142141
1910450000.0 0.4590776597 0.011284047
1920400000.0 0.338500515 -0.2170400026
1930350000.0 0.1171521993 -0.3343286672
1940300000.0 -0.1142664061 -0.3110818406
1950250000.0 -0.2759870838 -0.1813280714
1960200000.0 -0.3341600308 -0.014307519
1970150000.0 -0.3003326837 0.1273243031
1980100000.0 -0.2136102635 0.2041887711
1990050000.0 -0.1286308337 0.2065945791
2000000000.0 -0.0920143972 0.1632431054
