!Created with skrf (http://scikit-rf.org).
# GHz S RI R 50.0 
!freq ReS11 ImS11
10000000.0 -0.7693814617 0.6759295031
19950000.0 -0.1395065834 0.9887844483
29900000.0 0.5354994797 0.8193661846
39850000.0 0.9426000178 0.24940412
49800000.0 0.8756082239 -0.4596781852
59750000.0 0.336860408 -0.9547388962
69700000.0 -0.4166725371 -0.9412092131
79650000.0 -0.9518523195 -0.3814225967
89600000.0 -0.913835191 0.4087313029
99550000.0 -0.2950021653 0.9258607787
109500000.0 0.5225993687 0.8036186488
119450000.0 0.9698854396 0.0734165131
129400000.0 0.6423549447 -0.7570992794
139350000.0 -0.2297270991 -0.9882206154
149300000.0 -0.9180515063 -0.3846282858
159250000.0 -0.8185990076 0.5028273128
169200000.0 -0.0775338297 0.9388613583
179150000.0 0.699399547 0.6459142278
189100000.0 0.9723496677 -0.1133088844
199050000.0 0.5948034163 -0.8025050215
209000000.0 -0.1486808416 -0.984323813
218950000.0 -0.7729997468 -0.587514073
228900000.0 -0.9353249565 0.1128208807
238850000.0 -0.5782248656 0.7218380254
248800000.0 0.0156767076 0.7100344356
258750000.0 0.6823075452 0.6544313633
268700000.0 0.9638098503 0.0242281067
278650000.0 0.7386593074 -0.621567134
288600000.0 0.1372805006 -0.9327606195
298550000.0 -0.5040658367 -0.7489463082
308500000.0 -0.8394473727 -0.1828080158
318450000.0 -0.6909770769 0.4492666881
328400000.0 -0.1481733203 0.7872824074
338350000.0 0.4552422657 0.6310339101
348300000.0 0.7285793285 0.1024754061
358250000.0 0.5201301564 -0.4088271749
368200000.0 0.0451005327 -0.5587473459
378150000.0 -0.3204765215 -0.3192990734
388100000.0 -0.3565518414 0.0533205674
398050000.0 -0.1296494343 0.2698396142
408000000.0 0.1245951887 0.2276953584
417950000.0 0.219275403 0.0398407377
427900000.0 0.1387566132 -0.1147855307
437850000.0 -0.0066621844 -0.1370816626
447800000.0 -0.0975108297 -0.049447747
457750000.0 -0.085795169 0.0589317458
467700000.0 -0.0060768348 0.1079664481
477650000.0 0.0682268582 0.0795206978
487600000.0 0.0839750815 0.0151715122
497550000.0 0.0631875655 0.0318671443
507500000.0 0.0205248466 -0.0539240676
517450000.0 -0.0136752674 -0.0207615102
527400000.0 -0.0055086752 0.0083287632
537350000.0 0.0194660373 0.0059810542
547300000.0 0.0260561264 -0.0280888917
557250000.0 -0.0114625351 -0.0586583269
567200000.0 -0.0702142035 -0.0475422131
577150000.0 -0.10859718 0.0125689871
587100000.0 -0.0895905003 0.0929770715
597050000.0 -0.009784407 0.1423795359
607000000.0 0.0933420525 0.1202139601
616950000.0 0.1603072234 0.0254516252
626900000.0 0.1467238011 -0.0976078717
636850000.0 0.0511452854 -0.1849082261
646800000.0 -0.0811424018 -0.1866483607
656750000.0 -0.1808369535 -0.0979261916
666700000.0 -0.1913412134 0.0353289689
676650000.0 -0.1032968004 0.1370170777
686600000.0 0.034955196 0.1386885805
696550000.0 0.0853545949 0.0203530794
706500000.0 0.1034260951 -0.0093972965
716450000.0 0.0738135179 -0.1069890318
726400000.0 -0.0210446866 -0.1347337529
736350000.0 -0.0936117966 -0.0779214974
746300000.0 -0.0878831527 0.0118995998
756250000.0 -0.0065124545 0.0598844024
766200000.0 0.0884814171 0.018407423
776150000.0 0.1180659903 -0.0937671443
786100000.0 0.0428204255 -0.2003859564
796050000.0 -0.1038111589 -0.2151973643
806000000.0 -0.2271186658 -0.1063041903
815950000.0 -0.2368362874 0.0813267415
825900000.0 -0.0959316401 0.238318262
835850000.0 0.1352590471 0.2549528751
845800000.0 0.3296017664 0.0982387329
855750000.0 0.3683715746 -0.1633699924
865700000.0 0.2134912392 -0.3929105458
875650000.0 -0.0679039643 -0.46039004
885600000.0 -0.3314803746 -0.3131912651
895550000.0 -0.4290719371 -0.0141367459
905500000.0 -0.2910773345 0.2823710389
915450000.0 0.0222977824 0.4058925583
925400000.0 0.3385819024 0.2730570892
935350000.0 0.4704274721 -0.0480804428
945300000.0 0.3302497219 -0.3688248672
955250000.0 -0.0061590797 -0.4861827821
965200000.0 -0.3274263923 -0.3066612841
975150000.0 -0.398429481 0.0748177696
985100000.0 -0.1178636497 0.3840521061
995050000.0 0.3316511037 0.3256500127
1005000000.0 0.5451780704 -0.1208867898
1014950000.0 0.260050587 -0.5807106805
1024900000.0 -0.3328273292 -0.5978053864
1034850000.0 -0.7182318083 -0.0700922839
1044800000.0 -0.4791938147 0.6068037324
1054750000.0 0.2660804849 0.7959365483
1064700000.0 0.8294116844 0.269696919
1074650000.0 0.7785779185 -0.4369450602
1084600000.0 0.2019219698 -0.8504846784
1094550000.0 -0.4512714765 -0.7124361
1104500000.0 -0.7937833335 -0.1278713665
1114450000.0 -0.568109773 0.5125862256
1124400000.0 0.0665834552 0.7277776196
1134350000.0 0.5915793022 0.3676157582
1144300000.0 0.6193015247 -0.2139759635
1154250000.0 0.2274080379 -0.5653391315
1164200000.0 -0.2493972685 -0.5052162194
1174150000.0 -0.5105804839 -0.1372911089
1184100000.0 -0.4133074533 0.3016408073
1194050000.0 -0.010067873 0.506463425
1204000000.0 0.3967505462 0.3276625012
1213950000.0 0.5249336585 -0.0805879063
1223900000.0 0.3301558217 -0.4423336589
1233850000.0 -0.0468998299 -0.5712759307
1243800000.0 -0.4131862338 -0.4202437855
1253750000.0 -0.5957275649 -0.0608854185
1263700000.0 -0.4929902635 0.3416659295
1273650000.0 -0.1370905342 0.5780621066
1283600000.0 0.2899768264 0.5138967932
1293550000.0 0.5660732099 0.1879420239
1303500000.0 0.5720501037 -0.2281647675
1313450000.0 0.329577272 -0.552245746
1323400000.0 -0.0520986973 -0.6678699258
1333350000.0 -0.4299648275 -0.5372326796
1343300000.0 -0.6618947847 -0.1995360651
1353250000.0 -0.6388156582 0.2232843365
1363200000.0 -0.3462293206 0.5479167444
1373150000.0 0.0924535343 0.6125895803
1383100000.0 0.4689845267 0.3865956815
1393050000.0 0.6202149003 -0.0117592221
1403000000.0 0.5066412928 -0.4055667964
1412950000.0 0.1944080701 -0.6496504826
1422900000.0 -0.194775283 -0.6671446116
1432850000.0 -0.5189246014 -0.4553945696
1442800000.0 -0.6549740026 -0.0897548027
1452750000.0 -0.5397901265 0.2890838423
1462700000.0 -0.2108480353 0.5196121045
1472650000.0 0.1924818588 0.493906108
1482600000.0 0.4865547154 0.2222294475
1492550000.0 0.5431554052 -0.1633001057
1502500000.0 0.3543715069 -0.4880604928
1512450000.0 0.0172882028 -0.6231582926
1522400000.0 -0.3239922451 -0.5247179228
1532350000.0 -0.52824337 -0.2372375875
1542300000.0 -0.5037356833 0.115657224
1552250000.0 -0.2550431138 0.3692617058
1562200000.0 0.0975038957 0.3943986614
1572150000.0 0.369273936 0.180635986
1582100000.0 0.4232834219 -0.1499752796
1592050000.0 0.2465326246 -0.4197601284
1602000000.0 -0.0561815817 -0.499298388
1611950000.0 -0.3318713014 -0.3567386977
1621900000.0 -0.4438022377 -0.0654478452
1631850000.0 -0.3294071702 0.2322946964
1641800000.0 -0.0359082419 0.3775179304
1651750000.0 0.2848667866 0.2785097196
1661700000.0 0.4491155514 -0.0187595156
1671650000.0 0.3634991331 -0.3482708729
1681600000.0 0.0795985938 -0.5332822077
1691550000.0 -0.2563971345 -0.4872010886
1701500000.0 -0.4898938739 -0.2356871068
1711450000.0 -0.5161241853 0.1143951495
1721400000.0 -0.3090195216 0.4149083288
1731350000.0 0.0561984209 0.5186858829
1741300000.0 0.4116948015 0.3559229841
1751250000.0 0.5752692212 -0.0045060236
1761200000.0 0.467328329 -0.3812809348
1771150000.0 0.1538147195 -0.6008727766
1781100000.0 -0.218718151 -0.5863345612
1791050000.0 -0.5075906722 -0.3603567505
1801000000.0 -0.6113655906 -0.0060947529
1810950000.0 -0.476711771 0.3481419802
1820900000.0 -0.1385075728 0.5055766804
1830850000.0 0.1240360931 0.5169563898
1840800000.0 0.4685794723 0.3128637396
1850750000.0 0.5629698041 -0.0781133428
1860700000.0 0.3913568252 -0.4200414823
1870650000.0 0.0677134621 -0.5781894516
1880600000.0 -0.2674608942 -0.5242411851
1890550000.0 -0.5043211473 -0.3025717986
1900500000.0 -0.5747052386 0.006105459
1910450000.0 -0.4579377422 0.2966375983
1920400000.0 -0.1907978319 0.4604891408
1930350000.0 0.1154231952 0.4233393675
1940300000.0 0.3203624539 0.2089573307
1950250000.0 0.3416943108 -0.0663238105
1960200000.0 0.2035320221 -0.2727823995
1970150000.0 -0.0023853702 -0.3444708117
1980100000.0 -0.1801879725 -0.2892339436
1990050000.0 -0.2694200817 -0.1666716366
2000000000.0 -0.2652315436 -0.0525978687
