!Created with skrf (http://scikit-rf.org).
# GHz S RI R 50.0 
!freq ReS11 ImS11
10000000.0 -0.8096394182 0.6090284895
19950000.0 -0.2903872136 0.9516760634
29900000.0 0.3279088578 0.9268499961
39850000.0 0.8198146062 0.5416201657
49800000.0 0.9900475673 -0.0722260783
59750000.0 0.7450023709 -0.6787378373
69700000.0 0.155961171 -1.004340264
79650000.0 -0.5217701723 -0.8649768482
89600000.0 -0.9465298412 -0.2951191751
99550000.0 -0.8707242449 0.4326807911
109500000.0 -0.2907794687 0.921099019
119450000.0 0.4964675933 0.8420408599
129400000.0 0.9735088442 0.1901284403
139350000.0 0.7725482544 -0.6348829918
149300000.0 0.011614431 -0.981651307
159250000.0 -0.7207348315 -0.6301017735
169200000.0 -0.939160659 0.1193616618
179150000.0 -0.5652344235 0.7696378675
189100000.0 0.1316558584 0.9627675008
199050000.0 0.7480129548 0.6352707939
209000000.0 0.9746653645 -0.0013143979
218950000.0 0.7393475707 -0.6059339099
228900000.0 0.1892031979 -0.9173986909
238850000.0 -0.4276726641 -0.821659555
248800000.0 -0.7796186165 -0.4505167777
258750000.0 -0.920407089 0.1945229347
268700000.0 -0.616938606 0.7224109501
278650000.0 -0.0554804805 0.9438457664
288600000.0 0.5163248279 0.7663818829
298550000.0 0.8479143854 0.2759809751
308500000.0 0.7999123493 -0.308910178
318450000.0 0.3959283576 -0.7271410295
328400000.0 -0.1761925542 -0.7825876398
338350000.0 -0.6266318555 -0.4476075975
348300000.0 -0.713778893 0.0817782791
358250000.0 -0.4197703772 0.4845939542
368200000.0 0.0278916461 0.5442036108
378150000.0 0.3366378685 0.2946434718
388100000.0 0.3614790201 -0.0466923743
398050000.0 0.1641955278 -0.2560885228
408000000.0 -0.0727302027 -0.2486736474
417950000.0 -0.1978404229 -0.097311009
427900000.0 -0.1707583113 0.0653612598
437850000.0 -0.0513828332 0.1404944464
447800000.0 0.0664565146 0.1105557083
457750000.0 0.1179471543 0.0199825906
467700000.0 0.0924565631 -0.0654172327
477650000.0 0.0269404443 -0.0970113359
487600000.0 -0.0206122777 -0.0672467748
497550000.0 -0.0714474164 -0.060403509
507500000.0 -0.0513184361 -9.15664e-05
517450000.0 -0.0188953599 0.0125897103
527400000.0 -0.0016995308 -0.0034596464
537350000.0 -0.0138289583 -0.0224968141
547300000.0 -0.0495843675 -0.0188541004
557250000.0 -0.0714274218 0.0220880379
567200000.0 -0.0575429668 0.0768669878
577150000.0 -0.0029433684 0.1148137359
587100000.0 0.0737091309 0.1078449133
597050000.0 0.1361390138 0.0457258466
607000000.0 0.148877522 -0.0498183459
616950000.0 0.0960109311 -0.1402806757
626900000.0 -0.0025641169 -0.1839645914
636850000.0 -0.1123814365 -0.1576982154
646800000.0 -0.1831011592 -0.0721272765
656750000.0 -0.1859149121 0.0395811529
666700000.0 -0.1180399783 0.1282419107
676650000.0 -0.0104376619 0.1538504267
686600000.0 0.0882448323 0.1063769988
696550000.0 0.132634692 0.0116262261
706500000.0 0.1057900512 -0.0836052634
716450000.0 0.0283526508 -0.1305409372
726400000.0 -0.0536763031 -0.1079251665
736350000.0 -0.088394917 -0.0322632935
746300000.0 -0.0529071514 0.047832367
756250000.0 0.0386655566 0.0779642447
766200000.0 0.1319333674 0.0292720328
776150000.0 0.16630194 -0.0808546203
786100000.0 0.1085804762 -0.1946923188
796050000.0 -0.026341928 -0.2423400043
806000000.0 -0.1773397128 -0.1790988154
815950000.0 -0.2618368903 -0.0149293221
825900000.0 -0.2203945292 0.1855973345
835850000.0 -0.0516056665 0.32639628
845800000.0 0.1794426616 0.3329475927
855750000.0 0.3685219481 0.1925010656
865700000.0 0.436157698 -0.0370295265
875650000.0 0.345719743 -0.2717866827
885600000.0 0.1193553841 -0.4102344614
895550000.0 -0.1591854224 -0.3775048413
905500000.0 -0.365974956 -0.171585853
915450000.0 -0.3986963641 0.1247433974
925400000.0 -0.2324241882 0.3754767463
935350000.0 0.059097723 0.4559196719
945300000.0 0.3300036539 0.3167739109
955250000.0 0.4315391911 0.0158362342
965200000.0 0.2771266792 -0.2814030454
975150000.0 -0.0749665657 -0.3756013081
985100000.0 -0.3996995281 -0.1466837335
995050000.0 -0.4197884075 0.2862892982
1005000000.0 -0.0541455795 0.5881505283
1014950000.0 0.4555022896 0.4679245234
1024900000.0 0.6994147524 -0.0589870334
1034850000.0 0.4129982858 -0.6310063928
1044800000.0 -0.2605271864 -0.7651842799
1054750000.0 -0.7572604961 -0.3099919349
1064700000.0 -0.8102732599 0.286702316
1074650000.0 -0.3972344024 0.7762619031
1084600000.0 0.2232991346 0.8167104386
1094550000.0 0.6941907456 0.4184240925
1104500000.0 0.7433364665 -0.1978988827
1114450000.0 0.3302601463 -0.6502999555
1124400000.0 -0.2552829594 -0.6443847419
1134350000.0 -0.6120295317 -0.2391123733
1144300000.0 -0.5677171454 0.249198954
1154250000.0 -0.2198484216 0.5384241945
1164200000.0 0.2035905141 0.5052429393
1174150000.0 0.483094504 0.1973061016
1184100000.0 0.4631562789 -0.2199214284
1194050000.0 0.1599036011 -0.4944898422
1204000000.0 -0.2323853524 -0.4867422309
1213950000.0 -0.510766416 -0.2366045364
1223900000.0 -0.5723327489 0.1167109354
1233850000.0 -0.4128773933 0.4323812611
1243800000.0 -0.0946847593 0.5948715267
1253750000.0 0.2685134738 0.5357916723
1263700000.0 0.5307831765 0.2634419855
1273650000.0 0.5790604643 -0.1161263844
1283600000.0 0.3976303567 -0.4484184876
1293550000.0 0.071772325 -0.6156275902
1303500000.0 -0.2792899128 -0.5812352516
1313450000.0 -0.5527435783 -0.372625159
1323400000.0 -0.6769517996 -0.0535167387
1333350000.0 -0.6123487266 0.2898442961
1343300000.0 -0.3616645173 0.5533717256
1353250000.0 0.0068235026 0.6345304862
1363200000.0 0.3646545899 0.4905223983
1373150000.0 0.579220441 0.1721264316
1383100000.0 0.5833984296 -0.1997324592
1393050000.0 0.3979753207 -0.5020417444
1403000000.0 0.0949020865 -0.656171893
1412950000.0 -0.2352900482 -0.6300644933
1422900000.0 -0.5007887565 -0.4348968119
1432850000.0 -0.6212613197 -0.1231446513
1442800000.0 -0.5509368858 0.2125035833
1452750000.0 -0.3007957515 0.4599437434
1462700000.0 0.0476911237 0.5262745272
1472650000.0 0.3677465327 0.3899171007
1482600000.0 0.5500888254 0.1105451145
1492550000.0 0.5472610051 -0.206955969
1502500000.0 0.3756435713 -0.4584322173
1512450000.0 0.0969037814 -0.5671800618
1522400000.0 -0.1945037027 -0.4951877794
1532350000.0 -0.3922799562 -0.2616699644
1542300000.0 -0.4134497757 0.0489462878
1552250000.0 -0.243798747 0.3078793763
1562200000.0 0.0390486167 0.4080430598
1572150000.0 0.3113895837 0.3187914918
1582100000.0 0.4646406699 0.0916284794
1592050000.0 0.4452375851 -0.1731997064
1602000000.0 0.2666683458 -0.3708452858
1611950000.0 -0.0029429796 -0.4201490504
1621900000.0 -0.2569233542 -0.2905877929
1631850000.0 -0.3824787266 -0.0234954709
1641800000.0 -0.3132947131 0.2656006729
1651750000.0 -0.0935026776 0.4376480154
1661700000.0 0.1832123584 0.4840261224
1671650000.0 0.4438623112 0.3246443005
1681600000.0 0.5556838344 0.0463569309
1691550000.0 0.4894894721 -0.2504814382
1701500000.0 0.2615072326 -0.4676747569
1711450000.0 -0.0618767227 -0.5237420359
1721400000.0 -0.3728285538 -0.3800196939
1731350000.0 -0.5479550112 -0.0779855538
1741300000.0 -0.5161370635 0.2681308272
1751250000.0 -0.2992073203 0.5281301881
1761200000.0 0.0129808197 0.6230751805
1771150000.0 0.319744171 0.542343815
1781100000.0 0.5394965094 0.3191920113
1791050000.0 0.6163969155 0.012644053
1801000000.0 0.5214353523 -0.2991596267
1810950000.0 0.2650086901 -0.5204938188
1820900000.0 -0.0804487951 -0.5640399797
1830850000.0 -0.3908312615 -0.4052564769
1840800000.0 -0.554007534 -0.1093308866
1850750000.0 -0.5322779551 0.2095668742
1860700000.0 -0.3602772053 0.4530557634
1870650000.0 -0.1054610648 0.5701343054
1880600000.0 0.1617497808 0.5456822969
1890550000.0 0.3753270083 0.3923615524
1900500000.0 0.4770959954 0.1492082611
1910450000.0 0.4297535512 -0.1092536525
1920400000.0 0.2490850366 -0.2940446622
1930350000.0 0.0097660945 -0.3414366612
1940300000.0 -0.193553061 -0.2588759433
1950250000.0 -0.3037794673 -0.1044472204
1960200000.0 -0.3106442808 0.050299011
1970150000.0 -0.2485636734 0.1529644525
1980100000.0 -0.170169097 0.1832812684
1990050000.0 -0.1278640935 0.1608306108
2000000000.0 -0.1438891869 0.1424892657
