!Created with skrf (http://scikit-rf.org).
# GHz S RI R 50.0 
!freq ReS11 ImS11
10000000.0 -0.7547806786 0.6800593731
19950000.0 -0.1131862047 0.9864194167
29900000.0 0.568221186 0.7939641376
39850000.0 0.9556487108 0.191300881
49800000.0 0.8357525824 -0.5272392216
59750000.0 0.2445233458 -0.9781066891
69700000.0 -0.5071694553 -0.8847392216
79650000.0 -0.9748406071 -0.2725575232
89600000.0 -0.8519620113 0.5018250233
99550000.0 -0.1830764156 0.9461727881
109500000.0 0.6186719146 0.7277855727
119450000.0 0.9684574089 -0.0647614212
129400000.0 0.513877624 -0.8476175308
139350000.0 -0.3825204203 -0.9252165778
149300000.0 -0.9530269011 -0.2228319707
159250000.0 -0.7113886432 0.6250848558
169200000.0 0.0900636505 0.9282726289
179150000.0 0.8049041997 0.4931508699
189100000.0 0.9133903341 -0.3171662848
199050000.0 0.3783780335 -0.9031646259
209000000.0 -0.3860791399 -0.8892228835
218950000.0 -0.8789692676 -0.3464663589
228900000.0 -0.8472020879 0.3629747405
238850000.0 -0.3399926168 0.8460218948
248800000.0 0.338555008 0.6785489778
258750000.0 0.8444109187 0.4032774358
268700000.0 0.9026066401 -0.2894852642
278650000.0 0.465099037 -0.8186593282
288600000.0 -0.2058215725 -0.8914043767
298550000.0 -0.7303948479 -0.4886900805
308500000.0 -0.8301328993 0.1550309329
318450000.0 -0.4557265814 0.6792260786
328400000.0 0.1748653662 0.7771668561
338350000.0 0.6625042904 0.3894814731
348300000.0 0.6856871916 -0.2061891397
358250000.0 0.2738782621 -0.5746008078
368200000.0 -0.2136447741 -0.4987382424
378150000.0 -0.4293971711 -0.1248966735
388100000.0 -0.2956215374 0.2207841163
398050000.0 -0.0003109692 0.3068929928
408000000.0 0.2024624772 0.1512063903
417950000.0 0.1984169207 -0.0568627578
427900000.0 0.0553081899 -0.1518149162
437850000.0 -0.0836930733 -0.1019302079
447800000.0 -0.120492665 0.0159780733
457750000.0 -0.0544836009 0.1019867086
467700000.0 0.0411732173 0.103510233
477650000.0 0.0870317593 0.0404001986
487600000.0 0.0632745695 -0.0250482183
497550000.0 0.0167909295 -0.0219759789
507500000.0 -0.0157351808 -0.0537463621
517450000.0 -0.026980265 -0.0107326045
527400000.0 -0.0132612932 0.002996434
537350000.0 -0.0057056472 -0.013889581
547300000.0 -0.0211533776 -0.0385422932
557250000.0 -0.064372587 -0.0332067885
567200000.0 -0.0949658833 0.0139529227
577150000.0 -0.0838665213 0.079214788
587100000.0 -0.0189678083 0.1209393331
597050000.0 0.0728283396 0.102822552
607000000.0 0.1358485583 0.0183802008
616950000.0 0.12181176 -0.0950116779
626900000.0 0.0282317558 -0.1752997153
636850000.0 -0.0989100855 -0.1736996774
646800000.0 -0.1902521258 -0.0854834967
656750000.0 -0.1960941574 0.04277911
666700000.0 -0.1137431571 0.1411263336
676650000.0 0.0107432256 0.1548169825
686600000.0 0.1091384393 0.0795316379
696550000.0 0.1301928625 -0.0387877514
706500000.0 0.0665789055 -0.1304130208
716450000.0 -0.0361697705 -0.1454512617
726400000.0 -0.1110886856 -0.083663365
736350000.0 -0.1069987234 0.0066956663
746300000.0 -0.0295651458 0.0553944318
756250000.0 0.0597361662 0.0201999979
766200000.0 0.0847433511 -0.0793351092
776150000.0 0.0120219067 -0.1687834705
786100000.0 -0.1172372326 -0.1693480658
796050000.0 -0.2120322277 -0.057603183
806000000.0 -0.1896833964 0.1108057342
815950000.0 -0.0367870249 0.2251442137
825900000.0 0.1731133609 0.1952860471
835850000.0 0.3148583302 0.0129116237
845800000.0 0.289456885 -0.2326023175
855750000.0 0.0921934507 -0.4023494498
865700000.0 -0.1803246133 -0.3903334085
875650000.0 -0.3801392874 -0.1860210368
885600000.0 -0.3884118525 0.1133858713
895550000.0 -0.1821476345 0.3474644793
905500000.0 0.1394919838 0.3759322606
915450000.0 0.3958036813 0.1672876542
925400000.0 0.4311920702 -0.1649209072
935350000.0 0.2153809533 -0.4254338084
945300000.0 -0.1263178316 -0.4486422852
955250000.0 -0.379435496 -0.2070800232
965200000.0 -0.3630219038 0.1549159192
975150000.0 -0.0564090346 0.3792676902
985100000.0 0.328248493 0.2563155964
995050000.0 0.4469179584 -0.161303751
1005000000.0 0.1309521492 -0.5125785202
1014950000.0 -0.3807494837 -0.426272776
1024900000.0 -0.6109949013 0.1010411392
1034850000.0 -0.261811778 0.6360419379
1044800000.0 0.4335946997 0.6343113442
1054750000.0 0.8294420614 0.0220675994
1064700000.0 0.535986671 -0.6427571658
1074650000.0 -0.0820834552 -0.7989220569
1084600000.0 -0.6622675269 -0.4741100087
1094550000.0 -0.7696279388 0.1784319764
1104500000.0 -0.3451646568 0.7000278204
1114450000.0 0.3287615352 0.6842844623
1124400000.0 0.7061540629 0.1558613963
1134350000.0 0.5225461748 -0.4242076636
1144300000.0 -0.0029467297 -0.6238524501
1154250000.0 -0.4503284698 -0.3620534046
1164200000.0 -0.5224286011 0.1200276378
1174150000.0 -0.2155055022 0.4591850711
1184100000.0 0.2237678604 0.4341584412
1194050000.0 0.4769658768 0.0778793628
1204000000.0 0.3682816109 -0.3259722503
1213950000.0 0.0070347343 -0.5077501812
1223900000.0 -0.369885828 -0.3826777326
1233850000.0 -0.551942268 -0.0361203367
1243800000.0 -0.4414255212 0.345595782
1253750000.0 -0.092834799 0.5542036636
1263700000.0 0.3064621093 0.4681690837
1273650000.0 0.5427994859 0.1332166476
1283600000.0 0.5048458184 -0.2725306065
1293550000.0 0.2249439852 -0.5564680823
1303500000.0 -0.1661162018 -0.6032188338
1313450000.0 -0.5054250425 -0.3996981893
1323400000.0 -0.6519724487 -0.0280140585
1333350000.0 -0.5310218032 0.3594581414
1343300000.0 -0.1828101287 0.5883586074
1353250000.0 0.2377112487 0.5442808611
1363200000.0 0.5328233468 0.2453351015
1373150000.0 0.5739694492 -0.1666925402
1383100000.0 0.3590590193 -0.5106673176
1393050000.0 -0.009748799 -0.6519046333
1403000000.0 -0.3829490749 -0.5434318249
1412950000.0 -0.6150111282 -0.231087785
1422900000.0 -0.6094210649 0.1586251207
1432850000.0 -0.36218095 0.4612130636
1442800000.0 0.0218096407 0.5424872351
1452750000.0 0.3708507898 0.3684818576
1462700000.0 0.5334575687 0.023947844
1472650000.0 0.4466271063 -0.339150496
1482600000.0 0.157970583 -0.5671969423
1492550000.0 -0.2018215472 -0.5670303317
1502500000.0 -0.4770485329 -0.3398810653
1512450000.0 -0.5441556168 0.0120316315
1522400000.0 -0.369255442 0.3246986195
1532350000.0 -0.0343134043 0.4429017524
1542300000.0 0.2919586057 0.3095284251
1552250000.0 0.4419865434 0.0036552194
1562200000.0 0.3517113091 -0.3077912423
1572150000.0 0.087502152 -0.4749298205
1582100000.0 -0.2135894974 -0.4293710928
1592050000.0 -0.406780633 -0.197174803
1602000000.0 -0.3923279218 0.1096721687
1611950000.0 -0.1712778171 0.3283358868
1621900000.0 0.1362630589 0.3385155782
1631850000.0 0.3769144754 0.1294208433
1641800000.0 0.3966939844 -0.1955651015
1651750000.0 0.1878408169 -0.4381998134
1661700000.0 -0.1309744521 -0.4717360993
1671650000.0 -0.3942283364 -0.2819388622
1681600000.0 -0.4699922062 0.0391990708
1691550000.0 -0.3131609972 0.3388803221
1701500000.0 0.0120864983 0.466347295
1711450000.0 0.3474968462 0.3447232045
1721400000.0 0.5197251196 0.024890202
1731350000.0 0.4370589495 -0.3292886675
1741300000.0 0.1462640879 -0.5449913734
1751250000.0 -0.21221429 -0.5299482074
1761200000.0 -0.4854757938 -0.2996214579
1771150000.0 -0.5661012218 0.0508787853
1781100000.0 -0.416798497 0.3838434368
1791050000.0 -0.0884773551 0.5585830666
1801000000.0 0.2846841631 0.4872706405
1810950000.0 0.5288691292 0.191741212
1820900000.0 0.5276916399 -0.1884018341
1830850000.0 0.2928691306 -0.4764994418
1840800000.0 -0.0582574305 -0.5584959028
1850750000.0 -0.3794589659 -0.4204336469
1860700000.0 -0.5541590332 -0.1275880595
1870650000.0 -0.5249973969 0.2083645226
1880600000.0 -0.3029222997 0.4597003657
1890550000.0 0.0251667419 0.5234076356
1900500000.0 0.318586605 0.3701436453
1910450000.0 0.4473680643 0.0739662582
1920400000.0 0.3679707997 -0.2244713024
1930350000.0 0.1382639482 -0.3995949823
1940300000.0 -0.1305015669 -0.4020839425
1950250000.0 -0.3309532323 -0.2588819637
1960200000.0 -0.4016443751 -0.0457229805
1970150000.0 -0.3367532379 0.1469421641
1980100000.0 -0.1848935542 0.2491482875
1990050000.0 -0.0277935872 0.2353913904
2000000000.0 0.0616080478 0.1426797829
