!Created with skrf (http://scikit-rf.org).
# GHz S RI R 50.0 
!freq ReS11 ImS11
10000000.0 -1.000315821 0.1608207258
19950000.0 -0.9461843431 0.3075516398
29900000.0 -0.8702602138 0.4484615952
39850000.0 -0.7719916741 0.5879693919
49800000.0 -0.6528530091 0.721064653
59750000.0 -0.5077112968 0.8410179446
69700000.0 -0.3286759984 0.9361713893
79650000.0 -0.111434252 0.9874225949
89600000.0 0.1429115386 0.9756776055
99550000.0 0.4199380882 0.879648712
109500000.0 0.6934111169 0.6835064511
119450000.0 0.9147405911 0.3741106627
129400000.0 1.011600522 -0.029354619
139350000.0 0.9216686805 -0.4482451414
149300000.0 0.6532416877 -0.7791056577
159250000.0 0.2912085812 -0.952578022
169200000.0 -0.071837591 -0.9790271957
179150000.0 -0.3829273197 -0.9014226737
189100000.0 -0.6236193506 -0.7620362119
199050000.0 -0.7910240289 -0.5899768334
209000000.0 -0.8887865345 -0.4044145154
218950000.0 -0.9350228923 -0.2200853404
228900000.0 -0.9420784876 -0.0443341346
238850000.0 -0.9227707343 0.121828046
248800000.0 -0.8706174875 0.2616851028
258750000.0 -0.8344904477 0.4170931156
268700000.0 -0.7631003268 0.5461933086
278650000.0 -0.6693252213 0.6548519927
288600000.0 -0.5521124778 0.7400030378
298550000.0 -0.4135823664 0.7994612008
308500000.0 -0.2574919363 0.8347206945
318450000.0 -0.0878515852 0.841924589
328400000.0 0.0895772562 0.8148250074
338350000.0 0.2591807602 0.7415179633
348300000.0 0.3994650015 0.6142122616
358250000.0 0.481912538 0.4393350455
368200000.0 0.4897395157 0.2439693308
378150000.0 0.4263096383 0.0659335721
388100000.0 0.3159078964 -0.0653842629
398050000.0 0.1898012433 -0.1358851964
408000000.0 0.0744797185 -0.1487146755
417950000.0 -0.0138817614 -0.1182346045
427900000.0 -0.0727695029 -0.0629393246
437850000.0 -0.1058144197 0.0006827074
447800000.0 -0.1191255504 0.0602593669
457750000.0 -0.1168486915 0.1074380034
467700000.0 -0.1031860068 0.1381990918
477650000.0 -0.0804753217 0.1513918862
487600000.0 -0.0520000125 0.1503863749
497550000.0 -0.0211843008 0.1380836511
507500000.0 0.0098670187 0.1248108631
517450000.0 0.0343402886 0.1055361666
527400000.0 0.0485851931 0.0863541336
537350000.0 0.0492980847 0.0672052442
547300000.0 0.0384991979 0.0489021454
557250000.0 0.0169475765 0.0291194143
567200000.0 -0.0108577128 0.0104158329
577150000.0 -0.0403508606 -0.0045119129
587100000.0 -0.066882702 -0.0130393226
597050000.0 -0.0877161125 -0.0121241081
607000000.0 -0.1029184524 -0.0004639206
616950000.0 -0.1137686561 0.0214999651
626900000.0 -0.121131462 0.051627796
636850000.0 -0.1251609765 0.0850411386
646800000.0 -0.1254668701 0.1171271947
656750000.0 -0.1204363148 0.1440668232
666700000.0 -0.1074613538 0.1634447261
676650000.0 -0.0847817376 0.1744960064
686600000.0 -0.0527176434 0.1786809774
696550000.0 -0.0133724745 0.1774225186
706500000.0 0.0289867413 0.1709399963
716450000.0 0.0702202261 0.1593891399
726400000.0 0.104699984 0.1402019225
736350000.0 0.1285617932 0.1118543188
746300000.0 0.140058276 0.0728236378
756250000.0 0.1406365476 0.022618895
766200000.0 0.1293201611 -0.0349322958
776150000.0 0.1079671871 -0.0945312543
786100000.0 0.0765694427 -0.1496250204
796050000.0 0.035223361 -0.1934421407
806000000.0 -0.0160985963 -0.2201431254
815950000.0 -0.0779285701 -0.226423869
825900000.0 -0.1472899936 -0.2127665941
835850000.0 -0.2196977512 -0.1821102553
845800000.0 -0.2894155887 -0.1382126242
855750000.0 -0.350092288 -0.0835284808
865700000.0 -0.3944012645 -0.0195559036
875650000.0 -0.417202387 0.0529059588
885600000.0 -0.4149012371 0.1332115111
895550000.0 -0.3876417285 0.2194726807
905500000.0 -0.3368039678 0.3086088793
915450000.0 -0.264065019 0.3949873904
925400000.0 -0.1676593624 0.4681286963
935350000.0 -0.0467200147 0.5080042147
945300000.0 0.0819011858 0.4825600774
955250000.0 0.1506597967 0.3908333347
965200000.0 0.1639614764 0.3550135866
975150000.0 0.2560114418 0.3466733439
985100000.0 0.3870630539 0.2718668647
995050000.0 0.5020797094 0.1299040542
1005000000.0 0.5643298389 -0.0676748129
1014950000.0 0.5371941139 -0.2996287206
1024900000.0 0.3925413893 -0.5255341393
1034850000.0 0.1297337508 -0.686243523
1044800000.0 -0.2096687158 -0.7232860368
1054750000.0 -0.5495378059 -0.6010558352
1064700000.0 -0.7911923139 -0.3322585358
1074650000.0 -0.8807896984 -0.00280327
1084600000.0 -0.8003969885 0.3350579744
1094550000.0 -0.5402186065 0.520153665
1104500000.0 -0.4497062958 0.6951409433
1114450000.0 -0.1705681705 0.8216305858
1124400000.0 0.107116284 0.8258822547
1134350000.0 0.3473293742 0.7350511793
1144300000.0 0.5276851005 0.5725652867
1154250000.0 0.6386194371 0.3704307106
1164200000.0 0.6857632447 0.1574989712
1174150000.0 0.6802350736 -0.0419336674
1184100000.0 0.6379550087 -0.2180794898
1194050000.0 0.5599714612 -0.3689521396
1204000000.0 0.4493518066 -0.4834462583
1213950000.0 0.3175724501 -0.5566887356
1223900000.0 0.1783940349 -0.5955966749
1233850000.0 0.0412360344 -0.6090792678
1243800000.0 -0.0863212227 -0.6041668252
1253750000.0 -0.2016232868 -0.5847693747
1263700000.0 -0.3009555749 -0.5507402362
1273650000.0 -0.3844803942 -0.5031825678
1283600000.0 -0.4503411917 -0.44101427
1293550000.0 -0.5012667006 -0.3666748191
1303500000.0 -0.5422897555 -0.2853011851
1313450000.0 -0.5760677611 -0.2020937165
1323400000.0 -0.6052316673 -0.1202384344
1333350000.0 -0.6281533873 -0.0424535526
1343300000.0 -0.6416340258 0.0317182744
1353250000.0 -0.6425854139 0.1009289575
1363200000.0 -0.6284759786 0.1672639306
1373150000.0 -0.5983305599 0.2320332687
1383100000.0 -0.5576859338 0.2955586895
1393050000.0 -0.5110623224 0.3590207163
1403000000.0 -0.462563713 0.4197070524
1412950000.0 -0.4136357289 0.4761755716
1422900000.0 -0.3636551858 0.5254520787
1432850000.0 -0.3104711879 0.5635018647
1442800000.0 -0.2516483197 0.5895423921
1452750000.0 -0.1853956529 0.6030830376
1462700000.0 -0.1118519343 0.6064706399
1472650000.0 -0.0329353012 0.6042105177
1482600000.0 0.0482157554 0.5988959689
1492550000.0 0.1282428534 0.588778784
1502500000.0 0.2046781505 0.5718089896
1512450000.0 0.2746535 0.543495684
1522400000.0 0.3365001639 0.5017754473
1532350000.0 0.3898023689 0.4435098799
1542300000.0 0.4358809746 0.3712200365
1552250000.0 0.4757355396 0.2887079403
1562200000.0 0.5108549278 0.2012008472
1572150000.0 0.5385413231 0.1123043467
1582100000.0 0.5548533913 0.0237375399
1592050000.0 0.5563936295 -0.0629863007
1602000000.0 0.5377672659 -0.1472812782
1611950000.0 0.499347641 -0.2267946211
1621900000.0 0.4436418326 -0.3018779001
1631850000.0 0.3778656373 -0.372888369
1641800000.0 0.3057871871 -0.4385457965
1651750000.0 0.230430207 -0.4961304889
1661700000.0 0.1538271003 -0.5414327104
1671650000.0 0.0766154704 -0.5703591552
1681600000.0 -0.002268937 -0.5796052194
1691550000.0 -0.0821095631 -0.5715201211
1701500000.0 -0.1635013075 -0.5492819642
1711450000.0 -0.2437582728 -0.5193755626
1721400000.0 -0.3214017071 -0.4851244221
1731350000.0 -0.3929041292 -0.4486920395
1741300000.0 -0.4548565524 -0.4084696313
1751250000.0 -0.5043682032 -0.3616411688
1761200000.0 -0.5392343173 -0.3059590888
1771150000.0 -0.5598192933 -0.2397819542
1781100000.0 -0.5684620242 -0.1622219077
1791050000.0 -0.555659267 -0.0701490135
1801000000.0 -0.4424659219 -0.0417391033
1810950000.0 -0.5641662933 -0.0880326125
1820900000.0 -0.6094378872 0.0012365862
1830850000.0 -0.6183254901 0.0687142232
1840800000.0 -0.6106160022 0.1246564656
1850750000.0 -0.5882174653 0.1741192457
1860700000.0 -0.5524349186 0.2191630911
1870650000.0 -0.5095782994 0.2625511771
1880600000.0 -0.4651593251 0.3025005874
1890550000.0 -0.4236872572 0.3395841204
1900500000.0 -0.3866968743 0.3714055708
1910450000.0 -0.353316767 0.3938759889
1920400000.0 -0.3191487513 0.4063091069
1930350000.0 -0.2819407965 0.4070142495
1940300000.0 -0.2405307182 0.3976474751
1950250000.0 -0.1941657467 0.3804309661
1960200000.0 -0.1455978488 0.3596812694
1970150000.0 -0.1006428443 0.3365456941
1980100000.0 -0.0632653731 0.3115511149
1990050000.0 -0.0379409422 0.2830452259
2000000000.0 -0.0260356579 0.246925445
