!Created with skrf (http://scikit-rf.org).
# GHz S RI R 50.0 
!freq ReS11 ImS11
10000000.0 -0.7585841809 0.6784121334
19950000.0 -0.1202619261 0.9864550528
29900000.0 0.5603058273 0.7999602975
39850000.0 0.953097981 0.2028844613
49800000.0 0.8427076753 -0.5163621753
59750000.0 0.2567528987 -0.9759597087
69700000.0 -0.5002313598 -0.8907685069
79650000.0 -0.9762020056 -0.2754420863
89600000.0 -0.8485618542 0.5092948745
99550000.0 -0.1596380681 0.9504989285
109500000.0 0.6520246555 0.6985724284
119450000.0 0.9636607961 -0.1337525519
129400000.0 0.4429118777 -0.8942019124
139350000.0 -0.4895750673 -0.8738548364
149300000.0 -0.9712499578 -0.0938087175
159250000.0 -0.6157010604 0.7162459067
169200000.0 0.2143150434 0.9090759232
179150000.0 0.8617264327 0.3968270778
189100000.0 0.8841455872 -0.4051047732
199050000.0 0.3143878952 -0.9317985396
209000000.0 -0.4306374676 -0.8715025185
218950000.0 -0.8908456676 -0.3219267691
228900000.0 -0.8460536627 0.3713241467
238850000.0 -0.3543708531 0.8435719409
248800000.0 0.3274495396 0.8509774228
258750000.0 0.8375961518 0.4305041292
268700000.0 0.9240289738 -0.2430139974
278650000.0 0.5286405283 -0.7902924887
288600000.0 -0.1258090144 -0.9177914747
298550000.0 -0.6813783148 -0.5719734303
308500000.0 -0.8515896573 0.0505787801
318450000.0 -0.5493382862 0.6141083975
328400000.0 0.0570666728 0.7989300469
338350000.0 0.5944198941 0.487779897
348300000.0 0.7056933374 -0.0943649289
358250000.0 0.3572849307 -0.5125858403
368200000.0 -0.1229461411 -0.5000325343
378150000.0 -0.3652539752 -0.1688291983
388100000.0 -0.2661680976 0.1541532837
398050000.0 -0.0082988192 0.2363150942
408000000.0 0.1570767271 0.0984028891
417950000.0 0.1282567729 -0.0716506313
427900000.0 -0.0111540974 -0.1247537164
437850000.0 -0.1189809213 -0.0429457045
447800000.0 -0.1148255643 0.0846771074
457750000.0 -0.0138758977 0.1574908095
467700000.0 0.1017518976 0.1270498344
477650000.0 0.1538958998 0.0242318322
487600000.0 0.1166049431 -0.0773743189
497550000.0 0.0304469158 -0.1213246653
507500000.0 -0.0568796805 -0.0937295841
517450000.0 -0.0887423507 -0.0295211545
527400000.0 -0.0714304804 0.022154255
537350000.0 -0.037037643 0.0359880117
547300000.0 -0.0209573732 0.023657301
557250000.0 -0.0313247497 0.014631544
567200000.0 -0.0475135957 0.0304990807
577150000.0 -0.036658543 0.0642770536
587100000.0 0.0136219236 0.0845840228
597050000.0 0.0773798131 0.0590723106
607000000.0 0.1115862517 -0.0201171106
616950000.0 0.0819972137 -0.1153404271
626900000.0 -0.0122938673 -0.1704061336
636850000.0 -0.1285737195 -0.1465468484
646800000.0 -0.2023263798 -0.0461233609
656750000.0 -0.187166832 0.0816873846
666700000.0 -0.085644963 0.1679020425
676650000.0 0.0502630006 0.1598760757
686600000.0 0.1463394215 0.0617844254
696550000.0 0.1492298666 -0.0744543268
706500000.0 0.0610953587 -0.1700867588
716450000.0 -0.0649435061 -0.1746211952
726400000.0 -0.1489807518 -0.092187586
736350000.0 -0.1390008213 0.0207965338
746300000.0 -0.0469334713 0.084113146
756250000.0 0.059842566 0.0515248886
766200000.0 0.1002579883 -0.0552002863
776150000.0 0.0369231682 -0.1588283901
786100000.0 -0.0917983992 -0.1728794686
796050000.0 -0.1942484614 -0.0728054672
806000000.0 -0.1817205758 0.0899670764
815950000.0 -0.0394066714 0.2020897536
825900000.0 0.1621739392 0.173513525
835850000.0 0.2922054467 -0.0021592032
845800000.0 0.2576409894 -0.2354465699
855750000.0 0.0567275262 -0.3839756483
865700000.0 -0.2050330891 -0.3464494453
875650000.0 -0.3732393143 -0.1257118739
885600000.0 -0.3355528782 0.1654797562
895550000.0 -0.0946857425 0.3563596292
905500000.0 0.2229637653 0.3177016445
915450000.0 0.4222079413 0.0553050813
925400000.0 0.3654752416 -0.2782865822
935350000.0 0.0742593525 -0.4636050107
945300000.0 -0.2706088912 -0.3621477334
955250000.0 -0.4194881216 -0.0158113727
965200000.0 -0.2245336529 0.3404357034
975150000.0 0.2174910721 0.387454662
985100000.0 0.5238957193 0.0065154504
995050000.0 0.3353057538 -0.5002847589
1005000000.0 -0.2471682 -0.6089643625
1014950000.0 -0.6824798161 -0.1343766306
1024900000.0 -0.5129996033 0.5355009287
1034850000.0 0.1755334727 0.7781917386
1044800000.0 0.7745636979 0.3388187568
1054750000.0 0.7701536602 -0.3904428972
1064700000.0 0.2124178808 -0.8207486352
1074650000.0 -0.4310117814 -0.6626956417
1084600000.0 -0.7574824491 -0.1732984031
1094550000.0 -0.618086453 0.4615942841
1104500000.0 -0.0441732629 0.7547683995
1114450000.0 0.5405406489 0.5096897108
1124400000.0 0.7128458096 -0.0800050164
1134350000.0 0.3882189794 -0.5589269121
1144300000.0 -0.1484357606 -0.6279744776
1154250000.0 -0.5407749878 -0.2952041555
1164200000.0 -0.5577504591 0.2002846758
1174150000.0 -0.206356433 0.5353705849
1184100000.0 0.2653191933 0.4893483938
1194050000.0 0.5323516127 0.1135235598
1204000000.0 0.4392322079 -0.3197215405
1213950000.0 0.0764297803 -0.547360999
1223900000.0 -0.3302456539 -0.4632524451
1233850000.0 -0.5696202548 -0.1292774745
1243800000.0 -0.5194148834 0.2807072932
1253750000.0 -0.2024762102 0.5516538619
1263700000.0 0.2175563986 0.5344723247
1273650000.0 0.5169978747 0.2407074314
1283600000.0 0.5506704369 -0.1716444608
1293550000.0 0.3176786148 -0.5043935967
1303500000.0 -0.0650351418 -0.6177608217
1313450000.0 -0.4350270166 -0.4725166603
1323400000.0 -0.6386274718 -0.1267539509
1333350000.0 -0.5795695823 0.2759825491
1343300000.0 -0.2723117879 0.5551468947
1353250000.0 0.1474949829 0.5728233737
1363200000.0 0.4807576644 0.3183148236
1373150000.0 0.5787029294 -0.0819939927
1383100000.0 0.411543755 -0.4483895267
1393050000.0 0.0633055467 -0.6331070025
1403000000.0 -0.3188831265 -0.5692035532
1412950000.0 -0.5828397466 -0.2864020777
1422900000.0 -0.614434735 0.1013719563
1432850000.0 -0.3942545905 0.424810956
1442800000.0 -0.0170423465 0.5367072621
1452750000.0 0.3427395079 0.3824400181
1462700000.0 0.5189718644 0.0422832455
1472650000.0 0.4411616215 -0.3218695956
1482600000.0 0.1597179956 -0.5476449471
1492550000.0 -0.1931490214 -0.5435518962
1502500000.0 -0.4556596298 -0.3180163843
1512450000.0 -0.5087049074 0.0219527737
1522400000.0 -0.3239744378 0.311999696
1532350000.0 0.0042629863 0.4044371243
1542300000.0 0.3046016486 0.253331519
1552250000.0 0.4182084313 -0.053553867
1562200000.0 0.2969693233 -0.3465282145
1572150000.0 0.0163346843 -0.4749912645
1582100000.0 -0.2722060608 -0.379129495
1592050000.0 -0.4188621839 -0.1125110485
1602000000.0 -0.3445748707 0.1875139573
1611950000.0 -0.0806335381 0.3589739292
1621900000.0 0.2353607156 0.3003530803
1631850000.0 0.4242190219 0.0345847166
1641800000.0 0.3768670151 -0.2897653581
1651750000.0 0.1200044212 -0.4951519848
1661700000.0 -0.210935544 -0.4757921607
1671650000.0 -0.4532458269 -0.2425139976
1681600000.0 -0.4900379152 0.1002002778
1691550000.0 -0.2943861444 0.3962074128
1701500000.0 0.057954896 0.4998347538
1711450000.0 0.4009453638 0.3444251453
1721400000.0 0.5595862137 -0.003201908
1731350000.0 0.4539513757 -0.3698659444
1741300000.0 0.1407913354 -0.5828823138
1751250000.0 -0.2328904134 -0.5560840829
1761200000.0 -0.5121890071 -0.3117941079
1771150000.0 -0.5926745315 0.0531067571
1781100000.0 -0.4347082023 0.398315238
1791050000.0 -0.0900247829 0.5751522015
1801000000.0 0.2735030863 0.4714822761
1810950000.0 0.5061698047 0.2500488776
1820900000.0 0.561913885 -0.1405467719
1830850000.0 0.3482133024 -0.4626378239
1840800000.0 -0.0055816227 -0.5797815225
1850750000.0 -0.3471569427 -0.4661201091
1860700000.0 -0.5524025684 -0.1833889182
1870650000.0 -0.5542794652 0.1605042747
1880600000.0 -0.3533479238 0.434859924
1890550000.0 -0.029184029 0.5295864926
1900500000.0 0.2776022376 0.4038370238
1910450000.0 0.4320123851 0.1233321663
1920400000.0 0.3801785718 -0.1748304399
1930350000.0 0.1732695683 -0.3641401962
1940300000.0 -0.0825145395 -0.3899309651
1950250000.0 -0.2804331363 -0.2729305248
1960200000.0 -0.3588544519 -0.0838937402
1970150000.0 -0.3121072807 0.0885764253
1980100000.0 -0.1916677686 0.1710976708
1990050000.0 -0.0871133583 0.1549190923
2000000000.0 -0.0548385854 0.0982062112
