!Created with skrf (http://scikit-rf.org).
# GHz S RI R 50.0 
!freq ReS11 ImS11
10000000.0 -0.7423126585 0.6695780393
19950000.0 -0.1139072921 0.9797416635
29900000.0 0.5637835929 0.8006113328
39850000.0 0.9578353665 0.208068005
49800000.0 0.8475678974 -0.5077656156
59750000.0 0.2647847688 -0.9616761288
69700000.0 -0.4827630187 -0.8769821295
79650000.0 -0.9554973972 -0.2735186688
89600000.0 -0.8398178783 0.5024760094
99550000.0 -0.1651939146 0.9505142678
109500000.0 0.6448434745 0.7121832101
119450000.0 0.9630346295 -0.1116778456
129400000.0 0.4534193801 -0.8697806027
139350000.0 -0.4693238421 -0.8597754182
149300000.0 -0.9582967819 -0.0943750398
159250000.0 -0.6160804648 0.7166932898
169200000.0 0.211061287 0.9150510039
179150000.0 0.8563567103 0.4024581935
189100000.0 0.8722504614 -0.3953193848
199050000.0 0.3028997428 -0.9130195365
209000000.0 -0.4350793316 -0.8491400984
218950000.0 -0.8899909863 -0.3011878052
228900000.0 -0.8411355975 0.3884027747
238850000.0 -0.3458111803 0.8531365057
248800000.0 0.3323929621 0.8399466241
258750000.0 0.8291642728 0.4243284799
268700000.0 0.9044355529 -0.2428552333
278650000.0 0.5083926916 -0.7799047912
288600000.0 -0.1392076649 -0.9027954157
298550000.0 -0.6906928809 -0.5573597549
308500000.0 -0.8567085294 0.0634625588
318450000.0 -0.5506487842 0.6207022298
328400000.0 0.0517441668 0.7971982861
338350000.0 0.5806674498 0.4872590087
348300000.0 0.6933428879 -0.0862004899
358250000.0 0.3552427374 -0.5051326727
368200000.0 -0.121904725 -0.5037416675
378150000.0 -0.3706321252 -0.1809033871
388100000.0 -0.2796056283 0.1412416885
398050000.0 -0.0272669528 0.2285169173
408000000.0 0.1382602898 0.0987251544
417950000.0 0.1142293627 -0.0665308751
427900000.0 -0.0182548396 -0.1187093159
437850000.0 -0.118626666 -0.0396626703
447800000.0 -0.1099022653 0.0822099052
457750000.0 -0.0078120266 0.1480701926
467700000.0 0.1048868257 0.1121333008
477650000.0 0.1512718768 0.0072371765
487600000.0 0.1092391634 -0.0929411854
497550000.0 0.0223796829 -0.1306981048
507500000.0 -0.0644417991 -0.1003230661
517450000.0 -0.093131637 -0.0322547777
527400000.0 -0.0710203304 0.020929377
537350000.0 -0.032254942 0.0339467821
547300000.0 -0.0125835304 0.0190179731
557250000.0 -0.0209506182 0.0073263258
567200000.0 -0.0368261203 0.0219636406
577150000.0 -0.0267037123 0.0551079223
587100000.0 0.0233038029 0.0753868214
597050000.0 0.0865562751 0.0497204434
607000000.0 0.1204686817 -0.0299463721
616950000.0 0.0892054761 -0.1243887759
626900000.0 -0.0071728121 -0.1773153267
636850000.0 -0.1242171081 -0.1496928894
646800000.0 -0.1969306819 -0.0446083199
656750000.0 -0.1782403056 0.0878603157
666700000.0 -0.0715789465 0.1759092673
676650000.0 0.07000491 0.1669611045
686600000.0 0.169994351 0.0650168728
696550000.0 0.1731533869 -0.0773925982
706500000.0 0.0811131413 -0.1784592968
716450000.0 -0.0524296304 -0.1847194784
726400000.0 -0.1428534435 -0.0981116909
736350000.0 -0.1338213674 0.0175045619
746300000.0 -0.0551443203 0.083722633
756250000.0 0.0500424034 0.0697886341
766200000.0 0.1026893869 -0.0234394837
776150000.0 0.0577446023 -0.1243660896
786100000.0 -0.056437422 -0.1494362568
796050000.0 -0.1551357681 -0.0677407132
806000000.0 -0.1521865088 0.0785049679
815950000.0 -0.0271473702 0.1819041134
825900000.0 0.1553454907 0.1577162412
835850000.0 0.2715214065 -0.005136525
845800000.0 0.2350028181 -0.2195101917
855750000.0 0.0421686656 -0.3522753048
865700000.0 -0.2032796777 -0.310164073
875650000.0 -0.3570212965 -0.0916649937
885600000.0 -0.3090896663 0.187896098
895550000.0 -0.0674674565 0.3606854934
905500000.0 0.2394898067 0.307901741
915450000.0 0.4212552576 0.0425645738
925400000.0 0.3537449187 -0.282119951
935350000.0 0.0628479308 -0.4592609499
945300000.0 -0.278417895 -0.360278394
955250000.0 -0.4328852347 -0.0200728822
965200000.0 -0.2548883129 0.3377656728
975150000.0 0.1714243094 0.4131174043
985100000.0 0.4988976923 0.0781527053
995050000.0 0.3859862082 -0.4223463256
1005000000.0 -0.14393563 -0.6138917328
1014950000.0 -0.6338139371 -0.235190122
1024900000.0 -0.5737363933 0.4381284294
1034850000.0 0.0717933969 0.7727515611
1044800000.0 0.7214171316 0.4032076896
1054750000.0 0.7848302502 -0.33615889
1064700000.0 0.2493647792 -0.8123167616
1074650000.0 -0.4232566099 -0.6986973954
1084600000.0 -0.7783120553 -0.1826583756
1094550000.0 -0.62805843 0.469974839
1104500000.0 -0.0310896323 0.7590238036
1114450000.0 0.5510754135 0.4890650942
1124400000.0 0.7061602504 -0.1000879397
1134350000.0 0.3824036317 -0.5705167292
1144300000.0 -0.1502670078 -0.6405418615
1154250000.0 -0.5437639358 -0.3107872003
1164200000.0 -0.5633733244 0.18517789
1174150000.0 -0.2139477775 0.5229002719
1184100000.0 0.2575675584 0.4813813736
1194050000.0 0.5288688337 0.1118079391
1204000000.0 0.445230636 -0.3186821679
1213950000.0 0.0902513479 -0.5516883329
1223900000.0 -0.3145259004 -0.4733387129
1233850000.0 -0.5534416651 -0.1431407643
1243800000.0 -0.5010764722 0.2637507132
1253750000.0 -0.1852175058 0.5272303774
1263700000.0 0.2284428695 0.5048421229
1273650000.0 0.5168630793 0.2109863113
1283600000.0 0.5414628661 -0.1926983752
1293550000.0 0.3058409047 -0.5123816818
1303500000.0 -0.0725721268 -0.6112835353
1313450000.0 -0.430032077 -0.4551327972
1323400000.0 -0.6149237126 -0.1066407221
1333350000.0 -0.5375237118 0.2865431696
1343300000.0 -0.22163723 0.5451617534
1353250000.0 0.1911823094 0.5396657028
1363200000.0 0.5022999736 0.2717868252
1373150000.0 0.572776884 -0.1253604758
1383100000.0 0.38596809 -0.4705312728
1393050000.0 0.0339029593 -0.6265015216
1403000000.0 -0.3345874755 -0.5365222532
1412950000.0 -0.5718230189 -0.2412287461
1422900000.0 -0.5762076119 0.1412140456
1432850000.0 -0.3347693815 0.4444019809
1442800000.0 0.04634961 0.5241554457
1452750000.0 0.3875351485 0.340974281
1462700000.0 0.528231438 -0.0103166784
1472650000.0 0.4159931258 -0.3601497256
1482600000.0 0.1178674295 -0.5538242041
1492550000.0 -0.2285381179 -0.5160798458
1502500000.0 -0.4689377598 -0.2694391119
1512450000.0 -0.493120444 0.0746176873
1522400000.0 -0.2824659556 0.3504222001
1532350000.0 0.0574945419 0.4128079
1542300000.0 0.3456231725 0.2318266772
1552250000.0 0.4313032505 -0.0884844483
1562200000.0 0.2831056801 -0.3725364174
1572150000.0 -0.0089651783 -0.4816901545
1582100000.0 -0.2951823293 -0.3694228295
1592050000.0 -0.4342606279 -0.094843593
1602000000.0 -0.3514159126 0.2096447904
1611950000.0 -0.0768623311 0.378611369
1621900000.0 0.2450302928 0.3101585683
1631850000.0 0.4297333031 0.0347787136
1641800000.0 0.3757487259 -0.2916353125
1651750000.0 0.1168764804 -0.4958376097
1661700000.0 -0.2136788221 -0.4788149739
1671650000.0 -0.459711991 -0.2489916264
1681600000.0 -0.5016609856 0.095314032
1691550000.0 -0.3047613297 0.3952600746
1701500000.0 0.0512719494 0.4969399874
1711450000.0 0.3923460534 0.334931625
1721400000.0 0.5446044554 -0.0132912085
1731350000.0 0.4363083841 -0.3731823144
1741300000.0 0.1294862992 -0.5810778737
1751250000.0 -0.2367116676 -0.557222783
1761200000.0 -0.514121148 -0.3197480385
1771150000.0 -0.5968570516 0.0401761519
1781100000.0 -0.4431494001 0.3832377851
1791050000.0 -0.1037026529 0.5634184187
1801000000.0 0.2796353248 0.4908352366
1810950000.0 0.5304196401 0.1931933795
1820900000.0 0.5370641155 -0.1899089054
1830850000.0 0.3120896989 -0.4887766829
1840800000.0 -0.0362100065 -0.5878850198
1850750000.0 -0.3671951817 -0.4648811709
1860700000.0 -0.5594796346 -0.177834063
1870650000.0 -0.5468026532 0.1652447841
1880600000.0 -0.3321096333 0.4316038712
1890550000.0 -0.0007436239 0.510084155
1900500000.0 0.3010735653 0.366963763
1910450000.0 0.4412865718 0.0756542807
1920400000.0 0.3737183688 -0.2219134261
1930350000.0 0.1549690054 -0.4028238769
1940300000.0 -0.1060837367 -0.4155219377
1950250000.0 -0.3040392221 -0.2813896049
1960200000.0 -0.3757896158 -0.0770013041
1970150000.0 -0.3132463537 0.1061557076
1980100000.0 -0.170857704 0.190589026
1990050000.0 -0.0418268455 0.1640812309
2000000000.0 0.0044177692 0.0817192947
