!Created with skrf (http://scikit-rf.org).
# GHz S RI R 50.0 
!freq ReS11 ImS11
10000000.0 -0.9663997012 0.0665630338
19950000.0 -0.957449595 0.1298908933
29900000.0 -0.9431290488 0.1971654426
39850000.0 -0.9215016475 0.2696069083
49800000.0 -0.889433067 0.3494439403
59750000.0 -0.8441188537 0.4376284668
69700000.0 -0.7806263915 0.5344888238
79650000.0 -0.6926550407 0.640278654
89600000.0 -0.5693504911 0.7501660783
99550000.0 -0.3995034027 0.8527230173
109500000.0 -0.1748367413 0.9259837548
119450000.0 0.1006873812 0.9366537807
129400000.0 0.3968957472 0.8538744448
139350000.0 0.6568427104 0.6755828429
149300000.0 0.8441756409 0.4218333018
159250000.0 0.9342065804 0.1461679954
169200000.0 0.9389059337 -0.1086146106
179150000.0 0.8870926426 -0.3179695398
189100000.0 0.8068789193 -0.4789752246
199050000.0 0.7185375523 -0.5992665386
209000000.0 0.6303165072 -0.6865528628
218950000.0 0.5477726365 -0.7515325264
228900000.0 0.4713794084 -0.7998320014
238850000.0 0.3982063957 -0.8355380135
248800000.0 0.2995459078 -0.8428030657
258750000.0 0.2661535493 -0.8750014481
268700000.0 0.1969424087 -0.886333372
278650000.0 0.1264836613 -0.8903883607
288600000.0 0.0531941363 -0.8874858046
298550000.0 -0.0242643447 -0.8750677199
308500000.0 -0.1080585019 -0.850027166
318450000.0 -0.1969256324 -0.8066540635
328400000.0 -0.2863585595 -0.7387969025
338350000.0 -0.3686285958 -0.6426496928
348300000.0 -0.4321324995 -0.5180179054
358250000.0 -0.4621668462 -0.371783546
368200000.0 -0.4489760408 -0.2197437232
378150000.0 -0.3939662671 -0.0827757831
388100000.0 -0.3082626551 0.0239412285
398050000.0 -0.2097430776 0.0932338879
408000000.0 -0.1132051061 0.1295668458
417950000.0 -0.0288040593 0.1402799855
427900000.0 0.0387211512 0.134059121
437850000.0 0.0889824809 0.1173218758
447800000.0 0.1232073427 0.0952301047
457750000.0 0.1437196758 0.0710512252
467700000.0 0.152791802 0.047902324
477650000.0 0.1518205271 0.0269964292
487600000.0 0.1431512658 0.0097101673
497550000.0 0.1239395018 0.0017788623
507500000.0 0.1120783062 -0.0079924707
517450000.0 0.0899290029 -0.011667699
527400000.0 0.0655519532 -0.0111612468
537350000.0 0.0405855584 -0.0065872344
547300000.0 0.0168593552 0.0009216573
557250000.0 -0.0074903022 0.0118144971
567200000.0 -0.0287971753 0.026414426
577150000.0 -0.0472570782 0.0431169172
587100000.0 -0.062722142 0.0617263748
597050000.0 -0.0751059498 0.0804472277
607000000.0 -0.0842844757 0.0992898503
616950000.0 -0.0903366214 0.1166605609
626900000.0 -0.0923891116 0.1323855949
636850000.0 -0.0906770945 0.1460881295
646800000.0 -0.0850707125 0.1570731314
656750000.0 -0.0763468192 0.1659891333
666700000.0 -0.0644652377 0.172473185
676650000.0 -0.0511179699 0.1759266283
686600000.0 -0.0355952465 0.1759233618
696550000.0 -0.0184260109 0.1717880524
706500000.0 0.000237606 0.1621835536
716450000.0 0.0205333003 0.1473639851
726400000.0 0.0421182985 0.1273732262
736350000.0 0.0636541116 0.1023070133
746300000.0 0.0840786467 0.0735201202
756250000.0 0.1023535205 0.0401703941
766200000.0 0.116337828 0.0033140597
776150000.0 0.1254050876 -0.0372690306
786100000.0 0.1289210006 -0.0803195266
796050000.0 0.1264524737 -0.1254432886
806000000.0 0.1186376682 -0.1716388684
815950000.0 0.1059676262 -0.2162306452
825900000.0 0.0884001942 -0.2575748431
835850000.0 0.0658949606 -0.2943057742
845800000.0 0.0384036513 -0.3250759504
855750000.0 0.0055828884 -0.3500354206
865700000.0 -0.0321973042 -0.3695756319
875650000.0 -0.0743220233 -0.3825893293
885600000.0 -0.1196911733 -0.388730865
895550000.0 -0.1676954376 -0.3865208379
905500000.0 -0.2169381827 -0.3740070695
915450000.0 -0.2660501101 -0.3488938896
925400000.0 -0.3140829986 -0.3093715982
935350000.0 -0.3601179588 -0.2522114495
945300000.0 -0.4002033229 -0.1754061617
955250000.0 -0.4274411911 -0.0755443449
965200000.0 -0.4289736912 0.0435012043
975150000.0 -0.4026168188 0.1697190784
985100000.0 -0.3429005898 0.308504203
995050000.0 -0.2282487529 0.4471557964
1005000000.0 -0.056829852 0.553882395
1014950000.0 0.1536280916 0.6030915502
1024900000.0 0.3789069403 0.5799163672
1034850000.0 0.5852647117 0.4780366326
1044800000.0 0.7403457347 0.3104238999
1054750000.0 0.8224061794 0.1039140499
1064700000.0 0.8165724733 -0.0899992659
1074650000.0 0.793924657 -0.2684583882
1084600000.0 0.6961468456 -0.3854852646
1094550000.0 0.6316147235 -0.5409102866
1104500000.0 0.482620674 -0.656929928
1114450000.0 0.3115601769 -0.7208736974
1124400000.0 0.134494177 -0.7378105278
1134350000.0 -0.0343795207 -0.711418769
1144300000.0 -0.1833057705 -0.6493510515
1154250000.0 -0.3045510384 -0.5611118003
1164200000.0 -0.3940189964 -0.4600260456
1174150000.0 -0.4597566898 -0.3597842248
1184100000.0 -0.5104723624 -0.2575145797
1194050000.0 -0.5433457472 -0.1566958176
1204000000.0 -0.5601596861 -0.064697166
1213950000.0 -0.5652526118 0.0160879928
1223900000.0 -0.5630167197 0.0845713537
1233850000.0 -0.5562655336 0.142201512
1243800000.0 -0.5469831014 0.1910129263
1253750000.0 -0.5362451999 0.2336534707
1263700000.0 -0.5248153489 0.272303199
1273650000.0 -0.5145398627 0.3054772811
1283600000.0 -0.5052217968 0.3346907238
1293550000.0 -0.4975058599 0.3582083467
1303500000.0 -0.4914521576 0.3760639863
1313450000.0 -0.4867714931 0.3889568779
1323400000.0 -0.4833145658 0.3980515662
1333350000.0 -0.479991524 0.4053185052
1343300000.0 -0.4771755121 0.4133189628
1353250000.0 -0.4746127138 0.4222354814
1363200000.0 -0.4716787082 0.4320004635
1373150000.0 -0.4671386274 0.44082447
1383100000.0 -0.4617202353 0.4481183876
1393050000.0 -0.4555660707 0.4529755328
1403000000.0 -0.4480058245 0.4551837506
1412950000.0 -0.4389897079 0.4547309218
1422900000.0 -0.4284018629 0.4536641253
1432850000.0 -0.417069099 0.4528335732
1442800000.0 -0.4048067169 0.4540934866
1452750000.0 -0.3915930368 0.4576907474
1462700000.0 -0.374864799 0.4632930229
1472650000.0 -0.3548059497 0.4690174977
1482600000.0 -0.3311807028 0.4739694164
1492550000.0 -0.3037928846 0.4768447104
1502500000.0 -0.2724137963 0.4779181544
1512450000.0 -0.237590295 0.4774562105
1522400000.0 -0.1994498451 0.4757244315
1532350000.0 -0.1586463932 0.4721524209
1542300000.0 -0.1146296981 0.4667899513
1552250000.0 -0.0684738032 0.4591071748
1562200000.0 -0.0213589257 0.4487094919
1572150000.0 0.0255840233 0.4359408894
1582100000.0 0.0731003304 0.4215335987
1592050000.0 0.1206782114 0.4055853631
1602000000.0 0.1669948429 0.3873316368
1611950000.0 0.2118846818 0.367659054
1621900000.0 0.2545556104 0.346405786
1631850000.0 0.2942769534 0.3229891461
1641800000.0 0.3310589387 0.2982866062
1651750000.0 0.365191942 0.2725371245
1661700000.0 0.3968364788 0.2476629416
1671650000.0 0.4262992865 0.2251802508
1681600000.0 0.4528106951 0.2057263187
1691550000.0 0.4766254631 0.1895262366
1701500000.0 0.4979087058 0.1765443475
1711450000.0 0.516225957 0.1657878922
1721400000.0 0.5316726211 0.1566507505
1731350000.0 0.5448286852 0.1484804175
1741300000.0 0.5571051858 0.1415239791
1751250000.0 0.5679294429 0.1362169995
1761200000.0 0.5771595197 0.1328877949
1771150000.0 0.5844771913 0.1325043863
1781100000.0 0.5893384651 0.1345752175
1791050000.0 0.5918757527 0.139543463
1801000000.0 0.5926002147 0.1460130549
1810950000.0 0.5918708171 0.1529549751
1820900000.0 0.5906367355 0.1596073547
1830850000.0 0.5894698157 0.1654353974
1840800000.0 0.5874537736 0.1715636665
1850750000.0 0.5837735621 0.1784931787
1860700000.0 0.5782044281 0.1852841549
1870650000.0 0.5685537086 0.1915929081
1880600000.0 0.5542980631 0.198058911
1890550000.0 0.5355856106 0.2045854911
1900500000.0 0.5138540146 0.2101578374
1910450000.0 0.4904014833 0.2134589307
1920400000.0 0.4663516666 0.2147243576
1930350000.0 0.4418068495 0.214051406
1940300000.0 0.4152881741 0.2112860605
1950250000.0 0.3855041807 0.2062780989
1960200000.0 0.3505994988 0.1999914384
1970150000.0 0.3101381265 0.1918176958
1980100000.0 0.2627792061 0.1831822693
1990050000.0 0.2085428244 0.1728084797
2000000000.0 0.1464759234 0.1618316881
