!Created with skrf (http://scikit-rf.org).
# GHz S RI R 50.0 
!freq ReS11 ImS11
10000000.0 -0.5245773424 0.0434374954
14975000.0 -0.5354620589 0.0709121668
19950000.0 -0.5483695494 0.1036052965
24925000.0 -0.5605697506 0.1423700582
29900000.0 -0.5700305812 0.1865970221
34875000.0 -0.5744256852 0.2354427384
39850000.0 -0.5723802445 0.287634957
44825000.0 -0.5638260692 0.3417849829
49800000.0 -0.5490075902 0.3965094881
54775000.0 -0.5280085983 0.4503933792
59750000.0 -0.5019840372 0.5028268793
64725000.0 -0.471935455 0.5531188738
69700000.0 -0.4383116219 0.6011732892
74675000.0 -0.4016931065 0.6473965512
79650000.0 -0.3622595846 0.6926050003
84625000.0 -0.3194432052 0.7376910733
89600000.0 -0.2718173377 0.7833814609
94575000.0 -0.2170653319 0.8294468578
99550000.0 -0.1521434348 0.8743303775
104525000.0 -0.0747085272 0.9143910345
109500000.0 0.0159214749 0.9444867392
114475000.0 0.1184620071 0.9592394593
119450000.0 0.2284560632 0.9549895597
124425000.0 0.3405008138 0.9294002032
129400000.0 0.4481942358 0.8824320368
134375000.0 0.5474623896 0.8169009693
139350000.0 0.6366227382 0.7320526432
144325000.0 0.7098016751 0.6331533712
149300000.0 0.7650640589 0.523746413
154275000.0 0.8006216348 0.4084843862
159250000.0 0.8161090347 0.2922218544
164225000.0 0.8118529513 0.1801719133
169200000.0 0.7904793077 0.0766249359
174175000.0 0.7556321515 -0.014948357
179150000.0 0.7129453076 -0.092640586
184125000.0 0.6674686988 -0.1571717182
189100000.0 0.6218901033 -0.2097614216
194075000.0 0.581346574 -0.2553431698
199050000.0 0.5451536074 -0.2966008494
204025000.0 0.5116413694 -0.33566367
209000000.0 0.4549143894 -0.3294261354
213975000.0 0.4221223381 -0.36683794
218950000.0 0.3871213449 -0.4039912643
223925000.0 0.3486378651 -0.4402078528
228900000.0 0.3059994226 -0.4742838027
233875000.0 0.2592680615 -0.5047010098
238850000.0 0.2087038144 -0.5306276632
243825000.0 0.1539876852 -0.5513744827
248800000.0 0.1129228381 -0.5202136355
253775000.0 0.063660947 -0.5728884049
258750000.0 0.0135139934 -0.5793644254
263725000.0 -0.0315301168 -0.5817144875
268700000.0 -0.0713692729 -0.5813972317
273675000.0 -0.106919034 -0.5801045155
278650000.0 -0.1390315845 -0.5788257751
283625000.0 -0.1686251112 -0.5787758382
288600000.0 -0.1976025675 -0.5805818162
293575000.0 -0.2275113386 -0.5839043638
298550000.0 -0.2601322689 -0.5875133554
303525000.0 -0.2961580063 -0.5902094181
308500000.0 -0.3361721636 -0.5898485638
313475000.0 -0.3794310307 -0.584391956
318450000.0 -0.4243806182 -0.5725219244
323425000.0 -0.4691809462 -0.5535933611
328400000.0 -0.5123132697 -0.5270915911
333375000.0 -0.5519390071 -0.4934649293
338350000.0 -0.586506606 -0.4533480832
343325000.0 -0.6145491891 -0.4077101952
348300000.0 -0.6348276722 -0.3576353122
353275000.0 -0.6469015473 -0.3045869616
358250000.0 -0.6497973581 -0.2501342298
363225000.0 -0.6433955989 -0.1958002174
368200000.0 -0.6285204551 -0.1437763714
373175000.0 -0.6054842351 -0.0961760636
378150000.0 -0.5754739739 -0.0542233279
383125000.0 -0.5402177552 -0.0189033083
388100000.0 -0.5012928949 0.0092400872
393075000.0 -0.4600589635 0.0300698846
398050000.0 -0.4178847833 0.0441892767
403025000.0 -0.3759355125 0.0515732914
408000000.0 -0.3354177506 0.0521343496
412975000.0 -0.2956151676 0.0484823021
417950000.0 -0.2580242365 0.0401044231
422925000.0 -0.2232909252 0.0279608435
427900000.0 -0.1915907395 0.0130278263
432875000.0 -0.1631893253 -0.0044886028
437850000.0 -0.1385716903 -0.0236824564
442825000.0 -0.1174911919 -0.0435698732
447800000.0 -0.0997600997 -0.0634982753
452775000.0 -0.0851730109 -0.0832503214
457750000.0 -0.0736129451 -0.1018377453
462725000.0 -0.0643979484 -0.1189051789
467700000.0 -0.0568745834 -0.1346172201
472675000.0 -0.0509485081 -0.1487836763
477650000.0 -0.0463294787 -0.1613404456
482625000.0 -0.0422814316 -0.172536667
487600000.0 -0.0392489759 -0.1823089949
492575000.0 -0.0401178531 -0.1881738666
497550000.0 -0.0217498058 -0.1941739443
502525000.0 -0.021547531 -0.2051447228
507500000.0 -0.0193499054 -0.2116810623
512475000.0 -0.0172788488 -0.2171123698
517450000.0 -0.0150291571 -0.2213808578
522425000.0 -0.0129659652 -0.2245829684
527400000.0 -0.0108926544 -0.2266624154
532375000.0 -0.0090805086 -0.2274356927
537350000.0 -0.0072238502 -0.2269880561
542325000.0 -0.005344809 -0.2254837317
547300000.0 -0.0037974106 -0.223019205
552275000.0 -0.0025890754 -0.2192313862
557250000.0 -0.00099318 -0.2143309424
562225000.0 0.0005255808 -0.2080045761
567200000.0 0.0021948484 -0.2004960915
572175000.0 0.0042928698 -0.19187703
577150000.0 0.0068933846 -0.1822493755
582125000.0 0.0100247432 -0.1715491673
587100000.0 0.0142049863 -0.1600077947
592075000.0 0.0195074869 -0.1479952152
597050000.0 0.0259307618 -0.1354457007
602025000.0 0.0336332312 -0.122526851
607000000.0 0.0427780779 -0.1097332559
611975000.0 0.0529247312 -0.0971072893
616950000.0 0.063902087 -0.0848694139
621925000.0 0.0758026331 -0.0731859969
626900000.0 0.0883108113 -0.0622774633
631875000.0 0.1007895387 -0.0520617973
636850000.0 0.1135357048 -0.0428764237
641825000.0 0.1259755229 -0.0346244594
646800000.0 0.137667765 -0.0266041889
651775000.0 0.1482003779 -0.0191147629
656750000.0 0.1582466155 -0.0118334473
661725000.0 0.1676026646 -0.0045541461
666700000.0 0.1763266076 0.0032085906
671675000.0 0.1848733743 0.0111706694
676650000.0 0.193726759 0.0194062018
681625000.0 0.2030910677 0.0277346253
686600000.0 0.2130764021 0.0357825403
691575000.0 0.2240575336 0.0431656253
696550000.0 0.2355231278 0.0501090596
701525000.0 0.2476416158 0.0561880452
706500000.0 0.2597043921 0.0608597406
711475000.0 0.2721352995 0.0642102115
716450000.0 0.2843866644 0.0664011475
721425000.0 0.2963250981 0.0669339593
726400000.0 0.3076278856 0.0661296245
731375000.0 0.3180892553 0.0644242803
736350000.0 0.3278807351 0.0615173437
741325000.0 0.3360382118 0.0570282581
746300000.0 0.3432558954 0.0511171483
751275000.0 0.3487328876 0.0445130766
756250000.0 0.3526675329 0.0366503435
761225000.0 0.3550311303 0.0278927526
766200000.0 0.3556469445 0.0185395644
771175000.0 0.3547305252 0.008261622
776150000.0 0.3519461301 -0.0022736175
781125000.0 0.3474036577 -0.0133920653
786100000.0 0.3408622299 -0.024442688
791075000.0 0.3324000522 -0.0356304512
796050000.0 0.3220879459 -0.0466962091
801025000.0 0.3100777416 -0.057472854
806000000.0 0.2960966368 -0.0673535717
810975000.0 0.2805413048 -0.0765367619
815950000.0 0.2633889509 -0.0841081496
820925000.0 0.2450696942 -0.0904476218
825900000.0 0.2256255001 -0.0955959142
830875000.0 0.2061647991 -0.0995056726
835850000.0 0.1866633905 -0.1020254776
840825000.0 0.16746097 -0.1038641461
845800000.0 0.1489879277 -0.1055913412
850775000.0 0.130747768 -0.1075668898
855750000.0 0.1120333686 -0.110129549
860725000.0 0.0927262596 -0.1135417364
865700000.0 0.07192322 -0.118067635
870675000.0 0.0486588937 -0.1229342742
875650000.0 0.022939309 -0.1274012619
880625000.0 -0.0059771682 -0.1305312957
885600000.0 -0.037136105 -0.1315672146
890575000.0 -0.07043793 -0.1297384071
895550000.0 -0.1054435936 -0.1244371205
900525000.0 -0.1408754759 -0.1156178838
905500000.0 -0.1764919113 -0.1028252386
910475000.0 -0.2108399968 -0.0864897212
915450000.0 -0.2436206265 -0.0667784294
920425000.0 -0.2740455929 -0.0439383134
925400000.0 -0.3021187756 -0.0180667024
930375000.0 -0.3276147009 0.0099919187
935350000.0 -0.3503182664 0.0393711102
940325000.0 -0.3713409194 0.0708655527
945300000.0 -0.3898986637 0.1045029345
950275000.0 -0.4063739145 0.1398450302
955250000.0 -0.4213059883 0.1785186026
960225000.0 -0.4329293018 0.2210893009
965200000.0 -0.4404667482 0.2673773194
970175000.0 -0.4424565867 0.3178983159
975150000.0 -0.4368071393 0.372425553
980125000.0 -0.4215152824 0.4286178556
985100000.0 -0.3956030359 0.484984409
990075000.0 -0.3578571136 0.5387480338
995050000.0 -0.3089445366 0.587543457
1000025000.0 -0.2485126765 0.6291883329
1005000000.0 -0.1769996106 0.660457716
1009975000.0 -0.0953968891 0.6780684001
1014950000.0 -0.0064768481 0.6776248652
1019925000.0 0.0845169366 0.6574052475
1024900000.0 0.1731096557 0.6168300671
1029875000.0 0.2534932083 0.5572385691
1034850000.0 0.3214856015 0.4820348398
1039825000.0 0.3746855358 0.3952707809
1044800000.0 0.4136980797 0.3014522974
1049775000.0 0.4391441026 0.2036245105
1054750000.0 0.4517004798 0.1035927309
1059725000.0 0.4507010634 0.0037105949
1064700000.0 0.440431646 -0.0918615377
1069675000.0 0.4203043966 -0.1901738133
1074650000.0 0.3804729086 -0.2861051843
1079625000.0 0.3175789293 -0.3619252553
1084600000.0 0.2752095701 -0.4016297697
1089575000.0 0.2341386739 -0.4801404863
1094550000.0 0.1654505666 -0.5456594422
1099525000.0 0.091044055 -0.5932383468
1104500000.0 0.01474087 -0.6259171595
1109475000.0 -0.0606029243 -0.6461358638
1114450000.0 -0.1327321218 -0.6555197441
1119425000.0 -0.2005666403 -0.6563318895
1124400000.0 -0.2631505691 -0.6502847172
1129375000.0 -0.3214405432 -0.6388829601
1134350000.0 -0.375798576 -0.6221256312
1139325000.0 -0.4257581225 -0.6006679519
1144300000.0 -0.4718545654 -0.5743187131
1149275000.0 -0.5131026502 -0.5437050775
1154250000.0 -0.5493750786 -0.5092362282
1159225000.0 -0.5788488802 -0.4721538677
1164200000.0 -0.6024681097 -0.433826773
1169175000.0 -0.6204524347 -0.3959854611
1174150000.0 -0.6343008619 -0.3589797156
1179125000.0 -0.644791271 -0.3216621575
1184100000.0 -0.6507333525 -0.2839501921
1189075000.0 -0.6521716354 -0.2471774962
1194050000.0 -0.6496765879 -0.2116664586
1199025000.0 -0.6433058566 -0.1779831363
1204000000.0 -0.6332690799 -0.1463289941
1208975000.0 -0.6201584642 -0.117887589
1213950000.0 -0.605029564 -0.0920206767
1218925000.0 -0.588627072 -0.0691449864
1223900000.0 -0.5724152344 -0.0497696162
1228875000.0 -0.5574322733 -0.0326894576
1233850000.0 -0.5439465207 -0.0170799613
1238825000.0 -0.5320613637 -0.0022567838
1243800000.0 -0.5215491927 0.0135305008
1248775000.0 -0.5115966634 0.03059253
1253750000.0 -0.5010035849 0.0484457087
1258725000.0 -0.4897479757 0.0680557467
1263700000.0 -0.4758013976 0.0884462704
1268675000.0 -0.4603025242 0.108533253
1273650000.0 -0.442392599 0.1287457707
1278625000.0 -0.4211408549 0.1474381963
1283600000.0 -0.3975741039 0.1643179004
1288575000.0 -0.3715695308 0.1789767537
1293550000.0 -0.3433119417 0.1906376418
1298525000.0 -0.3141627323 0.1987212268
1303500000.0 -0.2841580919 0.2029948405
1308475000.0 -0.2568491453 0.2027557577
1313450000.0 -0.2326430785 0.1982606311
1318425000.0 -0.2136337738 0.1905982531
1323400000.0 -0.2006093148 0.1817414441
1328375000.0 -0.1945189153 0.1733222656
1333350000.0 -0.1946611168 0.1685987575
1338325000.0 -0.1990287698 0.1691081292
1343300000.0 -0.2053811403 0.1757919172
1348275000.0 -0.2110464942 0.1888835548
1353250000.0 -0.2139222979 0.2074900599
1358225000.0 -0.2122590254 0.2296001579
1363200000.0 -0.2056071049 0.2539329419
1368175000.0 -0.1937474262 0.2784823894
1373150000.0 -0.1768169322 0.3021580266
1378125000.0 -0.1552459435 0.3240484107
1383100000.0 -0.1302698423 0.3427863295
1388075000.0 -0.1029727315 0.3585895659
1393050000.0 -0.073570227 0.3698396594
1398025000.0 -0.0444090812 0.3768312867
1403000000.0 -0.0158393438 0.3795385207
1407975000.0 0.0106450227 0.3775866909
1412950000.0 0.0329052663 0.3716772852
1417925000.0 0.0499654973 0.362623246
1422900000.0 0.0602449176 0.3515844538
1427875000.0 0.0629940447 0.3415489933
1432850000.0 0.059214019 0.3341941104
1437825000.0 0.0498251237 0.3324275566
1442800000.0 0.0378109854 0.3375526095
1447775000.0 0.0262690221 0.3494386456
1452750000.0 0.0183353243 0.3668159144
1457725000.0 0.015301913 0.3882359812
1462700000.0 0.0180553108 0.4115741858
1467675000.0 0.026261421 0.4342139371
1472650000.0 0.0390036479 0.4552362634
1477625000.0 0.0550785794 0.4742889005
1482600000.0 0.0733948581 0.490329931
1487575000.0 0.0931288276 0.5028379835
1492550000.0 0.1133318988 0.5126330536
1497525000.0 0.1335783986 0.5198196019
1502500000.0 0.1527300294 0.5242911872
1507475000.0 0.170932525 0.5267134212
1512450000.0 0.1872634176 0.5272177916
1517425000.0 0.2012249021 0.5261047399
1522400000.0 0.212501094 0.5237789891
1527375000.0 0.2205707412 0.521231685
1532350000.0 0.2262769822 0.5192452237
1537325000.0 0.2302270041 0.5179154526
1542300000.0 0.2331506516 0.5180252887
1547275000.0 0.2367662321 0.5202273573
1552250000.0 0.2413490203 0.5226149713
1557225000.0 0.2467854535 0.5251940468
1562200000.0 0.2539121334 0.5269397737
1567175000.0 0.2617100547 0.5276243863
1572150000.0 0.2696991587 0.5267972317
1577125000.0 0.2781048955 0.5248070827
1582100000.0 0.2863421979 0.5216755428
1587075000.0 0.2943580462 0.5171059001
1592050000.0 0.3019440335 0.5120747404
1597025000.0 0.3091778676 0.5062794717
1602000000.0 0.3145132442 0.4950936507
1606975000.0 0.3201817127 0.4874493936
1611950000.0 0.3253596956 0.4798582955
1616925000.0 0.3304895264 0.4716646299
1621900000.0 0.3353182671 0.4634292136
1626875000.0 0.3397742762 0.4549929342
1631850000.0 0.3440553499 0.4465196362
1636825000.0 0.3486596151 0.4373137491
1641800000.0 0.35330832 0.4275550829
1646775000.0 0.3577158721 0.4173288379
1651750000.0 0.3622197266 0.4059051662
1656725000.0 0.3660608927 0.3934991428
1661700000.0 0.3690763557 0.3802561814
1666675000.0 0.3710832012 0.3659101823
1671650000.0 0.3715228545 0.3509488552
1676625000.0 0.370721749 0.3351908041
1681600000.0 0.3678738081 0.3186165783
1686575000.0 0.3633383666 0.3022298285
1691550000.0 0.3569662458 0.2857854311
1696525000.0 0.3485567256 0.2699381084
1701500000.0 0.3367345692 0.253448766
1706475000.0 0.3248491186 0.2402263448
1711450000.0 0.3111397035 0.2278922809
1716425000.0 0.2992395034 0.2192916912
1721400000.0 0.2888003123 0.2132143286
1726375000.0 0.2803090281 0.2081712034
1731350000.0 0.2762833077 0.205400171
1736325000.0 0.2753144378 0.2010892406
1741300000.0 0.2765988021 0.1954763679
1746275000.0 0.2788039956 0.187046887
1751250000.0 0.2827466169 0.1763379378
1756225000.0 0.2867855299 0.1634037096
1761200000.0 0.2899299828 0.14839546
1766175000.0 0.2903725611 0.1311245957
1771150000.0 0.2888236661 0.1124763213
1776125000.0 0.2848347412 0.0937515118
1781100000.0 0.2781804596 0.0752305481
1786075000.0 0.2687215533 0.0575279765
1791050000.0 0.2563546399 0.0415026035
1796025000.0 0.2423555321 0.0283999429
1801000000.0 0.2277740958 0.018581353
1805975000.0 0.2131145634 0.0127416173
1810950000.0 0.2002747381 0.0109144455
1815925000.0 0.1906226727 0.0123607597
1820900000.0 0.1855579536 0.0153011071
1825875000.0 0.1851813915 0.0187001134
1830850000.0 0.1883024122 0.0206138578
1835825000.0 0.1938088746 0.0203462779
1840800000.0 0.2007162226 0.0190020725
1845775000.0 0.2100079485 0.0157739159
1850750000.0 0.2212314974 0.0089806571
1855725000.0 0.2326334916 -0.0027773481
1860700000.0 0.2400735109 -0.018879331
1865675000.0 0.2417509033 -0.038232985
1870650000.0 0.2407838343 -0.0572246468
1875625000.0 0.2356363338 -0.075987459
1880600000.0 0.2263189594 -0.0937234088
1885575000.0 0.214030952 -0.1094286732
1890550000.0 0.1979750532 -0.1228267679
1895525000.0 0.1812259812 -0.1315460462
1900500000.0 0.1639961299 -0.1353548114
1905475000.0 0.1466995268 -0.1359584152
1910450000.0 0.1325984002 -0.1310203028
1915425000.0 0.1227690803 -0.1231968282
1920400000.0 0.1176970002 -0.1135160097
1925375000.0 0.1183032836 -0.1039170267
1930350000.0 0.1231658458 -0.0963587201
1935325000.0 0.1306256925 -0.092369201
1940300000.0 0.1386074506 -0.0923726998
1945275000.0 0.1457285318 -0.0953989957
1950250000.0 0.1508981867 -0.1012232008
1955225000.0 0.1530499078 -0.1093000172
1960200000.0 0.1523001838 -0.117991769
1965175000.0 0.1491703803 -0.1265442834
1970150000.0 0.1427871891 -0.1355578053
1975125000.0 0.1333668408 -0.144044712
1980100000.0 0.1219159356 -0.1521897659
1985075000.0 0.1073223163 -0.1592854149
1990050000.0 0.089997831 -0.1658535538
1995025000.0 0.0699247882 -0.1708999966
2000000000.0 0.0457234594 -0.1736373048
