!Created with skrf (http://scikit-rf.org).
# GHz S RI R 50.0 
!freq ReS11 ImS11
10000000.0 -0.8123721908 0.6097273143
19950000.0 -0.2934234367 0.9514448017
29900000.0 0.3227194674 0.9274773415
39850000.0 0.814120128 0.5470534942
49800000.0 0.9901085182 -0.0611091923
59750000.0 0.7561011549 -0.6677841274
69700000.0 0.1770113726 -1.003594924
79650000.0 -0.5002061389 -0.8812529259
89600000.0 -0.9379039132 -0.3270590647
99550000.0 -0.8875881938 0.3960402009
109500000.0 -0.3371929646 0.9032088758
119450000.0 0.4415151356 0.8707278342
129400000.0 0.9644536743 0.244484988
139350000.0 0.8262416697 -0.5705305242
149300000.0 0.0986335065 -0.9810723736
159250000.0 -0.663767836 -0.6912427834
169200000.0 -0.9436440977 0.0421955299
179150000.0 -0.6194401871 0.72328543
189100000.0 0.0652377081 0.9688427123
199050000.0 0.7072448626 0.6826634832
209000000.0 0.9752043477 0.05626267
218950000.0 0.7713254762 -0.5653167841
228900000.0 0.2327095371 -0.9050820863
238850000.0 -0.3898702311 -0.8362100513
248800000.0 -0.6265612966 -0.2931664032
258750000.0 -0.9249110849 0.1572043843
268700000.0 -0.6435502951 0.6983665191
278650000.0 -0.0912396406 0.9416613943
288600000.0 0.4868936981 0.7854159156
298550000.0 0.835243958 0.3059493419
308500000.0 0.8059374416 -0.2802987841
318450000.0 0.4166593741 -0.7098227526
328400000.0 -0.1495545219 -0.7853098126
338350000.0 -0.6098677967 -0.4715202205
348300000.0 -0.7203354827 0.0496386045
358250000.0 -0.4486075432 0.4649523125
368200000.0 -0.0065479218 0.5493326494
378150000.0 0.3184341839 0.3198633516
388100000.0 0.3687484034 -0.0202350345
398050000.0 0.1875782949 -0.2467935148
408000000.0 -0.0516891449 -0.2612496345
417950000.0 -0.1909936857 -0.1215203878
427900000.0 -0.1807440928 0.0431969547
437850000.0 -0.0706598845 0.1310327189
447800000.0 0.0495165834 0.1147475513
457750000.0 0.1117311446 0.0322124142
467700000.0 0.0973801969 -0.0536629034
477650000.0 0.0384863025 -0.0933431731
487600000.0 -0.0152989236 -0.0769973603
497550000.0 -0.0106052033 -0.1066332735
507500000.0 -0.0533981918 -0.0063004213
517450000.0 -0.0202096688 0.010325396
527400000.0 -0.0014640615 -0.0020662136
537350000.0 -0.011404684 -0.0207109661
547300000.0 -0.0434776703 -0.0186643735
557250000.0 -0.0681236 0.0183995738
567200000.0 -0.0588515101 0.0715846714
577150000.0 -0.0089585384 0.1127541962
587100000.0 0.0651186721 0.1109423255
597050000.0 0.1297076841 0.0559051105
607000000.0 0.1477349071 -0.0374422936
616950000.0 0.1023241512 -0.1298289637
626900000.0 0.0060239247 -0.1797117116
636850000.0 -0.1037860001 -0.1624090424
646800000.0 -0.1812916476 -0.0812945886
656750000.0 -0.1932397753 0.0312273508
666700000.0 -0.1311451591 0.1255527479
676650000.0 -0.0222851026 0.1603172348
686600000.0 0.0830040425 0.1189823599
696550000.0 0.1381481766 0.0227927099
706500000.0 0.1196436202 -0.0799878619
716450000.0 0.043164363 -0.1401739127
726400000.0 -0.0476725175 -0.1288216454
736350000.0 -0.0988041337 -0.0559152474
746300000.0 -0.0779123212 0.0342491248
756250000.0 0.0094409403 0.0846199787
766200000.0 0.1136100404 0.0563750108
776150000.0 0.1721278439 -0.0443944139
786100000.0 0.1397456355 -0.1669185313
796050000.0 0.0201565473 -0.2375737061
806000000.0 -0.131481902 -0.2051133975
815950000.0 -0.2381485157 -0.0655339554
825900000.0 -0.2322716589 0.1293841063
835850000.0 -0.0965610125 0.2916461286
845800000.0 0.1206991561 0.3381888058
855750000.0 0.3285519776 0.236572057
865700000.0 0.4320767965 0.0202001937
875650000.0 0.3743450749 -0.2235545791
885600000.0 0.1665268348 -0.3852651389
895550000.0 -0.1110888001 -0.381045291
905500000.0 -0.3339781769 -0.1973094947
915450000.0 -0.3911037831 0.0946900021
925400000.0 -0.2436546516 0.3563891099
935350000.0 0.0429439023 0.4528291675
945300000.0 0.3226981714 0.3214638361
955250000.0 0.4307952333 0.0159023827
965200000.0 0.2672999586 -0.2956833007
975150000.0 -0.1094580781 -0.385595387
985100000.0 -0.447028788 -0.1209165063
995050000.0 -0.4405493055 0.3494698498
1005000000.0 -0.0207641183 0.6519311954
1014950000.0 0.5213658999 0.4837317326
1024900000.0 0.7440926579 -0.0940467992
1034850000.0 0.4117382099 -0.6717714879
1044800000.0 -0.2687478894 -0.7808437433
1054750000.0 -0.7766154794 -0.3385445784
1064700000.0 -0.768811455 0.2659904347
1074650000.0 -0.4612928207 0.7033675081
1084600000.0 0.119969598 0.8239383085
1094550000.0 0.617722514 0.5031902397
1104500000.0 0.7538911067 -0.0699712524
1114450000.0 0.4461819273 -0.5667005384
1124400000.0 -0.1049035135 -0.6806198604
1134350000.0 -0.5333302055 -0.3804677408
1144300000.0 -0.6125792639 0.0919423838
1154250000.0 -0.3622896125 0.4559308167
1164200000.0 0.044870229 0.5435399913
1174150000.0 0.3924323373 0.3377538289
1184100000.0 0.4997272467 -0.0517481181
1194050000.0 0.3035805621 -0.3989657659
1204000000.0 -0.0666009426 -0.5094599569
1213950000.0 -0.3996849599 -0.3542162834
1223900000.0 -0.5547937386 -0.0379386291
1233850000.0 -0.4898331931 0.2991214098
1243800000.0 -0.2362060937 0.5335387172
1253750000.0 0.1156191538 0.5727206959
1263700000.0 0.4297431172 0.386858178
1273650000.0 0.5711453838 0.0428623445
1283600000.0 0.4812710539 -0.3180766733
1293550000.0 0.2082128587 -0.5561789693
1303500000.0 -0.1385789471 -0.6042880925
1313450000.0 -0.448352981 -0.4654808231
1323400000.0 -0.6378486593 -0.1890184905
1333350000.0 -0.6539774591 0.1495810933
1343300000.0 -0.4785534761 0.4545144463
1353250000.0 -0.1504368659 0.6167678305
1363200000.0 0.223777683 0.5641153857
1373150000.0 0.5054962357 0.3081296123
1383100000.0 0.5963412472 -0.0530067233
1393050000.0 0.4847165878 -0.3913181812
1403000000.0 0.2246586399 -0.6110482598
1412950000.0 -0.1002460138 -0.6615445998
1422900000.0 -0.3998823813 -0.53734825
1432850000.0 -0.588452828 -0.2694006761
1442800000.0 -0.6019056381 0.0660671687
1452750000.0 -0.4246442798 0.361048887
1462700000.0 -0.1091894739 0.5124213346
1472650000.0 0.2339512585 0.4654436113
1482600000.0 0.4865602994 0.2446041584
1492550000.0 0.5717045083 -0.0634459466
1502500000.0 0.4777104668 -0.3531822195
1512450000.0 0.2453190821 -0.5359302643
1522400000.0 -0.0485532302 -0.5550694489
1532350000.0 -0.3041401697 -0.3976832798
1542300000.0 -0.4220651862 -0.1142732409
1552250000.0 -0.3491312747 0.1866441042
1562200000.0 -0.1145117136 0.3802422655
1572150000.0 0.1762882092 0.392524239
1582100000.0 0.402638922 0.2343241492
1592050000.0 0.4807026361 -0.0181686674
1602000000.0 0.3894775353 -0.261421921
1611950000.0 0.1643571631 -0.4012506936
1621900000.0 -0.1098644149 -0.3757540387
1631850000.0 -0.3199963222 -0.1807286361
1641800000.0 -0.3680162483 0.1096051478
1651750000.0 -0.2256291205 0.3689388507
1661700000.0 0.0430590674 0.4831652717
1671650000.0 0.320268588 0.4114018268
1681600000.0 0.5001012027 0.1910311594
1691550000.0 0.521344845 -0.0967829156
1701500000.0 0.3723801752 -0.3552065707
1711450000.0 0.0916662887 -0.4918310027
1721400000.0 -0.232427512 -0.4399166344
1731350000.0 -0.4678249994 -0.2003526686
1741300000.0 -0.5050824907 0.1224723995
1751250000.0 -0.3846926728 0.373160051
1761200000.0 -0.1582549886 0.5627393535
1771150000.0 0.1527329275 0.5882768132
1781100000.0 0.424774326 0.4423736816
1791050000.0 0.5822951229 0.1766017499
1801000000.0 0.579839583 -0.1398591319
1810950000.0 0.4038886424 -0.4177186489
1820900000.0 0.093370514 -0.5582138446
1830850000.0 -0.2473317767 -0.4981505441
1840800000.0 -0.4901185751 -0.259402921
1850750000.0 -0.5577030156 0.0592107369
1860700000.0 -0.4529869178 0.345264082
1870650000.0 -0.2328050981 0.5271624676
1880600000.0 0.0341643753 0.5729108724
1890550000.0 0.2816169878 0.4814918495
1900500000.0 0.4462898073 0.2759778174
1910450000.0 0.4741145455 0.0116179977
1920400000.0 0.349046306 -0.2228308388
1930350000.0 0.1209419385 -0.3411790586
1940300000.0 -0.1162290117 -0.3110572142
1950250000.0 -0.2773783813 -0.1739696703
1960200000.0 -0.3270444213 -0.0023709235
1970150000.0 -0.281721692 0.1356449452
1980100000.0 -0.1877319664 0.1955397041
1990050000.0 -0.1114797217 0.1714288019
2000000000.0 -0.1140546718 0.1102828681
