!Created with skrf (http://scikit-rf.org).
# GHz S RI R 50.0 
!freq ReS11 ImS11
10000000.0 -0.7964986074 0.0561034632
14975000.0 -0.8007726938 0.0871340551
19950000.0 -0.8053255675 0.1210024664
24925000.0 -0.8085315376 0.158221625
29900000.0 -0.8096898076 0.1976867021
34875000.0 -0.8069336957 0.2400343187
39850000.0 -0.799729038 0.284637048
44825000.0 -0.7880185624 0.3310638828
49800000.0 -0.771986804 0.3788231403
54775000.0 -0.7512914536 0.4273992066
59750000.0 -0.7260093635 0.4767462545
64725000.0 -0.696613827 0.526359083
69700000.0 -0.6627152586 0.5761389117
74675000.0 -0.6241138383 0.6261042793
79650000.0 -0.580564711 0.6765337824
84625000.0 -0.5313982585 0.7272334471
89600000.0 -0.4753991072 0.7782982293
94575000.0 -0.4109793672 0.828783237
99550000.0 -0.3361072917 0.8772014972
104525000.0 -0.2491318388 0.9206951841
109500000.0 -0.1492630667 0.9553940306
114475000.0 -0.0368647513 0.9768866937
119450000.0 0.0852751766 0.9816893036
124425000.0 0.2135897532 0.9667057836
129400000.0 0.3280568384 0.9299819941
134375000.0 0.4649470678 0.8743314643
139350000.0 0.5817153867 0.7962400709
144325000.0 0.6848967903 0.7000680249
149300000.0 0.7710470874 0.5890771953
154275000.0 0.8373310051 0.4679635709
159250000.0 0.8826619968 0.3415373941
164225000.0 0.9064239959 0.2150629085
169200000.0 0.910401071 0.0929275898
174175000.0 0.8969928915 -0.0210976533
179150000.0 0.8704074739 -0.1240462915
184125000.0 0.8350915658 -0.2150614494
189100000.0 0.7951274591 -0.2948571249
194075000.0 0.7532783401 -0.3648705583
199050000.0 0.7111816477 -0.4269110684
204025000.0 0.6691013777 -0.4830114393
209000000.0 0.6270201385 -0.5341448251
213975000.0 0.5840535498 -0.5814355733
218950000.0 0.5396547604 -0.6246796878
223925000.0 0.4936374377 -0.6640983099
228900000.0 0.4456640208 -0.6994314923
233875000.0 0.3956485552 -0.7301648158
238850000.0 0.3428719131 -0.7566525362
243825000.0 0.2832849447 -0.77899409
248800000.0 0.1565963227 -0.6552041503
253775000.0 0.2199721266 -0.793664265
258750000.0 0.1620638884 -0.8067486842
263725000.0 0.1115317155 -0.8129260487
268700000.0 0.0640761725 -0.8156411333
273675000.0 0.0188399069 -0.8159404894
278650000.0 -0.02485235 -0.8144702726
283625000.0 -0.0678639284 -0.8118325505
288600000.0 -0.1109664766 -0.8080264443
293575000.0 -0.1550433171 -0.8026298294
298550000.0 -0.2008148537 -0.7946991914
303525000.0 -0.2482857706 -0.7833522146
308500000.0 -0.29732196 -0.7668203527
313475000.0 -0.347013559 -0.7442068578
318450000.0 -0.3961725115 -0.7147382471
323425000.0 -0.4438391294 -0.6778579691
328400000.0 -0.4887641878 -0.6340592173
333375000.0 -0.5287768851 -0.5833806679
338350000.0 -0.5633151035 -0.526096185
343325000.0 -0.5915515491 -0.4637394342
348300000.0 -0.6113886407 -0.3972503251
353275000.0 -0.6214551002 -0.3274008226
358250000.0 -0.6225297134 -0.2567586549
363225000.0 -0.6133980217 -0.1879081796
368200000.0 -0.593437765 -0.1215182172
373175000.0 -0.5653482055 -0.0598917203
378150000.0 -0.5305721635 -0.0060152537
383125000.0 -0.4890788343 0.0402220859
388100000.0 -0.4432086177 0.0791027086
393075000.0 -0.3957039129 0.1087778877
398050000.0 -0.3470952225 0.1302022555
403025000.0 -0.2987966678 0.1457019182
408000000.0 -0.2442000497 0.1583995359
412975000.0 -0.2007673849 0.1597344894
417950000.0 -0.1598660889 0.1566589549
422925000.0 -0.1229007682 0.1506708477
427900000.0 -0.0903940157 0.1402062917
432875000.0 -0.0618332239 0.1269837766
437850000.0 -0.0381160817 0.1129941739
442825000.0 -0.0188179076 0.0971475598
447800000.0 -0.0026676135 0.079891714
452775000.0 0.0094873083 0.0626641969
457750000.0 0.0181695662 0.0458471215
462725000.0 0.0249423793 0.0294199934
467700000.0 0.0286943464 0.0139925531
472675000.0 0.0293830663 -0.0002124416
477650000.0 0.0285089647 -0.0126761715
482625000.0 0.0256834024 -0.0240691876
487600000.0 0.0196365419 -0.0346302646
492575000.0 0.0064822676 -0.0419179292
497550000.0 -0.0168426132 0.0116972127
502525000.0 0.0354823337 -0.0369625421
507500000.0 0.0223963968 -0.051490997
512475000.0 0.0124197549 -0.0568901257
517450000.0 0.0034793918 -0.0599577327
522425000.0 -0.0047563018 -0.061930089
527400000.0 -0.0133424018 -0.0625554782
532375000.0 -0.0221172478 -0.0621275602
537350000.0 -0.030354735 -0.0610878953
542325000.0 -0.0392043976 -0.0599451932
547300000.0 -0.0491704226 -0.0567841776
552275000.0 -0.0567471031 -0.0510640906
557250000.0 -0.0628248302 -0.0451820435
562225000.0 -0.0684406498 -0.0394593165
567200000.0 -0.0733654346 -0.0324927099
572175000.0 -0.0777244278 -0.0240728418
577150000.0 -0.0815103352 -0.0154315154
582125000.0 -0.0843744069 -0.0063817935
587100000.0 -0.0866620989 0.003781026
592075000.0 -0.0881512628 0.0141075849
597050000.0 -0.088144455 0.0243071061
602025000.0 -0.0876309808 0.0348938395
607000000.0 -0.0866730368 0.0453374119
611975000.0 -0.0842506843 0.0553141125
616950000.0 -0.0811475479 0.0647299651
621925000.0 -0.0774477408 0.0730697323
626900000.0 -0.0725015568 0.0806029652
631875000.0 -0.0667473596 0.0876324472
636850000.0 -0.0603576545 0.0934987629
641825000.0 -0.053251485 0.0983836889
646800000.0 -0.0457188986 0.10292126
651775000.0 -0.0377126123 0.1067181014
656750000.0 -0.0288001592 0.1103565425
661725000.0 -0.0203165463 0.1135939487
666700000.0 -0.0119733543 0.1163988119
671675000.0 -0.0028929656 0.1186493916
676650000.0 0.0067196711 0.1208630989
681625000.0 0.0167950993 0.1224143838
686600000.0 0.027571798 0.1238180765
691575000.0 0.0387008598 0.1246838353
696550000.0 0.0498690986 0.1237462766
701525000.0 0.0614161237 0.121389706
706500000.0 0.073539966 0.1178109195
711475000.0 0.0858503414 0.1124964871
716450000.0 0.0983622134 0.1054532182
721425000.0 0.1108155833 0.0973049123
726400000.0 0.1228998624 0.0875630296
731375000.0 0.1345380415 0.0761121958
736350000.0 0.1457718099 0.063764891
741325000.0 0.1560193955 0.0505997035
746300000.0 0.1656031572 0.0367184208
751275000.0 0.174375045 0.0215635471
756250000.0 0.1817318703 0.0056346052
761225000.0 0.1880757056 -0.0113649154
766200000.0 0.1932296395 -0.0289207039
771175000.0 0.1959464655 -0.0468086451
776150000.0 0.197034914 -0.0654256072
781125000.0 0.1963765044 -0.0846357624
786100000.0 0.1943049292 -0.1042285947
791075000.0 0.1906116762 -0.1241157364
796050000.0 0.185154128 -0.1437778147
801025000.0 0.1780311394 -0.1634742291
806000000.0 0.1693064381 -0.1827093855
810975000.0 0.1591553433 -0.2013253276
815950000.0 0.1474492291 -0.2188520515
820925000.0 0.13466189 -0.2352510429
825900000.0 0.1213749947 -0.2505265512
830875000.0 0.1074917912 -0.2643122277
835850000.0 0.0923913427 -0.2766480023
840825000.0 0.0766497758 -0.2879742513
845800000.0 0.0601723828 -0.297302151
850775000.0 0.0432523429 -0.3046301788
855750000.0 0.0267229278 -0.3109066297
860725000.0 0.0107434155 -0.3167909404
865700000.0 -0.0056208277 -0.3234948197
870675000.0 -0.0234631195 -0.3308949501
875650000.0 -0.0436620174 -0.337656625
880625000.0 -0.0658473446 -0.3425137298
885600000.0 -0.089346368 -0.3456993229
890575000.0 -0.1144652421 -0.3465265973
895550000.0 -0.1404856571 -0.3448551319
900525000.0 -0.166655245 -0.3403594287
905500000.0 -0.1929999733 -0.3325575548
910475000.0 -0.2194444681 -0.3212846404
915450000.0 -0.2457016571 -0.3069596419
920425000.0 -0.2711131799 -0.2886605811
925400000.0 -0.2958429036 -0.2671839226
930375000.0 -0.3194400468 -0.2422276323
935350000.0 -0.3418369272 -0.2139287545
940325000.0 -0.3628290009 -0.1823153413
945300000.0 -0.382402159 -0.1470488918
950275000.0 -0.4004508219 -0.1079896037
955250000.0 -0.4164834905 -0.0647523312
960225000.0 -0.4292870327 -0.0166902339
965200000.0 -0.4379541623 0.0362781544
970175000.0 -0.4412170787 0.0946537017
975150000.0 -0.4370206144 0.1577359592
980125000.0 -0.4236560999 0.2247841707
985100000.0 -0.3991402082 0.2945330593
990075000.0 -0.3622516012 0.3648525824
995050000.0 -0.3116899048 0.4331623134
1000025000.0 -0.2473604215 0.4967308915
1005000000.0 -0.1690448626 0.5516270283
1009975000.0 -0.0791075936 0.5952903798
1014950000.0 0.0213424308 0.623302362
1019925000.0 0.1284881776 0.633316834
1024900000.0 0.238089248 0.6232436909
1029875000.0 0.3452089918 0.5923412946
1034850000.0 0.4448517057 0.5418022995
1039825000.0 0.5329156792 0.4733830823
1044800000.0 0.6068242605 0.3903054833
1049775000.0 0.6645548153 0.295476247
1054750000.0 0.7031592613 0.1912489395
1059725000.0 0.7149375884 0.0821970944
1064700000.0 0.6962461907 0.0015991658
1069675000.0 0.7126092628 -0.056622942
1074650000.0 0.7260522561 -0.1522773351
1079625000.0 0.711174867 -0.2531457068
1084600000.0 0.6777740114 -0.3420313286
1089575000.0 0.6423644063 -0.4300888724
1094550000.0 0.5820860414 -0.5153498138
1099525000.0 0.5092340976 -0.5845038574
1104500000.0 0.4289071577 -0.6393050203
1109475000.0 0.342958819 -0.6801565715
1114450000.0 0.2543343395 -0.7071961353
1119425000.0 0.1652607859 -0.7218306296
1124400000.0 0.0772555503 -0.7249540705
1129375000.0 -0.0082983573 -0.7175954031
1134350000.0 -0.090871195 -0.7006675256
1139325000.0 -0.1689950155 -0.674298881
1144300000.0 -0.2419617121 -0.6392219217
1149275000.0 -0.3086064017 -0.5964020847
1154250000.0 -0.367599132 -0.5468701894
1159225000.0 -0.4175310024 -0.4921665787
1164200000.0 -0.4583698282 -0.4344514299
1169175000.0 -0.4903367421 -0.3768201439
1174150000.0 -0.51615923 -0.3195988073
1179125000.0 -0.5368608635 -0.2626660156
1184100000.0 -0.551584523 -0.2057826541
1189075000.0 -0.5608473084 -0.1500578747
1194050000.0 -0.5650423718 -0.0971272058
1199025000.0 -0.5648212376 -0.0469466405
1204000000.0 -0.5612304962 0.0001184113
1208975000.0 -0.5544565731 0.0434981313
1213950000.0 -0.545142142 0.083710503
1218925000.0 -0.534644026 0.1194731728
1223900000.0 -0.5233985595 0.1519074997
1228875000.0 -0.5116435189 0.1816286538
1233850000.0 -0.500668971 0.2079766748
1238825000.0 -0.4896640829 0.2324927788
1243800000.0 -0.4788520788 0.2562171017
1248775000.0 -0.4682605213 0.2787586632
1253750000.0 -0.4572601261 0.3004939897
1258725000.0 -0.4461160406 0.3218448381
1263700000.0 -0.4345572428 0.3425221722
1268675000.0 -0.4226490854 0.3620196473
1273650000.0 -0.4108034488 0.3801559876
1278625000.0 -0.3986199466 0.3966831766
1283600000.0 -0.3858258062 0.4121493699
1288575000.0 -0.3733237274 0.4251678432
1293550000.0 -0.360739348 0.4363244034
1298525000.0 -0.3477664205 0.4458003274
1303500000.0 -0.3365853897 0.4526890597
1308475000.0 -0.3252865908 0.4570122426
1313450000.0 -0.3150732676 0.4593771123
1318425000.0 -0.3071466934 0.4597768201
1323400000.0 -0.3012356724 0.4589758835
1328375000.0 -0.2980617777 0.4581522184
1333350000.0 -0.2972891432 0.4587915144
1338325000.0 -0.2983418526 0.4617746389
1343300000.0 -0.2996534899 0.4674099618
1348275000.0 -0.3002374462 0.4755618245
1353250000.0 -0.2993618974 0.4858049477
1358225000.0 -0.2965095598 0.4975820206
1363200000.0 -0.2912197783 0.5095174834
1368175000.0 -0.2844607899 0.5210201302
1373150000.0 -0.2750019273 0.5328090064
1378125000.0 -0.2654337955 0.5426381953
1383100000.0 -0.2548242919 0.550809403
1388075000.0 -0.2432776582 0.5572609413
1393050000.0 -0.2314761589 0.5616572272
1398025000.0 -0.2194281013 0.5640687165
1403000000.0 -0.2074961447 0.564401867
1407975000.0 -0.1959238012 0.5625153871
1412950000.0 -0.1854577593 0.5582839865
1417925000.0 -0.1767624426 0.552537004
1422900000.0 -0.1705839185 0.5457485084
1427875000.0 -0.1677565439 0.5387391229
1432850000.0 -0.1682423044 0.5326269007
1437825000.0 -0.1710885402 0.5292539708
1442800000.0 -0.1748047694 0.5289544009
1447775000.0 -0.1780721985 0.5313369198
1452750000.0 -0.1796645408 0.5367169863
1457725000.0 -0.1787848236 0.544593397
1462700000.0 -0.1745110718 0.5524853899
1467675000.0 -0.1678045651 0.5600650323
1472650000.0 -0.158768548 0.5682767831
1477625000.0 -0.1476238461 0.5749233579
1482600000.0 -0.1340561826 0.5795363174
1487575000.0 -0.1201526322 0.5836988069
1492550000.0 -0.1052682886 0.5859127309
1497525000.0 -0.0883238425 0.5860081061
1502500000.0 -0.071540108 0.5860417243
1507475000.0 -0.0550386709 0.5850555899
1512450000.0 -0.0384030928 0.5832031485
1517425000.0 -0.0223183115 0.5803974853
1522400000.0 -0.0079091233 0.5769348071
1527375000.0 0.0059504167 0.5733475944
1532350000.0 0.0183627649 0.5697959576
1537325000.0 0.0302057422 0.5654921833
1542300000.0 0.0420065276 0.5620818118
1547275000.0 0.0538944255 0.5584944351
1552250000.0 0.0672366335 0.554440162
1557225000.0 0.0810241246 0.5501460953
1562200000.0 0.0952748563 0.5448052877
1567175000.0 0.1107405974 0.5378000834
1572150000.0 0.1265922632 0.5298590187
1577125000.0 0.1423713985 0.5209356968
1582100000.0 0.1597266052 0.5108328834
1587075000.0 0.17661521 0.5005982921
1592050000.0 0.1932216723 0.489423164
1597025000.0 0.2108309609 0.4784422605
1602000000.0 0.2290457201 0.4672826402
1606975000.0 0.246283645 0.4558285829
1611950000.0 0.2636473746 0.4443438091
1616925000.0 0.2812129852 0.4325893045
1621900000.0 0.2983495524 0.4202551817
1626875000.0 0.314342008 0.4081738123
1631850000.0 0.3300111106 0.3951996454
1636825000.0 0.3458935377 0.3821071251
1641800000.0 0.3605026169 0.3683063746
1646775000.0 0.3739364183 0.3539105689
1651750000.0 0.3880867364 0.3392512063
1656725000.0 0.4010377893 0.3243257834
1661700000.0 0.4128153592 0.3082598474
1666675000.0 0.4245386569 0.29290549
1671650000.0 0.4351081649 0.2772296602
1676625000.0 0.4447027692 0.2606878657
1681600000.0 0.4534052118 0.2448164091
1686575000.0 0.4604688027 0.22902006
1691550000.0 0.4664079409 0.2128190955
1696525000.0 0.4712215752 0.1972645451
1701500000.0 0.4745075716 0.1821210412
1706475000.0 0.47629056 0.1671062131
1711450000.0 0.476734653 0.1530253057
1716425000.0 0.476260029 0.1401375762
1721400000.0 0.4753848003 0.1272100673
1726375000.0 0.4738187518 0.1152082854
1731350000.0 0.4730964448 0.1037299425
1736325000.0 0.4723501242 0.09208721
1741300000.0 0.4700568128 0.0807901936
1746275000.0 0.4675051014 0.0710088258
1751250000.0 0.4640373824 0.0659217131
1756225000.0 0.4636125172 0.0668397224
1761200000.0 0.4709689206 0.0703784942
1766175000.0 0.4843979719 0.0700704191
1771150000.0 0.4979841533 0.0632894656
1776125000.0 0.5086008821 0.0531245281
1781100000.0 0.5145916762 0.0419355668
1786075000.0 0.5176730107 0.0315337159
1791050000.0 0.5182785758 0.0225280611
1796025000.0 0.5162442573 0.0148369455
1801000000.0 0.512683993 0.00898785
1805975000.0 0.5079408907 0.0056024605
1810950000.0 0.5030687888 0.0039436073
1815925000.0 0.4992980518 0.0032280955
1820900000.0 0.4963702543 0.0037066042
1825875000.0 0.4956100806 0.0045198617
1830850000.0 0.4969058668 0.0044079372
1835825000.0 0.4994980399 0.0036272872
1840800000.0 0.5025818012 0.0010036997
1845775000.0 0.5058651763 -0.0024025368
1850750000.0 0.508984092 -0.0069434769
1855725000.0 0.5103693294 -0.0131893928
1860700000.0 0.5099529162 -0.0187005834
1865675000.0 0.5088510948 -0.024551273
1870650000.0 0.5050486861 -0.031132476
1875625000.0 0.4992118837 -0.0365089986
1880600000.0 0.4918525338 -0.0418282629
1885575000.0 0.4820735036 -0.0465461699
1890550000.0 0.4705986778 -0.0503567344
1895525000.0 0.4575610149 -0.0534608862
1900500000.0 0.4437547713 -0.0543334805
1905475000.0 0.4298675245 -0.0537034879
1910450000.0 0.4162309471 -0.0517823423
1915425000.0 0.4047461946 -0.0477707315
1920400000.0 0.3953409326 -0.0435130648
1925375000.0 0.3879581658 -0.0393146083
1930350000.0 0.3824026078 -0.0359524027
1935325000.0 0.3772701304 -0.0343812701
1940300000.0 0.3714480023 -0.0339231634
1945275000.0 0.3648655597 -0.0343465471
1950250000.0 0.3565386226 -0.0352336901
1955225000.0 0.3460842081 -0.0366746606
1960200000.0 0.3332471426 -0.0383734315
1965175000.0 0.3185207676 -0.0391095421
1970150000.0 0.3016871019 -0.0398094235
1975125000.0 0.2816218837 -0.0405082712
1980100000.0 0.2599356907 -0.0405750529
1985075000.0 0.2365113777 -0.0404875648
1990050000.0 0.2098903303 -0.0400504834
1995025000.0 0.1813424609 -0.0381883159
2000000000.0 0.1501361925 -0.0357607013
