!Created with skrf (http://scikit-rf.org).
# GHz S RI R 50.0 
!freq ReS11 ImS11
10000000.0 -0.770653929 0.6741366593
19950000.0 -0.1434781218 0.9880400102
29900000.0 0.5308925807 0.8223783238
39850000.0 0.9407030084 0.2552223514
49800000.0 0.8775024943 -0.4544097938
59750000.0 0.33935312 -0.952969045
69700000.0 -0.4186887478 -0.9392517946
79650000.0 -0.9551996582 -0.3700999635
89600000.0 -0.9016076011 0.4314996711
99550000.0 -0.2509082461 0.9371234385
109500000.0 0.5804725904 0.7621425156
119450000.0 0.9741298633 -0.0288542928
129400000.0 0.5465288396 -0.8411867091
139350000.0 -0.3826225549 -0.9375894394
149300000.0 -0.9644057906 -0.2179930287
159250000.0 -0.7126790264 0.6356309301
169200000.0 0.080270164 0.937865418
179150000.0 0.7890509625 0.5386418894
189100000.0 0.9545900168 -0.2304348449
199050000.0 0.5160059919 -0.8558462442
209000000.0 -0.2171259178 -0.9698498444
218950000.0 -0.798385829 -0.5500657505
228900000.0 -0.9323824996 0.1334865454
238850000.0 -0.5839002421 0.7190058781
248800000.0 0.0485362251 0.9047286513
258750000.0 0.6702854396 0.6710016518
268700000.0 0.9652721927 0.0693020295
278650000.0 0.7832248439 -0.5745442125
288600000.0 0.2196157915 -0.9268982221
298550000.0 -0.4269801304 -0.8096650618
308500000.0 -0.8211677228 -0.2933235885
318450000.0 -0.7596274044 0.3451903722
328400000.0 -0.279211104 0.7568324723
338350000.0 0.336333042 0.7034168629
348300000.0 0.6946417645 0.2354170601
358250000.0 0.5817041862 -0.2966408328
368200000.0 0.1529801715 -0.5179175773
378150000.0 -0.2213337266 -0.3489508237
388100000.0 -0.2982428856 -0.0201414035
398050000.0 -0.1221882635 0.1822294123
408000000.0 0.0840159527 0.1529878692
417950000.0 0.1453785762 0.0011577348
427900000.0 0.0586010298 -0.1048090521
437850000.0 -0.0648378605 -0.084631499
447800000.0 -0.1161439609 0.0245850262
457750000.0 -0.0617459409 0.1290633305
467700000.0 0.0519167406 0.1530044161
477650000.0 0.1426378438 0.0861134825
487600000.0 0.1555744364 -0.0210738497
497550000.0 0.0935004468 -0.0989788558
507500000.0 -0.000590171 -0.1130595568
517450000.0 -0.0651330065 -0.0644440617
527400000.0 -0.0733461041 0.0016097427
537350000.0 -0.0383336034 0.0393667984
547300000.0 -0.0024021761 0.0333852003
557250000.0 0.0031877883 0.005451896
567200000.0 -0.0233446005 -0.0072223473
577150000.0 -0.0509505157 0.0170390346
587100000.0 -0.0426860622 0.0648885048
597050000.0 0.011881774 0.0961694331
607000000.0 0.0857600629 0.0737275434
616950000.0 0.1301254013 -0.0058278031
626900000.0 0.1070127455 -0.106460453
636850000.0 0.0160954212 -0.1720389182
646800000.0 -0.1010875605 -0.1597188604
656750000.0 -0.1822267668 -0.0683584791
666700000.0 -0.1794736951 0.0565960476
676650000.0 -0.0904754189 0.1467683242
686600000.0 0.0374830963 0.1509140085
696550000.0 0.1344235299 0.0662493276
706500000.0 0.1466699911 -0.0590159767
716450000.0 0.0715755486 -0.1536756929
726400000.0 -0.0434655981 -0.1648885509
736350000.0 -0.1245808549 -0.0906969338
746300000.0 -0.1191533955 0.0159338899
756250000.0 -0.0305762827 0.0774889397
766200000.0 0.0769866486 0.0449930309
776150000.0 0.1215002681 -0.0657077229
786100000.0 0.0595124931 -0.1788317591
796050000.0 -0.080717429 -0.20631879
806000000.0 -0.2058812202 -0.1068688647
815950000.0 -0.2163566702 0.0741269384
825900000.0 -0.0752853353 0.2229382611
835850000.0 0.1529199373 0.2254613357
845800000.0 0.3307874242 0.0481785291
855750000.0 0.3183727625 -0.2237024035
865700000.0 0.1077246996 -0.3706578639
875650000.0 -0.0935453897 -0.3817864905
885600000.0 -0.3148903554 -0.255035326
895550000.0 -0.3914229843 0.0270015563
905500000.0 -0.2354853765 0.300054286
915450000.0 0.0827113969 0.3884832625
925400000.0 0.3792857986 0.2198137886
935350000.0 0.4688305814 -0.1187589781
945300000.0 0.2828644731 -0.4245138187
955250000.0 -0.0793531446 -0.4988407653
965200000.0 -0.3903284229 -0.2682819368
975150000.0 -0.418250962 0.1440219917
985100000.0 -0.0863957041 0.4429181593
995050000.0 0.3879919261 0.3413219075
1005000000.0 0.5850561362 -0.1465110257
1014950000.0 0.264362411 -0.616509837
1024900000.0 -0.3547373148 -0.6137342843
1034850000.0 -0.736999797 -0.0519715276
1044800000.0 -0.4578635352 0.6385504308
1054750000.0 0.3225458906 0.7863848781
1064700000.0 0.8717582824 0.2042678332
1074650000.0 0.7221177311 -0.5464761751
1084600000.0 0.0691853158 -0.8678204515
1094550000.0 -0.5589027294 -0.6205428652
1104500000.0 -0.7989944557 0.0236727988
1114450000.0 -0.455082476 0.6195741676
1124400000.0 0.2134761271 0.7149078385
1134350000.0 0.6713397171 0.2679991685
1144300000.0 0.6144139603 -0.3179814545
1154250000.0 0.1768524768 -0.6324241903
1164200000.0 -0.3145846733 -0.5354041131
1174150000.0 -0.5766340617 -0.1347168868
1184100000.0 -0.4729791148 0.3323073627
1194050000.0 -0.0529750641 0.5698362638
1204000000.0 0.3962751567 0.4131849367
1213950000.0 0.5794358024 -0.0073043846
1223900000.0 0.4221561708 -0.4153148853
1233850000.0 0.04738717 -0.60373861
1243800000.0 -0.354494467 -0.5051735449
1253750000.0 -0.6005387291 -0.1688385283
1263700000.0 -0.566956693 0.2562322313
1273650000.0 -0.2500515973 0.5586992248
1283600000.0 0.1929945596 0.5702498073
1293550000.0 0.5281419221 0.2877598889
1303500000.0 0.6000021309 -0.1310153398
1313450000.0 0.4035109872 -0.4930907329
1323400000.0 0.037846664 -0.6623964039
1333350000.0 -0.35511213 -0.5831419894
1343300000.0 -0.6279913498 -0.2793635394
1353250000.0 -0.658305533 0.1407371763
1363200000.0 -0.4098602135 0.4973421964
1373150000.0 0.0156348788 0.613059157
1383100000.0 0.4130192803 0.4297341145
1393050000.0 0.6027672619 0.0482341042
1403000000.0 0.5249154274 -0.3538418292
1412950000.0 0.2334145085 -0.621153274
1422900000.0 -0.1519113339 -0.6655183757
1432850000.0 -0.4892424439 -0.4734017713
1442800000.0 -0.6443406899 -0.1128857667
1452750000.0 -0.5402340335 0.2726197975
1462700000.0 -0.208891953 0.5068117471
1472650000.0 0.1952312526 0.4742627168
1482600000.0 0.4774935146 0.1961359617
1492550000.0 0.5150450247 -0.1832257267
1502500000.0 0.3125925647 -0.4886413907
1512450000.0 -0.0244489385 -0.5986702791
1522400000.0 -0.3483949661 -0.476133032
1532350000.0 -0.5183140012 -0.176490177
1542300000.0 -0.4521143706 0.1654974866
1552250000.0 -0.1754125269 0.3804364151
1562200000.0 0.1706254458 0.3513839232
1572150000.0 0.3986437737 0.0956031914
1582100000.0 0.392267478 -0.2392695066
1592050000.0 0.1688316964 -0.4726323884
1602000000.0 -0.1499550994 -0.4973585823
1611950000.0 -0.4073361367 -0.2883975964
1621900000.0 -0.4621227725 0.0349767556
1631850000.0 -0.2844279721 0.3205546808
1641800000.0 0.052319243 0.4156579979
1651750000.0 0.3758127354 0.2536602774
1661700000.0 0.5035124644 -0.0873922787
1671650000.0 0.3651164886 -0.4257203525
1681600000.0 0.0395847479 -0.59003415
1691550000.0 -0.3155707336 -0.5119436725
1701500000.0 -0.5467270545 -0.2297240977
1711450000.0 -0.5578398087 0.1445382034
1721400000.0 -0.3294402143 0.4609131019
1731350000.0 0.0593094549 0.5701095615
1741300000.0 0.438774344 0.3995678676
1751250000.0 0.6202018203 0.0191310466
1761200000.0 0.519297049 -0.3840654637
1771150000.0 0.2007129287 -0.6298663704
1781100000.0 -0.189011536 -0.6370234458
1791050000.0 -0.506195058 -0.4241335816
1801000000.0 -0.6495862119 -0.0711641735
1810950000.0 -0.5659478088 0.3073059845
1820900000.0 -0.2663005121 0.571990218
1830850000.0 0.1472087867 0.6006935056
1840800000.0 0.4916557119 0.3603440701
1850750000.0 0.6033413642 -0.0374023341
1860700000.0 0.4493906539 -0.4030253583
1870650000.0 0.1270934024 -0.594491744
1880600000.0 -0.2248387836 -0.571340858
1890550000.0 -0.4921307503 -0.3679492044
1900500000.0 -0.599571737 -0.0586264217
1910450000.0 -0.5161568575 0.255598095
1920400000.0 -0.2665683393 0.4607919936
1930350000.0 0.0505820278 0.4706343656
1940300000.0 0.2956866541 0.2858039344
1950250000.0 0.368457148 0.0083036745
1960200000.0 0.2681198384 -0.2297267651
1970150000.0 0.0723950069 -0.3456943096
1980100000.0 -0.1233317784 -0.3307111807
1990050000.0 -0.2485638385 -0.2282341039
2000000000.0 -0.2818302806 -0.1090005304
