!Created with skrf (http://scikit-rf.org).
# GHz S RI R 50.0 
!freq ReS11 ImS11
10000000.0 -0.8045231737 0.6019548345
19950000.0 -0.2934950621 0.9468256184
29900000.0 0.3197397119 0.9300251981
39850000.0 0.8123123959 0.5546187719
49800000.0 0.9892190199 -0.0511304158
59750000.0 0.756293035 -0.6545537651
69700000.0 0.1822756042 -0.9883716964
79650000.0 -0.4893333022 -0.8716404654
89600000.0 -0.9299590945 -0.3275960288
99550000.0 -0.8897436173 0.392932112
109500000.0 -0.343084132 0.9052742438
119450000.0 0.4392226531 0.8711338705
129400000.0 0.9576228072 0.2360814805
139350000.0 0.8043604977 -0.5778530709
149300000.0 0.0704263639 -0.9743252993
159250000.0 -0.6845291482 -0.6707407105
169200000.0 -0.9469818415 0.0686786185
179150000.0 -0.6015538582 0.7399786798
189100000.0 0.0911093828 0.9600529821
199050000.0 0.7194165411 0.6518760151
209000000.0 0.9654711868 0.0223929582
218950000.0 0.7484004715 -0.5884522007
228900000.0 0.2076633214 -0.9141645902
238850000.0 -0.4101211354 -0.8329839358
248800000.0 -0.6340920714 -0.4526895216
258750000.0 -0.9198021677 0.1669912196
268700000.0 -0.6278190931 0.7001074868
278650000.0 -0.0744346411 0.9327939386
288600000.0 0.4980211894 0.7721144171
298550000.0 0.8420384634 0.2949893627
308500000.0 0.8121611119 -0.2877041257
318450000.0 0.4230085152 -0.7151622833
328400000.0 -0.1436427511 -0.7880736317
338350000.0 -0.6035058197 -0.4711342459
348300000.0 -0.7129765036 0.0517832357
358250000.0 -0.44055299 0.4684687591
368200000.0 0.0021699422 0.5538234824
378150000.0 0.3254430491 0.3229823257
388100000.0 0.3706334892 -0.0158710418
398050000.0 0.186483323 -0.2372198191
408000000.0 -0.0510882658 -0.2457648839
417950000.0 -0.1851943633 -0.1043887975
427900000.0 -0.1698369818 0.0563747608
437850000.0 -0.0598066263 0.1364937479
447800000.0 0.0544599008 0.1124505921
457750000.0 0.1068748392 0.0266286017
467700000.0 0.0840645291 -0.0561857071
477650000.0 0.0201017033 -0.0891522952
487600000.0 -0.0323890341 -0.0629100358
497550000.0 -0.0412802762 -0.1076604655
507500000.0 -0.0580568273 -0.0013977661
517450000.0 -0.023156579 0.0116661544
527400000.0 -0.0054317457 -0.0059209344
537350000.0 -0.01742359 -0.0279237044
547300000.0 -0.0543633616 -0.0262735745
557250000.0 -0.0789909386 0.0147960908
567200000.0 -0.0663784016 0.0712805114
577150000.0 -0.0103449538 0.1131691693
587100000.0 0.070116279 0.1089449655
597050000.0 0.1383695501 0.0485643997
607000000.0 0.1570340582 -0.0502305526
616950000.0 0.1086866557 -0.1460493649
626900000.0 0.0080956318 -0.1963085416
636850000.0 -0.1062211659 -0.1750816617
646800000.0 -0.1852629874 -0.087315906
656750000.0 -0.1946693723 0.0314675407
666700000.0 -0.1283204957 0.131047121
676650000.0 -0.0156877399 0.1679413525
686600000.0 0.093133914 0.1273611131
696550000.0 0.1504573759 0.0314131535
706500000.0 0.1337057014 -0.0720559174
716450000.0 0.0578964297 -0.1333104958
726400000.0 -0.0330559027 -0.1245596314
736350000.0 -0.0860013152 -0.055065415
746300000.0 -0.069549842 0.0308093655
756250000.0 0.0087123205 0.0779768874
766200000.0 0.1021541376 0.0508675576
776150000.0 0.1497896652 -0.0432393452
786100000.0 0.1119806161 -0.1534991033
796050000.0 -0.0053919333 -0.2119891686
806000000.0 -0.1488644127 -0.1688294722
815950000.0 -0.2389869788 -0.0249233916
825900000.0 -0.2137509526 0.1617698838
835850000.0 -0.0651789907 0.3023062088
845800000.0 0.1512680275 0.3210449572
855750000.0 0.3420612886 0.1952435017
865700000.0 0.4163705274 -0.0318858562
875650000.0 0.3292364251 -0.2662497594
885600000.0 0.1031165786 -0.4017261211
895550000.0 -0.1707074567 -0.3645799649
905500000.0 -0.3676947468 -0.154802246
915450000.0 -0.3858827189 0.1406397492
925400000.0 -0.2045484468 0.3806554133
935350000.0 0.0943965519 0.4391170872
945300000.0 0.3582466852 0.2726369798
955250000.0 0.4306410345 -0.0459512074
965200000.0 0.2333916499 -0.3376359749
975150000.0 -0.1527856068 -0.3852584528
985100000.0 -0.4613808872 -0.0809841353
995050000.0 -0.3978314084 0.391975838
1005000000.0 0.0619693701 0.6451068982
1014950000.0 0.5846693575 0.408563678
1024900000.0 0.7301877349 -0.1994978679
1034850000.0 0.3116750897 -0.7268900794
1044800000.0 -0.3850368859 -0.7185706519
1054750000.0 -0.784578995 -0.1823396235
1064700000.0 -0.702494053 0.3388863633
1074650000.0 -0.3145770982 0.7337895687
1084600000.0 0.2121269345 0.784161492
1094550000.0 0.6766296829 0.4188298678
1104500000.0 0.7329929416 -0.1769292159
1114450000.0 0.3401377056 -0.6234603208
1124400000.0 -0.2292595746 -0.6342568895
1134350000.0 -0.593385834 -0.2562001397
1144300000.0 -0.5784283712 0.2204618407
1154250000.0 -0.261632384 0.5249470822
1164200000.0 0.1540943303 0.5254902829
1174150000.0 0.4505669437 0.2469302411
1184100000.0 0.46914994 -0.161600226
1194050000.0 0.1994264179 -0.4613458999
1204000000.0 -0.1870425457 -0.4924580019
1213950000.0 -0.4834774119 -0.2747434607
1223900000.0 -0.5755431673 0.0654177621
1233850000.0 -0.4466818161 0.3867822408
1243800000.0 -0.1479602607 0.5719104932
1253750000.0 0.2138236458 0.5425522255
1263700000.0 0.494050773 0.2945892504
1273650000.0 0.5715279497 -0.0770978869
1283600000.0 0.4169361786 -0.4186253295
1293550000.0 0.1064267644 -0.6064806786
1303500000.0 -0.2424407387 -0.5940320415
1313450000.0 -0.5241937621 -0.4036631256
1323400000.0 -0.6638870865 -0.0941059879
1333350000.0 -0.617816993 0.2492554049
1343300000.0 -0.3836354953 0.523968799
1353250000.0 -0.022819919 0.6262234791
1363200000.0 0.3409382191 0.5043874031
1373150000.0 0.5723451575 0.2007920682
1383100000.0 0.5967387571 -0.1686613896
1393050000.0 0.4267718213 -0.4790190603
1403000000.0 0.1312226992 -0.6465911376
1412950000.0 -0.1996695126 -0.6348728206
1422900000.0 -0.4732460637 -0.4525464106
1432850000.0 -0.6086819705 -0.1495224869
1442800000.0 -0.5592645207 0.1847989689
1452750000.0 -0.3323692679 0.444369411
1462700000.0 0.0040887497 0.5386599126
1472650000.0 0.33315689 0.4312792358
1482600000.0 0.5407633821 0.1668884616
1492550000.0 0.5656906447 -0.1547981634
1502500000.0 0.413508045 -0.4269348295
1512450000.0 0.1402206335 -0.5647123851
1522400000.0 -0.1643108647 -0.5222346582
1532350000.0 -0.3908658561 -0.3069068686
1542300000.0 -0.4475248823 0.0049920889
1552250000.0 -0.3058338395 0.2879523959
1562200000.0 -0.0291823099 0.42362556
1572150000.0 0.2606147669 0.3670825457
1582100000.0 0.448052347 0.157060043
1592050000.0 0.4698331575 -0.1146687081
1602000000.0 0.3239733113 -0.3428078873
1611950000.0 0.0639223371 -0.4381937321
1621900000.0 -0.2100640199 -0.3538502842
1631850000.0 -0.3802458621 -0.1102591234
1641800000.0 -0.3634573362 0.192902699
1651750000.0 -0.1620425135 0.4192205671
1661700000.0 0.1258802865 0.4683672828
1671650000.0 0.3686173212 0.3602940609
1681600000.0 0.5356839488 0.1233908317
1691550000.0 0.5227327453 -0.1809250975
1701500000.0 0.3320785157 -0.4288866105
1711450000.0 0.0225120464 -0.529152281
1721400000.0 -0.3032931049 -0.4292718514
1731350000.0 -0.5166196882 -0.1522689791
1741300000.0 -0.5295966353 0.197400901
1751250000.0 -0.3452417741 0.4852243995
1761200000.0 -0.0437947352 0.6182131655
1771150000.0 0.2716034257 0.5723574248
1781100000.0 0.5134441669 0.3736120251
1791050000.0 0.6205433629 0.0768827366
1801000000.0 0.5565141933 -0.2419382825
1810950000.0 0.3228455625 -0.4878703238
1820900000.0 -0.0193160411 -0.5674060874
1830850000.0 -0.3491813761 -0.439967924
1840800000.0 -0.5463665459 -0.1574485736
1850750000.0 -0.5574939961 0.1685307968
1860700000.0 -0.4065576923 0.4331543967
1870650000.0 -0.1581054921 0.5758872678
1880600000.0 0.1164070699 0.5745507031
1890550000.0 0.3489550781 0.4362635171
1900500000.0 0.4764275179 0.1946152435
1910450000.0 0.4524726898 -0.0798504138
1920400000.0 0.28083501 -0.2929183802
1930350000.0 0.0305144153 -0.3694261907
1940300000.0 -0.1991558472 -0.3000679562
1950250000.0 -0.3345507925 -0.1386190185
1960200000.0 -0.3555543723 0.0387918244
1970150000.0 -0.2873324426 0.1692934378
1980100000.0 -0.181416739 0.2172218284
1990050000.0 -0.1032740219 0.1872074956
2000000000.0 -0.1011495909 0.1340610243
