!Created with skrf (http://scikit-rf.org).
# GHz S RI R 50.0 
!freq ReS11 ImS11
10000000.0 -0.8147054219 0.6070841292
19950000.0 -0.2978897678 0.9460912723
29900000.0 0.3156573694 0.9197119533
39850000.0 0.8055562771 0.5370861433
49800000.0 0.9798796455 -0.0747075855
59750000.0 0.7392745906 -0.6861080275
69700000.0 0.1458220813 -1.017354694
79650000.0 -0.5403024155 -0.8685998272
89600000.0 -0.9566337499 -0.2739682476
99550000.0 -0.844451186 0.469447527
109500000.0 -0.2157864329 0.9347667853
119450000.0 0.5898485738 0.7843757176
129400000.0 1.010319302 0.0397084498
139350000.0 0.6773422506 -0.7577393388
149300000.0 -0.1447001511 -0.9749059901
159250000.0 -0.8043309587 -0.5014760795
169200000.0 -0.8978968856 0.2622437169
179150000.0 -0.4489232481 0.8393407524
189100000.0 0.2433116209 0.9463736285
199050000.0 0.8058025063 0.5722322733
209000000.0 0.9760546607 -0.0603637249
218950000.0 0.7150802592 -0.6299118865
228900000.0 0.1750535265 -0.9107133244
238850000.0 -0.4138402552 -0.8152645978
248800000.0 -0.8169105276 -0.4091978351
258750000.0 -0.9221916927 0.17860082
268700000.0 -0.6531740831 0.7018373849
278650000.0 -0.1237126709 0.9533525872
288600000.0 0.4457892888 0.8266460898
298550000.0 0.8154449155 0.3796715648
308500000.0 0.8356528386 -0.1971082031
318450000.0 0.4993810833 -0.6606420091
328400000.0 -0.0474102642 -0.8066568029
338350000.0 -0.5442990925 -0.5634660914
348300000.0 -0.7295237022 -0.0670838848
358250000.0 -0.5232141638 0.3777181549
368200000.0 -0.1065139726 0.5161045723
378150000.0 0.2247835953 0.3356756503
388100000.0 0.2966253994 0.0299787633
398050000.0 0.1492686032 -0.1716345566
408000000.0 -0.0438869366 -0.1762089445
417950000.0 -0.1368537714 -0.0531478517
427900000.0 -0.0932935619 0.070377952
437850000.0 0.0231417273 0.1065434948
447800000.0 0.1177764578 0.0436171376
457750000.0 0.1397132923 -0.0638420846
467700000.0 0.0783404946 -0.1492749999
477650000.0 -0.0201779789 -0.1650090681
487600000.0 -0.0989587444 -0.1114750184
497550000.0 -0.1246592263 -0.0259996125
507500000.0 -0.0897520886 0.0519334592
517450000.0 -0.0273795846 0.0832831268
527400000.0 0.0282355733 0.0676126136
537350000.0 0.048269846 0.0284117967
547300000.0 0.0346982735 -0.000945758
557250000.0 0.0059378127 0.0003038776
567200000.0 -0.0081408223 0.0272617111
577150000.0 0.0097954361 0.0572963248
587100000.0 0.0532019348 0.0596264674
597050000.0 0.0915978518 0.0201085176
607000000.0 0.0956137733 -0.0483041655
616950000.0 0.049142281 -0.1143998591
626900000.0 -0.0370904852 -0.1411892554
636850000.0 -0.1266473776 -0.1091047939
646800000.0 -0.1793712507 -0.025842244
656750000.0 -0.1692968328 0.0766728283
666700000.0 -0.0938110004 0.1510967968
676650000.0 0.0156602235 0.1613934225
686600000.0 0.1097403719 0.0988464924
696550000.0 0.1469012871 -0.0091318553
706500000.0 0.1125558879 -0.1125942315
716450000.0 0.0213943582 -0.1665092467
726400000.0 -0.0756855025 -0.1458571135
736350000.0 -0.1257475862 -0.0638755926
746300000.0 -0.1010425112 0.0313947024
756250000.0 -0.0096894437 0.0825300791
766200000.0 0.0964766865 0.0557506147
776150000.0 0.1545228488 -0.04144757
786100000.0 0.1246957218 -0.154865127
796050000.0 0.0140882082 -0.2126755652
806000000.0 -0.1176241114 -0.1748177097
815950000.0 -0.2022566792 -0.0400077048
825900000.0 -0.1788904193 0.1376970774
835850000.0 -0.0339496011 0.2710652339
845800000.0 0.1731662247 0.2853943428
855750000.0 0.351307234 0.1585485365
865700000.0 0.4096856399 -0.0642338494
875650000.0 0.3051355359 -0.2838100013
885600000.0 0.0695011467 -0.3931405606
895550000.0 -0.1989673963 -0.3232468948
905500000.0 -0.3721828332 -0.0896420403
915450000.0 -0.3576385457 0.2110449081
925400000.0 -0.148259548 0.4350313237
935350000.0 0.1610243958 0.4628630758
945300000.0 0.4130618209 0.2633557784
955250000.0 0.4563919201 -0.0751011653
965200000.0 0.2283984118 -0.3671002337
975150000.0 -0.1737208232 -0.4061183519
985100000.0 -0.4957481253 -0.1024944356
995050000.0 -0.459095349 0.376767995
1005000000.0 -0.0241150397 0.6617856039
1014950000.0 0.5094435954 0.4749302833
1024900000.0 0.7097470452 -0.1091450273
1034850000.0 0.3512264096 -0.6706836072
1044800000.0 -0.3389938054 -0.7345184411
1054750000.0 -0.8101997406 -0.2382609089
1064700000.0 -0.7673673975 0.4031071925
1074650000.0 -0.2754030035 0.8129260203
1084600000.0 0.3372105311 0.7519640193
1094550000.0 0.7388723 0.2812690779
1104500000.0 0.6870259363 -0.3381239343
1114450000.0 0.2081789768 -0.7220100469
1124400000.0 -0.3691031912 -0.6331894811
1134350000.0 -0.6765885262 -0.1881773869
1144300000.0 -0.592926311 0.3022901803
1154250000.0 -0.2270724131 0.5877641011
1164200000.0 0.2135326245 0.5646621509
1174150000.0 0.5323822255 0.2624020902
1184100000.0 0.5611187749 -0.1814019735
1194050000.0 0.2804240344 -0.5169810075
1204000000.0 -0.1358430364 -0.571986696
1213950000.0 -0.471307736 -0.3584831885
1223900000.0 -0.6016984636 -0.0032314833
1233850000.0 -0.5048116793 0.3511610221
1243800000.0 -0.2200698961 0.5839629252
1253750000.0 0.1557240919 0.6046656225
1263700000.0 0.4765928501 0.3886222185
1273650000.0 0.6021002744 0.0179448698
1283600000.0 0.4837402421 -0.3514289036
1293550000.0 0.1854308071 -0.5765024672
1303500000.0 -0.1707840876 -0.6010049455
1313450000.0 -0.4750375832 -0.4399554039
1323400000.0 -0.6494425979 -0.148210158
1333350000.0 -0.6438743867 0.1962373873
1343300000.0 -0.4443420926 0.4925841755
1353250000.0 -0.0975665065 0.6272666256
1363200000.0 0.2730149271 0.5331022382
1373150000.0 0.5246644369 0.2428072722
1383100000.0 0.5690286885 -0.1279531126
1393050000.0 0.4145354786 -0.4482443392
1403000000.0 0.1291535012 -0.6294735914
1412950000.0 -0.1967315912 -0.6326702079
1422900000.0 -0.471375981 -0.4626122079
1432850000.0 -0.610163434 -0.1626805939
1442800000.0 -0.5556347535 0.174716196
1452750000.0 -0.3121084595 0.4292912557
1462700000.0 0.0357409727 0.4988134131
1472650000.0 0.3541341848 0.36220598
1482600000.0 0.5316808881 0.083069308
1492550000.0 0.5219277175 -0.2311512598
1502500000.0 0.3427015983 -0.473049693
1512450000.0 0.0618462497 -0.563782597
1522400000.0 -0.2200568046 -0.4693308598
1532350000.0 -0.3928132461 -0.2179696681
1542300000.0 -0.3805284822 0.0934455364
1552250000.0 -0.1829432876 0.3342886106
1562200000.0 0.1131820635 0.4029972038
1572150000.0 0.3750139902 0.2792998816
1582100000.0 0.4990197112 0.0328703396
1592050000.0 0.4458154417 -0.2332064988
1602000000.0 0.2359527237 -0.4147108434
1611950000.0 -0.0539930346 -0.4342347452
1621900000.0 -0.3103078173 -0.2686215525
1631850000.0 -0.4214077701 0.0292014414
1641800000.0 -0.3288788475 0.3383784513
1651750000.0 -0.067884426 0.5276387043
1661700000.0 0.2486662414 0.5191903039
1671650000.0 0.4961167173 0.3287808355
1681600000.0 0.592590768 0.0325582897
1691550000.0 0.5095547978 -0.2744097388
1701500000.0 0.2662936687 -0.4960056631
1711450000.0 -0.0708217109 -0.5524348097
1721400000.0 -0.3972167729 -0.4057742233
1731350000.0 -0.5863839519 -0.0928544163
1741300000.0 -0.5616085759 0.2708732738
1751250000.0 -0.3401138516 0.5477054686
1761200000.0 -0.0153218932 0.6529107926
1771150000.0 0.3055551163 0.5754141276
1781100000.0 0.5403123307 0.3512665788
1791050000.0 0.6349799299 0.0394502206
1801000000.0 0.5596935728 -0.2857648106
1810950000.0 0.3185925816 -0.5341188764
1820900000.0 -0.0293833984 -0.6132950587
1830850000.0 -0.3656896126 -0.4802232356
1840800000.0 -0.5658904756 -0.1868999723
1850750000.0 -0.5736407599 0.1516828646
1860700000.0 -0.4158706713 0.4259420708
1870650000.0 -0.1601803991 0.5755590975
1880600000.0 0.1215567277 0.5813349317
1890550000.0 0.362290489 0.449742802
1900500000.0 0.5001269431 0.2126644186
1910450000.0 0.4892777525 -0.0634134992
1920400000.0 0.3275676831 -0.2844883464
1930350000.0 0.0802564419 -0.371048647
1940300000.0 -0.1535413525 -0.3115655557
1950250000.0 -0.2993163887 -0.1566765481
1960200000.0 -0.3332030778 0.0186545767
1970150000.0 -0.2812288695 0.1476844414
1980100000.0 -0.2016221756 0.2038985551
1990050000.0 -0.1370976905 0.2017464615
2000000000.0 -0.1263844509 0.1708997274
