!Created with skrf (http://scikit-rf.org).
# GHz S RI R 50.0 
!freq ReS11 ImS11
10000000.0 -0.7551043809 0.0567696986
14975000.0 -0.7607334015 0.087905334
19950000.0 -0.7670912849 0.1219644932
24925000.0 -0.7720194657 0.1594570118
29900000.0 -0.7749925164 0.1992045088
34875000.0 -0.7735071343 0.2419689384
39850000.0 -0.7670181754 0.2871926102
44825000.0 -0.7554615563 0.3343205173
49800000.0 -0.7388500016 0.3830331079
54775000.0 -0.7169730327 0.4327632391
59750000.0 -0.6899832906 0.4836270104
64725000.0 -0.6584690055 0.5348393935
69700000.0 -0.6220460133 0.5866024291
74675000.0 -0.5806251854 0.6387873025
79650000.0 -0.5339406982 0.6916483812
84625000.0 -0.4811132477 0.7447090309
89600000.0 -0.4208678195 0.79788316
94575000.0 -0.3510009184 0.8497151599
99550000.0 -0.2694872376 0.8978460805
104525000.0 -0.1744540015 0.9385792664
109500000.0 -0.0656288409 0.966770845
114475000.0 0.0550884381 0.9779469241
119450000.0 0.1841698392 0.96818352
124425000.0 0.3159827725 0.9347990602
129400000.0 0.443403438 0.8772569891
134375000.0 0.5569428279 0.8014935871
139350000.0 0.6686099278 0.6989626244
144325000.0 0.7573703565 0.582854842
149300000.0 0.8251014754 0.4563914217
154275000.0 0.8705423978 0.3254342634
159250000.0 0.8940640372 0.1950558464
164225000.0 0.8967447553 0.0706297889
169200000.0 0.8817813528 -0.0444920064
174175000.0 0.8527810503 -0.1477881245
179150000.0 0.8145696363 -0.2376277036
184125000.0 0.7713169417 -0.3147569486
189100000.0 0.7270040936 -0.380789263
194075000.0 0.6838559706 -0.4378295361
199050000.0 0.6426886529 -0.4880669324
204025000.0 0.6031910673 -0.5336129039
209000000.0 0.5651417804 -0.5752100714
213975000.0 0.5268088247 -0.6140575053
218950000.0 0.4875725925 -0.64985608
223925000.0 0.4471683433 -0.6825718151
228900000.0 0.4052782358 -0.7118178849
233875000.0 0.3620417478 -0.7372115154
238850000.0 0.3173331472 -0.7587917056
243825000.0 0.2702553717 -0.7763648052
248800000.0 0.2293770782 -0.7499349996
253775000.0 0.1919927806 -0.7962898904
258750000.0 0.1473511985 -0.8036783461
263725000.0 0.1059082425 -0.807807477
268700000.0 0.0665491846 -0.809699074
273675000.0 0.029385452 -0.8101542735
278650000.0 -0.0061300071 -0.8097182518
283625000.0 -0.04079786 -0.8088755044
288600000.0 -0.0754185243 -0.8077860621
293575000.0 -0.1110021179 -0.8063973205
298550000.0 -0.1486383577 -0.8034469821
303525000.0 -0.1888436427 -0.7982879093
308500000.0 -0.2310767547 -0.7893782829
313475000.0 -0.2755700012 -0.7751034477
318450000.0 -0.3210619535 -0.7543455871
323425000.0 -0.3664958286 -0.72654363
328400000.0 -0.4104432186 -0.6914755411
333375000.0 -0.4518699876 -0.6491188545
338350000.0 -0.48925124 -0.5995358136
343325000.0 -0.5209825858 -0.5437106941
348300000.0 -0.5456490527 -0.482037876
353275000.0 -0.5620537978 -0.4162977976
358250000.0 -0.5687072496 -0.347672995
363225000.0 -0.5653041423 -0.2786018132
368200000.0 -0.5522050421 -0.2114113946
373175000.0 -0.5293824135 -0.1484147652
378150000.0 -0.4977883838 -0.0910055922
383125000.0 -0.4592860425 -0.0407908207
388100000.0 -0.4157226792 0.0009390323
393075000.0 -0.3686229643 0.0346094373
398050000.0 -0.3201067729 0.0599695064
403025000.0 -0.2716188265 0.0772644092
408000000.0 -0.2244898875 0.0875186511
412975000.0 -0.1795392049 0.0916694839
417950000.0 -0.138046975 0.0907333855
422925000.0 -0.1002491561 0.0855681101
427900000.0 -0.0668012461 0.0774526168
432875000.0 -0.0376107909 0.0663419645
437850000.0 -0.0128872069 0.053081472
442825000.0 0.0077774348 0.0382918533
447800000.0 0.0243128875 0.0230103854
452775000.0 0.0373374479 0.0074011782
457750000.0 0.047076733 -0.008047553
462725000.0 0.0542466724 -0.0227274424
467700000.0 0.0596323638 -0.0365396966
472675000.0 0.0633885976 -0.0492086217
477650000.0 0.0656285434 -0.0609925182
482625000.0 0.0668134671 -0.0716541074
487600000.0 0.0664603645 -0.0809174517
492575000.0 0.0636971726 -0.088693787
497550000.0 0.0669024381 -0.0853335687
502525000.0 0.0669633906 -0.0975617884
507500000.0 0.0626882333 -0.1023153137
512475000.0 0.0581039938 -0.1049738943
517450000.0 0.0530079754 -0.1063318462
522425000.0 0.0472001412 -0.1066822541
527400000.0 0.0410334028 -0.1059568732
532375000.0 0.0346568907 -0.104365194
537350000.0 0.0281056531 -0.1019713393
542325000.0 0.021980976 -0.0987342726
547300000.0 0.0155251968 -0.0954911129
552275000.0 0.0090010466 -0.091110221
557250000.0 0.003309221 -0.0853679919
562225000.0 -0.0018389388 -0.078452588
567200000.0 -0.0064904615 -0.070500518
572175000.0 -0.0101372196 -0.0616165144
577150000.0 -0.0131636178 -0.0518789204
582125000.0 -0.015571199 -0.0411915718
587100000.0 -0.016803918 -0.0299814541
592075000.0 -0.0175301977 -0.0180247307
597050000.0 -0.0172679352 -0.005628624
602025000.0 -0.0162394994 0.0068891963
607000000.0 -0.0144925584 0.019195686
611975000.0 -0.0118734254 0.0310805837
616950000.0 -0.0085405829 0.0424198808
621925000.0 -0.0042743481 0.0528392611
626900000.0 0.0004770772 0.0626188683
631875000.0 0.0062268698 0.0711836981
636850000.0 0.0124793151 0.0788193117
641825000.0 0.0195772131 0.0857331789
646800000.0 0.0269869216 0.0922841823
651775000.0 0.0343906132 0.098004172
656750000.0 0.0422466141 0.1034200225
661725000.0 0.0504241107 0.1085929547
666700000.0 0.0586865679 0.1137432115
671675000.0 0.0668839338 0.1184874795
676650000.0 0.0754183578 0.1229657217
681625000.0 0.0843986454 0.126870686
686600000.0 0.0939655908 0.1303221814
691575000.0 0.1038474081 0.1328466201
696550000.0 0.1137925125 0.1343423041
701525000.0 0.1237996113 0.1345843006
706500000.0 0.133860398 0.1330358752
711475000.0 0.1442508601 0.1302293142
716450000.0 0.1545878699 0.125651185
721425000.0 0.1653924214 0.1194731235
726400000.0 0.1762039427 0.1121901191
731375000.0 0.1868527553 0.1037764412
736350000.0 0.1969718901 0.0939043895
741325000.0 0.2062339795 0.0827175898
746300000.0 0.2152455296 0.0704481353
751275000.0 0.2228851578 0.0572668188
756250000.0 0.2293622154 0.0430453882
761225000.0 0.2345730501 0.0281018303
766200000.0 0.2381394208 0.0120493236
771175000.0 0.2399860386 -0.0048187103
776150000.0 0.2399498289 -0.0220400493
781125000.0 0.2379484803 -0.039997514
786100000.0 0.2340182613 -0.0584906399
791075000.0 0.228090566 -0.0778260639
796050000.0 0.2207995033 -0.0972644534
801025000.0 0.211837265 -0.1171507012
806000000.0 0.2011684539 -0.1366636869
810975000.0 0.1892086084 -0.1552599669
815950000.0 0.1756772632 -0.1730642719
820925000.0 0.1609954498 -0.1901658848
825900000.0 0.1451526388 -0.2060705377
830875000.0 0.1288222405 -0.2206566179
835850000.0 0.111510886 -0.2337191124
840825000.0 0.0935490902 -0.2451812899
845800000.0 0.0751942611 -0.2555931844
850775000.0 0.0558773212 -0.264811464
855750000.0 0.0354677873 -0.2731199326
860725000.0 0.0135794213 -0.2817235594
865700000.0 -0.0362501594 -0.3145976626
870675000.0 -0.060821607 -0.318149238
875650000.0 -0.0848084163 -0.3192718642
880625000.0 -0.1079727403 -0.3194146163
885600000.0 -0.1301213293 -0.320087066
890575000.0 -0.1539673053 -0.321423735
895550000.0 -0.1800617587 -0.3215141294
900525000.0 -0.2075698973 -0.3190329275
905500000.0 -0.2361353501 -0.3131116117
910475000.0 -0.2646898211 -0.3035481747
915450000.0 -0.2924262452 -0.2900270711
920425000.0 -0.319319684 -0.272891487
925400000.0 -0.3455499413 -0.2519789232
930375000.0 -0.3702728857 -0.2274116571
935350000.0 -0.3935628217 -0.19946796
940325000.0 -0.4160059294 -0.1681528887
945300000.0 -0.4367409145 -0.1331018016
950275000.0 -0.4554357947 -0.0947734202
955250000.0 -0.4723615134 -0.0523727134
960225000.0 -0.4861263959 -0.00535469
965200000.0 -0.4959944781 0.046111389
970175000.0 -0.5008362581 0.102177087
975150000.0 -0.498648639 0.1630223177
980125000.0 -0.4879552325 0.2274532491
985100000.0 -0.4674464157 0.2951535312
990075000.0 -0.4347586346 0.3644413899
995050000.0 -0.3894567727 0.4325998954
1000025000.0 -0.3312412046 0.4976640237
1005000000.0 -0.259928144 0.5574933567
1009975000.0 -0.1754557436 0.6090681439
1014950000.0 -0.078141194 0.6480647175
1019925000.0 0.0296426034 0.6708939164
1024900000.0 0.1452516631 0.6743394007
1029875000.0 0.2638873182 0.6554516824
1034850000.0 0.3796286047 0.6122125136
1039825000.0 0.48687769 0.5446126163
1044800000.0 0.5809064969 0.4545057661
1049775000.0 0.6564019815 0.3451855705
1054750000.0 0.7070426514 0.2210945509
1059725000.0 0.7237320696 0.0933604548
1064700000.0 0.7193853353 0.0009513959
1069675000.0 0.743867251 -0.0964962153
1074650000.0 0.7438993568 -0.2230336818
1079625000.0 0.7130841771 -0.3458006573
1084600000.0 0.6587678695 -0.455197017
1089575000.0 0.5934428696 -0.5429810513
1094550000.0 0.5197954704 -0.6234274932
1099525000.0 0.4345987522 -0.6880613024
1104500000.0 0.3437378626 -0.7355014366
1109475000.0 0.2508036883 -0.7673687935
1114450000.0 0.1582746896 -0.7849136903
1119425000.0 0.0678483161 -0.7901861455
1124400000.0 -0.0189635491 -0.784752501
1129375000.0 -0.1008655761 -0.7701050308
1134350000.0 -0.1779608858 -0.7471019239
1139325000.0 -0.249527855 -0.7167443415
1144300000.0 -0.3150313308 -0.6800597483
1149275000.0 -0.373677613 -0.6379811455
1154250000.0 -0.4253482732 -0.5914011669
1159225000.0 -0.4691229926 -0.5419574271
1164200000.0 -0.5051243476 -0.4904918132
1169175000.0 -0.5334398965 -0.439319273
1174150000.0 -0.5557824772 -0.3896664099
1179125000.0 -0.5747917067 -0.3405847972
1184100000.0 -0.5899963237 -0.2911748306
1189075000.0 -0.6007530916 -0.2420686268
1194050000.0 -0.6072941296 -0.1948121167
1199025000.0 -0.6103345126 -0.1494491201
1204000000.0 -0.6120018017 -0.10715061
1208975000.0 -0.6097518279 -0.0664388854
1213950000.0 -0.6052071267 -0.0280897519
1218925000.0 -0.599312592 0.0074868793
1223900000.0 -0.5921542452 0.0404196556
1228875000.0 -0.5840984977 0.070816697
1233850000.0 -0.5752611654 0.0989300931
1238825000.0 -0.566380398 0.1255974673
1243800000.0 -0.5573276707 0.1511647506
1248775000.0 -0.5475371285 0.1756534847
1253750000.0 -0.5374479845 0.1991583298
1258725000.0 -0.527175776 0.2223782196
1263700000.0 -0.5159703071 0.2450498475
1268675000.0 -0.5045045602 0.2666724977
1273650000.0 -0.4929369774 0.2871042916
1278625000.0 -0.4805146291 0.306097381
1283600000.0 -0.4678351568 0.3240976789
1288575000.0 -0.455085241 0.3401754731
1293550000.0 -0.4418490116 0.3544385589
1298525000.0 -0.4284432719 0.3670178437
1303500000.0 -0.4133627231 0.3777909661
1308475000.0 -0.4005149849 0.3861596812
1313450000.0 -0.3883715963 0.3920981157
1318425000.0 -0.3779651782 0.3961153521
1323400000.0 -0.3693726911 0.3990739988
1328375000.0 -0.3630001569 0.4013653653
1333350000.0 -0.3588793929 0.4039278065
1338325000.0 -0.3565541896 0.4084755094
1343300000.0 -0.3548115951 0.4154964215
1348275000.0 -0.3525275732 0.4243478315
1353250000.0 -0.3492783256 0.4354872547
1358225000.0 -0.3444961432 0.4478150668
1363200000.0 -0.3376921898 0.4607739678
1368175000.0 -0.3289898478 0.4735357281
1373150000.0 -0.3191367838 0.4859101474
1378125000.0 -0.308130432 0.4975850221
1383100000.0 -0.2957860572 0.507501295
1388075000.0 -0.2831197432 0.5163705051
1393050000.0 -0.2694664261 0.522873539
1398025000.0 -0.2560816091 0.5280027566
1403000000.0 -0.2426367539 0.5311119392
1407975000.0 -0.2286369756 0.5320172668
1412950000.0 -0.2158618742 0.5310926099
1417925000.0 -0.2048175099 0.5292034663
1422900000.0 -0.1957574434 0.5257003174
1427875000.0 -0.1896965338 0.5222863227
1432850000.0 -0.1866946634 0.5200591594
1437825000.0 -0.1859719012 0.5197846588
1442800000.0 -0.1857917106 0.5220464118
1447775000.0 -0.185015004 0.5268029408
1452750000.0 -0.1822841473 0.5336917867
1457725000.0 -0.1771317722 0.5416010329
1462700000.0 -0.1691156578 0.5499288819
1467675000.0 -0.1588207105 0.5577604619
1472650000.0 -0.1464214088 0.5648176924
1477625000.0 -0.1324861914 0.5706733441
1482600000.0 -0.1170207469 0.5754419663
1487575000.0 -0.1006886628 0.5781308341
1492550000.0 -0.0837822819 0.579943868
1497525000.0 -0.0660091583 0.5805330644
1502500000.0 -0.0482271627 0.5804398797
1507475000.0 -0.0302976688 0.5793940469
1512450000.0 -0.0133687352 0.5782864082
1517425000.0 0.0030734672 0.5765768646
1522400000.0 0.0185772317 0.5746740121
1527375000.0 0.0323116322 0.5723680609
1532350000.0 0.045317554 0.5698710912
1537325000.0 0.0576337703 0.5671740582
1542300000.0 0.0694754947 0.5646979395
1547275000.0 0.0816481582 0.5616376112
1552250000.0 0.0942246596 0.5583480957
1557225000.0 0.1070575902 0.5545630812
1562200000.0 0.1207576959 0.5494162622
1567175000.0 0.1350184642 0.5431302403
1572150000.0 0.1498012798 0.5357425915
1577125000.0 0.1646913334 0.527377719
1582100000.0 0.1803401269 0.5182860204
1587075000.0 0.1965972556 0.5088553216
1592050000.0 0.2132909127 0.499148174
1597025000.0 0.2302803995 0.489194388
1602000000.0 0.2590238011 0.4839326222
1606975000.0 0.2748548668 0.4757094312
1611950000.0 0.2905162773 0.4667474177
1616925000.0 0.3057233614 0.4575280241
1621900000.0 0.3205088524 0.447715264
1626875000.0 0.3344331611 0.4377942227
1631850000.0 0.3473474352 0.4272976599
1636825000.0 0.3594795135 0.4170763811
1641800000.0 0.3714937645 0.4059355436
1646775000.0 0.3830961964 0.394364744
1651750000.0 0.3943105714 0.3822349001
1656725000.0 0.4078912291 0.3541383359
1661700000.0 0.4196687087 0.3402251047
1666675000.0 0.4305613089 0.3263988619
1671650000.0 0.4406090327 0.312339332
1676625000.0 0.4500693752 0.2984901503
1681600000.0 0.4583894677 0.2843546253
1686575000.0 0.4652020749 0.2704373163
1691550000.0 0.4713267052 0.2566722975
1696525000.0 0.4760655987 0.2436169948
1701500000.0 0.4770107395 0.2286924893
1706475000.0 0.4786990514 0.217004691
1711450000.0 0.4797566705 0.2059852593
1716425000.0 0.4794690511 0.1958788669
1721400000.0 0.4784646614 0.1872782387
1726375000.0 0.4778007693 0.1787896066
1731350000.0 0.4769491937 0.1711887106
1736325000.0 0.4787129316 0.1644366027
1741300000.0 0.4823347052 0.1575777995
1746275000.0 0.4884624736 0.1494890235
1751250000.0 0.4951922892 0.1400270347
1756225000.0 0.5018222146 0.130210484
1761200000.0 0.5075490612 0.1200317719
1766175000.0 0.512553916 0.109925797
1771150000.0 0.5167967863 0.1002410765
1776125000.0 0.5199165941 0.0908568709
1781100000.0 0.5214396469 0.0822799632
1786075000.0 0.5216453925 0.0746602923
1791050000.0 0.5201056079 0.068012804
1796025000.0 0.517258394 0.0625210154
1801000000.0 0.5118934794 0.0573763955
1805975000.0 0.5065442207 0.0545749056
1810950000.0 0.5010142153 0.0532917743
1815925000.0 0.4958471148 0.0530462374
1820900000.0 0.492321323 0.0538897001
1825875000.0 0.4907772296 0.0553282215
1830850000.0 0.4901417354 0.0556366442
1835825000.0 0.4919861918 0.055515723
1840800000.0 0.4945169495 0.0546262488
1845775000.0 0.4971380616 0.0525282037
1850750000.0 0.4993542381 0.0495410994
1855725000.0 0.5007108841 0.0458904668
1860700000.0 0.5007626964 0.0417229311
1865675000.0 0.4991779765 0.0374775349
1870650000.0 0.495606487 0.032948348
1875625000.0 0.4904590411 0.0283578897
1880600000.0 0.4830508919 0.0239525593
1885575000.0 0.4736117805 0.019524143
1890550000.0 0.4621895039 0.0155670703
1895525000.0 0.4491541894 0.0123753215
1900500000.0 0.4347686952 0.0105300179
1905475000.0 0.4203850915 0.0091255401
1910450000.0 0.4056244257 0.0093999837
1915425000.0 0.3930133241 0.0115358281
1920400000.0 0.3827229944 0.0137657249
1925375000.0 0.3742441169 0.0161819388
1930350000.0 0.3672016714 0.0183221729
1935325000.0 0.360926536 0.0195988284
1940300000.0 0.3544441016 0.0197340049
1945275000.0 0.3467603199 0.019524772
1950250000.0 0.3368144454 0.019697729
1955225000.0 0.3261603308 0.0209391955
1960200000.0 0.3145635142 0.0220438209
1965175000.0 0.3010995139 0.0231620673
1970150000.0 0.2859354054 0.0229224634
1975125000.0 0.268156917 0.0222273072
1980100000.0 0.247695161 0.020861248
1985075000.0 0.2249125848 0.0185612972
1990050000.0 0.1995134737 0.0168599523
1995025000.0 0.1719560276 0.014825251
2000000000.0 0.1407813327 0.0127797707
