!Created with skrf (http://scikit-rf.org).
# GHz S RI R 50.0 
!freq ReS11 ImS11
10000000.0 -0.8226238893 0.6150287874
19950000.0 -0.2976717885 0.9547938969
29900000.0 0.3202595041 0.9262919437
39850000.0 0.8115778208 0.543796797
49800000.0 0.9895612003 -0.064963264
59750000.0 0.7586499889 -0.6753740399
69700000.0 0.17796704 -1.016511741
79650000.0 -0.5044539588 -0.8939446075
89600000.0 -0.943059196 -0.3346805717
99550000.0 -0.8891561683 0.3913111934
109500000.0 -0.3368998642 0.8988665386
119450000.0 0.4437194795 0.8696376987
129400000.0 0.9741254865 0.2420145302
139350000.0 0.837925692 -0.577132146
149300000.0 0.1027377692 -0.9896684981
159250000.0 -0.662552627 -0.6922267132
169200000.0 -0.9385178812 0.0461789958
179150000.0 -0.611187833 0.7281458178
189100000.0 0.0763270914 0.9742203159
199050000.0 0.7212712475 0.6849967888
209000000.0 0.986066976 0.0521987812
218950000.0 0.773603543 -0.5697332239
228900000.0 0.2285266469 -0.9034476702
238850000.0 -0.3951865906 -0.8274028934
248800000.0 -0.5950266797 -0.3795001373
258750000.0 -0.9268646784 0.168084076
268700000.0 -0.6446170401 0.7110358603
278650000.0 -0.0898089608 0.9536533215
288600000.0 0.4889714296 0.7934908469
298550000.0 0.834756993 0.3110879383
308500000.0 0.8037906575 -0.2751788833
318450000.0 0.4160323042 -0.7059802125
328400000.0 -0.1497963633 -0.786997711
338350000.0 -0.6147421021 -0.4783394018
348300000.0 -0.7315951262 0.0416320473
358250000.0 -0.4642488593 0.4592856394
368200000.0 -0.0233348714 0.548568769
378150000.0 0.3040208472 0.3232644965
388100000.0 0.3593794173 -0.0137169781
398050000.0 0.1852158033 -0.2405790833
408000000.0 -0.0475884854 -0.2588753041
417950000.0 -0.181966638 -0.1248676255
427900000.0 -0.1701083922 0.0328986644
437850000.0 -0.0628585312 0.1145598524
447800000.0 0.0522794137 0.0946084379
457750000.0 0.107111326 0.0133771839
467700000.0 0.0884899726 -0.066301913
477650000.0 0.0282959411 -0.0972597565
487600000.0 -0.0223264222 -0.0703650829
497550000.0 0.0379470293 -0.0718106168
507500000.0 -0.0491634737 -0.0095502737
517450000.0 -0.0139075965 0.0106648187
527400000.0 0.0048129374 0.0037861881
537350000.0 0.002843187 -0.0149055696
547300000.0 -0.0295159595 -0.0193095137
557250000.0 -0.056676792 0.0160640081
567200000.0 -0.0518752163 0.0680648953
577150000.0 -0.0070513843 0.1095443705
587100000.0 0.0631351878 0.1115395977
597050000.0 0.1251901973 0.0608727956
607000000.0 0.1441150361 -0.0278977174
616950000.0 0.1005408475 -0.118316019
626900000.0 0.0069804805 -0.1690405941
636850000.0 -0.1020047798 -0.1541083704
646800000.0 -0.1809145076 -0.0764628303
656750000.0 -0.1942590325 0.0336728256
666700000.0 -0.1342376314 0.1280404551
676650000.0 -0.0275676445 0.1620933849
686600000.0 0.0775522835 0.1209656979
696550000.0 0.133228955 0.02462295
706500000.0 0.1172256838 -0.0796249248
716450000.0 0.0418931982 -0.1429966301
726400000.0 -0.0492121051 -0.1362394102
736350000.0 -0.1029742831 -0.0660149106
746300000.0 -0.085217546 0.0244336523
756250000.0 -0.0012329294 0.0766806062
766200000.0 0.1033743775 0.0533681324
776150000.0 0.1661058425 -0.0426240287
786100000.0 0.1415630538 -0.1631518272
796050000.0 0.0296953692 -0.2383889781
806000000.0 -0.1212277072 -0.2118019437
815950000.0 -0.2298788481 -0.0753279968
825900000.0 -0.2261710454 0.1190494717
835850000.0 -0.0932880579 0.2822515721
845800000.0 0.122731419 0.3328777092
855750000.0 0.3319093837 0.2367033184
865700000.0 0.4392346928 0.0227130641
875650000.0 0.385433063 -0.2208592507
885600000.0 0.1801816929 -0.3862678596
895550000.0 -0.0983720799 -0.3876852683
905500000.0 -0.3285004218 -0.2087333635
915450000.0 -0.3985231398 0.0821739914
925400000.0 -0.2660848435 0.3546944001
935350000.0 0.013936508 0.4737188462
945300000.0 0.3037751983 0.3663348014
955250000.0 0.4334623041 0.0759165332
965200000.0 0.3189513113 -0.2157883856
975150000.0 0.0200817931 -0.368425867
985100000.0 -0.3353587811 -0.2381419923
995050000.0 -0.4701316178 0.1564056478
1005000000.0 -0.2224760355 0.5339040809
1014950000.0 0.2732146121 0.5743665848
1024900000.0 0.6523844933 0.17063739
1034850000.0 0.5694031649 -0.4405619596
1044800000.0 -0.0070813232 -0.7860813085
1054750000.0 -0.6587853221 -0.5281428065
1064700000.0 -0.8135615593 0.0985038825
1074650000.0 -0.5935427287 0.6133957992
1084600000.0 -0.0254686205 0.808559914
1094550000.0 0.5171520298 0.6167253537
1104500000.0 0.7760406508 0.057875964
1114450000.0 0.5471864903 -0.5159293923
1124400000.0 -0.0149290366 -0.7247518845
1134350000.0 -0.5088549587 -0.463074132
1144300000.0 -0.6418873188 0.0268782843
1154250000.0 -0.4115247682 0.4291029615
1164200000.0 0.0015071081 0.5505289432
1174150000.0 0.3694564104 0.3699694398
1184100000.0 0.5126203781 -0.0172807812
1194050000.0 0.3342618573 -0.3871128108
1204000000.0 -0.0396219179 -0.5170490184
1213950000.0 -0.3850454477 -0.3683192436
1223900000.0 -0.5492612961 -0.0501547511
1233850000.0 -0.489998489 0.2930331724
1243800000.0 -0.2372510126 0.5340226871
1253750000.0 0.1170518359 0.5779779267
1263700000.0 0.43532373 0.3919113492
1273650000.0 0.5762138128 0.0433696113
1283600000.0 0.4806660888 -0.3192310005
1293550000.0 0.2011098188 -0.5539818148
1303500000.0 -0.1474243929 -0.596114032
1313450000.0 -0.456339951 -0.4528047961
1323400000.0 -0.6434739827 -0.1732094944
1333350000.0 -0.6547794633 0.167352697
1343300000.0 -0.4730016159 0.4705026729
1353250000.0 -0.1383544495 0.6261288058
1363200000.0 0.23700052 0.5601776543
1373150000.0 0.5106356645 0.2920505809
1383100000.0 0.5880652294 -0.0735909868
1393050000.0 0.4646666121 -0.4083399783
1403000000.0 0.1985861931 -0.6195178406
1412950000.0 -0.1272388025 -0.6605647316
1422900000.0 -0.4219264453 -0.5265478507
1432850000.0 -0.599369999 -0.2526539313
1442800000.0 -0.5987722035 0.0804195806
1452750000.0 -0.4119159445 0.3658114604
1462700000.0 -0.0944460886 0.5062002605
1472650000.0 0.247528478 0.4516589165
1482600000.0 0.4964905969 0.2250124356
1492550000.0 0.5773932168 -0.0866701592
1502500000.0 0.4766415328 -0.3779944173
1512450000.0 0.2370000547 -0.5577183833
1522400000.0 -0.0623575584 -0.5683931269
1532350000.0 -0.3175679368 -0.4004123114
1542300000.0 -0.4301863434 -0.1077648954
1552250000.0 -0.3481358901 0.1984001907
1562200000.0 -0.105379954 0.392057072
1572150000.0 0.1916189257 0.4015144034
1582100000.0 0.421368977 0.2388468038
1592050000.0 0.5006914612 -0.0190603966
1602000000.0 0.4055569419 -0.2681789758
1611950000.0 0.1740552173 -0.41087909
1621900000.0 -0.1068930045 -0.3845634147
1631850000.0 -0.3241570341 -0.1872099429
1641800000.0 -0.3781914296 0.1084659385
1651750000.0 -0.2387438352 0.3757362568
1661700000.0 0.0318358265 0.4976637478
1671650000.0 0.3149202185 0.4294516042
1681600000.0 0.5004775312 0.2082894215
1691550000.0 0.5258871309 -0.0830233778
1701500000.0 0.379192331 -0.3465587714
1711450000.0 0.0999629038 -0.4906208063
1721400000.0 -0.2274928091 -0.4491990193
1731350000.0 -0.4766278461 -0.2169899848
1741300000.0 -0.5353578895 0.1217218015
1751250000.0 -0.3666223814 0.4071837419
1761200000.0 -0.1734944731 0.514822518
1771150000.0 0.1308295019 0.5878350253
1781100000.0 0.4160819407 0.4429678955
1791050000.0 0.5782373957 0.1733536089
1801000000.0 0.5775574492 -0.145738246
1810950000.0 0.4029858148 -0.4261233087
1820900000.0 0.0922224157 -0.5690636534
1830850000.0 -0.2503849052 -0.5084718935
1840800000.0 -0.4936280435 -0.2671197515
1850750000.0 -0.558490914 0.0544811433
1860700000.0 -0.450105662 0.3423913897
1870650000.0 -0.226448505 0.5239822434
1880600000.0 0.0429800634 0.5688883995
1890550000.0 0.2918149009 0.4774294431
1900500000.0 0.4567349532 0.2713947991
1910450000.0 0.4851390452 0.0059622111
1920400000.0 0.3600827065 -0.2287101681
1930350000.0 0.1294272395 -0.3487881312
1940300000.0 -0.1111600248 -0.3234902591
1950250000.0 -0.2820163495 -0.1859432778
1960200000.0 -0.3451425974 -0.0083493049
1970150000.0 -0.3112423284 0.1443470811
1980100000.0 -0.2197223061 0.2303468488
1990050000.0 -0.1265441379 0.2379286929
2000000000.0 -0.0806660679 0.1943806246
