!Created with skrf (http://scikit-rf.org).
# GHz S RI R 50.0 
!freq ReS11 ImS11
10000000.0 -0.7766590065 0.6797477766
19950000.0 -0.1423892654 0.991248049
29900000.0 0.5339076588 0.8180870528
39850000.0 0.9399156545 0.244354492
49800000.0 0.8696331147 -0.4688049869
59750000.0 0.3208265476 -0.9651069645
69700000.0 -0.4464208999 -0.9375040846
79650000.0 -0.974907136 -0.3442867376
89600000.0 -0.8877682473 0.4680402887
99550000.0 -0.2004466148 0.9470386003
109500000.0 0.6319803273 0.7161004743
119450000.0 0.9707251914 -0.1160342393
129400000.0 0.4587030305 -0.9011844492
139350000.0 -0.4795484617 -0.9017213643
149300000.0 -0.9830600644 -0.1216482061
159250000.0 -0.6466890864 0.6974020783
169200000.0 0.1623668699 0.9234621482
179150000.0 0.8299949065 0.4757945254
189100000.0 0.9443036924 -0.2943680347
199050000.0 0.4759516457 -0.8895343803
209000000.0 -0.2566037069 -0.9678007335
218950000.0 -0.8159788674 -0.5280753799
228900000.0 -0.9270160254 0.1541709721
238850000.0 -0.5677616641 0.7270622853
248800000.0 0.0661370924 0.9247631172
258750000.0 0.6822204899 0.6633261154
268700000.0 0.9736141195 0.0619124185
278650000.0 0.7908069337 -0.5812790347
288600000.0 0.2266343088 -0.9337570856
298550000.0 -0.4202994294 -0.8175026815
308500000.0 -0.8169473681 -0.3032988056
318450000.0 -0.7616641703 0.3357174566
328400000.0 -0.2861812538 0.7542014659
338350000.0 0.3318670751 0.7099734561
348300000.0 0.6973296489 0.2454285953
358250000.0 0.5882051524 -0.2879979304
368200000.0 0.1622782279 -0.5093483842
378150000.0 -0.2069872237 -0.3421534808
388100000.0 -0.2799778228 -0.0192474651
398050000.0 -0.1067750703 0.1747585597
408000000.0 0.0894707798 0.1398689089
417950000.0 0.1396520802 -0.0096260991
427900000.0 0.0468251594 -0.1060583583
437850000.0 -0.0749962103 -0.0740010302
447800000.0 -0.1199638998 0.0422565367
457750000.0 -0.0566937719 0.1477662483
467700000.0 0.0632880099 0.1661420249
477650000.0 0.1562301645 0.0916432257
487600000.0 0.1665436265 -0.0209393821
497550000.0 0.0977438921 -0.1038764295
507500000.0 -0.0003974601 -0.1140603714
517450000.0 -0.0681263392 -0.064059662
527400000.0 -0.077532469 0.0026605457
537350000.0 -0.0438631714 0.0414343623
547300000.0 -0.009349019 0.0396125001
557250000.0 -0.0035547203 0.0150833308
567200000.0 -0.0274882831 0.0049919872
577150000.0 -0.0503471 0.028828415
587100000.0 -0.0379960855 0.072802351
597050000.0 0.017631207 0.0983248681
607000000.0 0.0886025257 0.0710587193
616950000.0 0.1272514745 -0.0111485895
626900000.0 0.098743648 -0.1104259671
636850000.0 0.0047228467 -0.1724806256
646800000.0 -0.1118077932 -0.1564059173
656750000.0 -0.1900504753 -0.0623698154
666700000.0 -0.1833908529 0.0624764101
676650000.0 -0.0918901672 0.1499798703
686600000.0 0.0364105918 0.1499113696
696550000.0 0.1301827488 0.0619075951
706500000.0 0.1390718954 -0.0632907414
716450000.0 0.0620990991 -0.1542144235
726400000.0 -0.0508180199 -0.16132004
736350000.0 -0.1256928973 -0.0857427348
746300000.0 -0.113635828 0.0163900894
756250000.0 -0.023039908 0.0691519929
766200000.0 0.0791979893 0.0279600068
776150000.0 0.1131133472 -0.0855489506
786100000.0 0.0411682587 -0.1920436387
796050000.0 -0.1015950272 -0.2072245752
806000000.0 -0.2190766738 -0.096356226
815950000.0 -0.2159530358 0.0873456081
825900000.0 -0.0643396976 0.2282671722
835850000.0 0.1649169412 0.2208749819
845800000.0 0.3383508202 0.0432639891
855750000.0 0.3427632731 -0.2216768932
865700000.0 0.153859415 -0.4289730215
875650000.0 -0.1412050851 -0.45169158
885600000.0 -0.3839794749 -0.2546816661
895550000.0 -0.4272189309 0.0719441009
905500000.0 -0.2236053985 0.3518473364
915450000.0 0.1314191928 0.4138358974
925400000.0 0.4353936477 0.1998634358
935350000.0 0.493021725 -0.1770012163
945300000.0 0.2436547547 -0.4782906483
955250000.0 -0.1493306736 -0.4615165584
965200000.0 -0.3139118992 -0.1795238614
975150000.0 -0.3237891154 0.0516428475
985100000.0 -0.1439598506 0.3330851105
995050000.0 0.2708239634 0.3476846708
1005000000.0 0.5363190666 -0.0416739842
1014950000.0 0.3269983699 -0.5185702541
1024900000.0 -0.2406022256 -0.607163656
1034850000.0 -0.6701487602 -0.1332017801
1044800000.0 -0.4844849503 0.5560848954
1054750000.0 0.261681997 0.7716622506
1064700000.0 0.844323271 0.244905453
1074650000.0 0.7351609123 -0.5228313618
1084600000.0 0.086833496 -0.8724492419
1094550000.0 -0.5734784361 -0.6125807468
1104500000.0 -0.8001425001 0.0511875621
1114450000.0 -0.4307638834 0.6473451334
1124400000.0 0.2559650126 0.7149435257
1134350000.0 0.69681259 0.233400461
1144300000.0 0.6000672934 -0.3559427059
1154250000.0 0.1374144391 -0.6408205349
1164200000.0 -0.3482346872 -0.512781825
1174150000.0 -0.5939442844 -0.0902145584
1184100000.0 -0.4517151435 0.3822883725
1194050000.0 -0.0024290164 0.5873256312
1204000000.0 0.4384771449 0.3886606631
1213950000.0 0.5859977146 -0.051091031
1223900000.0 0.3927506922 -0.4474015621
1233850000.0 0.0018592697 -0.607829297
1243800000.0 -0.3946810424 -0.4806366472
1253750000.0 -0.6193160051 -0.1243001556
1263700000.0 -0.5554390521 0.3031855302
1273650000.0 -0.2136600894 0.585703061
1283600000.0 0.2337702481 0.5636918163
1293550000.0 0.5489697936 0.2541466243
1303500000.0 0.5904912572 -0.1717431225
1313450000.0 0.3696288479 -0.5210893095
1323400000.0 -0.0073162157 -0.666471308
1333350000.0 -0.3968857434 -0.5621544986
1343300000.0 -0.6522436998 -0.2398832621
1353250000.0 -0.6561478981 0.1841197938
1363200000.0 -0.3823074542 0.5251197796
1373150000.0 0.052554614 0.6113179214
1383100000.0 0.4375278074 0.4011854334
1393050000.0 0.6024938808 0.0087546282
1403000000.0 0.5008132424 -0.3871912503
1412950000.0 0.1943481478 -0.6373969988
1422900000.0 -0.1937974807 -0.6601976833
1432850000.0 -0.5197564993 -0.4481215745
1442800000.0 -0.6523016114 -0.0763369271
1452750000.0 -0.5206772607 0.3032266726
1462700000.0 -0.1719759302 0.5133317039
1472650000.0 0.228121436 0.4508430871
1482600000.0 0.4877627767 0.1538588636
1492550000.0 0.498518858 -0.2256576479
1502500000.0 0.276558152 -0.5158359479
1512450000.0 -0.0674468776 -0.6000684262
1522400000.0 -0.3804223045 -0.450091116
1532350000.0 -0.5222920784 -0.1350609826
1542300000.0 -0.423681529 0.1982940108
1552250000.0 -0.128435719 0.3815090491
1562200000.0 0.2092474263 0.3166771251
1572150000.0 0.4095492427 0.0421837273
1582100000.0 0.3697807514 -0.2863502669
1592050000.0 0.1225744832 -0.4924021545
1602000000.0 -0.1967048629 -0.4762884245
1611950000.0 -0.4265165797 -0.2485601792
1621900000.0 -0.4474174911 0.0798905707
1631850000.0 -0.2366554297 0.3464949745
1641800000.0 0.1113215343 0.4055807984
1651750000.0 0.4158575487 0.2099589228
1661700000.0 0.5056865587 -0.1451326946
1671650000.0 0.3306425744 -0.4692804194
1681600000.0 -0.0117785834 -0.5996477402
1691550000.0 -0.3579156195 -0.4840282269
1701500000.0 -0.5599312936 -0.1764708765
1711450000.0 -0.5349050665 0.1998826517
1721400000.0 -0.2768622217 0.4941642197
1731350000.0 0.1216569099 0.5649270023
1741300000.0 0.4839129091 0.3583874622
1751250000.0 0.6292973916 -0.0371270018
1761200000.0 0.491787321 -0.4273155873
1771150000.0 0.1516757768 -0.6410826165
1781100000.0 -0.236814791 -0.6118138573
1791050000.0 -0.5330565737 -0.3721169443
1801000000.0 -0.6431442863 -0.0083304215
1810950000.0 -0.52413308 0.35979465
1820900000.0 -0.1990622667 0.5939282005
1830850000.0 0.2138762215 0.578745634
1840800000.0 0.5256097474 0.2999701541
1850750000.0 0.5822013551 -0.1073826656
1860700000.0 0.3731113983 -0.4427314817
1870650000.0 0.0189682731 -0.5494125583
1880600000.0 -0.1896866175 -0.4409988465
1890550000.0 -0.4438953236 -0.3490286439
1900500000.0 -0.5734705288 -0.0509708307
1910450000.0 -0.4940204385 0.2566212366
1920400000.0 -0.2498182288 0.4494217142
1930350000.0 0.0538150385 0.4489421415
1940300000.0 0.2793345057 0.2670360789
1950250000.0 0.338400253 0.0060368597
1960200000.0 0.2384862755 -0.2113115687
1970150000.0 0.0574114041 -0.3138173758
1980100000.0 -0.1169122841 -0.2996184965
1990050000.0 -0.2261962689 -0.213187219
2000000000.0 -0.2598311496 -0.1191760957
