!Created with skrf (http://scikit-rf.org).
# GHz S RI R 50.0 
!freq ReS11 ImS11
10000000.0 -0.8136626064 0.6082554442
19950000.0 -0.2950140027 0.9499427217
29900000.0 0.3218737072 0.9252117722
39850000.0 0.8136165741 0.5424365484
49800000.0 0.9876724981 -0.0686567523
59750000.0 0.7494523095 -0.6759182868
69700000.0 0.1664710208 -1.008152928
79650000.0 -0.5103799904 -0.8789864783
89600000.0 -0.9423396362 -0.319544404
99550000.0 -0.8837838952 0.4045748682
109500000.0 -0.3251163859 0.9071633965
119450000.0 0.4577752143 0.8636559459
129400000.0 0.9742222147 0.2260921308
139350000.0 0.8170090637 -0.5921208234
149300000.0 0.0767814402 -0.9866108793
159250000.0 -0.679919396 -0.6768068266
169200000.0 -0.9423426427 0.0655695116
179150000.0 -0.599845692 0.7412471989
189100000.0 0.0942743049 0.9697353331
199050000.0 0.7304377613 0.6639490579
209000000.0 0.9799280902 0.0275311183
218950000.0 0.7569792134 -0.5882581893
228900000.0 0.2083560969 -0.9118977743
238850000.0 -0.4129541012 -0.8256172235
248800000.0 -0.6253898465 -0.4110220769
258750000.0 -0.9230579422 0.186691677
268700000.0 -0.6253272947 0.7216603606
278650000.0 -0.0646701105 0.9496017573
288600000.0 0.5090651288 0.7769257429
298550000.0 0.8450687358 0.2896330775
308500000.0 0.8043726802 -0.2953652327
318450000.0 0.4084059382 -0.7204695465
328400000.0 -0.1611736297 -0.790481121
338350000.0 -0.6228261823 -0.4708063668
348300000.0 -0.7311093137 0.0555462839
358250000.0 -0.454586207 0.4739653925
368200000.0 -0.0078530142 0.5586283844
378150000.0 0.3201388042 0.3263085618
388100000.0 0.3697632361 -0.0163038392
398050000.0 0.1886870425 -0.2425929043
408000000.0 -0.0484575134 -0.2553918662
417950000.0 -0.1829333248 -0.1153020845
427900000.0 -0.1670946703 0.0441015582
437850000.0 -0.0556136541 0.1229523256
447800000.0 0.0581312596 0.0972737565
457750000.0 0.1086989439 0.0112249447
467700000.0 0.0834455477 -0.0696094479
477650000.0 0.0178842577 -0.0977040709
487600000.0 -0.0338276782 -0.0672197038
497550000.0 -0.0529058877 -0.1020355273
507500000.0 -0.0521132669 0.0156597787
517450000.0 -0.0079303501 0.0286298606
527400000.0 0.0166586136 0.0077194706
537350000.0 0.0079317891 -0.0192420533
547300000.0 -0.0278778591 -0.0240937815
557250000.0 -0.0574024221 0.0086384796
567200000.0 -0.0547547461 0.0610850568
577150000.0 -0.0107761663 0.1032203763
587100000.0 0.0593274277 0.104974517
597050000.0 0.1212884649 0.0526446537
607000000.0 0.1381754264 -0.0359600237
616950000.0 0.0921033192 -0.1244974252
626900000.0 -0.0019065865 -0.1694319501
636850000.0 -0.1088887202 -0.1485522689
646800000.0 -0.1802133449 -0.0656212021
656750000.0 -0.1851151275 0.0439180326
666700000.0 -0.1186898534 0.1326287491
676650000.0 -0.0104351893 0.1584393289
686600000.0 0.0905669879 0.1112765372
696550000.0 0.1378290604 0.0113475693
706500000.0 0.1126937782 -0.0913603408
716450000.0 0.030837667 -0.1457391354
726400000.0 -0.061273421 -0.1292161192
736350000.0 -0.1093648375 -0.0510362536
746300000.0 -0.0833048197 0.0409280653
756250000.0 0.0068740829 0.0885380505
766200000.0 0.1114083843 0.0575319123
776150000.0 0.1681536954 -0.0442106877
786100000.0 0.1350288889 -0.1649602139
796050000.0 0.0163135319 -0.2332497197
806000000.0 -0.1337791677 -0.1970123568
815950000.0 -0.2338892739 -0.0541411081
825900000.0 -0.2176535427 0.1381744063
835850000.0 -0.074512693 0.2892996935
845800000.0 0.1426871376 0.3208864815
855750000.0 0.3396296855 0.2061823463
865700000.0 0.4250226219 -0.0158585859
875650000.0 0.3470948495 -0.2514314448
885600000.0 0.1254982248 -0.3937166274
895550000.0 -0.1485134428 -0.3633462795
905500000.0 -0.3523181744 -0.1590925745
915450000.0 -0.3815507841 0.1350170476
925400000.0 -0.2109090461 0.3809527811
935350000.0 0.0829882457 0.45169514
945300000.0 0.3509256128 0.2978573032
955250000.0 0.4347850249 -0.0176372896
965200000.0 0.2520283396 -0.3165693273
975150000.0 -0.1261873441 -0.3860589551
985100000.0 -0.4530015652 -0.1145643932
995050000.0 -0.4348782992 0.3506446825
1005000000.0 -0.0166774498 0.6411898542
1014950000.0 0.5139971892 0.4694124755
1024900000.0 0.7278437971 -0.1043107008
1034850000.0 0.3894868235 -0.6766857298
1044800000.0 -0.3043938362 -0.7760483307
1054750000.0 -0.8164465475 -0.2921451401
1064700000.0 -0.7638835963 0.3345260565
1074650000.0 -0.375523743 0.768404824
1084600000.0 0.230179352 0.7939846457
1094550000.0 0.6705621013 0.4040157798
1104500000.0 0.7280750477 -0.1720228642
1114450000.0 0.3642245986 -0.6270744863
1124400000.0 -0.2050874037 -0.6714385861
1134350000.0 -0.5973437259 -0.3074139217
1144300000.0 -0.608569876 0.1849659933
1154250000.0 -0.2981621028 0.519678112
1164200000.0 0.133940627 0.5476301314
1174150000.0 0.4575829952 0.28269046
1184100000.0 0.5098596677 -0.1302366284
1194050000.0 0.2605387014 -0.4580176519
1204000000.0 -0.1318785721 -0.5196612839
1213950000.0 -0.450762067 -0.3183636459
1223900000.0 -0.5701053441 0.0230035714
1233850000.0 -0.4618064916 0.3597202512
1243800000.0 -0.1736321595 0.5677636203
1253750000.0 0.1903464585 0.5622536352
1263700000.0 0.485327452 0.3319909286
1273650000.0 0.5821376759 -0.0353028414
1283600000.0 0.4431101362 -0.3855705022
1293550000.0 0.1384810709 -0.5875373034
1303500000.0 -0.2133176475 -0.5908638384
1313450000.0 -0.5055189846 -0.4123839371
1323400000.0 -0.6604433544 -0.1094918941
1333350000.0 -0.6308619695 0.2356389353
1343300000.0 -0.4088472713 0.5195341234
1353250000.0 -0.0516471613 0.6337943859
1363200000.0 0.31683287 0.5214303382
1373150000.0 0.5569865044 0.2201338953
1383100000.0 0.5903187587 -0.152225848
1393050000.0 0.4274768679 -0.4705025704
1403000000.0 0.1354180899 -0.6490013104
1412950000.0 -0.1977647949 -0.6490226418
1422900000.0 -0.4799884779 -0.4749234289
1432850000.0 -0.6258252599 -0.1704432806
1442800000.0 -0.5795721135 0.1735998698
1452750000.0 -0.3449752317 0.4405747372
1462700000.0 0.0008515962 0.5335020409
1472650000.0 0.3349092507 0.4221520337
1482600000.0 0.5444965899 0.1555086069
1492550000.0 0.5720677284 -0.1672054535
1502500000.0 0.422854782 -0.4402728012
1512450000.0 0.1512536622 -0.5799841903
1522400000.0 -0.1528579298 -0.5393647767
1532350000.0 -0.3815470424 -0.3250989333
1542300000.0 -0.4427358642 -0.011498926
1552250000.0 -0.3068381278 0.2787591186
1562200000.0 -0.0305159201 0.4266916013
1572150000.0 0.2654083918 0.3805863955
1582100000.0 0.4629474687 0.1758061754
1592050000.0 0.4939205559 -0.0973284119
1602000000.0 0.352873282 -0.3312183371
1611950000.0 0.0934023754 -0.4344154013
1621900000.0 -0.1853486201 -0.3580800105
1631850000.0 -0.3673726629 -0.1213961523
1641800000.0 -0.3677396539 0.1825789174
1651750000.0 -0.1811623663 0.4224898578
1661700000.0 0.1085628587 0.4956271789
1671650000.0 0.3786366058 0.3808153471
1681600000.0 0.529541311 0.1305819913
1691550000.0 0.510866997 -0.1658946861
1701500000.0 0.3238375593 -0.4092440854
1711450000.0 0.0204504431 -0.5112201572
1721400000.0 -0.3017933942 -0.4181000989
1731350000.0 -0.515338743 -0.1492746911
1741300000.0 -0.5310827948 0.194460814
1751250000.0 -0.3482449245 0.477966007
1761200000.0 -0.0476717666 0.6052463871
1771150000.0 0.2639338094 0.5518893304
1781100000.0 0.4981851342 0.348038692
1791050000.0 0.5952690313 0.0526913633
1801000000.0 0.5229322445 -0.2567133527
1810950000.0 0.2898870076 -0.4854284367
1820900000.0 -0.035661861 -0.5490584716
1830850000.0 -0.3400558721 -0.4212119892
1840800000.0 -0.5193020235 -0.1550388541
1850750000.0 -0.5290802501 0.1521325564
1860700000.0 -0.3865303448 0.4066658783
1870650000.0 -0.1475100925 0.5487421096
1880600000.0 0.1200028669 0.5521097214
1890550000.0 0.3487715743 0.4213387016
1900500000.0 0.4760064681 0.1882071886
1910450000.0 0.4541264269 -0.0797515822
1920400000.0 0.2849237173 -0.2874334589
1930350000.0 0.0370144988 -0.3588452908
1940300000.0 -0.1891171443 -0.2860210793
1950250000.0 -0.3204546087 -0.1226205989
1960200000.0 -0.3401165841 0.0543520833
1970150000.0 -0.2731472596 0.1849262278
1980100000.0 -0.1687281583 0.235699235
1990050000.0 -0.0864306105 0.2093420525
2000000000.0 -0.071153876 0.151952679
