!Created with skrf (http://scikit-rf.org).
# GHz S RI R 50.0 
!freq ReS11 ImS11
10000000.0 -0.8219612583 0.6124061174
19950000.0 -0.2991017005 0.9537713061
29900000.0 0.3196012022 0.927072415
39850000.0 0.8121065344 0.5439608056
49800000.0 0.9891572757 -0.0667161999
59750000.0 0.7553173185 -0.6767931044
69700000.0 0.1734215808 -1.015045208
79650000.0 -0.5071511691 -0.8903613833
89600000.0 -0.9437341872 -0.3310104223
99550000.0 -0.8885141428 0.3949565344
109500000.0 -0.3330411943 0.9021283447
119450000.0 0.4506616979 0.8673130738
129400000.0 0.9744999 0.2294454654
139350000.0 0.8298373775 -0.5868618809
149300000.0 0.0913382951 -0.9908133352
159250000.0 -0.6702263559 -0.6876497245
169200000.0 -0.9412645516 0.0525752574
179150000.0 -0.6082890616 0.7338517949
189100000.0 0.0834854876 0.9746819712
199050000.0 0.7270445609 0.6785503331
209000000.0 0.9865535064 0.0429766484
218950000.0 0.7696240859 -0.5772306415
228900000.0 0.2234652367 -0.9077376845
238850000.0 -0.398816825 -0.8297232393
248800000.0 -0.6228113736 -0.3091264095
258750000.0 -0.927773993 0.1742144603
268700000.0 -0.6399896154 0.7164286311
278650000.0 -0.0810095032 0.9553469178
288600000.0 0.4985592739 0.7897735266
298550000.0 0.8414879544 0.3030111792
308500000.0 0.8055156595 -0.2850554821
318450000.0 0.4122908517 -0.7141351733
328400000.0 -0.1568135374 -0.7900693639
338350000.0 -0.6212669337 -0.4754735402
348300000.0 -0.7341557348 0.0498740098
358250000.0 -0.4607100365 0.4694678544
368200000.0 -0.0135405036 0.5552960775
378150000.0 0.3155163772 0.3240960705
388100000.0 0.3680444229 -0.0187340086
398050000.0 0.1885975937 -0.2472851839
408000000.0 -0.0489896696 -0.2634312802
417950000.0 -0.1867283736 -0.1254641089
427900000.0 -0.1738541887 0.0362788876
437850000.0 -0.0628717088 0.119767907
447800000.0 0.0537531631 0.0991083164
457750000.0 0.1099307795 0.0150711935
467700000.0 0.0901895254 -0.0668077474
477650000.0 0.0275359422 -0.0987886731
487600000.0 -0.024683781 -0.0720899403
497550000.0 0.0044437453 -0.0907666699
507500000.0 -0.0451867965 0.0019765521
517450000.0 -0.0067905563 0.0166350996
527400000.0 0.0151033037 8.42646e-05
537350000.0 0.0056981093 -0.0238670435
547300000.0 -0.0326783633 -0.0278705496
557250000.0 -0.0642449773 0.011687304
567200000.0 -0.0597404677 0.0682762244
577150000.0 -0.0128791958 0.1147096372
587100000.0 0.0613066967 0.1172050439
597050000.0 0.1274396236 0.0655344557
607000000.0 0.1471953023 -0.0261645672
616950000.0 0.1037500077 -0.1197811656
626900000.0 0.0081278827 -0.1701885828
636850000.0 -0.1025115228 -0.1557087456
646800000.0 -0.1802333826 -0.0765943498
656750000.0 -0.1931720201 0.0342828727
666700000.0 -0.1326772789 0.1266933901
676650000.0 -0.0261301364 0.1581839862
686600000.0 0.0753822027 0.1160195561
696550000.0 0.1248636336 0.0209293726
706500000.0 0.1052324249 -0.075347165
716450000.0 0.0368732975 -0.1300313075
726400000.0 -0.0469294476 -0.1231643546
736350000.0 -0.0950538053 -0.0566271705
746300000.0 -0.0740586655 0.0278526892
756250000.0 0.0098915234 0.0724634716
766200000.0 0.109493172 0.0422697279
776150000.0 0.163675195 -0.0558577708
786100000.0 0.1300467646 -0.1738923639
796050000.0 0.0115800029 -0.2407127393
806000000.0 -0.1387023017 -0.2034304398
815950000.0 -0.2396882419 -0.0587919617
825900000.0 -0.2258024137 0.1366454306
835850000.0 -0.08213809 0.2951606144
845800000.0 0.1385415231 0.3349098325
855750000.0 0.3453741604 0.2264539421
865700000.0 0.4440642992 0.0050563178
875650000.0 0.3790601843 -0.2394287833
885600000.0 0.1649306961 -0.3985227724
895550000.0 -0.1165694904 -0.3896542688
905500000.0 -0.3424404227 -0.2029116816
915450000.0 -0.4048925406 0.0921071159
925400000.0 -0.264946654 0.3622767593
935350000.0 0.0176857448 0.4763258604
945300000.0 0.3075661493 0.3691497621
955250000.0 0.4481308837 0.0812139036
965200000.0 0.3372521906 -0.2405376423
975150000.0 0.0028430265 -0.3948435056
985100000.0 -0.3637231418 -0.2339889345
995050000.0 -0.4787340515 0.1844651326
1005000000.0 -0.195931052 0.561390508
1014950000.0 0.3197683516 0.5621466402
1024900000.0 0.6684932715 0.1146717146
1034850000.0 0.5184405287 -0.4872746284
1044800000.0 -0.0699829631 -0.748271828
1054750000.0 -0.6236607663 -0.4570346447
1064700000.0 -0.7770844236 0.0767151347
1074650000.0 -0.5966925718 0.5902389176
1084600000.0 -0.0258764902 0.8314897303
1094550000.0 0.5328031764 0.6186649359
1104500000.0 0.7902635612 0.043624688
1114450000.0 0.5416979618 -0.5397449148
1124400000.0 -0.0422449373 -0.732761558
1134350000.0 -0.5354853934 -0.4428780848
1144300000.0 -0.6438730143 0.0654643044
1154250000.0 -0.3825788553 0.4607559478
1164200000.0 0.0487651187 0.5536109932
1174150000.0 0.410256266 0.3329559818
1184100000.0 0.5112636327 -0.0757482849
1194050000.0 0.2908177408 -0.4281779507
1204000000.0 -0.0990562739 -0.5170010552
1213950000.0 -0.4292304971 -0.3312197202
1223900000.0 -0.562152475 0.0057493495
1233850000.0 -0.4666355076 0.3460350486
1243800000.0 -0.1859364675 0.5637485085
1253750000.0 0.1770863681 0.5714157228
1263700000.0 0.4805853526 0.3506268027
1273650000.0 0.5889085496 -0.0155161925
1283600000.0 0.4581869051 -0.3716425879
1293550000.0 0.1571502305 -0.5830815413
1303500000.0 -0.1972116398 -0.596534126
1313450000.0 -0.4971385079 -0.4266380119
1323400000.0 -0.6631818805 -0.12867245
1333350000.0 -0.6469090976 0.217743788
1343300000.0 -0.4371332549 0.5103421177
1353250000.0 -0.0847900191 0.6400794365
1363200000.0 0.2893544659 0.542959314
1373150000.0 0.5431903157 0.2504058209
1383100000.0 0.5926661448 -0.1228483555
1393050000.0 0.4431621608 -0.4499197256
1403000000.0 0.1586336903 -0.6428773543
1412950000.0 -0.173970431 -0.6593884559
1422900000.0 -0.4631523316 -0.5006019942
1432850000.0 -0.6233466024 -0.2073317761
1442800000.0 -0.5966209555 0.1344490145
1452750000.0 -0.3806844709 0.4111306544
1462700000.0 -0.0452814773 0.5263011869
1472650000.0 0.29595286 0.440426226
1482600000.0 0.5269874482 0.189656721
1492550000.0 0.5801735553 -0.1321924771
1502500000.0 0.4516668274 -0.4175440396
1512450000.0 0.1917399356 -0.5775824734
1522400000.0 -0.1136260383 -0.5598459252
1532350000.0 -0.3562463575 -0.3643198888
1542300000.0 -0.4404702706 -0.05777599
1552250000.0 -0.3284289489 0.2402935825
1562200000.0 -0.067608836 0.4097915272
1572150000.0 0.2287536422 0.3895856373
1582100000.0 0.4402136157 0.2055144651
1592050000.0 0.4931865079 -0.0583903019
1602000000.0 0.3748943614 -0.2974722822
1611950000.0 0.1292657852 -0.4179816011
1621900000.0 -0.1501600219 -0.3623356667
1631850000.0 -0.3433204983 -0.1417341195
1641800000.0 -0.3647827789 0.1519186588
1651750000.0 -0.2040857835 0.4060364626
1661700000.0 0.0823393772 0.5019995301
1671650000.0 0.3615179816 0.4022015232
1681600000.0 0.5248706741 0.1578379148
1691550000.0 0.5193842808 -0.1401103203
1701500000.0 0.3433796513 -0.3919368082
1711450000.0 0.0450556515 -0.5092328337
1721400000.0 -0.2820955319 -0.4334582254
1731350000.0 -0.5114537614 -0.1764311646
1741300000.0 -0.5473033493 0.1676501973
1751250000.0 -0.3800487034 0.4635331943
1761200000.0 -0.0849941102 0.609510116
1771150000.0 0.2328019122 0.5756434012
1781100000.0 0.4837575147 0.3869112459
1791050000.0 0.6065991337 0.0962354062
1801000000.0 0.5631599815 -0.2249109509
1810950000.0 0.3487415225 -0.485173113
1820900000.0 0.0158110917 -0.5884519963
1830850000.0 -0.3220136494 -0.4839264809
1840800000.0 -0.5375584537 -0.2108386361
1850750000.0 -0.5662691507 0.1198683922
1860700000.0 -0.4264183182 0.3982470557
1870650000.0 -0.1817319299 0.5597565433
1880600000.0 0.0972935872 0.5790647812
1890550000.0 0.344169129 0.4605228473
1900500000.0 0.4951280542 0.2310970288
1910450000.0 0.499040286 -0.0472940361
1920400000.0 0.3469840246 -0.2814621477
1930350000.0 0.0961350055 -0.386810699
1940300000.0 -0.1536504467 -0.3402941313
1950250000.0 -0.3221535847 -0.1842330725
1960200000.0 -0.3768815396 0.0071551638
1970150000.0 -0.3327216038 0.1699463431
1980100000.0 -0.229282138 0.2634203133
1990050000.0 -0.1185171889 0.2765662931
2000000000.0 -0.0490290735 0.2314480416
