!Created with skrf (http://scikit-rf.org).
# GHz S RI R 50.0 
!freq ReS11 ImS11
10000000.0 -0.7659000595 0.5785113168
19950000.0 -0.2798113021 0.9119484191
29900000.0 0.3102814859 0.8981638043
39850000.0 0.7879763189 0.5333441896
49800000.0 0.9574988137 -0.0600480868
59750000.0 0.7223349392 -0.650886793
69700000.0 0.15206523 -0.9705296459
79650000.0 -0.5067827681 -0.8382287596
89600000.0 -0.9234371189 -0.2812699791
99550000.0 -0.84849527 0.4395287989
109500000.0 -0.2653005855 0.922656622
119450000.0 0.5227128909 0.8232628734
129400000.0 0.9798404716 0.1311279798
139350000.0 0.7281237488 -0.668144725
149300000.0 -0.0491959135 -0.9657895172
159250000.0 -0.7460002397 -0.5715253624
169200000.0 -0.9106045459 0.1711077423
179150000.0 -0.5164996489 0.7726146084
189100000.0 0.1479283352 0.9233344338
199050000.0 0.714657736 0.5996229946
209000000.0 0.9242764324 0.0020593679
218950000.0 0.7149521026 -0.5691095374
228900000.0 0.2098492575 -0.8782924811
238850000.0 -0.3678849816 -0.8158318948
248800000.0 -0.7791866818 -0.406495481
258750000.0 -0.8880998136 0.1351097031
268700000.0 -0.6373643344 0.6442884959
278650000.0 -0.1355286429 0.8972034949
288600000.0 0.4128613908 0.792481226
298550000.0 0.7826697476 0.3739208627
308500000.0 0.8185613238 -0.1851635509
318450000.0 0.4992468652 -0.6437628929
328400000.0 -0.0333859069 -0.790074011
338350000.0 -0.5174695396 -0.5531342997
348300000.0 -0.7007825608 -0.0700413487
358250000.0 -0.504094875 0.3701680015
368200000.0 -0.0978397899 0.518390341
378150000.0 0.2353423292 0.3484743664
388100000.0 0.3185922355 0.0473635506
398050000.0 0.1799168982 -0.163082164
408000000.0 -0.0191287182 -0.1852957279
417950000.0 -0.1291395781 -0.0692646538
427900000.0 -0.1070986358 0.0608186493
437850000.0 -0.0057419423 0.1117781934
447800000.0 0.0903667551 0.0687263565
457750000.0 0.1183922974 -0.0279393293
467700000.0 0.0722245177 -0.1113445572
477650000.0 -0.0128975001 -0.1368793669
487600000.0 -0.0876940688 -0.0976746442
497550000.0 -0.1096865665 -0.0251604259
507500000.0 -0.0882289414 0.0400989726
517450000.0 -0.0329433814 0.0705834841
527400000.0 0.0148511292 0.0572941555
537350000.0 0.0314417156 0.0224883342
547300000.0 0.0166889792 -0.0052655637
557250000.0 -0.011992979 -0.0061299768
567200000.0 -0.024998575 0.0204087752
577150000.0 -0.005230042 0.0505480492
587100000.0 0.0411489231 0.0537846974
597050000.0 0.0851265746 0.0163253011
607000000.0 0.096349938 -0.0528720763
616950000.0 0.0566416768 -0.1222722799
626900000.0 -0.0236496197 -0.1538515841
636850000.0 -0.1122951568 -0.127116277
646800000.0 -0.16732013 -0.0461733205
656750000.0 -0.1606515997 0.0577593925
666700000.0 -0.0896471039 0.1386945126
676650000.0 0.018699175 0.1592822115
686600000.0 0.1184712118 0.1077972199
696550000.0 0.1658179631 0.0026203913
706500000.0 0.1393946062 -0.1068022483
716450000.0 0.0503140061 -0.1712125164
726400000.0 -0.0550545105 -0.16104166
736350000.0 -0.1230424689 -0.0815239931
746300000.0 -0.1156586216 0.0232511754
756250000.0 -0.0342108109 0.0955418132
766200000.0 0.076105997 0.0925429615
776150000.0 0.1536048529 0.0105186248
786100000.0 0.1499882304 -0.1033320119
796050000.0 0.0587327757 -0.184843792
806000000.0 -0.0762532761 -0.176614757
815950000.0 -0.1800437213 -0.0646288588
825900000.0 -0.1849075476 0.1023244978
835850000.0 -0.0715722087 0.2423211963
845800000.0 0.1151798822 0.2783268156
855750000.0 0.2901888573 0.180026204
865700000.0 0.3663427417 -0.0195310706
875650000.0 0.29241596 -0.2333380052
885600000.0 0.0852118167 -0.3580222955
895550000.0 -0.1701930606 -0.3149624194
905500000.0 -0.3470852531 -0.1048507865
915450000.0 -0.3440570569 0.180913542
925400000.0 -0.1488807716 0.400611134
935350000.0 0.1498275357 0.431970445
945300000.0 0.3976303351 0.2380396805
955250000.0 0.4401367441 -0.0990450774
965200000.0 0.2041705937 -0.3911833827
975150000.0 -0.2134361042 -0.4115692963
985100000.0 -0.5237995173 -0.0679589152
995050000.0 -0.4370079434 0.4293189726
1005000000.0 0.0463864416 0.6815251448
1014950000.0 0.5809541109 0.4314945351
1024900000.0 0.7236963748 -0.1897491439
1034850000.0 0.3005564247 -0.712129961
1044800000.0 -0.3800234229 -0.6982037783
1054750000.0 -0.7820361733 -0.1729049274
1064700000.0 -0.6626514215 0.3773705546
1074650000.0 -0.2827694154 0.7543991359
1084600000.0 0.2913030151 0.7395725315
1094550000.0 0.6852529874 0.3267140994
1104500000.0 0.6808868806 -0.2417938689
1114450000.0 0.2849976654 -0.6379761396
1124400000.0 -0.2495190652 -0.6375612649
1134350000.0 -0.6066048896 -0.2867384728
1144300000.0 -0.6298258093 0.1798502214
1154250000.0 -0.3549816927 0.5254206216
1164200000.0 0.0633601771 0.6033835907
1174150000.0 0.4271643704 0.392028015
1184100000.0 0.5573363649 -0.011247966
1194050000.0 0.3824491409 -0.3921568587
1204000000.0 0.0117389998 -0.5518763014
1213950000.0 -0.3541251323 -0.4400976847
1223900000.0 -0.5616330137 -0.1434471421
1233850000.0 -0.5540085455 0.2055779264
1243800000.0 -0.3443400608 0.4816739803
1253750000.0 -0.0071726433 0.5809001631
1263700000.0 0.3316776264 0.4544005806
1273650000.0 0.5293322114 0.1432810381
1283600000.0 0.501743095 -0.2235581
1293550000.0 0.2735781973 -0.495814794
1303500000.0 -0.0521047871 -0.587079433
1313450000.0 -0.3603104016 -0.4915865898
1323400000.0 -0.5662565928 -0.2531190665
1333350000.0 -0.6183033726 0.0610139207
1343300000.0 -0.4917835055 0.364665766
1353250000.0 -0.2034465541 0.554043043
1363200000.0 0.1538244004 0.5430361849
1373150000.0 0.4446406056 0.3242665944
1383100000.0 0.5573360196 -0.015655919
1393050000.0 0.4674098917 -0.3464245349
1403000000.0 0.226626837 -0.5649543947
1412950000.0 -0.0770790435 -0.6179848797
1422900000.0 -0.3550269945 -0.5058916062
1432850000.0 -0.5335957608 -0.2589658213
1442800000.0 -0.551858913 0.0593698822
1452750000.0 -0.3837534756 0.3455996267
1462700000.0 -0.0749520476 0.4871187927
1472650000.0 0.2546599758 0.4257483592
1482600000.0 0.4818262803 0.195498838
1492550000.0 0.5351567997 -0.1079345338
1502500000.0 0.4141192606 -0.3762383622
1512450000.0 0.16986243 -0.524653006
1522400000.0 -0.1127537809 -0.5060856652
1532350000.0 -0.336545493 -0.3224126121
1542300000.0 -0.4104603358 -0.0321935476
1552250000.0 -0.2944652093 0.2504248387
1562200000.0 -0.0337804681 0.4015314811
1572150000.0 0.2543311518 0.3643266078
1582100000.0 0.4510423207 0.1670737006
1592050000.0 0.4859621996 -0.1004507506
1602000000.0 0.3536472746 -0.334965315
1611950000.0 0.0998239452 -0.4475802671
1621900000.0 -0.1836739832 -0.3830983155
1631850000.0 -0.3803999908 -0.1512708436
1641800000.0 -0.3962478849 0.1606745064
1651750000.0 -0.2192943218 0.4180145774
1661700000.0 0.0715276036 0.5143873209
1671650000.0 0.3563864175 0.4224599598
1681600000.0 0.5355031835 0.1872333767
1691550000.0 0.5531694292 -0.1105606638
1701500000.0 0.4021731623 -0.3757595228
1711450000.0 0.1198758236 -0.5204465019
1721400000.0 -0.2089277006 -0.4794998666
1731350000.0 -0.4645804819 -0.2522003671
1741300000.0 -0.5463608534 0.0832381324
1751250000.0 -0.4270267541 0.3988171797
1761200000.0 -0.1633234742 0.5881408865
1771150000.0 0.1483403724 0.6059731688
1781100000.0 0.4178981145 0.4636360062
1791050000.0 0.5776584238 0.2045105828
1801000000.0 0.5840442803 -0.1057883726
1810950000.0 0.4253353786 -0.3841798204
1820900000.0 0.134533298 -0.5389197124
1830850000.0 -0.2000213119 -0.5055611809
1840800000.0 -0.4579303506 -0.2909814183
1850750000.0 -0.552524981 0.0184173488
1860700000.0 -0.4739561567 0.3120746735
1870650000.0 -0.2702295137 0.5104871858
1880600000.0 -0.0098150154 0.5748426941
1890550000.0 0.2372620031 0.5004792605
1900500000.0 0.4087261602 0.3105985465
1910450000.0 0.4550572275 0.0565359977
1920400000.0 0.3577372071 -0.1830219857
1930350000.0 0.1498151194 -0.3242687946
1940300000.0 -0.0857622538 -0.3234603539
1950250000.0 -0.2619673939 -0.2044514108
1960200000.0 -0.330290133 -0.0352720189
1970150000.0 -0.2954975675 0.1126207033
1980100000.0 -0.1984513992 0.1851523344
1990050000.0 -0.1083537859 0.1624283326
2000000000.0 -0.102670361 0.0802657626
