!Created with skrf (http://scikit-rf.org).
# GHz S RI R 50.0 
!freq ReS11 ImS11
10000000.0 -0.9865426514 0.0723457561
19950000.0 -0.9765046064 0.1382914203
29900000.0 -0.9617472486 0.2064970718
39850000.0 -0.940358037 0.2788883621
49800000.0 -0.9089277611 0.3590034354
59750000.0 -0.8643857244 0.4487656983
69700000.0 -0.8010683162 0.5490647197
79650000.0 -0.7124992005 0.6602410248
89600000.0 -0.587041293 0.7769263368
99550000.0 -0.4132661796 0.8866929944
109500000.0 -0.1816884776 0.9668386215
119450000.0 0.1056152489 0.9816063105
129400000.0 0.417605987 0.8965314069
139350000.0 0.6931124598 0.706842157
149300000.0 0.8878493032 0.4374104394
159250000.0 0.9775532328 0.1473547334
169200000.0 0.9770532625 -0.1173094208
179150000.0 0.9182394903 -0.332489468
189100000.0 0.8305893858 -0.4965047329
199050000.0 0.7349249058 -0.6176836409
209000000.0 0.6416845137 -0.7051181919
218950000.0 0.5560892472 -0.7693954168
228900000.0 0.47957782 -0.8163343929
238850000.0 0.4082336283 -0.8505060106
248800000.0 0.3302095545 -0.868691024
258750000.0 0.2749842021 -0.8901285005
268700000.0 0.2064063096 -0.901732142
278650000.0 0.1352843713 -0.9073542369
288600000.0 0.0612643724 -0.9070952768
298550000.0 -0.0157692742 -0.8979535514
308500000.0 -0.0978582953 -0.877181137
318450000.0 -0.184652918 -0.8388205676
328400000.0 -0.2743940017 -0.7765829685
338350000.0 -0.36151798 -0.6849855746
348300000.0 -0.4332015113 -0.5619585405
358250000.0 -0.4733241189 -0.4145645794
368200000.0 -0.4696259008 -0.2583599495
378150000.0 -0.4211932536 -0.1154843118
388100000.0 -0.3373896378 -0.0023485107
398050000.0 -0.2356150399 0.073230861
408000000.0 -0.1337517162 0.1142333992
417950000.0 -0.0439792008 0.1283674487
427900000.0 0.0284123613 0.1251401344
437850000.0 0.0816825446 0.1107875186
447800000.0 0.1179443011 0.0896944567
457750000.0 0.1396611703 0.065618391
467700000.0 0.1496613311 0.0414328777
477650000.0 0.1510755692 0.0193895968
487600000.0 0.1455811946 0.0014620999
497550000.0 0.1358546955 -0.0093919559
507500000.0 0.1196888644 -0.0209544586
517450000.0 0.0984884303 -0.0236980276
527400000.0 0.0737965827 -0.0228961308
537350000.0 0.0472972987 -0.0183669045
547300000.0 0.0215799036 -0.009930978
557250000.0 -0.0023820497 0.0004560139
567200000.0 -0.0238080529 0.0145962015
577150000.0 -0.0418533561 0.0319085716
587100000.0 -0.0571529485 0.0517599409
597050000.0 -0.0697750506 0.0726952194
607000000.0 -0.0797084466 0.0936594679
616950000.0 -0.0869772209 0.1126265414
626900000.0 -0.0902551573 0.1295255906
636850000.0 -0.0891230534 0.1439132206
646800000.0 -0.0830069131 0.1560742007
656750000.0 -0.0731463578 0.1666804787
666700000.0 -0.0597574923 0.1760055351
676650000.0 -0.0450801886 0.182822839
686600000.0 -0.0289736128 0.1862978095
696550000.0 -0.0117875813 0.1847061666
706500000.0 0.0065733793 0.1764477153
716450000.0 0.0264488315 0.1618369383
726400000.0 0.0486368844 0.1425356538
736350000.0 0.0727700797 0.1183817695
746300000.0 0.0970202081 0.0910028578
756250000.0 0.1189203968 0.0599894822
766200000.0 0.1360219239 0.0254008362
776150000.0 0.1467003047 -0.013728348
786100000.0 0.1509247147 -0.0571797775
796050000.0 0.1485770301 -0.10509375
806000000.0 0.1408907409 -0.1558921025
815950000.0 0.128617773 -0.2059479631
825900000.0 0.1121242325 -0.2524700825
835850000.0 0.0911552378 -0.2931698952
845800000.0 0.0641532905 -0.3269481903
855750000.0 0.0299783385 -0.353311757
865700000.0 -0.0109027783 -0.3741514813
875650000.0 -0.0572918733 -0.3889870969
885600000.0 -0.1077275224 -0.398258998
895550000.0 -0.1597865758 -0.4007608276
905500000.0 -0.2115717049 -0.3942941855
915450000.0 -0.263224539 -0.3763151234
925400000.0 -0.3147228302 -0.343992208
935350000.0 -0.3656859724 -0.2942208409
945300000.0 -0.4153449871 -0.2249578209
955250000.0 -0.4595646113 -0.1343510796
965200000.0 -0.4897046082 -0.0202083006
975150000.0 -0.4946437491 0.1181138746
985100000.0 -0.4576224899 0.2762199088
995050000.0 -0.3610078403 0.4414767694
1005000000.0 -0.1943158461 0.5870730715
1014950000.0 0.0338868472 0.6777072299
1024900000.0 0.2952353719 0.6840273443
1034850000.0 0.5463498026 0.5917164029
1044800000.0 0.7401609565 0.4134609254
1054750000.0 0.8494748663 0.184672429
1064700000.0 0.8677982231 -0.0564738869
1074650000.0 0.7992720568 -0.2731653096
1084600000.0 0.6180393798 -0.3512740069
1094550000.0 0.6844848263 -0.4552155455
1104500000.0 0.5558425037 -0.6217693105
1114450000.0 0.3900864162 -0.7127433188
1124400000.0 0.2151383475 -0.7532631811
1134350000.0 0.0441073671 -0.7517824797
1144300000.0 -0.1132362512 -0.7157984928
1154250000.0 -0.2498041993 -0.6519206067
1164200000.0 -0.3612742375 -0.5679780354
1174150000.0 -0.4472086958 -0.473262941
1184100000.0 -0.5135965135 -0.3727595608
1194050000.0 -0.5617352448 -0.2697441616
1204000000.0 -0.5928844028 -0.1714510858
1213950000.0 -0.6096314457 -0.0828098215
1223900000.0 -0.6166934147 -0.0069520784
1233850000.0 -0.6156737923 0.0574296937
1243800000.0 -0.609030913 0.1122226342
1253750000.0 -0.5972480318 0.1610108944
1263700000.0 -0.5829415514 0.2066649125
1273650000.0 -0.5682141831 0.2479933476
1283600000.0 -0.5552467494 0.2855218692
1293550000.0 -0.5450004539 0.316813782
1303500000.0 -0.5380596008 0.340791149
1313450000.0 -0.5331148253 0.3582659665
1323400000.0 -0.5287609281 0.370230595
1333350000.0 -0.5223020185 0.3800073964
1343300000.0 -0.5142623455 0.3900942123
1353250000.0 -0.5052081588 0.4016384787
1363200000.0 -0.496820833 0.414851545
1373150000.0 -0.4884133858 0.4277699799
1383100000.0 -0.4816571403 0.438897346
1393050000.0 -0.4766132631 0.446604291
1403000000.0 -0.4711355077 0.450172981
1412950000.0 -0.4640020193 0.4503526945
1422900000.0 -0.4533715941 0.4498783756
1432850000.0 -0.4393684461 0.4508963806
1442800000.0 -0.422719269 0.4552788625
1452750000.0 -0.4051557646 0.4624590041
1462700000.0 -0.3866627586 0.4717539902
1472650000.0 -0.3680962031 0.4812397641
1482600000.0 -0.3487692573 0.4894770929
1492550000.0 -0.3275391686 0.4949921484
1502500000.0 -0.3018896449 0.4986566429
1512450000.0 -0.2716064636 0.5007626327
1522400000.0 -0.2366515273 0.502974048
1532350000.0 -0.197610754 0.5057906103
1542300000.0 -0.1551088213 0.5089716085
1552250000.0 -0.1106402749 0.5110907721
1562200000.0 -0.0649166636 0.5113082004
1572150000.0 -0.0193987096 0.5079703635
1582100000.0 0.0270983845 0.5018571738
1592050000.0 0.0747475983 0.4927718347
1602000000.0 0.1224124274 0.4812292471
1611950000.0 0.1689191134 0.4683245695
1621900000.0 0.2137502025 0.4543708857
1631850000.0 0.2563175286 0.4386860731
1641800000.0 0.2965003717 0.4209553531
1651750000.0 0.3344505908 0.3999412217
1661700000.0 0.3707769306 0.376777796
1671650000.0 0.4049687071 0.3532884917
1681600000.0 0.4367106457 0.3316226062
1691550000.0 0.4656703712 0.3127943813
1701500000.0 0.4920084421 0.2980292967
1711450000.0 0.5139963441 0.2857025242
1721400000.0 0.5319492739 0.2751575622
1731350000.0 0.5459535285 0.263939861
1741300000.0 0.5579818725 0.2519912456
1751250000.0 0.5676040638 0.2396951159
1761200000.0 0.5756669155 0.227735443
1771150000.0 0.5812432162 0.2181217403
1781100000.0 0.581554077 0.2120024263
1791050000.0 0.5736394703 0.2190055983
1801000000.0 0.5770511813 0.23672294
1810950000.0 0.5816545935 0.2443365715
1820900000.0 0.5812117242 0.2471438317
1830850000.0 0.5783439488 0.2470672683
1840800000.0 0.5750388675 0.2447811949
1850750000.0 0.5708844261 0.2412509644
1860700000.0 0.5647569361 0.2378860917
1870650000.0 0.5559861486 0.2365884218
1880600000.0 0.5429175336 0.2377337901
1890550000.0 0.5244319829 0.2410518928
1900500000.0 0.5018463963 0.2442335964
1910450000.0 0.4760006719 0.2448189139
1920400000.0 0.4490740959 0.2418569904
1930350000.0 0.4218447684 0.2351548522
1940300000.0 0.39397565 0.2258467798
1950250000.0 0.3652884642 0.2146007413
1960200000.0 0.3334473217 0.2027958829
1970150000.0 0.2972417361 0.1902327427
1980100000.0 0.2541247978 0.1779484705
1990050000.0 0.2032285132 0.1635126388
2000000000.0 0.143620301 0.1467996135
