!Created with skrf (http://scikit-rf.org).
# GHz S RI R 50.0 
!freq ReS11 ImS11
10000000.0 -0.8123671579 0.6065483991
19950000.0 -0.296233041 0.9481445454
29900000.0 0.3188608511 0.9251726682
39850000.0 0.8104256922 0.5448023733
49800000.0 0.9862259209 -0.064337076
59750000.0 0.7509183175 -0.6715088619
69700000.0 0.1706737815 -1.005804217
79650000.0 -0.5056220307 -0.8803760692
89600000.0 -0.9396840865 -0.3234136256
99550000.0 -0.8843107686 0.4010175669
109500000.0 -0.3265119238 0.9060435388
119450000.0 0.4578648025 0.8632345103
129400000.0 0.9549554538 0.234373996
139350000.0 0.8128318593 -0.5965824582
149300000.0 0.0693500063 -0.9861629294
159250000.0 -0.6846322141 -0.6703242538
169200000.0 -0.9402412829 0.0727202013
179150000.0 -0.5946904488 0.7433961793
189100000.0 0.0972253872 0.967448886
199050000.0 0.7287690595 0.6611624872
209000000.0 0.9766903662 0.0281483727
218950000.0 0.7563886301 -0.5846059349
228900000.0 0.2128469677 -0.9090955178
238850000.0 -0.4042148353 -0.8281977171
248800000.0 -0.6634847236 -0.3843625587
258750000.0 -0.9207351714 0.1836213607
268700000.0 -0.626495219 0.7167922489
278650000.0 -0.0693528638 0.9467167209
288600000.0 0.5031000963 0.7777476176
298550000.0 0.8406925885 0.2933904215
308500000.0 0.8023472705 -0.2908750521
318450000.0 0.4080996551 -0.7161575316
328400000.0 -0.1601848006 -0.785971853
338350000.0 -0.6195953966 -0.4655684128
348300000.0 -0.7231599315 0.0602140944
358250000.0 -0.4422816036 0.4725513698
368200000.0 0.0019831716 0.547833203
378150000.0 0.3200344526 0.3105137368
388100000.0 0.3585716331 -0.0273062466
398050000.0 0.1740710438 -0.2421581094
408000000.0 -0.0565179086 -0.2461831795
417950000.0 -0.1822080027 -0.105286748
427900000.0 -0.1625460897 0.0469259624
437850000.0 -0.0569596743 0.1204045945
447800000.0 0.054535504 0.1037553964
457750000.0 0.1117729106 0.0197049501
467700000.0 0.0914127325 -0.0654049759
477650000.0 0.0276954986 -0.0996968927
487600000.0 -0.02430163 -0.0767049884
497550000.0 -0.086094 -0.0672271021
507500000.0 -0.0484449501 0.0107674695
517450000.0 -0.009892796 0.0215033281
527400000.0 0.010535353 0.0025502433
537350000.0 -0.000515512 -0.0198778062
547300000.0 -0.0348082225 -0.0198460178
557250000.0 -0.0615869939 0.0151726469
567200000.0 -0.0554130637 0.0691996018
577150000.0 -0.0072783372 0.1105497872
587100000.0 0.0658738893 0.1093637712
597050000.0 0.1289653937 0.0528620012
607000000.0 0.1451394387 -0.0396696976
616950000.0 0.0966782243 -0.1307859429
626900000.0 -0.0001814875 -0.1769406482
636850000.0 -0.110205128 -0.1553153463
646800000.0 -0.1836875099 -0.070989513
656750000.0 -0.1897226781 0.0411489445
666700000.0 -0.1238202915 0.1317642791
676650000.0 -0.0159143803 0.1596513735
686600000.0 0.0856284246 0.1149118968
696550000.0 0.1339348234 0.0175214244
706500000.0 0.111331384 -0.0832704986
716450000.0 0.0334098622 -0.1369893592
726400000.0 -0.0542919225 -0.1217074474
736350000.0 -0.0982140165 -0.0476307062
746300000.0 -0.0705828387 0.0377430334
756250000.0 0.0173166737 0.0783703634
766200000.0 0.115453918 0.0421626794
776150000.0 0.1629515135 -0.0608319376
786100000.0 0.1207292742 -0.1762731289
796050000.0 -0.0027952701 -0.235143103
806000000.0 -0.1513498116 -0.1875054731
815950000.0 -0.2434915614 -0.0360196332
825900000.0 -0.2157935376 0.1585681551
835850000.0 -0.0624965338 0.3053007134
845800000.0 0.1608235055 0.3273003622
855750000.0 0.3574037772 0.2022272186
865700000.0 0.4374846676 -0.0289137028
875650000.0 0.3510686984 -0.2689004854
885600000.0 0.1193213742 -0.410718701
895550000.0 -0.1616214967 -0.3702061437
905500000.0 -0.3578883338 -0.1597001319
915450000.0 -0.3878927319 0.1283476827
925400000.0 -0.2253097554 0.376575711
935350000.0 0.0632575419 0.4584654225
945300000.0 0.3352870316 0.3208465663
955250000.0 0.437282324 0.0169826219
965200000.0 0.2830147289 -0.286879812
975150000.0 -0.0743291519 -0.3868595419
985100000.0 -0.4116553969 -0.158445564
995050000.0 -0.439853279 0.2817277425
1005000000.0 -0.0792728475 0.5990879473
1014950000.0 0.4406043085 0.495027292
1024900000.0 0.704811742 -0.0298289674
1034850000.0 0.4372405594 -0.6171025427
1044800000.0 -0.2318234322 -0.7829762949
1054750000.0 -0.7860608103 -0.3494822281
1064700000.0 -0.7978160224 0.2989475868
1074650000.0 -0.37147883 0.7439835565
1084600000.0 0.1350053336 0.8026141568
1094550000.0 0.6609825086 0.4691995848
1104500000.0 0.76199584 -0.1449932377
1114450000.0 0.3889722939 -0.6334157745
1124400000.0 -0.1978554432 -0.683009968
1134350000.0 -0.5976493709 -0.3116972988
1144300000.0 -0.6051931824 0.1862521282
1154250000.0 -0.2885983116 0.5179671321
1164200000.0 0.1446223762 0.5364975645
1174150000.0 0.460924281 0.2614563959
1184100000.0 0.495772152 -0.1541790866
1194050000.0 0.2302011462 -0.4676830944
1204000000.0 -0.162837663 -0.5067797001
1213950000.0 -0.4680904723 -0.2891690263
1223900000.0 -0.5668389531 0.057450745
1233850000.0 -0.4393311331 0.3866404376
1243800000.0 -0.1389786392 0.5773317294
1253750000.0 0.2250384065 0.5492558743
1263700000.0 0.5060882047 0.3002848953
1273650000.0 0.5804982864 -0.073293404
1283600000.0 0.4214960595 -0.4146198431
1293550000.0 0.1067583648 -0.5994118863
1303500000.0 -0.2440792673 -0.5846064206
1313450000.0 -0.5266741358 -0.392340869
1323400000.0 -0.6673162467 -0.0821681438
1333350000.0 -0.6222371593 0.2628633444
1343300000.0 -0.3869037655 0.5382401359
1353250000.0 -0.0232459086 0.6375696251
1363200000.0 0.3419158969 0.5087540687
1373150000.0 0.5699765671 0.1965503323
1383100000.0 0.5885908202 -0.1776370769
1393050000.0 0.4134626761 -0.4902367248
1403000000.0 0.1150093447 -0.6589965241
1412950000.0 -0.2194052623 -0.6478429995
1422900000.0 -0.4973768778 -0.4634110389
1432850000.0 -0.6348542054 -0.1512651966
1442800000.0 -0.5771172527 0.1965957807
1452750000.0 -0.3290850237 0.4597931214
1462700000.0 0.0261664349 0.5396312964
1472650000.0 0.3585238319 0.4115280514
1482600000.0 0.556105101 0.1335471058
1492550000.0 0.5682971099 -0.1913885319
1502500000.0 0.4055938361 -0.4576957179
1512450000.0 0.127514433 -0.5845731389
1522400000.0 -0.1747031558 -0.5296486453
1532350000.0 -0.3928152116 -0.3043163546
1542300000.0 -0.4383613843 0.0117244225
1552250000.0 -0.288086951 0.293056494
1562200000.0 -0.0087041426 0.4244280845
1572150000.0 0.279434952 0.3674544965
1582100000.0 0.4681209826 0.157765918
1592050000.0 0.4882842375 -0.1161773278
1602000000.0 0.3367379223 -0.344472976
1611950000.0 0.0710075343 -0.4360098312
1621900000.0 -0.2055915851 -0.3452992323
1631850000.0 -0.3759530825 -0.0978820596
1641800000.0 -0.3598260452 0.2073621497
1651750000.0 -0.1595429585 0.4372956833
1661700000.0 0.1348272571 0.4945393507
1671650000.0 0.3995987196 0.3648409753
1681600000.0 0.5381245593 0.1054093669
1691550000.0 0.5041738339 -0.1919281895
1701500000.0 0.3037447215 -0.4276524547
1711450000.0 -0.0064969838 -0.5150685861
1721400000.0 -0.3258028962 -0.4052125348
1731350000.0 -0.527358064 -0.1244457903
1741300000.0 -0.5269933602 0.2216479119
1751250000.0 -0.3307332093 0.4979945457
1761200000.0 -0.0238644508 0.6131127155
1771150000.0 0.2877658242 0.5475076437
1781100000.0 0.5171553517 0.332318987
1791050000.0 0.6047306152 0.0278605224
1801000000.0 0.5181187292 -0.2868281162
1810950000.0 0.2653873126 -0.5129653752
1820900000.0 -0.0807746711 -0.5555479494
1830850000.0 -0.3846140447 -0.3822780487
1840800000.0 -0.5008095993 -0.0869808399
1850750000.0 -0.4760924389 0.1367356528
1860700000.0 -0.3885174583 0.3894260693
1870650000.0 -0.1522038174 0.550940269
1880600000.0 0.1241982305 0.5574437752
1890550000.0 0.3574679608 0.4210278939
1900500000.0 0.4826780637 0.1801927724
1910450000.0 0.4540700242 -0.0918640472
1920400000.0 0.2773986491 -0.2980870144
1930350000.0 0.0257280779 -0.363291359
1940300000.0 -0.1995906673 -0.2829503974
1950250000.0 -0.3274771911 -0.1164355158
1960200000.0 -0.3434104403 0.0612064266
1970150000.0 -0.273904113 0.1912548134
1980100000.0 -0.1682711663 0.242270872
1990050000.0 -0.0832546396 0.2177616162
2000000000.0 -0.0619997606 0.1602779023
