!Created with skrf (http://scikit-rf.org).
# GHz S RI R 50.0 
!freq ReS11 ImS11
10000000.0 -0.7695485863 0.5839616834
19950000.0 -0.2805671016 0.9195101519
29900000.0 0.3119504817 0.9058140915
39850000.0 0.791281064 0.5400330531
49800000.0 0.9673701071 -0.0526951065
59750000.0 0.7347379687 -0.6477888748
69700000.0 0.1647119715 -0.9740069205
79650000.0 -0.4980542064 -0.8487319354
89600000.0 -0.9229143941 -0.2957726769
99550000.0 -0.8578358124 0.4267731445
109500000.0 -0.2830477396 0.9184451252
119450000.0 0.5041144302 0.8332457908
129400000.0 0.9725822325 0.1510292171
139350000.0 0.7376401381 -0.6504211083
149300000.0 -0.0350765294 -0.9650162736
159250000.0 -0.7414343952 -0.5814624974
169200000.0 -0.9173766338 0.163920275
179150000.0 -0.5258698734 0.775487423
189100000.0 0.1454452127 0.9325038564
199050000.0 0.7210516032 0.6057168765
209000000.0 0.9333737774 -0.0005436431
218950000.0 0.7195434726 -0.5789994646
228900000.0 0.207205212 -0.8900941981
238850000.0 -0.3765837917 -0.8243500493
248800000.0 -0.7737412624 -0.4065041042
258750000.0 -0.8977922904 0.137587495
268700000.0 -0.6429538333 0.6515261123
278650000.0 -0.1347436142 0.9059487538
288600000.0 0.4197222253 0.798343255
298550000.0 0.7916341953 0.3737528026
308500000.0 0.8245675371 -0.1902739318
318450000.0 0.5007012221 -0.649479545
328400000.0 -0.0337953131 -0.7933730456
338350000.0 -0.5164452612 -0.5547651929
348300000.0 -0.6982225506 -0.0723695274
358250000.0 -0.5024363246 0.3665104666
368200000.0 -0.0987283991 0.5150674016
378150000.0 0.2321818906 0.3474862335
388100000.0 0.3146514067 0.0484529857
398050000.0 0.1758649415 -0.1601669853
408000000.0 -0.0224570823 -0.1798518237
417950000.0 -0.1296958583 -0.0624650848
427900000.0 -0.1043059687 0.067267745
437850000.0 -0.0004356347 0.1161813273
447800000.0 0.097065056 0.0692992088
457750000.0 0.1238967528 -0.0308967286
467700000.0 0.0749136407 -0.1169859188
477650000.0 -0.0141184494 -0.1435014358
487600000.0 -0.0921555074 -0.1035117221
497550000.0 -0.1204245167 -0.0323568195
507500000.0 -0.0972946523 0.0436332641
517450000.0 -0.0383531503 0.0765677309
527400000.0 0.0133313333 0.0641751285
537350000.0 0.0339169808 0.0276329425
547300000.0 0.0208264846 -0.0027208118
557250000.0 -0.005783931 -0.0066917799
567200000.0 -0.0189914208 0.0152289875
577150000.0 -0.0018181684 0.0415402439
587100000.0 0.0398631777 0.0433473664
597050000.0 0.079519465 0.0075388288
607000000.0 0.0880991088 -0.0575057008
616950000.0 0.0482167464 -0.121706181
626900000.0 -0.0293531523 -0.1487217479
636850000.0 -0.112492084 -0.1184861395
646800000.0 -0.1615526416 -0.0375438947
656750000.0 -0.1498342388 0.0629732377
666700000.0 -0.0759742576 0.1378980854
676650000.0 0.031133717 0.1517301772
686600000.0 0.125674449 0.0947737116
696550000.0 0.1649540659 -0.0115774754
706500000.0 0.130688122 -0.1173796299
716450000.0 0.0374309605 -0.174299865
726400000.0 -0.067550303 -0.1548523044
736350000.0 -0.1295221206 -0.0677665935
746300000.0 -0.1133486949 0.0405549943
756250000.0 -0.0234714278 0.1102970465
766200000.0 0.0924174237 0.1003086199
776150000.0 0.1701432754 0.0095627911
786100000.0 0.1617855168 -0.1125452933
796050000.0 0.0627755569 -0.1984069685
806000000.0 -0.0807042937 -0.1901650903
815950000.0 -0.1916818898 -0.0740866536
825900000.0 -0.2003991911 0.1007765807
835850000.0 -0.0865786659 0.2496315294
845800000.0 0.1049698607 0.2923085588
855750000.0 0.2875368527 0.197128827
865700000.0 0.3714760148 -0.0039609389
875650000.0 0.3048570815 -0.2244608198
885600000.0 0.0994643067 -0.3564058536
895550000.0 -0.1560211983 -0.3201838733
905500000.0 -0.3339354637 -0.1180338716
915450000.0 -0.3387178656 0.1558193835
925400000.0 -0.1651275197 0.3709074708
935350000.0 0.1121169703 0.4197063053
945300000.0 0.3584551827 0.2577471128
955250000.0 0.4252582396 -0.0531230124
965200000.0 0.2314046453 -0.3445466941
975150000.0 -0.1508975794 -0.4029945773
985100000.0 -0.4712530825 -0.1209135252
995050000.0 -0.4502048655 0.3477556652
1005000000.0 -0.0381279777 0.6459928543
1014950000.0 0.4941261074 0.4907261119
1024900000.0 0.7236621786 -0.0730335543
1034850000.0 0.4025140515 -0.6455881757
1044800000.0 -0.2679209975 -0.7467816269
1054750000.0 -0.7607781463 -0.2864241633
1064700000.0 -0.7216413484 0.3519054515
1074650000.0 -0.2818060541 0.6979174289
1084600000.0 0.119362122 0.7296847794
1094550000.0 0.6263301018 0.4537846493
1104500000.0 0.7297158873 -0.1358486493
1114450000.0 0.3771192493 -0.6074323429
1124400000.0 -0.1787719193 -0.6741040736
1134350000.0 -0.5844579911 -0.3474685983
1144300000.0 -0.6471455874 0.1305207961
1154250000.0 -0.3917524357 0.5012686849
1164200000.0 0.0224168385 0.6059492159
1174150000.0 0.3971831951 0.4184289616
1184100000.0 0.5515041454 0.023185437
1194050000.0 0.3970983296 -0.3692998024
1204000000.0 0.0332050686 -0.5484556511
1213950000.0 -0.3390697894 -0.4522257549
1223900000.0 -0.5588975955 -0.1615823709
1233850000.0 -0.5620272114 0.1903367458
1243800000.0 -0.359165893 0.4743382602
1253750000.0 -0.0233067629 0.5835266018
1263700000.0 0.3200050599 0.4662596048
1273650000.0 0.527384694 0.1594361259
1283600000.0 0.5113703467 -0.2107833418
1293550000.0 0.2908154056 -0.4936132924
1303500000.0 -0.0351103773 -0.5978587722
1313450000.0 -0.350838682 -0.5117597451
1323400000.0 -0.5675764375 -0.2756136472
1333350000.0 -0.6292572573 0.0424140908
1343300000.0 -0.5087527631 0.3529238426
1353250000.0 -0.2239404715 0.5531263146
1363200000.0 0.1357932574 0.5547076251
1373150000.0 0.4361624219 0.345379291
1383100000.0 0.5629614106 0.0081133268
1393050000.0 0.4862235489 -0.3285384147
1403000000.0 0.2536027369 -0.5595543358
1412950000.0 -0.0494782862 -0.6277493686
1422900000.0 -0.3354462837 -0.5284718994
1432850000.0 -0.5275407053 -0.2878673204
1442800000.0 -0.5613838891 0.0317714724
1452750000.0 -0.4073725285 0.3280308083
1462700000.0 -0.1056428223 0.4860648458
1472650000.0 0.2275433098 0.4431893985
1482600000.0 0.4677306973 0.2258281857
1492550000.0 0.5386283293 -0.0739180897
1502500000.0 0.4346164423 -0.3486179049
1512450000.0 0.2020088287 -0.5117535049
1522400000.0 -0.078655187 -0.513284381
1532350000.0 -0.3116815676 -0.3476447547
1542300000.0 -0.4040089348 -0.0670567431
1552250000.0 -0.3087087668 0.2186272554
1562200000.0 -0.0630613824 0.384054056
1572150000.0 0.2213026064 0.3657190859
1582100000.0 0.4244466842 0.1846875245
1592050000.0 0.4737380898 -0.0729473454
1602000000.0 0.3577934019 -0.306802901
1611950000.0 0.118389927 -0.4278855741
1621900000.0 -0.1575731421 -0.3774568409
1631850000.0 -0.3557317446 -0.1598131439
1641800000.0 -0.3797247709 0.141682118
1651750000.0 -0.2153074965 0.3957576754
1661700000.0 0.064033478 0.4957205841
1671650000.0 0.3412263469 0.4124450412
1681600000.0 0.5191235235 0.1872188653
1691550000.0 0.541227941 -0.1031685563
1701500000.0 0.3970773466 -0.3652353364
1711450000.0 0.1210043302 -0.5099460669
1721400000.0 -0.2028806428 -0.4708197946
1731350000.0 -0.4543994282 -0.2456838563
1741300000.0 -0.5335353905 0.0856924208
1751250000.0 -0.4150779851 0.396559968
1761200000.0 -0.1558022161 0.5830651359
1771150000.0 0.1508384795 0.6013099628
1781100000.0 0.4170658472 0.4609124279
1791050000.0 0.5752493324 0.2036993039
1801000000.0 0.580400073 -0.1064520117
1810950000.0 0.4198316047 -0.3838152679
1820900000.0 0.1281626849 -0.5358098273
1830850000.0 -0.2042630991 -0.4990540995
1840800000.0 -0.4578334602 -0.2837226826
1850750000.0 -0.5498437377 0.0235412201
1860700000.0 -0.4714317995 0.3147459644
1870650000.0 -0.2696392317 0.5118473186
1880600000.0 -0.0114934039 0.5771888909
1890550000.0 0.2348345092 0.505027363
1900500000.0 0.4073205531 0.3163604354
1910450000.0 0.4557654806 0.061732976
1920400000.0 0.3608372749 -0.1794403115
1930350000.0 0.1560179288 -0.3247832212
1940300000.0 -0.0792796694 -0.331727744
1950250000.0 -0.2606370615 -0.2203232466
1960200000.0 -0.3416742163 -0.056123276
1970150000.0 -0.3207254528 0.0949709417
1980100000.0 -0.2413102736 0.1822091567
1990050000.0 -0.1543521078 0.2009516799
2000000000.0 -0.1039996118 0.1631890008
