!Created with skrf (http://scikit-rf.org).
# GHz S RI R 50.0 
!freq ReS11 ImS11
10000000.0 -0.7969050723 0.6014006338
19950000.0 -0.2882872851 0.9425189246
29900000.0 0.3205219825 0.9241427707
39850000.0 0.809089549 0.55013015
49800000.0 0.9846479543 -0.052269887
59750000.0 0.7534463067 -0.6531625011
69700000.0 0.18237379 -0.9865272139
79650000.0 -0.4859108835 -0.8713107042
89600000.0 -0.9251991891 -0.3303094515
99550000.0 -0.8878251424 0.3862303635
109500000.0 -0.3508146055 0.8990112241
119450000.0 0.4228346641 0.8781980564
129400000.0 0.9505345551 0.2575215432
139350000.0 0.8278065802 -0.5454206653
149300000.0 0.1158489735 -0.9691339565
159250000.0 -0.6483557573 -0.6998812133
169200000.0 -0.9430330594 0.0234981138
179150000.0 -0.6327214906 0.7060242526
189100000.0 0.0421757589 0.9582960699
199050000.0 0.6803414239 0.6834626224
209000000.0 0.9554410987 0.0684173813
218950000.0 0.76617399 -0.5505500144
228900000.0 0.2395925391 -0.8968596314
238850000.0 -0.3782190709 -0.8370893073
248800000.0 -0.74576916 -0.260469413
258750000.0 -0.9138774078 0.1431446538
268700000.0 -0.6363611425 0.6812319381
278650000.0 -0.0901106458 0.9239242195
288600000.0 0.4827882912 0.7706241292
298550000.0 0.829004761 0.2943421729
308500000.0 0.7970056949 -0.2895254143
318450000.0 0.4031964302 -0.7123751643
328400000.0 -0.1622778084 -0.7744904076
338350000.0 -0.6104790737 -0.4481828358
348300000.0 -0.7023822968 0.073861205
358250000.0 -0.41623858 0.4773120576
368200000.0 0.0278844102 0.5436114628
378150000.0 0.3412788607 0.2992158732
388100000.0 0.3739383193 -0.042653302
398050000.0 0.180062339 -0.2605633013
408000000.0 -0.0638614105 -0.2649375048
417950000.0 -0.2037411066 -0.1173546078
427900000.0 -0.1924901335 0.0542655799
437850000.0 -0.0798545669 0.1474663672
447800000.0 0.0450095737 0.1331509848
457750000.0 0.110614849 0.0503126453
467700000.0 0.1010893168 -0.0366287007
477650000.0 0.0471925844 -0.0811563239
487600000.0 -0.0046514822 -0.0723110547
497550000.0 0.0220345508 -0.0638314275
507500000.0 -0.0486648041 -0.022772256
517450000.0 -0.023013698 -0.0079505276
527400000.0 -0.0138798217 -0.0195600451
537350000.0 -0.0307159036 -0.0329885454
547300000.0 -0.0668875599 -0.0243099423
557250000.0 -0.0904768143 0.0237959387
567200000.0 -0.0739189207 0.0847918681
577150000.0 -0.013734015 0.1276574939
587100000.0 0.0710233758 0.1226212699
597050000.0 0.1424237219 0.0601368586
607000000.0 0.1639927845 -0.0412188482
616950000.0 0.1181527133 -0.1415381968
626900000.0 0.0184713781 -0.1970606126
636850000.0 -0.0968961253 -0.1816701223
646800000.0 -0.1798343865 -0.0996196602
656750000.0 -0.1952197099 0.0162293375
666700000.0 -0.1361637531 0.1164023947
676650000.0 -0.0291228607 0.1570967099
686600000.0 0.0766501852 0.1223504531
696550000.0 0.1340848701 0.0324491104
706500000.0 0.1210954501 -0.0656748319
716450000.0 0.0503424213 -0.1230511265
726400000.0 -0.0338564846 -0.1129451535
736350000.0 -0.0793025188 -0.0439205405
746300000.0 -0.0546919535 0.0393258018
756250000.0 0.0299433301 0.0794732313
766200000.0 0.126286052 0.0431623489
776150000.0 0.1729300669 -0.0605998353
786100000.0 0.1287408703 -0.1784133216
796050000.0 0.0013592226 -0.2400505528
806000000.0 -0.1537172754 -0.1950385601
815950000.0 -0.2549125287 -0.0438605021
825900000.0 -0.2372788227 0.1544260176
835850000.0 -0.0920713653 0.3099454354
845800000.0 0.1278502133 0.3455635416
855750000.0 0.3307398486 0.2359961249
865700000.0 0.4271896903 0.0174411721
875650000.0 0.3668276334 -0.2223013923
885600000.0 0.1621497207 -0.3817838144
895550000.0 -0.1092996676 -0.3789437697
905500000.0 -0.3268933915 -0.1996503497
915450000.0 -0.3818227767 0.0823325357
925400000.0 -0.2388805086 0.3341385428
935350000.0 0.0368231871 0.4250414187
945300000.0 0.3018367297 0.2948449309
955250000.0 0.3952198752 -0.0003978689
965200000.0 0.2227492172 -0.2891829924
975150000.0 -0.146559651 -0.3455132002
985100000.0 -0.4436933092 -0.0542844537
995050000.0 -0.37683977 0.399744784
1005000000.0 0.0687216493 0.6376592429
1014950000.0 0.5723013685 0.4096463923
1024900000.0 0.7259520594 -0.1729238705
1034850000.0 0.3537613617 -0.6999524134
1044800000.0 -0.310006205 -0.7585853273
1054750000.0 -0.7856285157 -0.2992309801
1064700000.0 -0.7567873125 0.322466425
1074650000.0 -0.3255433843 0.6432216105
1084600000.0 0.0247224121 0.7582204928
1094550000.0 0.5511574053 0.5482403861
1104500000.0 0.7435270255 -0.0028217991
1114450000.0 0.4756909042 -0.5182983632
1124400000.0 -0.0654389175 -0.6649283268
1134350000.0 -0.5066936619 -0.3850366295
1144300000.0 -0.5993609074 0.0849244375
1154250000.0 -0.3495670867 0.4500633694
1164200000.0 0.0600639898 0.526654208
1174150000.0 0.3947974383 0.3004344065
1184100000.0 0.4692676913 -0.0942576335
1194050000.0 0.2438310275 -0.4173984277
1204000000.0 -0.1282412176 -0.4896888318
1213950000.0 -0.4395869717 -0.3069239424
1223900000.0 -0.5630743382 0.017016635
1233850000.0 -0.4677707145 0.3447411416
1243800000.0 -0.1934857173 0.5527423094
1253750000.0 0.1606373282 0.5578039637
1263700000.0 0.4576843559 0.3437647265
1273650000.0 0.5707156647 -0.0110074783
1283600000.0 0.4558112737 -0.3626955693
1293550000.0 0.1706744594 -0.5810292437
1303500000.0 -0.1741075182 -0.6082062649
1313450000.0 -0.4723452358 -0.4539350816
1323400000.0 -0.6457041461 -0.1703455272
1333350000.0 -0.6462732891 0.1666902543
1343300000.0 -0.4611341649 0.4634104905
1353250000.0 -0.1297420084 0.6159684141
1363200000.0 0.241530378 0.5541615238
1373150000.0 0.516635261 0.2938615948
1383100000.0 0.600620015 -0.066244511
1393050000.0 0.4842280192 -0.3993898404
1403000000.0 0.2231026478 -0.6114338116
1412950000.0 -0.097319252 -0.6563798724
1422900000.0 -0.3897139066 -0.5300288164
1432850000.0 -0.5729374855 -0.265771471
1442800000.0 -0.5867609296 0.0635322527
1452750000.0 -0.4157356418 0.3539913924
1462700000.0 -0.1092882306 0.5052958179
1472650000.0 0.2282498665 0.4628787017
1482600000.0 0.4767304247 0.2459273327
1492550000.0 0.5586227088 -0.057248857
1502500000.0 0.4633537689 -0.3396157169
1512450000.0 0.23523385 -0.5148876952
1522400000.0 -0.0502120825 -0.529944051
1532350000.0 -0.2943061859 -0.3740197523
1542300000.0 -0.4015900293 -0.0973856025
1552250000.0 -0.3200808263 0.1887763997
1562200000.0 -0.0863609686 0.3617297047
1572150000.0 0.1918027706 0.3555680809
1582100000.0 0.3958335137 0.1870579029
1592050000.0 0.4480744144 -0.0622762744
1602000000.0 0.3338429814 -0.2858618414
1611950000.0 0.1012038913 -0.3927748315
1621900000.0 -0.1577023771 -0.3320255794
1631850000.0 -0.3315685664 -0.1156039221
1641800000.0 -0.3333997877 0.1689590786
1651750000.0 -0.1607803414 0.3919580667
1661700000.0 0.1099117549 0.4676637055
1671650000.0 0.3719222491 0.3637830178
1681600000.0 0.5229253175 0.1263023696
1691550000.0 0.5141863233 -0.1616982718
1701500000.0 0.3390978568 -0.4058050824
1711450000.0 0.0423824155 -0.5151379288
1721400000.0 -0.2797589744 -0.4311792882
1731350000.0 -0.5014561948 -0.1704286003
1741300000.0 -0.5333079008 0.1695703921
1751250000.0 -0.3715872888 0.4605742943
1761200000.0 -0.086954872 0.6106885408
1771150000.0 0.2250969747 0.5882663958
1781100000.0 0.4773900725 0.4125863587
1791050000.0 0.6075340136 0.1319118256
1801000000.0 0.5760465335 -0.1849605837
1810950000.0 0.3760275086 -0.449027033
1820900000.0 0.0536801975 -0.5657668337
1830850000.0 -0.2829887502 -0.481377885
1840800000.0 -0.5120168709 -0.2288730341
1850750000.0 -0.5651638819 0.090968705
1860700000.0 -0.4515866277 0.3720988632
1870650000.0 -0.2269180085 0.5472140936
1880600000.0 0.0419040766 0.5856676377
1890550000.0 0.2880950788 0.4862821004
1900500000.0 0.4483647628 0.2744993656
1910450000.0 0.471626667 0.0073726079
1920400000.0 0.3466133284 -0.2276844054
1930350000.0 0.1187843744 -0.3485986687
1940300000.0 -0.1178494121 -0.3260547915
1950250000.0 -0.2846011271 -0.1950603813
1960200000.0 -0.3430568313 -0.0251634607
1970150000.0 -0.3071645503 0.1160372851
1980100000.0 -0.221055822 0.1859643159
1990050000.0 -0.1467974882 0.1806766867
2000000000.0 -0.1360603986 0.1417335022
