!Created with skrf (http://scikit-rf.org).
# GHz S RI R 50.0 
!freq ReS11 ImS11
10000000.0 -0.9862468217 0.0743275451
19950000.0 -0.9758225076 0.141542994
29900000.0 -0.9604597738 0.2105266355
39850000.0 -0.9387743026 0.2830799797
49800000.0 -0.9071578897 0.3623892115
59750000.0 -0.8631590483 0.4501512524
69700000.0 -0.8018965034 0.5469737443
79650000.0 -0.7179900918 0.6531945125
89600000.0 -0.6016923008 0.7643456588
99550000.0 -0.4436325564 0.8703367315
109500000.0 -0.2353689673 0.9534921485
119450000.0 0.0246685157 0.9854175625
129400000.0 0.3164788275 0.935561925
139350000.0 0.5940489357 0.7908243942
149300000.0 0.8143938427 0.5618563357
159250000.0 0.9448062051 0.2910107722
169200000.0 0.9846735767 0.0225898748
179150000.0 0.9542921446 -0.2118568669
189100000.0 0.8811933464 -0.4010747035
199050000.0 0.7886309194 -0.5471405083
209000000.0 0.6898039604 -0.6564387967
218950000.0 0.5932091625 -0.7386088045
228900000.0 0.5014210001 -0.7996704613
238850000.0 0.4095904384 -0.8453625562
248800000.0 0.240995936 -0.8558434052
258750000.0 0.2589189309 -0.88806084
268700000.0 0.1642323104 -0.9024692935
278650000.0 0.0699662733 -0.9053157511
288600000.0 -0.0269382416 -0.8975717139
298550000.0 -0.1266823813 -0.8760461635
308500000.0 -0.2295518605 -0.8369553272
318450000.0 -0.3330739446 -0.7735153885
328400000.0 -0.4315701701 -0.6810045103
338350000.0 -0.5154783102 -0.5570644098
348300000.0 -0.5709223214 -0.4057065762
358250000.0 -0.5843917441 -0.2410901515
368200000.0 -0.5515445222 -0.0832804087
378150000.0 -0.4799001416 0.0483480229
388100000.0 -0.3835757653 0.1430600428
398050000.0 -0.278970022 0.2007428566
408000000.0 -0.1802206845 0.2263694662
417950000.0 -0.0957564874 0.228685693
427900000.0 -0.0302262126 0.2158039595
437850000.0 0.0161237467 0.1931632407
447800000.0 0.0456969702 0.1650390622
457750000.0 0.059841644 0.134088143
467700000.0 0.0618719008 0.1040785599
477650000.0 0.0552753622 0.0772836209
487600000.0 0.0394893995 0.0544468452
497550000.0 -0.0017581154 0.0448297494
507500000.0 0.0271428318 0.0397989179
517450000.0 -0.0075888509 0.0273274239
527400000.0 -0.0376867436 0.0248905188
537350000.0 -0.0666441845 0.0265691326
547300000.0 -0.0962674274 0.0313623502
557250000.0 -0.1194663815 0.0412314214
567200000.0 -0.1382520809 0.0517801064
577150000.0 -0.1526472049 0.0642025288
587100000.0 -0.1644963383 0.0784663598
597050000.0 -0.1731087617 0.0926146969
607000000.0 -0.1789513306 0.1066362457
616950000.0 -0.1814066496 0.1181188147
626900000.0 -0.1801253816 0.1270812747
636850000.0 -0.1745434617 0.1333038507
646800000.0 -0.1638101137 0.1372750258
656750000.0 -0.1487735121 0.1397223577
666700000.0 -0.129899424 0.1408342936
676650000.0 -0.1094304732 0.1396818026
686600000.0 -0.0881379914 0.1345999022
696550000.0 -0.0649000005 0.1249470769
706500000.0 -0.0409490868 0.1088392422
716450000.0 -0.0142789675 0.0856113877
726400000.0 0.0134988882 0.056260043
736350000.0 0.0419589369 0.0223135195
746300000.0 0.0698232576 -0.0145393612
756250000.0 0.093974216 -0.054411905
766200000.0 0.1119050408 -0.0960087732
776150000.0 0.1229720687 -0.1398388639
786100000.0 0.1270061399 -0.1851070451
796050000.0 0.1241341618 -0.2321007136
806000000.0 0.1172885858 -0.2790877485
815950000.0 0.1070433624 -0.3229240174
825900000.0 0.0943495359 -0.3614538178
835850000.0 0.0792100079 -0.3937265364
845800000.0 0.0598060428 -0.4183763902
855750000.0 0.034822549 -0.4360857712
865700000.0 0.0047467711 -0.4483449652
875650000.0 -0.0306952588 -0.4555032323
885600000.0 -0.0699285743 -0.4576607694
895550000.0 -0.1117903408 -0.4532821085
905500000.0 -0.1568950142 -0.439994104
915450000.0 -0.2060512002 -0.4110845245
925400000.0 -0.2574588652 -0.3484170568
935350000.0 -0.2431162928 -0.2648762784
945300000.0 -0.2804698651 -0.2347728896
955250000.0 -0.3314316075 -0.1394424444
965200000.0 -0.3567537899 -0.0057909504
975150000.0 -0.3412646377 0.1555518236
985100000.0 -0.2659223548 0.3282724195
995050000.0 -0.1196469157 0.4835892588
1005000000.0 0.0868757849 0.5847587265
1014950000.0 0.3186447343 0.6060134952
1024900000.0 0.5336901385 0.5482071941
1034850000.0 0.7010902507 0.4325199438
1044800000.0 0.8122617784 0.2835000493
1054750000.0 0.869262902 0.1192979086
1064700000.0 0.8704261332 -0.0498852766
1074650000.0 0.8261590258 -0.1598617376
1084600000.0 0.8033090951 -0.2957728378
1094550000.0 0.7257692232 -0.4421451161
1104500000.0 0.5956261771 -0.5615550094
1114450000.0 0.4268024951 -0.6447005818
1124400000.0 0.2287302039 -0.6797506543
1134350000.0 0.0226488291 -0.6579929955
1144300000.0 -0.1683528934 -0.5816326823
1154250000.0 -0.3247346866 -0.4616599658
1164200000.0 -0.4340244448 -0.3165411004
1174150000.0 -0.4964503306 -0.1685597831
1184100000.0 -0.5276737013 -0.0324329153
1194050000.0 -0.5377116498 0.0900787959
1204000000.0 -0.5324435063 0.1921727703
1213950000.0 -0.5195982417 0.2733503573
1223900000.0 -0.5048460121 0.3353748998
1233850000.0 -0.4903331671 0.382881334
1243800000.0 -0.4752745563 0.4193088087
1253750000.0 -0.4604153182 0.4496567202
1263700000.0 -0.4459178681 0.4757062184
1273650000.0 -0.4350989483 0.4977109821
1283600000.0 -0.4285543778 0.515594542
1293550000.0 -0.4270676869 0.5283593051
1303500000.0 -0.4308204779 0.5354299629
1313450000.0 -0.4371711294 0.5374078716
1323400000.0 -0.4438731318 0.5353652393
1333350000.0 -0.4487126083 0.5314392069
1343300000.0 -0.4510543296 0.528965394
1353250000.0 -0.4523522207 0.5284582859
1363200000.0 -0.4529843815 0.5294142771
1373150000.0 -0.4538532101 0.5300272214
1383100000.0 -0.4560183173 0.5284700192
1393050000.0 -0.4593876194 0.5239055344
1403000000.0 -0.461437157 0.5151809652
1412950000.0 -0.4610915954 0.5032752646
1422900000.0 -0.4562689548 0.4906744512
1432850000.0 -0.4474270751 0.4796560487
1442800000.0 -0.4345609182 0.4716358215
1452750000.0 -0.4214726509 0.4676035615
1462700000.0 -0.4062718779 0.4668611111
1472650000.0 -0.3907119988 0.4680730583
1482600000.0 -0.3713335634 0.468665632
1492550000.0 -0.3485947284 0.4679255534
1502500000.0 -0.3186804429 0.4634999983
1512450000.0 -0.2821844092 0.4585756152
1522400000.0 -0.2380019224 0.4515503519
1532350000.0 -0.1878446012 0.4454376164
1542300000.0 -0.1320757395 0.4370250894
1552250000.0 -0.0729363613 0.4279707544
1562200000.0 -0.0126888012 0.4145380592
1572150000.0 0.0480999928 0.3956729778
1582100000.0 0.1083008593 0.3711775497
1592050000.0 0.1678761199 0.3426061242
1602000000.0 0.2247086263 0.3103888056
1611950000.0 0.2800495819 0.2765312616
1621900000.0 0.3299655164 0.2423042837
1631850000.0 0.3777639606 0.2066353238
1641800000.0 0.4184760822 0.1728155444
1651750000.0 0.4552539661 0.136400669
1661700000.0 0.4887911077 0.1037820747
1671650000.0 0.5174541503 0.073765705
1681600000.0 0.5443227294 0.0479836928
1691550000.0 0.5685981761 0.0287851772
1701500000.0 0.5902629468 0.0145302693
1711450000.0 0.6088490749 0.0041098827
1721400000.0 0.6239964308 -0.0042263221
1731350000.0 0.6357566032 -0.0113424224
1741300000.0 0.6448607505 -0.0185982271
1751250000.0 0.651775197 -0.0247612413
1761200000.0 0.6552438053 -0.0301338669
1771150000.0 0.6437921084 -0.0333472934
1781100000.0 0.6312173452 0.0233488928
1791050000.0 0.6658847597 0.0374976285
1801000000.0 0.6688883741 0.0556067602
1810950000.0 0.6787572594 0.0733542779
1820900000.0 0.6795647495 0.0851090226
1830850000.0 0.6768115168 0.0951085649
1840800000.0 0.6729688639 0.1047869617
1850750000.0 0.6671812196 0.1140386827
1860700000.0 0.6589005347 0.1246184175
1870650000.0 0.6474262378 0.1380017187
1880600000.0 0.6315579018 0.1541345147
1890550000.0 0.6098086747 0.1722855651
1900500000.0 0.5840398773 0.1890418272
1910450000.0 0.555319052 0.2018848737
1920400000.0 0.5247705021 0.209256222
1930350000.0 0.4936372166 0.2117489292
1940300000.0 0.4607019164 0.2099541648
1950250000.0 0.4246346788 0.2060857432
1960200000.0 0.3832522422 0.2023767885
1970150000.0 0.334740401 0.1997951051
1980100000.0 0.2764838052 0.199449923
1990050000.0 0.2073772231 0.2005448673
2000000000.0 0.1264983673 0.2041330884
