!Created with skrf (http://scikit-rf.org).
# GHz S RI R 50.0 
!freq ReS11 ImS11
10000000.0 -1.000400691 0.1620144331
19950000.0 -0.9454427929 0.3097495506
29900000.0 -0.8681573522 0.4515808781
39850000.0 -0.768152697 0.5921838498
49800000.0 -0.6468493669 0.7259355639
59750000.0 -0.4990811513 0.8463394128
69700000.0 -0.3159713872 0.9408653956
79650000.0 -0.0939209025 0.9894202035
89600000.0 0.1654527734 0.9720929996
99550000.0 0.4459294053 0.8666743452
109500000.0 0.7186426334 0.6576568215
119450000.0 0.9313902476 0.3344071358
129400000.0 0.9891522139 -0.0581526349
139350000.0 0.900777331 -0.4907043998
149300000.0 0.6191283185 -0.8059401959
159250000.0 0.2556689343 -0.9617616618
169200000.0 -0.1007288893 -0.9757129802
179150000.0 -0.4027543736 -0.8924749635
189100000.0 -0.6352777339 -0.7522910711
199050000.0 -0.7966048635 -0.5825176748
209000000.0 -0.8909884219 -0.4004306393
218950000.0 -0.935559237 -0.2195627046
228900000.0 -0.9418744867 -0.0463867347
238850000.0 -0.9230453345 0.117720754
248800000.0 -0.8800077443 0.250033823
258750000.0 -0.8379353368 0.4099989712
268700000.0 -0.7683003518 0.5393206537
278650000.0 -0.6762862722 0.648648776
288600000.0 -0.560033236 0.7345117657
298550000.0 -0.4218268628 0.7954863037
308500000.0 -0.2657117533 0.8319423061
318450000.0 -0.0952399592 0.840812494
328400000.0 0.0834133723 0.8152204612
338350000.0 0.2546278907 0.7428772594
348300000.0 0.3968672365 0.6158088781
358250000.0 0.4814968019 0.439964931
368200000.0 0.4906314185 0.2438927265
378150000.0 0.4286173438 0.0646352036
388100000.0 0.3188356813 -0.0676239364
398050000.0 0.1928416025 -0.139505238
408000000.0 0.077695005 -0.1540673443
417950000.0 -0.011241537 -0.125113059
427900000.0 -0.0704165843 -0.0713736558
437850000.0 -0.1035701305 -0.00907183
447800000.0 -0.1169330483 0.0490036948
457750000.0 -0.1152291097 0.0952829027
467700000.0 -0.1023998497 0.125403049
477650000.0 -0.0805420871 0.1386693576
487600000.0 -0.0523063358 0.1373712405
497550000.0 -0.026356884 0.120922488
507500000.0 0.0062953344 0.11210913
517450000.0 0.0307150589 0.0927991097
527400000.0 0.0446819119 0.0732643116
537350000.0 0.0455065901 0.0535475563
547300000.0 0.035084908 0.0341487602
557250000.0 0.0133173836 0.0132802803
567200000.0 -0.0151230449 -0.0062645022
577150000.0 -0.0450530694 -0.0217721976
587100000.0 -0.0723499355 -0.0306983371
597050000.0 -0.0940709616 -0.0300159016
607000000.0 -0.110423552 -0.0182845417
616950000.0 -0.1227259972 0.0041563684
626900000.0 -0.1315856362 0.0357400137
636850000.0 -0.1361004448 0.0682451571
646800000.0 -0.1379928808 0.1005548211
656750000.0 -0.1344924688 0.1280410908
666700000.0 -0.1225612616 0.1476456384
676650000.0 -0.1005916215 0.1590587371
686600000.0 -0.0689588807 0.1636506104
696550000.0 -0.0302508623 0.1634370556
706500000.0 0.0121608144 0.1583454506
716450000.0 0.0532530326 0.1486992057
726400000.0 0.0877595994 0.1315934263
736350000.0 0.1124512337 0.1049424607
746300000.0 0.1250440745 0.0671976592
756250000.0 0.1255402565 0.0176357842
766200000.0 0.1149861509 -0.0393386768
776150000.0 0.0952394432 -0.0987603391
786100000.0 0.0654913059 -0.1540098637
796050000.0 0.0261625809 -0.1982075655
806000000.0 -0.0229719528 -0.2260619808
815950000.0 -0.0826086978 -0.2338004857
825900000.0 -0.1500689523 -0.2225244809
835850000.0 -0.2218522924 -0.1944997324
845800000.0 -0.2913956347 -0.1536869709
855750000.0 -0.3527931149 -0.1024885063
865700000.0 -0.399078665 -0.0426079002
875650000.0 -0.4241221079 0.0260065266
885600000.0 -0.4255584804 0.1022916515
895550000.0 -0.4037988071 0.1849133061
905500000.0 -0.3608809126 0.2716838244
915450000.0 -0.3001408533 0.357501896
925400000.0 -0.221860367 0.4342582102
935350000.0 -0.1258531104 0.4931869096
945300000.0 -0.0121380937 0.5227480616
955250000.0 0.1193977624 0.5116400405
965200000.0 0.2637731416 0.4431535247
975150000.0 0.3936522326 0.2968011028
985100000.0 0.4148920065 0.1079299326
995050000.0 0.3956026916 0.0509055942
1005000000.0 0.4824553059 -0.069843525
1014950000.0 0.4922750428 -0.2875441773
1024900000.0 0.3638352318 -0.5175492741
1034850000.0 0.1053170486 -0.6803098287
1044800000.0 -0.2308108795 -0.7137370256
1054750000.0 -0.5619253005 -0.5853621756
1064700000.0 -0.7677524146 -0.3162232403
1074650000.0 -0.8634383866 -0.0481626726
1084600000.0 -0.8267422235 0.272621825
1094550000.0 -0.6592730392 0.5198091861
1104500000.0 -0.439605632 0.7211009147
1114450000.0 -0.1637966326 0.81785597
1124400000.0 0.1119224147 0.8133318712
1134350000.0 0.3516568623 0.7142966849
1144300000.0 0.528780274 0.5414679461
1154250000.0 0.6300154339 0.3306413123
1164200000.0 0.6654690369 0.1194992099
1174150000.0 0.6605330642 -0.0805997206
1184100000.0 0.6089523141 -0.2630820403
1194050000.0 0.5186118022 -0.4105465074
1204000000.0 0.3998923601 -0.515370972
1213950000.0 0.2648885922 -0.5781205785
1223900000.0 0.1259962262 -0.6070118498
1233850000.0 -0.0086521919 -0.6127133031
1243800000.0 -0.1325095186 -0.6018868839
1253750000.0 -0.2435537173 -0.5786451844
1263700000.0 -0.3389589789 -0.5424777696
1273650000.0 -0.4184741738 -0.4925981267
1283600000.0 -0.4784999252 -0.4299818622
1293550000.0 -0.5246462057 -0.3570312535
1303500000.0 -0.5611579957 -0.2776385776
1313450000.0 -0.591939904 -0.1971066431
1323400000.0 -0.6195310546 -0.118534455
1333350000.0 -0.6417051664 -0.0439157645
1343300000.0 -0.6556085733 0.0267258076
1353250000.0 -0.6575327334 0.0927950431
1363200000.0 -0.6442976035 0.1562462889
1373150000.0 -0.6160138433 0.2184059692
1383100000.0 -0.5771900241 0.280227415
1393050000.0 -0.5327522771 0.3422588244
1403000000.0 -0.4870000305 0.402566164
1412950000.0 -0.4406551967 0.459092792
1422900000.0 -0.3938001403 0.5087149291
1432850000.0 -0.3435024904 0.5475380228
1442800000.0 -0.2874653674 0.5743313359
1452750000.0 -0.2233890193 0.58963294
1462700000.0 -0.1512318888 0.5956152819
1472650000.0 -0.0717295825 0.5962408919
1482600000.0 0.0111442632 0.5933045451
1492550000.0 0.0931973549 0.5861543712
1502500000.0 0.1720072942 0.5718999901
1512450000.0 0.2442618755 0.5466488423
1522400000.0 0.308224382 0.5059435988
1532350000.0 0.3631245089 0.4480213127
1542300000.0 0.4105775981 0.3744114118
1552250000.0 0.451747282 0.2895844668
1562200000.0 0.4879090009 0.1993084578
1572150000.0 0.5163338498 0.1068737708
1582100000.0 0.532452132 0.0146740714
1592050000.0 0.532090156 -0.0748366447
1602000000.0 0.510205573 -0.1602361397
1611950000.0 0.46825049 -0.2396244758
1621900000.0 0.4085928949 -0.3124025711
1631850000.0 0.3402629142 -0.3741862829
1641800000.0 0.2848764122 -0.4504411376
1651750000.0 0.1969212617 -0.5118761887
1661700000.0 0.1148071248 -0.5547517231
1671650000.0 0.0337171972 -0.580231381
1681600000.0 -0.0469845083 -0.585700652
1691550000.0 -0.1269690377 -0.5740986712
1701500000.0 -0.2069052257 -0.5498678724
1711450000.0 -0.2846759832 -0.5184914619
1721400000.0 -0.3591427785 -0.4833104645
1731350000.0 -0.4271972885 -0.4475732229
1741300000.0 -0.4855650931 -0.4098417646
1751250000.0 -0.5317450212 -0.3654645885
1761200000.0 -0.5640759464 -0.3148039153
1771150000.0 -0.5842833151 -0.2569542366
1781100000.0 -0.5971731389 -0.1939355894
1791050000.0 -0.6071511971 -0.1290569424
1801000000.0 -0.6168473713 -0.0662206161
1810950000.0 -0.6281761058 -0.0066499421
1820900000.0 -0.6377106469 0.0485640925
1830850000.0 -0.640455375 0.0978731855
1840800000.0 -0.6315790636 0.1440428309
1850750000.0 -0.6097614064 0.1872758967
1860700000.0 -0.575015272 0.2282038517
1870650000.0 -0.5336287469 0.2687296422
1880600000.0 -0.4909226138 0.3070222062
1890550000.0 -0.4516876239 0.3430961449
1900500000.0 -0.4170204533 0.3739446223
1910450000.0 -0.3856459123 0.3968626448
1920400000.0 -0.3535305566 0.4106022569
1930350000.0 -0.317359703 0.4131844633
1940300000.0 -0.2756825484 0.4055044069
1950250000.0 -0.2282965441 0.389557753
1960200000.0 -0.1779493835 0.3698829745
1970150000.0 -0.1306516502 0.3468883777
1980100000.0 -0.0904703837 0.3218669661
1990050000.0 -0.0613712108 0.2912353434
2000000000.0 -0.0451134161 0.2510882798
