!Created with skrf (http://scikit-rf.org).
# GHz S RI R 50.0 
!freq ReS11 ImS11
10000000.0 -0.5590494468 0.0545492038
14975000.0 -0.5695785193 0.0852430494
19950000.0 -0.5819884526 0.119253324
24925000.0 -0.5934636108 0.1570855679
29900000.0 -0.6023962267 0.1979260857
34875000.0 -0.6061900455 0.2418296387
39850000.0 -0.6037996934 0.2881468141
44825000.0 -0.5950191509 0.3362172897
49800000.0 -0.5801076332 0.3853421489
54775000.0 -0.5594638784 0.4348680197
59750000.0 -0.5338662255 0.4844019222
64725000.0 -0.5044556161 0.5339239924
69700000.0 -0.4718416714 0.5827321567
74675000.0 -0.436615473 0.631270438
79650000.0 -0.3991607144 0.6798376166
84625000.0 -0.3590664776 0.7286283046
89600000.0 -0.3151692301 0.7775967553
94575000.0 -0.2655245001 0.826448963
99550000.0 -0.2073385141 0.873551939
104525000.0 -0.1380786143 0.9161398312
109500000.0 -0.0568764782 0.9504280431
114475000.0 0.036842406 0.9719124674
119450000.0 0.1395349465 0.9770570561
124425000.0 0.2472970658 0.9628987944
129400000.0 0.3578170275 0.9268468607
134375000.0 0.456671043 0.8741957962
139350000.0 0.5539733613 0.7988126904
144325000.0 0.6396152732 0.7059337486
149300000.0 0.7109237616 0.5983725652
154275000.0 0.7651101052 0.4805997286
159250000.0 0.8003627421 0.3572272622
164225000.0 0.8152665029 0.233275827
169200000.0 0.8107875678 0.1134221137
174175000.0 0.7894151412 0.0015605035
179150000.0 0.7559026868 -0.0989995202
184125000.0 0.7156041263 -0.1874494811
189100000.0 0.673424366 -0.2646188377
194075000.0 0.6323745091 -0.3320706658
199050000.0 0.5937111654 -0.3918222236
204025000.0 0.5568457455 -0.4462602317
209000000.0 0.5206783335 -0.4963850563
213975000.0 0.4830767042 -0.5434364114
218950000.0 0.4426880895 -0.5868779976
223925000.0 0.3986373792 -0.626934583
228900000.0 0.3502676166 -0.6629673801
233875000.0 0.2973787946 -0.6946106289
238850000.0 0.2392956877 -0.7217842448
243825000.0 0.1707246747 -0.7428528145
248800000.0 0.0389033824 -0.6661572407
253775000.0 0.1126367205 -0.7538196913
258750000.0 0.0485957336 -0.7691951161
263725000.0 -0.004380094 -0.7752914955
268700000.0 -0.0516875492 -0.777273967
273675000.0 -0.0945111918 -0.7768575116
278650000.0 -0.1338179941 -0.7747920403
283625000.0 -0.1710219459 -0.7720183548
288600000.0 -0.2075501107 -0.7682245777
293575000.0 -0.2450637202 -0.7635695373
298550000.0 -0.2846145172 -0.7562755319
303525000.0 -0.3268181537 -0.7459435753
308500000.0 -0.3715442202 -0.7312748741
313475000.0 -0.4180698495 -0.7105061759
318450000.0 -0.4645035335 -0.6823210906
323425000.0 -0.5094063734 -0.6472664474
328400000.0 -0.5510880758 -0.6059211793
333375000.0 -0.5884206435 -0.556763426
338350000.0 -0.6201882582 -0.5018744218
343325000.0 -0.6447621216 -0.4424371169
348300000.0 -0.6615396445 -0.3788037624
353275000.0 -0.6708654837 -0.3125108553
358250000.0 -0.6708009498 -0.2461701804
363225000.0 -0.6617936575 -0.1804643372
368200000.0 -0.6454476494 -0.1175536451
373175000.0 -0.621586127 -0.0604125462
378150000.0 -0.5905369178 -0.0095977803
383125000.0 -0.5549349108 0.0341860222
388100000.0 -0.5163059477 0.0698166999
393075000.0 -0.4747985608 0.097818471
398050000.0 -0.4324402992 0.1186332802
403025000.0 -0.3908350328 0.1318783301
408000000.0 -0.3496243731 0.1387849528
412975000.0 -0.3094565545 0.1409225102
417950000.0 -0.271941828 0.1381005022
422925000.0 -0.237428101 0.1307264084
427900000.0 -0.2059609582 0.1206709026
432875000.0 -0.1778716108 0.1075613666
437850000.0 -0.1533892614 0.0913430474
442825000.0 -0.1324281752 0.0745240352
447800000.0 -0.1153232009 0.0580855816
452775000.0 -0.1013387439 0.0403811686
457750000.0 -0.0903512324 0.0231156114
462725000.0 -0.0822956807 0.0073171824
467700000.0 -0.0760230959 -0.0078527854
472675000.0 -0.0709570419 -0.0221445715
477650000.0 -0.0677966248 -0.0354837098
482625000.0 -0.0656655483 -0.04783569
487600000.0 -0.0648031082 -0.0585337633
492575000.0 -0.0681907632 -0.0683125233
497550000.0 -0.0891956501 -0.0655057732
502525000.0 -0.0306188626 -0.0390328602
507500000.0 -0.0358485316 -0.0687420079
512475000.0 -0.0385888079 -0.0778133886
517450000.0 -0.0397587514 -0.0827874313
522425000.0 -0.0406181766 -0.0855895292
527400000.0 -0.0407457604 -0.0873441592
532375000.0 -0.0407881969 -0.0882048262
537350000.0 -0.0412880932 -0.0885146917
542325000.0 -0.0420256014 -0.0879993
547300000.0 -0.0440171721 -0.0856547811
552275000.0 -0.0453068861 -0.0802835436
557250000.0 -0.0451990774 -0.0748821929
562225000.0 -0.0448857078 -0.0688901708
567200000.0 -0.044319181 -0.0623534699
572175000.0 -0.043211964 -0.0556645174
577150000.0 -0.0417107255 -0.047667971
582125000.0 -0.0395593101 -0.0385973569
587100000.0 -0.0365116218 -0.0290706768
592075000.0 -0.0325931839 -0.0190080583
597050000.0 -0.0281689097 -0.0086822508
602025000.0 -0.022479233 0.0017891713
607000000.0 -0.0156731026 0.0119346454
611975000.0 -0.0079368618 0.0217492181
616950000.0 0.0008081283 0.0310573404
621925000.0 0.0104506418 0.0400529678
626900000.0 0.0209440098 0.0482668546
631875000.0 0.0317025691 0.055250854
636850000.0 0.042632673 0.0614771021
641825000.0 0.0538611318 0.0669288717
646800000.0 0.0650191868 0.0720179143
651775000.0 0.0754091882 0.0765299186
656750000.0 0.0853655847 0.0805211356
661725000.0 0.0953832865 0.0842678693
666700000.0 0.1050518693 0.0886655424
671675000.0 0.1139861399 0.0923823761
676650000.0 0.1232697071 0.0959195789
681625000.0 0.1330766038 0.0991947139
686600000.0 0.1433978604 0.1016901695
691575000.0 0.1544211364 0.1032739107
696550000.0 0.1660186701 0.1042317641
701525000.0 0.1780554161 0.1042035866
706500000.0 0.1907890362 0.1026061147
711475000.0 0.2031123482 0.099358041
716450000.0 0.2155564954 0.0947969669
721425000.0 0.2278650674 0.0888390299
726400000.0 0.2657131683 0.077104039
731375000.0 0.2778423694 0.069341441
736350000.0 0.2887545311 0.0603045897
741325000.0 0.2989325883 0.0498222138
746300000.0 0.3078543413 0.0381066914
751275000.0 0.3157221779 0.0258101059
756250000.0 0.3220735659 0.0123889896
761225000.0 0.303677883 -0.0032910782
766200000.0 0.3040861514 -0.0190049338
771175000.0 0.3120848382 -0.0347854038
776150000.0 0.3301483996 -0.0482572157
781125000.0 0.3275905014 -0.0640283374
786100000.0 0.3230476298 -0.0802542169
791075000.0 0.3169696942 -0.0969123994
796050000.0 0.30897817 -0.1134378744
801025000.0 0.2994861292 -0.1298907011
806000000.0 0.2670854991 -0.1548859788
810975000.0 0.2550521462 -0.1708210545
815950000.0 0.2419542082 -0.1856216378
820925000.0 0.2276302175 -0.1995957773
825900000.0 0.2126768584 -0.2126809029
830875000.0 0.1974868719 -0.2246018381
835850000.0 0.1820363673 -0.2347194264
840825000.0 0.1667530985 -0.2435770518
845800000.0 0.1521375841 -0.2521653599
850775000.0 0.1375578458 -0.2598751715
855750000.0 0.1226769289 -0.267050869
860725000.0 0.1072210199 -0.2743688615
865700000.0 0.090525584 -0.2814358743
870675000.0 0.0717210174 -0.2884086901
875650000.0 0.0508180346 -0.294796999
880625000.0 0.0275034879 -0.2998461266
885600000.0 0.001961719 -0.3031370466
890575000.0 -0.02570412 -0.304256339
895550000.0 -0.0548548225 -0.3026921194
900525000.0 -0.0847688476 -0.2985275181
905500000.0 -0.1146028466 -0.2912754747
910475000.0 -0.1446363053 -0.280618353
915450000.0 -0.1737383532 -0.2665595791
920425000.0 -0.2015268598 -0.2490859161
925400000.0 -0.2275882447 -0.2283243235
930375000.0 -0.2520479704 -0.2046736521
935350000.0 -0.2747604253 -0.1781217197
940325000.0 -0.2960132297 -0.1481535436
945300000.0 -0.3155220425 -0.1150770692
950275000.0 -0.3338083946 -0.0788587607
955250000.0 -0.3509805014 -0.0386416804
960225000.0 -0.3659782265 0.0058180809
965200000.0 -0.3782242445 0.0548807197
970175000.0 -0.3867002032 0.1086895815
975150000.0 -0.3896406385 0.1672279757
980125000.0 -0.3855176262 0.2290429166
985100000.0 -0.3729617428 0.2931697876
990075000.0 -0.3512014768 0.3572309289
995050000.0 -0.3195185747 0.4197849378
1000025000.0 -0.2773505893 0.4776585037
1005000000.0 -0.2256350041 0.5282583291
1009975000.0 -0.1639881231 0.5684904557
1014950000.0 -0.0939894794 0.5948681903
1019925000.0 -0.0182876047 0.6050230537
1024900000.0 0.0595804333 0.5969595289
1029875000.0 0.1353608321 0.5704115774
1034850000.0 0.2048142266 0.5262787808
1039825000.0 0.2651526422 0.4661990887
1044800000.0 0.3157615666 0.3934662352
1049775000.0 0.3564649517 0.3102314033
1054750000.0 0.3866618849 0.2180764677
1059725000.0 0.4035609239 0.1176805877
1064700000.0 0.3965482686 0.0202188311
1069675000.0 0.3788269301 -0.0283196055
1074650000.0 0.4042156572 -0.0833035382
1079625000.0 0.4124107494 -0.1832486797
1084600000.0 0.3860079289 -0.2842171369
1089575000.0 0.3499304043 -0.3483437529
1094550000.0 0.3173166443 -0.4269072295
1099525000.0 0.2654648342 -0.500157589
1104500000.0 0.203580145 -0.5590350248
1109475000.0 0.13761181 -0.6037821784
1114450000.0 0.0698898319 -0.6352765289
1119425000.0 0.0019793774 -0.6546663136
1124400000.0 -0.0649064777 -0.6625393389
1129375000.0 -0.1302708039 -0.6600391571
1134350000.0 -0.1936179202 -0.647238664
1139325000.0 -0.2547177964 -0.624960925
1144300000.0 -0.3123969213 -0.5929719556
1149275000.0 -0.3651350133 -0.5531164664
1154250000.0 -0.411727483 -0.5062552326
1159225000.0 -0.450779346 -0.4548337989
1164200000.0 -0.4822125908 -0.4009299744
1169175000.0 -0.5066297024 -0.3474569562
1174150000.0 -0.5259099572 -0.2960605054
1179125000.0 -0.5416465658 -0.2446663393
1184100000.0 -0.5529973861 -0.1928547207
1189075000.0 -0.5595366635 -0.1417672849
1194050000.0 -0.5610494155 -0.0929500508
1199025000.0 -0.5583603 -0.0466935183
1204000000.0 -0.5517913249 -0.0033480179
1208975000.0 -0.5419100738 0.0362070503
1213950000.0 -0.529755058 0.0723518115
1218925000.0 -0.5165691769 0.104573846
1223900000.0 -0.5033036891 0.1335685493
1228875000.0 -0.4910684453 0.1592924002
1233850000.0 -0.4799102039 0.1821088828
1238825000.0 -0.4701914013 0.2039198635
1243800000.0 -0.4610440263 0.2252528882
1248775000.0 -0.4518185825 0.2456207023
1253750000.0 -0.4418075443 0.2661304116
1258725000.0 -0.4309174593 0.2869901332
1263700000.0 -0.4178223132 0.3067379585
1268675000.0 -0.4029749446 0.3259119439
1273650000.0 -0.3864393154 0.3439217484
1278625000.0 -0.3675053511 0.3602569546
1283600000.0 -0.346677242 0.3753718978
1288575000.0 -0.3246012654 0.3876898928
1293550000.0 -0.3012481623 0.3983513151
1298525000.0 -0.2774548767 0.4065683083
1303500000.0 -0.2545412791 0.4114795093
1308475000.0 -0.2328466092 0.4140316266
1313450000.0 -0.2144298086 0.4140002881
1318425000.0 -0.2005213332 0.4114933974
1323400000.0 -0.1916095423 0.4078055719
1328375000.0 -0.1889588817 0.4043670945
1333350000.0 -0.1911492657 0.4025370055
1338325000.0 -0.1967691803 0.4043093279
1343300000.0 -0.2035485963 0.4097018689
1348275000.0 -0.2091216117 0.4187047077
1353250000.0 -0.2117642073 0.4308115259
1358225000.0 -0.2103858565 0.4443846606
1363200000.0 -0.2044169631 0.458750958
1368175000.0 -0.1940433387 0.4731177781
1373150000.0 -0.1798676383 0.4860951147
1378125000.0 -0.1622225574 0.4980813211
1383100000.0 -0.1421807528 0.5080207235
1388075000.0 -0.1202864764 0.5157940117
1393050000.0 -0.0972627858 0.5206996204
1398025000.0 -0.07406347 0.5238776369
1403000000.0 -0.0511226708 0.5242504309
1407975000.0 -0.0300893656 0.5211655756
1412950000.0 -0.0120992935 0.5158998391
1417925000.0 0.0013460256 0.5084451653
1422900000.0 0.0093410949 0.4991699132
1427875000.0 0.0110950022 0.4901294619
1432850000.0 0.006467829 0.4822302486
1437825000.0 -0.0029635237 0.4776653088
1442800000.0 -0.0150261965 0.477004732
1447775000.0 -0.0274565975 0.4804914718
1452750000.0 -0.0365479672 0.487089746
1457725000.0 -0.0414453858 0.4959952038
1462700000.0 -0.041368159 0.5069059681
1467675000.0 -0.0371326808 0.5186960665
1472650000.0 -0.0278755991 0.5288209705
1477625000.0 -0.0148789568 0.5384111126
1482600000.0 -0.0003124617 0.5476129136
1487575000.0 0.0167565805 0.5537412778
1492550000.0 0.0356677015 0.5576895116
1497525000.0 0.0543675233 0.560863618
1502500000.0 0.0729229064 0.5628239996
1507475000.0 0.0915476708 0.5628445887
1512450000.0 0.1080473062 0.561631862
1517425000.0 0.1222106915 0.5590155234
1522400000.0 0.1347088942 0.5566026705
1527375000.0 0.1441973948 0.552963089
1532350000.0 0.1510847351 0.5483938954
1537325000.0 0.156036396 0.5457414529
1542300000.0 0.16022647 0.5426093439
1547275000.0 0.1652191853 0.5390941611
1552250000.0 0.1703379784 0.5369124326
1557225000.0 0.1765738935 0.5335752581
1562200000.0 0.1849316885 0.5287207709
1567175000.0 0.1937349602 0.5236127305
1572150000.0 0.202997052 0.5160732303
1577125000.0 0.2137950513 0.5080472477
1582100000.0 0.2244845679 0.4998588774
1587075000.0 0.235077779 0.4893819346
1592050000.0 0.2463667187 0.4788981897
1597025000.0 0.2573721403 0.4686837998
1602000000.0 0.2681251673 0.4575823026
1606975000.0 0.2786997792 0.4459885802
1611950000.0 0.2885675488 0.4348335787
1616925000.0 0.29814758 0.4232894314
1621900000.0 0.3069180559 0.4117107939
1626875000.0 0.3154280489 0.4013938641
1631850000.0 0.3252840486 0.3937319725
1636825000.0 0.3360057779 0.3822543198
1641800000.0 0.3458007431 0.3675736137
1646775000.0 0.3547844524 0.3531736661
1651750000.0 0.3624709853 0.3380905672
1656725000.0 0.3701090767 0.3225139305
1661700000.0 0.3769193303 0.3073857382
1666675000.0 0.382488096 0.291098644
1671650000.0 0.387598625 0.2747171101
1676625000.0 0.3911408501 0.2592713508
1681600000.0 0.3927491144 0.2426176695
1686575000.0 0.3936937531 0.2259167354
1691550000.0 0.392115311 0.2106879205
1696525000.0 0.3881311117 0.1954668259
1701500000.0 0.3830075719 0.1804806614
1706475000.0 0.3754829697 0.1673726725
1711450000.0 0.3667093862 0.1548680916
1716425000.0 0.3577445291 0.1440014513
1721400000.0 0.3492518133 0.1348051599
1726375000.0 0.3426589657 0.1273362405
1731350000.0 0.3389674027 0.1199673229
1736325000.0 0.3384031448 0.1124992982
1741300000.0 0.3405193482 0.1053295426
1746275000.0 0.3447677061 0.0970646016
1751250000.0 0.3506225512 0.0868593458
1756225000.0 0.3561364831 0.0764239076
1761200000.0 0.3606352159 0.0652871259
1766175000.0 0.3642622506 0.0532515687
1771150000.0 0.3654244901 0.0413397968
1776125000.0 0.3642533974 0.0297343336
1781100000.0 0.3604036241 0.0189607471
1786075000.0 0.3537729951 0.0094535496
1791050000.0 0.3447758633 0.0004628596
1796025000.0 0.3334550611 -0.0058999914
1801000000.0 0.3208868213 -0.0101267061
1805975000.0 0.308289011 -0.0127047912
1810950000.0 0.2968342065 -0.011972546
1815925000.0 0.2880170208 -0.0094010071
1820900000.0 0.2832150442 -0.0057995825
1825875000.0 0.2835106906 -0.0020177605
1830850000.0 0.2872538315 0.0011653694
1835825000.0 0.294857239 0.0026142286
1840800000.0 0.3045787755 0.0026142046
1845775000.0 0.3145719696 -9.13447e-05
1850750000.0 0.3236031104 -0.0044389246
1855725000.0 0.3307986541 -0.0101717006
1860700000.0 0.3352956494 -0.0171155973
1865675000.0 0.3368134474 -0.0245549213
1870650000.0 0.3344381183 -0.0321967888
1875625000.0 0.3291595355 -0.0397979969
1880600000.0 0.3201230279 -0.0472525425
1885575000.0 0.3076749971 -0.0537444107
1890550000.0 0.2929564392 -0.0591409928
1895525000.0 0.2759548396 -0.0627584356
1900500000.0 0.2548117362 -0.0658223577
1905475000.0 0.2382503174 -0.0646684095
1910450000.0 0.2233959187 -0.0614099268
1915425000.0 0.2127388519 -0.0550189082
1920400000.0 0.2072291316 -0.0478262834
1925375000.0 0.2068781551 -0.0406403296
1930350000.0 0.2108585305 -0.0345387473
1935325000.0 0.2178286413 -0.0305226059
1940300000.0 0.2253942225 -0.0284905131
1945275000.0 0.232720641 -0.0280996275
1950250000.0 0.2377905845 -0.0292813491
1955225000.0 0.2403792448 -0.0306718166
1960200000.0 0.2406010712 -0.0328056401
1965175000.0 0.2373121318 -0.0348439787
1970150000.0 0.2310528104 -0.0368202045
1975125000.0 0.2220616909 -0.038715666
1980100000.0 0.2100890444 -0.0403306413
1985075000.0 0.1959497121 -0.0422492869
1990050000.0 0.1788713034 -0.0435406029
1995025000.0 0.1587830695 -0.0436065483
2000000000.0 0.1365805891 -0.043118945
