!Created with skrf (http://scikit-rf.org).
# GHz S RI R 50.0 
!freq ReS11 ImS11
10000000.0 -0.9185231449 0.4507203403
19950000.0 -0.6243939562 0.7884169353
29900000.0 -0.2110418464 0.9640154433
39850000.0 0.2459066212 0.9425274257
49800000.0 0.6573092407 0.7159195028
59750000.0 0.9310129833 0.3122914864
69700000.0 0.9822106059 -0.1949571985
79650000.0 0.7603491052 -0.6824341948
89600000.0 0.2885987723 -0.9910612019
99550000.0 -0.304833247 -0.9784077884
109500000.0 -0.8010931567 -0.6001205597
119450000.0 -0.9732075653 0.0294494889
129400000.0 -0.704145108 0.6524164445
139350000.0 -0.0882214199 0.9646982478
149300000.0 0.5849000289 0.8003166847
159250000.0 0.9760181987 0.254302198
169200000.0 0.9327854789 -0.3779663521
179150000.0 0.5469563855 -0.8211110297
189100000.0 0.0199228471 -0.9597923054
199050000.0 -0.4689602961 -0.8134282173
209000000.0 -0.8079807146 -0.462749132
218950000.0 -0.9362739126 -0.0151950579
228900000.0 -0.8478975745 0.4326333615
238850000.0 -0.5684004899 0.7856124656
248800000.0 -0.1665215083 0.963952294
258750000.0 0.2746412308 0.9414268992
268700000.0 0.6479463581 0.7168376964
278650000.0 0.8743573619 0.3500329699
288600000.0 0.9104703973 -0.076299124
298550000.0 0.7523628855 -0.4719623616
308500000.0 0.4318377578 -0.7523910033
318450000.0 0.0169287427 -0.8507672866
328400000.0 -0.3929140626 -0.7333941063
338350000.0 -0.6790415704 -0.42187301
348300000.0 -0.7412719227 -0.0157614026
358250000.0 -0.5641904724 0.3287424715
368200000.0 -0.2462424396 0.4803216499
378150000.0 0.0550754539 0.4135784688
388100000.0 0.2177043896 0.210927867
398050000.0 0.2153940576 0.0003565776
408000000.0 0.1058753096 -0.1244934985
417950000.0 -0.0252101391 -0.1379506566
427900000.0 -0.1105143075 -0.0687084285
437850000.0 -0.1219792642 0.0298479333
447800000.0 -0.0681051546 0.1075737044
457750000.0 0.018218016 0.1361081807
467700000.0 0.1013727511 0.1124443521
477650000.0 0.1550373253 0.0516561261
487600000.0 0.1666284122 -0.0222448973
497550000.0 0.1388726409 -0.0877697444
507500000.0 0.0841379363 -0.1200101256
517450000.0 0.0271834381 -0.1185775015
527400000.0 -0.0151525022 -0.0903506509
537350000.0 -0.0332566531 -0.0502491266
547300000.0 -0.0274274753 -0.014913053
557250000.0 -0.0042880572 0.0034462935
567200000.0 0.0187721357 -0.0034901309
577150000.0 0.0259370323 -0.02824284
587100000.0 0.0101258155 -0.0577589248
597050000.0 -0.0276803097 -0.0770755591
607000000.0 -0.0790165186 -0.0734926351
616950000.0 -0.1270934061 -0.0405456957
626900000.0 -0.1537283692 0.0157829157
636850000.0 -0.1488004974 0.0817669946
646800000.0 -0.1092987926 0.1395117334
656750000.0 -0.0419382793 0.1719171355
666700000.0 0.038339251 0.165992924
676650000.0 0.1085075879 0.1202497547
686600000.0 0.1502951574 0.0459166108
696550000.0 0.1545816499 -0.0397378394
706500000.0 0.118540674 -0.1161757529
716450000.0 0.0506428158 -0.161664875
726400000.0 -0.0258501805 -0.1618909948
736350000.0 -0.0853406553 -0.1238558223
746300000.0 -0.1144089732 -0.0557520849
756250000.0 -0.0966659178 0.0225638722
766200000.0 -0.0329844413 0.0814938862
776150000.0 0.0591268983 0.0962148502
786100000.0 0.1495961369 0.0564018542
796050000.0 0.2062131366 -0.0304857935
806000000.0 0.2048270981 -0.1396479755
815950000.0 0.1367388637 -0.2353898783
825900000.0 0.0168174844 -0.2822414222
835850000.0 -0.1239805299 -0.2560231732
845800000.0 -0.2444407235 -0.1518062061
855750000.0 -0.303390729 0.0117271523
865700000.0 -0.2748591881 0.1940993772
875650000.0 -0.1587183998 0.3476267939
885600000.0 0.020574272 0.4286449254
895550000.0 0.221316231 0.4118317098
905500000.0 0.3919050718 0.2944223995
915450000.0 0.4831866784 0.0985397459
925400000.0 0.4598875809 -0.1286611475
935350000.0 0.3135271833 -0.3236218662
945300000.0 0.070987252 -0.4212417425
955250000.0 -0.2055244987 -0.3708422003
965200000.0 -0.4215989273 -0.1602652995
975150000.0 -0.4756956543 0.1570293456
985100000.0 -0.3117648558 0.4598125165
995050000.0 0.0322157044 0.598036666
1005000000.0 0.4195455669 0.4698221657
1014950000.0 0.6534054433 0.0760459129
1024900000.0 0.5559330265 -0.4265400818
1034850000.0 0.1050054449 -0.7585886631
1044800000.0 -0.4783822757 -0.6867638657
1054750000.0 -0.856552431 -0.2356616153
1064700000.0 -0.8420403016 0.3290387568
1074650000.0 -0.4836495213 0.7327409146
1084600000.0 -0.0571008309 0.8184678466
1094550000.0 0.415619706 0.7102906454
1104500000.0 0.7223088563 0.3260632161
1114450000.0 0.7478578138 -0.1594448335
1124400000.0 0.4880251327 -0.5586207916
1134350000.0 0.0603706125 -0.7175491515
1144300000.0 -0.3495504816 -0.6008622344
1154250000.0 -0.5971340666 -0.2980439155
1164200000.0 -0.6389455931 0.0575615049
1174150000.0 -0.5068339533 0.3650055485
1184100000.0 -0.2494016813 0.5616109924
1194050000.0 0.0672146139 0.6038320081
1204000000.0 0.3608327428 0.4830327272
1213950000.0 0.5526652457 0.2312695216
1223900000.0 0.590320595 -0.0809156808
1233850000.0 0.4690171171 -0.3641718892
1243800000.0 0.2342812771 -0.5472160016
1253750000.0 -0.0453438297 -0.6002054703
1263700000.0 -0.3076432609 -0.5316196597
1273650000.0 -0.5104269056 -0.3701186197
1283600000.0 -0.6300173422 -0.1496402625
1293550000.0 -0.6548829142 0.0967909475
1303500000.0 -0.5812891062 0.3342903336
1313450000.0 -0.4151317117 0.5264966147
1323400000.0 -0.1771684261 0.6359632314
1333350000.0 0.0929822148 0.6339640334
1343300000.0 0.3425278271 0.5144033517
1353250000.0 0.5195399601 0.2996332739
1363200000.0 0.5926271107 0.0354028289
1373150000.0 0.5574976205 -0.2276592531
1383100000.0 0.4308975931 -0.4484103899
1393050000.0 0.2401234836 -0.6000001743
1403000000.0 0.0150118915 -0.6678875612
1412950000.0 -0.2139266322 -0.6465496647
1422900000.0 -0.4159864245 -0.5395141409
1432850000.0 -0.5604475256 -0.3584167817
1442800000.0 -0.6206841562 -0.1271919907
1452750000.0 -0.5786786916 0.1166099963
1462700000.0 -0.4336401445 0.3274392422
1472650000.0 -0.2097648763 0.4607028649
1482600000.0 0.0485661363 0.4881239462
1492550000.0 0.2886263343 0.4071658083
1502500000.0 0.4652657156 0.2400144933
1512450000.0 0.550333951 0.0246421578
1522400000.0 0.5352753104 -0.1957833821
1532350000.0 0.427727418 -0.3803409265
1542300000.0 0.2511516757 -0.4950362087
1552250000.0 0.039709861 -0.5155098369
1562200000.0 -0.1605959652 -0.4372487199
1572150000.0 -0.3105960105 -0.2749830469
1582100000.0 -0.3758415597 -0.0558739312
1592050000.0 -0.3347394642 0.1725917039
1602000000.0 -0.1963702566 0.3577940809
1611950000.0 0.0092616758 0.4559745991
1621900000.0 0.2310106204 0.4482671852
1631850000.0 0.4198067366 0.3409190111
1641800000.0 0.5370068969 0.1608984549
1651750000.0 0.5620124945 -0.0532098485
1661700000.0 0.4916431732 -0.2615413516
1671650000.0 0.3366654429 -0.4275465959
1681600000.0 0.1192352747 -0.5193215346
1691550000.0 -0.1259824151 -0.5152109878
1701500000.0 -0.355391806 -0.4070730563
1711450000.0 -0.5217966261 -0.2096672501
1721400000.0 -0.5889891639 0.0428573903
1731350000.0 -0.5426085953 0.2961215592
1741300000.0 -0.3974624393 0.5009993032
1751250000.0 -0.1884612034 0.6247604876
1761200000.0 0.0441791375 0.6567224278
1771150000.0 0.2659186732 0.6024020962
1781100000.0 0.4508046955 0.4758391235
1791050000.0 0.5801306198 0.2950936751
1801000000.0 0.6401402556 0.0794887382
1810950000.0 0.6207986614 -0.1480865415
1820900000.0 0.517019738 -0.3586514736
1830850000.0 0.3364630536 -0.5180141527
1840800000.0 0.1021781614 -0.5941268987
1850750000.0 -0.1452262035 -0.5676850901
1860700000.0 -0.3568985627 -0.4433355336
1870650000.0 -0.4956120404 -0.2514177993
1880600000.0 -0.5472359967 -0.0339669408
1890550000.0 -0.5178109373 0.1719620672
1900500000.0 -0.4250900043 0.3400668902
1910450000.0 -0.2912584622 0.455467962
1920400000.0 -0.1385509846 0.5111328861
1930350000.0 0.0087282332 0.5072628873
1940300000.0 0.1340778731 0.4564450581
1950250000.0 0.2259961794 0.3656881953
1960200000.0 0.2689622708 0.2518746499
1970150000.0 0.2594734624 0.1402894464
1980100000.0 0.2085420158 0.0556326105
1990050000.0 0.1405317464 0.0136922011
2000000000.0 0.0862278991 0.0144504129
