!Created with skrf (http://scikit-rf.org).
# GHz S RI R 50.0 
!freq ReS11 ImS11
10000000.0 -0.766171231 0.6741264116
19950000.0 -0.1382824788 0.9869640982
29900000.0 0.5358289828 0.8188348349
39850000.0 0.9427721401 0.2487622138
49800000.0 0.8731428311 -0.4617456146
59750000.0 0.3274390439 -0.9547409227
69700000.0 -0.4329453908 -0.9283415449
79650000.0 -0.9594871229 -0.3449643261
89600000.0 -0.8828909788 0.460284441
99550000.0 -0.2081276056 0.9461389415
109500000.0 0.6233797873 0.7285870512
119450000.0 0.9707384317 -0.0955672652
129400000.0 0.4755635789 -0.8809257531
139350000.0 -0.4616056671 -0.8949803542
149300000.0 -0.9740087025 -0.1267609474
159250000.0 -0.6499302454 0.6952060457
169200000.0 0.1572996081 0.9279306975
179150000.0 0.8256010395 0.4807014369
189100000.0 0.9366069839 -0.2878333006
199050000.0 0.4671979944 -0.8777718971
209000000.0 -0.2611701823 -0.9526295224
218950000.0 -0.8165119451 -0.513538623
228900000.0 -0.9246033287 0.1665758111
238850000.0 -0.562094767 0.7357831581
248800000.0 0.0667766436 0.9246299021
258750000.0 0.679857336 0.6587983767
268700000.0 0.9625422875 0.0581572748
278650000.0 0.7756134217 -0.578466665
288600000.0 0.2137561855 -0.9251877755
298550000.0 -0.4287122515 -0.8079295847
308500000.0 -0.822132224 -0.295142796
318450000.0 -0.7641088544 0.3415184018
328400000.0 -0.2883912926 0.7555304826
338350000.0 0.3256479609 0.7077694741
348300000.0 0.6880831609 0.2450847501
358250000.0 0.5819986519 -0.2853780969
368200000.0 0.1590967529 -0.509036463
378150000.0 -0.2108143595 -0.3452844937
388100000.0 -0.2854153619 -0.0246188167
398050000.0 -0.1137555568 0.1674277696
408000000.0 0.0812784188 0.1329137559
417950000.0 0.1303018965 -0.0141972891
427900000.0 0.0363026127 -0.1070453976
437850000.0 -0.083635299 -0.0736580235
447800000.0 -0.1230252935 0.0430306174
457750000.0 -0.0536575572 0.1456934817
467700000.0 0.0684681257 0.1601236774
477650000.0 0.1589811106 0.0811871654
487600000.0 0.1638609525 -0.0348226775
497550000.0 0.0937978 -0.1169137277
507500000.0 -0.0062091512 -0.1252244503
517450000.0 -0.0734259011 -0.0707298369
527400000.0 -0.0816154044 0.0002079465
537350000.0 -0.0460826728 0.0408844254
547300000.0 -0.0076467503 0.0384080759
557250000.0 0.0018750013 0.0120962832
567200000.0 -0.0196875002 0.0001920318
577150000.0 -0.0420068609 0.0229661186
587100000.0 -0.0306736702 0.0659971504
597050000.0 0.0237943909 0.0889617903
607000000.0 0.0917689266 0.0623648188
616950000.0 0.1300022178 -0.0182993537
626900000.0 0.1017594665 -0.1155158457
636850000.0 0.0079612338 -0.1744456864
646800000.0 -0.108424838 -0.1552964899
656750000.0 -0.1852365329 -0.0596890934
666700000.0 -0.1759143033 0.06543414
676650000.0 -0.0815559895 0.1522057433
686600000.0 0.0483386275 0.1511733817
696550000.0 0.1421282404 0.0621040713
706500000.0 0.1493988734 -0.0638610632
716450000.0 0.0707408404 -0.1557067879
726400000.0 -0.0439236817 -0.1632470298
736350000.0 -0.1208655141 -0.087082616
746300000.0 -0.1107803686 0.0169432383
756250000.0 -0.0230453273 0.0729881354
766200000.0 0.0780583463 0.0358096584
776150000.0 0.1130932852 -0.0732565596
786100000.0 0.0449140951 -0.177075434
796050000.0 -0.0921074464 -0.19175045
806000000.0 -0.2050973589 -0.0841832314
815950000.0 -0.2005645338 0.0933277162
825900000.0 -0.0516931688 0.22780887
835850000.0 0.1704122056 0.2154103078
845800000.0 0.3345554255 0.0372706718
855750000.0 0.3299026404 -0.2224728159
865700000.0 0.1358127043 -0.4191056197
875650000.0 -0.1575007444 -0.4289025968
885600000.0 -0.3898820818 -0.2209121828
895550000.0 -0.4133549771 0.1092210742
905500000.0 -0.1842714347 0.3737477731
915450000.0 0.1823575883 0.3842094335
925400000.0 0.4071163985 0.1111072348
935350000.0 0.3829018012 -0.1308942402
945300000.0 0.266435153 -0.3754176879
955250000.0 -0.0472768992 -0.4774567679
965200000.0 -0.3570129844 -0.2883693848
975150000.0 -0.4174837865 0.0987319847
985100000.0 -0.1304336034 0.4086167921
995050000.0 0.3213567746 0.3552414937
1005000000.0 0.5502892564 -0.0775890546
1014950000.0 0.2994674922 -0.5448711652
1024900000.0 -0.2799076084 -0.5997414099
1034850000.0 -0.6870604983 -0.096885524
1044800000.0 -0.4578911672 0.5856771408
1054750000.0 0.2964314974 0.7517004873
1064700000.0 0.8490991978 0.2011067006
1074650000.0 0.7011037148 -0.5571641976
1084600000.0 0.0377755782 -0.8703919698
1094550000.0 -0.603627452 -0.5858816662
1104500000.0 -0.7995576747 0.0880870981
1114450000.0 -0.3990279312 0.6638566141
1124400000.0 0.2861185911 0.6958876787
1134350000.0 0.7012166632 0.2000632481
1144300000.0 0.5863182082 -0.3817737934
1154250000.0 0.1174316062 -0.6553134649
1164200000.0 -0.3678186603 -0.5126305764
1174150000.0 -0.6011010887 -0.0793226609
1184100000.0 -0.4426302128 0.3879935531
1194050000.0 0.011625057 0.5788001354
1204000000.0 0.4452348322 0.370839707
1213950000.0 0.5832439639 -0.0680754028
1223900000.0 0.3846744157 -0.4590722196
1233850000.0 -0.0086977663 -0.6117448603
1243800000.0 -0.4009554932 -0.4744720719
1253750000.0 -0.6130641026 -0.1122696977
1263700000.0 -0.5339115681 0.3104818779
1273650000.0 -0.1846042744 0.5779675801
1283600000.0 0.2557130267 0.5406561474
1293550000.0 0.5560216345 0.2254970475
1303500000.0 0.584249561 -0.1956060556
1313450000.0 0.3548301417 -0.5333233908
1323400000.0 -0.0231312274 -0.6636922371
1333350000.0 -0.4053458029 -0.5447769766
1343300000.0 -0.6450757698 -0.2140530959
1353250000.0 -0.6290400648 0.2070533426
1363200000.0 -0.3411603793 0.5320798141
1373150000.0 0.0939073335 0.5961386726
1383100000.0 0.4644158066 0.3691452183
1393050000.0 0.6068158104 -0.0266853952
1403000000.0 0.4840210707 -0.412637883
1412950000.0 0.1667202677 -0.6426904213
1422900000.0 -0.2187465382 -0.6430230282
1432850000.0 -0.5292714419 -0.4136539314
1442800000.0 -0.638238716 -0.0370088696
1452750000.0 -0.4856746665 0.3323449124
1462700000.0 -0.1277965786 0.5209943733
1472650000.0 0.2655582358 0.4344123536
1482600000.0 0.5048246994 0.1219498336
1492550000.0 0.4901932928 -0.2558552324
1502500000.0 0.2506684721 -0.5281727937
1512450000.0 -0.0960095734 -0.5895970501
1522400000.0 -0.3995770814 -0.4225663613
1532350000.0 -0.525865575 -0.1002596125
1542300000.0 -0.4100516789 0.2293216758
1552250000.0 -0.1018477893 0.3991399225
1562200000.0 0.2376667489 0.3155490985
1572150000.0 0.4234642135 0.0269393207
1582100000.0 0.3636157738 -0.3020003933
1592050000.0 0.1039262825 -0.4983958067
1602000000.0 -0.2160218769 -0.4703086806
1611950000.0 -0.4389277406 -0.2337871614
1621900000.0 -0.4503042917 0.098372486
1631850000.0 -0.2311348697 0.3619654915
1641800000.0 0.1203492243 0.4100370117
1651750000.0 0.417891804 0.2026415732
1661700000.0 0.4962502489 -0.1543960707
1671650000.0 0.3161229707 -0.4710646121
1681600000.0 -0.0240496183 -0.593989954
1691550000.0 -0.3656704496 -0.4754484719
1701500000.0 -0.5641186824 -0.1686219372
1711450000.0 -0.5349833328 0.2050444556
1721400000.0 -0.2711711257 0.4930621585
1731350000.0 0.1291617184 0.5535578257
1741300000.0 0.4828211876 0.3379594155
1751250000.0 0.6147102766 -0.0565723963
1761200000.0 0.468772298 -0.437845418
1771150000.0 0.1303076947 -0.6421534075
1781100000.0 -0.2515194939 -0.6089028354
1791050000.0 -0.540747454 -0.3678553784
1801000000.0 -0.643928003 -0.0050661749
1810950000.0 -0.5180863407 0.359120707
1820900000.0 -0.190890514 0.584557287
1830850000.0 0.2176801792 0.5597291311
1840800000.0 0.5208061123 0.280902895
1850750000.0 0.577015622 -0.117711309
1860700000.0 0.3840384776 -0.4500132381
1870650000.0 0.0526071626 -0.5955959747
1880600000.0 -0.2820529639 -0.5320004615
1890550000.0 -0.5149321628 -0.3040073922
1900500000.0 -0.5804673118 0.0071076886
1910450000.0 -0.4591003497 0.2969090504
1920400000.0 -0.1937638845 0.456082291
1930350000.0 0.1062926496 0.4189686945
1940300000.0 0.3074806209 0.213144744
1950250000.0 0.3357574341 -0.0496761689
1960200000.0 0.2132320376 -0.2506940345
1970150000.0 0.0236208405 -0.330657053
1980100000.0 -0.1465206652 -0.2947129125
1990050000.0 -0.2420404458 -0.1936008146
2000000000.0 -0.2563888228 -0.0922636144
