!Created with skrf (http://scikit-rf.org).
# GHz S RI R 50.0 
!freq ReS11 ImS11
10000000.0 -0.998359552 0.16445591
19950000.0 -0.9434478557 0.3140036647
29900000.0 -0.8657938199 0.4567910971
39850000.0 -0.7654985023 0.5972258772
49800000.0 -0.644072605 0.7295325829
59750000.0 -0.4967156714 0.8472605767
69700000.0 -0.3174320622 0.9389546088
79650000.0 -0.1029692844 0.9868178637
89600000.0 0.1444550349 0.9744895853
99550000.0 0.4109565645 0.8835915121
109500000.0 0.674016236 0.7024218248
119450000.0 0.893524877 0.4190201562
129400000.0 1.006513434 0.0407493383
139350000.0 0.9590424292 -0.3567596891
149300000.0 0.7375334533 -0.7018999097
159250000.0 0.4041474611 -0.9134532055
169200000.0 0.0454574055 -0.9817440154
179150000.0 -0.2807287041 -0.9386501982
189100000.0 -0.5467473885 -0.818254087
199050000.0 -0.7402948296 -0.6515366108
209000000.0 -0.8614032048 -0.4599734705
218950000.0 -0.9239762336 -0.2632833365
228900000.0 -0.9401571597 -0.0706446874
238850000.0 -0.9218567495 0.1164509304
248800000.0 -0.6830655978 0.266505798
258750000.0 -0.8280543665 0.4195223051
268700000.0 -0.7411298183 0.5650095156
278650000.0 -0.6284568121 0.6825418798
288600000.0 -0.4892603479 0.7696364862
298550000.0 -0.3273336851 0.8240353143
308500000.0 -0.1479756784 0.8457348664
318450000.0 0.0418935372 0.8296883171
328400000.0 0.2320275929 0.768165588
338350000.0 0.3999908522 0.6529636712
348300000.0 0.5185662973 0.4833999587
358250000.0 0.5549501317 0.2785086311
368200000.0 0.504638974 0.0991213484
378150000.0 0.4459644387 -0.048503808
388100000.0 0.3287562491 -0.1772889717
398050000.0 0.1953849758 -0.2404026769
408000000.0 0.0774770385 -0.2470200842
417950000.0 -0.0127212521 -0.2134923739
427900000.0 -0.0733878846 -0.1575000355
437850000.0 -0.1087914547 -0.0938157341
447800000.0 -0.1238806018 -0.0351583394
457750000.0 -0.1234338969 0.0114879116
467700000.0 -0.1117966593 0.0418678279
477650000.0 -0.09099269 0.0538848664
487600000.0 -0.0625652947 0.0495486971
497550000.0 -0.0268153275 0.0030949582
507500000.0 -0.0319512247 0.0320088888
517450000.0 -0.0061868952 0.0119975015
527400000.0 0.0036606231 -0.0059142329
537350000.0 0.0001717026 -0.0216766777
547300000.0 -0.0124338512 -0.04139428
557250000.0 -0.0439352357 -0.0572290644
567200000.0 -0.0757273282 -0.0675711225
577150000.0 -0.1071944921 -0.0744284727
587100000.0 -0.1340965683 -0.0757919508
597050000.0 -0.1545909804 -0.0687550768
607000000.0 -0.1685230694 -0.051497942
616950000.0 -0.1773508283 -0.0250877255
626900000.0 -0.1821762742 0.0079638407
636850000.0 -0.1837286942 0.0433093944
646800000.0 -0.1809045981 0.0766719486
656750000.0 -0.1726217639 0.1051423131
666700000.0 -0.1564827241 0.125748954
676650000.0 -0.1303690431 0.1379609349
686600000.0 -0.0948008358 0.1421771995
696550000.0 -0.0517825371 0.1397441815
706500000.0 -0.0063778432 0.1306754292
716450000.0 0.03726828 0.1150290341
726400000.0 0.0733568458 0.0902872267
736350000.0 0.0981209725 0.054603248
746300000.0 0.1089693451 0.0068381864
756250000.0 0.1051415147 -0.053563168
766200000.0 0.0856221024 -0.1225505602
776150000.0 0.0486329853 -0.1968560815
786100000.0 -0.0200772924 -0.2699446503
796050000.0 -0.1741588912 -0.2479973836
806000000.0 -0.1182642982 -0.1282078201
815950000.0 -0.0967274536 -0.2031148554
825900000.0 -0.1588209427 -0.2228273989
835850000.0 -0.2316006892 -0.2115328722
845800000.0 -0.3025098455 -0.1818947653
855750000.0 -0.3654090579 -0.1399983191
865700000.0 -0.4135167234 -0.0885699162
875650000.0 -0.4432620829 -0.0286843435
885600000.0 -0.4517723793 0.039400451
895550000.0 -0.4397861683 0.1145106519
905500000.0 -0.4093840785 0.195464553
915450000.0 -0.3635164923 0.2774933821
925400000.0 -0.3018611208 0.3543322294
935350000.0 -0.2244133311 0.4189512662
945300000.0 -0.1288843932 0.4642653259
955250000.0 -0.0065813591 0.4744607566
965200000.0 0.125714887 0.4389138304
975150000.0 0.2652753096 0.3572927138
985100000.0 0.3956243964 0.2201805954
995050000.0 0.4868760701 0.0244009988
1005000000.0 0.4987240512 -0.2163351938
1014950000.0 0.3919006816 -0.4657365366
1024900000.0 0.1546899765 -0.6552859207
1034850000.0 -0.1675549625 -0.7204588231
1044800000.0 -0.4951910034 -0.6335135379
1054750000.0 -0.7471346952 -0.4101800218
1064700000.0 -0.8280767902 -0.1064121855
1074650000.0 -0.8307505074 0.0944699767
1084600000.0 -0.6857099802 0.360807002
1094550000.0 -0.6521045503 0.4625384975
1104500000.0 -0.4538565831 0.674884762
1114450000.0 -0.198527555 0.7733178924
1124400000.0 0.064636292 0.7715062839
1134350000.0 0.297456323 0.6736845
1144300000.0 0.4694106438 0.4994714637
1154250000.0 0.5650987862 0.283979725
1164200000.0 0.5862909915 0.0620610493
1174150000.0 0.5518359253 -0.1352758949
1184100000.0 0.4808830441 -0.3038778365
1194050000.0 0.372986508 -0.4357563065
1204000000.0 0.240750492 -0.5194896669
1213950000.0 0.1002736836 -0.558343948
1223900000.0 -0.0364153964 -0.5639569999
1233850000.0 -0.1622143552 -0.5480989059
1243800000.0 -0.2742319316 -0.5187757235
1253750000.0 -0.3703905747 -0.4803340703
1263700000.0 -0.4483973923 -0.4324623402
1273650000.0 -0.5097778421 -0.3756638473
1283600000.0 -0.5539637201 -0.3097629481
1293550000.0 -0.5854710097 -0.2365549734
1303500000.0 -0.6086448584 -0.1598762655
1313450000.0 -0.6272022611 -0.0834933488
1323400000.0 -0.6433146945 -0.0102504566
1333350000.0 -0.6551335986 0.0583209133
1343300000.0 -0.6592807094 0.1226143016
1353250000.0 -0.6533795007 0.1810875705
1363200000.0 -0.6339754889 0.2365800727
1373150000.0 -0.6014452903 0.2902911814
1383100000.0 -0.5602491297 0.3434021801
1393050000.0 -0.5141361178 0.3964845105
1403000000.0 -0.4672683888 0.4477652387
1412950000.0 -0.4207938835 0.4949651596
1422900000.0 -0.37444353 0.5349823608
1432850000.0 -0.3268879227 0.5639061911
1442800000.0 -0.2770921598 0.581940115
1452750000.0 -0.2233178516 0.5920101361
1462700000.0 -0.1630072729 0.5977109279
1472650000.0 -0.0939474558 0.6018958815
1482600000.0 -0.0186404018 0.6038884601
1492550000.0 0.0583392141 0.6015901402
1502500000.0 0.1333150342 0.5905069227
1512450000.0 0.2032825027 0.5681619017
1522400000.0 0.2659332111 0.5311087166
1532350000.0 0.3213541534 0.4777391934
1542300000.0 0.3700054352 0.4091516522
1552250000.0 0.4122188998 0.3287198316
1562200000.0 0.4493734315 0.2422535783
1572150000.0 0.4769317388 0.1532046024
1582100000.0 0.4898686744 0.0646751509
1592050000.0 0.4849964153 -0.020078285
1602000000.0 0.4660306843 -0.0960909542
1611950000.0 0.4467494017 -0.1589001914
1621900000.0 0.4101625957 -0.2328880712
1631850000.0 0.3485078682 -0.3177745449
1641800000.0 0.2740933756 -0.3950346522
1651750000.0 0.1942341227 -0.4588413426
1661700000.0 0.1124958178 -0.5060104643
1671650000.0 0.0302126593 -0.5326179206
1681600000.0 -0.0520993377 -0.5382645975
1691550000.0 -0.1335362381 -0.5261975623
1701500000.0 -0.2150311702 -0.5001927498
1711450000.0 -0.2952412685 -0.463685276
1721400000.0 -0.371233092 -0.4164893395
1731350000.0 -0.4085043887 -0.3439627909
1741300000.0 -0.4456791281 -0.3770201107
1751250000.0 -0.5157298496 -0.3309492532
1761200000.0 -0.5531925975 -0.2755078301
1771150000.0 -0.5743698034 -0.2150613783
1781100000.0 -0.5868487638 -0.1505241917
1791050000.0 -0.5946830595 -0.0851887896
1801000000.0 -0.6022306883 -0.0219650946
1810950000.0 -0.6097305895 0.038192871
1820900000.0 -0.614585493 0.0924818009
1830850000.0 -0.6121344876 0.1409472237
1840800000.0 -0.5992070135 0.1853731825
1850750000.0 -0.5733238627 0.2255418883
1860700000.0 -0.5356992819 0.2622525307
1870650000.0 -0.492621614 0.2974030359
1880600000.0 -0.4488572755 0.3298461318
1890550000.0 -0.4088645602 0.3597531862
1900500000.0 -0.3733954062 0.3832404508
1910450000.0 -0.3416166097 0.3994331775
1920400000.0 -0.3108939676 0.4072139348
1930350000.0 -0.2773575699 0.4047442657
1940300000.0 -0.2383865471 0.3930065372
1950250000.0 -0.1942068877 0.3732014947
1960200000.0 -0.1473603657 0.3489012643
1970150000.0 -0.1051576354 0.3196354208
1980100000.0 -0.0718649947 0.2865709551
1990050000.0 -0.0532902501 0.2475989884
2000000000.0 -0.0535218025 0.1994482966
