!Created with skrf (http://scikit-rf.org).
# GHz S RI R 50.0 
!freq ReS11 ImS11
10000000.0 -1.001484905 0.1607532358
19950000.0 -0.9470500587 0.3071608253
29900000.0 -0.8707172858 0.4481013336
39850000.0 -0.7720313367 0.5883155575
49800000.0 -0.6521616967 0.7224598655
59750000.0 -0.5055724484 0.8437117153
69700000.0 -0.3233867545 0.9397083142
79650000.0 -0.1011311833 0.9899528065
89600000.0 0.1596051311 0.9739290787
99550000.0 0.4423953852 0.8689734941
109500000.0 0.7178980333 0.6586241658
119450000.0 0.9325495332 0.332203083
129400000.0 1.010255284 -0.0846133767
139350000.0 0.8957877072 -0.4995911315
149300000.0 0.6092256032 -0.8132676443
159250000.0 0.2437766011 -0.9644697063
169200000.0 -0.1116807772 -0.974647744
179150000.0 -0.4112300345 -0.8896930063
189100000.0 -0.6413459384 -0.7490706376
199050000.0 -0.8007421159 -0.5801720419
209000000.0 -0.8938471245 -0.3988161724
218950000.0 -0.9375930479 -0.2184583636
228900000.0 -0.9437102122 -0.0459590998
238850000.0 -0.9248136564 0.1182003394
248800000.0 -0.8886777055 0.2643439441
258750000.0 -0.8379725977 0.4141165656
268700000.0 -0.7670399645 0.5442024558
278650000.0 -0.6724768836 0.6542237486
288600000.0 -0.5519924603 0.7405458636
298550000.0 -0.4088155845 0.8000881339
308500000.0 -0.2465811858 0.8335398069
318450000.0 -0.0719066501 0.8366952932
328400000.0 0.1071007956 0.8034739505
338350000.0 0.2791722164 0.7222484794
348300000.0 0.4210972713 0.584825931
358250000.0 0.5009185878 0.3997827378
368200000.0 0.49904072 0.1973682107
378150000.0 0.4224279909 0.0175496654
388100000.0 0.3003903606 -0.1109255183
398050000.0 0.1673300878 -0.1762490441
408000000.0 0.0503467541 -0.1833559869
417950000.0 -0.037406742 -0.1483295917
427900000.0 -0.0943902938 -0.0897360769
437850000.0 -0.1257969668 -0.023539971
447800000.0 -0.1380429863 0.03750844
457750000.0 -0.1361043079 0.0856822279
467700000.0 -0.1227431365 0.1165714034
477650000.0 -0.1002066955 0.1290399888
487600000.0 -0.0713761015 0.126359044
497550000.0 -0.0377124214 0.1161883296
507500000.0 -0.0066629524 0.0972601697
517450000.0 0.0177197588 0.0768537519
527400000.0 0.0312823385 0.0573463418
537350000.0 0.0301589247 0.038742816
547300000.0 0.0169079388 0.0208859067
557250000.0 -0.0075519198 0.0019702713
567200000.0 -0.0375890088 -0.0153740481
577150000.0 -0.0681857135 -0.0291471578
587100000.0 -0.0950078392 -0.0364250328
597050000.0 -0.1151519744 -0.0344755453
607000000.0 -0.1291316725 -0.021169824
616950000.0 -0.1384005492 0.0019863858
626900000.0 -0.1440207826 0.0332556177
636850000.0 -0.1467983223 0.0670553482
646800000.0 -0.1460822651 0.0993605914
656750000.0 -0.1404768491 0.125822362
666700000.0 -0.1266241063 0.1437237473
676650000.0 -0.1031295431 0.1529128769
686600000.0 -0.070357336 0.1543248093
696550000.0 -0.030796597 0.1506230772
706500000.0 0.0113584148 0.1416564928
716450000.0 0.0516277816 0.1277392125
726400000.0 0.0839062849 0.1066182172
736350000.0 0.1053420718 0.0761319412
746300000.0 0.1121471269 0.0355193085
756250000.0 0.1077720514 -0.0158859852
766200000.0 0.0910793648 -0.072518343
776150000.0 0.0648001972 -0.1297189747
786100000.0 0.0293186594 -0.1807527589
796050000.0 -0.0142469871 -0.218623121
806000000.0 -0.065676124 -0.2383325821
815950000.0 -0.1252582867 -0.2373718381
825900000.0 -0.1899240946 -0.2173827648
835850000.0 -0.2568968527 -0.1818540472
845800000.0 -0.3200187424 -0.1350446952
855750000.0 -0.3733662451 -0.0789774415
865700000.0 -0.4101694685 -0.0161236831
875650000.0 -0.424836083 0.0532942409
885600000.0 -0.4149008949 0.1281518941
895550000.0 -0.3809744265 0.2074019113
905500000.0 -0.3255127274 0.2884986753
915450000.0 -0.2512129668 0.3654615021
925400000.0 -0.1595179571 0.4299012491
935350000.0 -0.0507696826 0.4710233377
945300000.0 0.0729558659 0.4759734071
955250000.0 0.208119744 0.4331672286
965200000.0 0.3437375291 0.3329555422
975150000.0 0.4616433741 0.1717693748
985100000.0 0.5317319948 -0.0470028563
995050000.0 0.5162740897 -0.3017389642
1005000000.0 0.3837390195 -0.5473355441
1014950000.0 0.1300860673 -0.7166366376
1024900000.0 -0.1938813692 -0.7514929156
1034850000.0 -0.5121118006 -0.6416653087
1044800000.0 -0.7574415184 -0.4160507001
1054750000.0 -0.8882389362 -0.123725005
1064700000.0 -0.8872446987 0.1799883855
1074650000.0 -0.7526042117 0.4417682056
1084600000.0 -0.5942102889 0.5983464618
1094550000.0 -0.3641337104 0.7468517967
1104500000.0 -0.1018421339 0.8052230379
1114450000.0 0.1570484591 0.7815949865
1124400000.0 0.384692383 0.6773931323
1134350000.0 0.55228776 0.5063441572
1144300000.0 0.6462116963 0.293937121
1154250000.0 0.6687615867 0.0741186432
1164200000.0 0.6373796592 -0.1290948451
1174150000.0 0.5713896792 -0.3054013545
1184100000.0 0.4743362648 -0.4500201346
1194050000.0 0.3543061392 -0.553116791
1204000000.0 0.2214208821 -0.6126666051
1213950000.0 0.0857711083 -0.6340819612
1223900000.0 -0.0453436276 -0.6287703823
1233850000.0 -0.1669325845 -0.6078761498
1243800000.0 -0.276245929 -0.5771302787
1253750000.0 -0.3710744936 -0.538669272
1263700000.0 -0.4496293146 -0.4914975177
1273650000.0 -0.5114446699 -0.4357041343
1283600000.0 -0.5564431407 -0.3695277978
1293550000.0 -0.5888475519 -0.2954470123
1303500000.0 -0.6133889917 -0.2169621041
1313450000.0 -0.6337810402 -0.138376261
1323400000.0 -0.6521987044 -0.062893187
1333350000.0 -0.6666406674 0.0079176575
1343300000.0 -0.6739876249 0.0743026668
1353250000.0 -0.6698269996 0.1353908739
1363200000.0 -0.6509689735 0.1933596515
1373150000.0 -0.6181056167 0.2507012733
1383100000.0 -0.5757107625 0.3076012237
1393050000.0 -0.5277537833 0.3655176851
1403000000.0 -0.4792765383 0.4222737959
1412950000.0 -0.4301887614 0.4753902145
1422900000.0 -0.3801639455 0.5214613763
1432850000.0 -0.3265760036 0.5558627345
1442800000.0 -0.2669575023 0.5778717166
1452750000.0 -0.1992873415 0.5869808916
1462700000.0 -0.1234199688 0.5858334069
1472650000.0 -0.0410008775 0.5786100606
1482600000.0 0.0448958482 0.5671848298
1492550000.0 0.1298222573 0.5496041725
1502500000.0 0.2096073321 0.5231340695
1512450000.0 0.2803926633 0.4835977081
1522400000.0 0.3391082121 0.4279717063
1532350000.0 0.3853956115 0.3548957876
1542300000.0 0.4213793453 0.2667228287
1552250000.0 0.4479769607 0.167889094
1562200000.0 0.4658014605 0.0659070355
1572150000.0 0.4741270549 -0.0353722922
1582100000.0 0.4683427769 -0.1330745048
1592050000.0 0.443795041 -0.222389472
1602000000.0 0.397661143 -0.301692146
1611950000.0 0.3321057462 -0.3690616186
1621900000.0 0.2523587053 -0.4272387321
1631850000.0 0.1647619712 -0.4776192781
1641800000.0 0.0749905465 -0.5202324968
1651750000.0 -0.0130341652 -0.5518652436
1661700000.0 -0.0966515646 -0.5691967625
1671650000.0 -0.1744861091 -0.5684847161
1681600000.0 -0.2460225113 -0.5497016397
1691550000.0 -0.3130186671 -0.517370365
1701500000.0 -0.3781154238 -0.4756974791
1711450000.0 -0.4406227243 -0.4311762727
1721400000.0 -0.4998053185 -0.3862788016
1731350000.0 -0.5534992985 -0.3428426593
1741300000.0 -0.5976534598 -0.2989288976
1751250000.0 -0.6289151003 -0.2513978132
1761200000.0 -0.6464799808 -0.1996286778
1771150000.0 -0.6525469404 -0.142796136
1781100000.0 -0.6530050652 -0.0829185777
1791050000.0 -0.6516480432 -0.0222918928
1801000000.0 -0.6521354996 0.0357696184
1810950000.0 -0.6552776677 0.0907163505
1820900000.0 -0.6566508089 0.1405262375
1830850000.0 -0.6515194048 0.1846467981
1840800000.0 -0.6351750065 0.2239183803
1850750000.0 -0.6058272961 0.2598263328
1860700000.0 -0.5646183557 0.293187948
1870650000.0 -0.5182141227 0.3259596037
1880600000.0 -0.4714467851 0.3561321605
1890550000.0 -0.4291856258 0.3841670102
1900500000.0 -0.3923114094 0.4057166317
1910450000.0 -0.3590880186 0.4190305836
1920400000.0 -0.327051502 0.4205604133
1930350000.0 -0.291258822 0.4105082393
1940300000.0 -0.2506517051 0.3890361104
1950250000.0 -0.2053529726 0.35869518
1960200000.0 -0.1591886698 0.3228425815
1970150000.0 -0.1192785551 0.2827104518
1980100000.0 -0.0915457406 0.2383147986
1990050000.0 -0.0827225247 0.1866320086
2000000000.0 -0.1000737335 0.1231117615
