!Created with skrf (http://scikit-rf.org).
# GHz S RI R 50.0 
!freq ReS11 ImS11
10000000.0 -0.7741953479 0.5908392996
19950000.0 -0.2777646956 0.9323050544
29900000.0 0.3237964459 0.9201113481
39850000.0 0.808607315 0.551426663
49800000.0 0.9794938026 -0.0462215484
59750000.0 0.7456997291 -0.6380431308
69700000.0 0.1817927328 -0.9625192733
79650000.0 -0.4741446239 -0.8506073362
89600000.0 -0.9106472551 -0.3241527481
99550000.0 -0.8855780396 0.382686291
109500000.0 -0.3627596399 0.8984266492
119450000.0 0.4030368648 0.8866814749
129400000.0 0.931166762 0.2856900297
139350000.0 0.8212639945 -0.5164121782
149300000.0 0.12807901 -0.9518142639
159250000.0 -0.6367991093 -0.7053511651
169200000.0 -0.9451392134 0.0083733433
179150000.0 -0.6439783223 0.6913526169
189100000.0 0.0242776983 0.9432732868
199050000.0 0.6542733071 0.672264952
209000000.0 0.9286915461 0.0674198474
218950000.0 0.7484263746 -0.5458560668
228900000.0 0.2315877314 -0.8933174357
238850000.0 -0.37838467 -0.8368939729
248800000.0 -0.7940371756 -0.3187378057
258750000.0 -0.899543453 0.1397378678
268700000.0 -0.619843969 0.6644809297
278650000.0 -0.0837522653 0.8995766483
288600000.0 0.4781538734 0.7519109062
298550000.0 0.8232127042 0.2876021094
308500000.0 0.7989943065 -0.2881969
318450000.0 0.4151857003 -0.7104561245
328400000.0 -0.1421620092 -0.777828262
338350000.0 -0.5890194563 -0.4628757685
348300000.0 -0.6940607085 0.0506618637
358250000.0 -0.4270882845 0.4626458975
368200000.0 0.0105686992 0.5511697647
378150000.0 0.3343256102 0.3254651985
388100000.0 0.3838930568 -0.0114866951
398050000.0 0.2032101304 -0.23597762
408000000.0 -0.0378119611 -0.2516075296
417950000.0 -0.1812116452 -0.1140363228
427900000.0 -0.178362419 0.0510348447
437850000.0 -0.0757139322 0.1421601921
447800000.0 0.0403183431 0.1289421162
457750000.0 0.0989055038 0.0488398785
467700000.0 0.0842837525 -0.0342721333
477650000.0 0.0276994585 -0.0742721787
487600000.0 -0.0240358873 -0.0617514271
497550000.0 -0.0098586974 -0.0358639553
507500000.0 -0.0633816186 -0.0044243716
517450000.0 -0.028037052 0.0093387564
527400000.0 -0.0120124765 -0.0084763016
537350000.0 -0.0250831928 -0.0306041229
547300000.0 -0.0605192456 -0.0301987246
557250000.0 -0.086788346 0.0080994143
567200000.0 -0.0769294783 0.0634449173
577150000.0 -0.024124127 0.1054538304
587100000.0 0.0553919171 0.104237114
597050000.0 0.1259297754 0.0479566631
607000000.0 0.150950978 -0.0480971293
616950000.0 0.1101721791 -0.1448110104
626900000.0 0.0166216408 -0.1992581766
636850000.0 -0.0930603434 -0.1839678263
646800000.0 -0.172481101 -0.1024965241
656750000.0 -0.1858120463 0.0128849163
666700000.0 -0.1255613519 0.1145846941
676650000.0 -0.0166412418 0.1575015951
686600000.0 0.0928765424 0.1243291405
696550000.0 0.1543947326 0.0332001953
706500000.0 0.1436459935 -0.0696597169
716450000.0 0.0706863319 -0.1337476994
726400000.0 -0.02172451 -0.1295368802
736350000.0 -0.0804841765 -0.0608761584
746300000.0 -0.0698400471 0.0307724803
756250000.0 0.0074126513 0.0865536012
766200000.0 0.1060479153 0.0673838546
776150000.0 0.1625692567 -0.024705712
786100000.0 0.1322383308 -0.1372464819
796050000.0 0.0228465527 -0.2036219993
806000000.0 -0.120701554 -0.177105303
815950000.0 -0.2257268706 -0.0491374144
825900000.0 -0.2246483615 0.1333332256
835850000.0 -0.1003412329 0.2855623615
845800000.0 0.1031059757 0.3286608427
855750000.0 0.2987185687 0.23135411
865700000.0 0.3972091066 0.0234094915
875650000.0 0.3441327335 -0.2110495924
885600000.0 0.1482723859 -0.3709521126
895550000.0 -0.1168416095 -0.3723417333
905500000.0 -0.3313477853 -0.1983997617
915450000.0 -0.3857772229 0.0796311836
925400000.0 -0.2440279284 0.3303207543
935350000.0 0.0305084305 0.4243062855
945300000.0 0.3002071542 0.3018102103
955250000.0 0.4104683482 0.0125091346
965200000.0 0.2642177193 -0.2878295997
975150000.0 -0.0918367729 -0.3825565465
985100000.0 -0.4186039382 -0.135591054
995050000.0 -0.4158989928 0.3169778535
1005000000.0 -0.0176499534 0.6111464932
1014950000.0 0.5025386205 0.4592835573
1024900000.0 0.7224409841 -0.0897889747
1034850000.0 0.4106320601 -0.6354354335
1044800000.0 -0.2234577911 -0.7482028041
1054750000.0 -0.7240058247 -0.3393584501
1064700000.0 -0.7135833802 0.2604789641
1074650000.0 -0.4486527121 0.6366703894
1084600000.0 0.0420622388 0.798974696
1094550000.0 0.572763562 0.5658252233
1104500000.0 0.7597130257 0.0079376322
1114450000.0 0.4927794705 -0.5084844677
1124400000.0 -0.042635 -0.6662134068
1134350000.0 -0.4936503289 -0.4079861521
1144300000.0 -0.6179340403 0.0524994841
1154250000.0 -0.401649898 0.4369870253
1164200000.0 -0.0032358387 0.5531635923
1174150000.0 0.3504271325 0.3656153438
1184100000.0 0.4705707505 -0.0137762037
1194050000.0 0.2898778192 -0.3618877249
1204000000.0 -0.0675580422 -0.4820763018
1213950000.0 -0.396174862 -0.3405597627
1223900000.0 -0.5518190172 -0.0364476221
1233850000.0 -0.4882150911 0.29133001
1243800000.0 -0.2374726526 0.5135019711
1253750000.0 0.1052891598 0.54140515
1263700000.0 0.4060538832 0.3513145899
1273650000.0 0.5360981043 0.0130748514
1283600000.0 0.4435478217 -0.3355360215
1293550000.0 0.1762049682 -0.5615951116
1303500000.0 -0.1585258467 -0.5993484986
1313450000.0 -0.4512889928 -0.4545569523
1323400000.0 -0.6213427942 -0.1793745883
1333350000.0 -0.6219145121 0.1489197672
1343300000.0 -0.4416685938 0.4381220583
1353250000.0 -0.1187244414 0.5880607635
1363200000.0 0.2443994519 0.5292720058
1373150000.0 0.5145550251 0.2747718571
1383100000.0 0.5949845703 -0.0803219928
1393050000.0 0.4743682763 -0.4074913131
1403000000.0 0.2106331761 -0.6102817518
1412950000.0 -0.108301838 -0.6428444559
1422900000.0 -0.3935750369 -0.5057313311
1432850000.0 -0.5665844591 -0.2313471736
1442800000.0 -0.551891468 0.102670837
1452750000.0 -0.3754458199 0.3473136052
1462700000.0 -0.0977511767 0.4958140596
1472650000.0 0.2296642695 0.4636820589
1482600000.0 0.4772540124 0.2522404558
1492550000.0 0.5599295833 -0.0499864747
1502500000.0 0.4641569096 -0.3355343327
1512450000.0 0.2343406675 -0.5146002164
1522400000.0 -0.0540731553 -0.5351131746
1532350000.0 -0.3054569159 -0.3864804997
1542300000.0 -0.4275647292 -0.1128644193
1552250000.0 -0.3621318844 0.184655055
1562200000.0 -0.1316710893 0.3793663137
1572150000.0 0.1588336386 0.3914433793
1582100000.0 0.3841344698 0.2321677743
1592050000.0 0.4636033835 -0.0186163637
1602000000.0 0.3778417567 -0.2604128167
1611950000.0 0.1621601712 -0.4040256834
1621900000.0 -0.105347985 -0.3882650474
1631850000.0 -0.3167442333 -0.202395199
1641800000.0 -0.3669299936 0.0847856676
1651750000.0 -0.2250686271 0.3408244596
1661700000.0 0.0394849059 0.4528597519
1671650000.0 0.3111071987 0.3860804198
1681600000.0 0.4912618112 0.1773840467
1691550000.0 0.5212781406 -0.0997971772
1701500000.0 0.3851466503 -0.3541480718
1711450000.0 0.115447362 -0.4925774456
1721400000.0 -0.2006285166 -0.4469575457
1731350000.0 -0.4394510552 -0.21849167
1741300000.0 -0.5031041864 0.107762975
1751250000.0 -0.3739948818 0.4053652527
1761200000.0 -0.1128937748 0.5764392524
1771150000.0 0.1894363736 0.5817412341
1781100000.0 0.4458795788 0.4310352353
1791050000.0 0.5885958514 0.1671402962
1801000000.0 0.5720706408 -0.1413059455
1810950000.0 0.3876468402 -0.4048041149
1820900000.0 0.079616166 -0.5298058827
1830850000.0 -0.250361855 -0.4612938009
1840800000.0 -0.4839139139 -0.22495715
1850750000.0 -0.5491403227 0.0854735533
1860700000.0 -0.4480641924 0.3649693543
1870650000.0 -0.2324182298 0.542308737
1880600000.0 0.0311348756 0.5834349512
1890550000.0 0.2742290055 0.4858659585
1900500000.0 0.4317987922 0.2749197264
1910450000.0 0.4535074514 0.0081442713
1920400000.0 0.3280370425 -0.2283015886
1930350000.0 0.098917221 -0.3513740203
1940300000.0 -0.1411376777 -0.3286707597
1950250000.0 -0.3103764449 -0.1937726052
1960200000.0 -0.3688192833 -0.0153224772
1970150000.0 -0.3262252424 0.1372258536
1980100000.0 -0.2228749491 0.2190436165
1990050000.0 -0.1174006954 0.2168668303
2000000000.0 -0.0652407235 0.1581252231
