!Created with skrf (http://scikit-rf.org).
# GHz S RI R 50.0 
!freq ReS11 ImS11
10000000.0 -1.02850731 -0.0664661697
19950000.0 -1.010723117 -0.1398402148
29900000.0 -0.9854397988 -0.2074010849
39850000.0 -0.9605354169 -0.26940608
49800000.0 -0.9384459123 -0.3294558934
59750000.0 -0.9187319629 -0.3911255704
69700000.0 -0.8982392388 -0.4568017416
79650000.0 -0.8713374928 -0.526679343
89600000.0 -0.8334421724 -0.596471646
99550000.0 -0.7824429507 -0.6602034718
109500000.0 -0.7214183851 -0.7130516344
119450000.0 -0.6571397707 -0.7559045751
129400000.0 -0.5942893873 -0.7917578786
139350000.0 -0.5359187454 -0.8250644863
149300000.0 -0.4798238041 -0.8582840381
159250000.0 -0.4239145868 -0.8941690037
169200000.0 -0.3634444972 -0.9311137498
179150000.0 -0.2950078588 -0.9646413469
189100000.0 -0.2190362687 -0.9882166417
199050000.0 -0.1387139304 -0.9982949424
209000000.0 -0.0594808385 -0.995110233
218950000.0 0.0158608786 -0.9841092917
228900000.0 0.0857387773 -0.9712068847
238850000.0 0.15148569 -0.9589157269
248800000.0 0.2174673749 -0.9494720259
258750000.0 0.2856958194 -0.9396429101
268700000.0 0.3577209666 -0.9254701159
278650000.0 0.431044602 -0.9016484816
288600000.0 0.5010933399 -0.8650645298
298550000.0 0.563710236 -0.8164832979
308500000.0 0.6174022005 -0.7616158189
318450000.0 0.6641082607 -0.7057183958
328400000.0 0.7073107581 -0.6525680316
338350000.0 0.7506874965 -0.6019872996
348300000.0 0.7954980408 -0.5509724627
358250000.0 0.8419797927 -0.4964694234
368200000.0 0.8856754285 -0.4349096303
378150000.0 0.9212843477 -0.3660575763
388100000.0 0.9440934512 -0.2910339869
398050000.0 0.9544513905 -0.215010983
408000000.0 0.9560617198 -0.1419811593
417950000.0 0.9544123156 -0.0731968588
427900000.0 0.953486944 -0.0070260429
437850000.0 0.9546756502 0.0590831028
447800000.0 0.9557263709 0.1285352932
457750000.0 0.9532994323 0.2025354988
467700000.0 0.9408441712 0.2795664278
477650000.0 0.9164987082 0.3552615778
487600000.0 0.8794742376 0.4245739621
497550000.0 0.8343484629 0.4858529453
507500000.0 0.7876333702 0.5390107642
517450000.0 0.7426250146 0.5878517841
527400000.0 0.7008044197 0.6365568921
537350000.0 0.6587543367 0.6874928674
547300000.0 0.6126345884 0.7413515793
557250000.0 0.5589852437 0.7937758171
567200000.0 0.495338686 0.840848344
577150000.0 0.4240072904 0.8762349612
587100000.0 0.3491094472 0.8990596119
597050000.0 0.2762471953 0.912577659
607000000.0 0.2079111536 0.9210029124
616950000.0 0.1444327847 0.9288399078
626900000.0 0.0820956958 0.9388348224
636850000.0 0.0166442593 0.9504272808
646800000.0 -0.0550120055 0.9588658843
656750000.0 -0.1307763246 0.9592539147
666700000.0 -0.2088036357 0.9476634632
676650000.0 -0.2841408903 0.9230103485
686600000.0 -0.3536257683 0.888039879
696550000.0 -0.4154244051 0.8492490467
706500000.0 -0.4708283543 0.8104521235
716450000.0 -0.5246295419 0.7762140579
726400000.0 -0.5795900893 0.7426839126
736350000.0 -0.6366633814 0.7070566139
746300000.0 -0.6944414797 0.6641560627
756250000.0 -0.7487429301 0.6118120756
766200000.0 -0.7948033723 0.5493058276
776150000.0 -0.8293526429 0.4802378222
786100000.0 -0.8548690827 0.4094048381
796050000.0 -0.8740950124 0.3415610493
806000000.0 -0.8920531777 0.2784225399
815950000.0 -0.9106664648 0.2164282035
825900000.0 -0.9320094277 0.152917904
835850000.0 -0.95139635 0.0854902722
845800000.0 -0.9639900315 0.0128631979
855750000.0 -0.9652855552 -0.0625325064
865700000.0 -0.9536134448 -0.1379344836
875650000.0 -0.9312367897 -0.2091637482
885600000.0 -0.902543632 -0.2751712641
895550000.0 -0.8731196874 -0.3368698112
905500000.0 -0.8458042572 -0.3970813856
915450000.0 -0.8194719156 -0.4588339981
925400000.0 -0.7912716107 -0.5242259131
935350000.0 -0.7568224218 -0.5899640284
945300000.0 -0.7130557951 -0.6522372363
955250000.0 -0.6589082647 -0.7066154645
965200000.0 -0.5977396073 -0.750311329
975150000.0 -0.5352096942 -0.7832041812
985100000.0 -0.4732656031 -0.810439727
995050000.0 -0.4137425952 -0.8362365991
1005000000.0 -0.355643535 -0.8639742752
1014950000.0 -0.2944455071 -0.8953254525
1024900000.0 -0.227931069 -0.926001945
1034850000.0 -0.1539366404 -0.9518321799
1044800000.0 -0.0752827059 -0.9651693298
1054750000.0 0.0042662489 -0.9649088626
1064700000.0 0.0784568816 -0.952552972
1074650000.0 0.1460977378 -0.932602418
1084600000.0 0.2076934819 -0.9115729248
1094550000.0 0.2669946752 -0.8930521617
1104500000.0 0.3277453156 -0.8770008687
1114450000.0 0.3935802994 -0.861395234
1124400000.0 0.4640008509 -0.8395054343
1134350000.0 0.5355887786 -0.807588273
1144300000.0 0.6017100098 -0.761773684
1154250000.0 0.6588258849 -0.7056202794
1164200000.0 0.7043725207 -0.6438255644
1174150000.0 0.741530294 -0.5825419033
1184100000.0 0.7740278978 -0.5249623275
1194050000.0 0.8075991685 -0.4704161475
1204000000.0 0.8442032587 -0.4165439143
1213950000.0 0.8832169553 -0.3589448785
1223900000.0 0.9192433471 -0.2949006924
1233850000.0 0.9467024489 -0.2227081971
1243800000.0 0.9615237087 -0.1470113277
1253750000.0 0.9621244196 -0.0708380826
1263700000.0 0.9534498653 0.0020312518
1273650000.0 0.9410541548 0.0704672235
1283600000.0 0.9290466717 0.135852349
1293550000.0 0.9194258658 0.201466181
1303500000.0 0.9108866322 0.2701081106
1313450000.0 0.8991671792 0.3431529768
1323400000.0 0.8794336069 0.4166710215
1333350000.0 0.8464797005 0.4883007428
1343300000.0 0.8024632438 0.5513464275
1353250000.0 0.7512353103 0.6048260464
1363200000.0 0.6982187502 0.6494547948
1373150000.0 0.6460065258 0.6909878043
1383100000.0 0.595992104 0.7326951788
1393050000.0 0.545681739 0.7791154439
1403000000.0 0.490826587 0.8268159017
1412950000.0 0.4290999934 0.8732210606
1422900000.0 0.3610469093 0.9124127404
1432850000.0 0.2863449645 0.9388232285
1442800000.0 0.2112605532 0.9517583683
1452750000.0 0.1396635896 0.9537011093
1462700000.0 0.0728580948 0.9516127711
1472650000.0 0.008536787 0.9499241067
1482600000.0 -0.0569482505 0.9516380058
1492550000.0 -0.1267509166 0.9532734152
1502500000.0 -0.2020482635 0.952043589
1512450000.0 -0.2813466023 0.9427110317
1522400000.0 -0.3597166489 0.9205790656
1532350000.0 -0.4323729685 0.8850475749
1542300000.0 -0.4952192519 0.8399621224
1552250000.0 -0.5485600946 0.7912680434
1562200000.0 -0.5962537548 0.7450376985
1572150000.0 -0.6451305045 0.7024631191
1582100000.0 -0.6969185682 0.6604324449
1592050000.0 -0.7520319896 0.615527529
1602000000.0 -0.8060941398 0.5653358033
1611950000.0 -0.8555443452 0.5046127412
1621900000.0 -0.894505808 0.4345999047
1631850000.0 -0.9181831796 0.3610835099
1641800000.0 -0.9307691705 0.2872072128
1651750000.0 -0.9376124451 0.2167914773
1661700000.0 -0.9440144271 0.1481129724
1671650000.0 -0.9531930913 0.0803700837
1681600000.0 -0.965340036 0.0096528847
1691550000.0 -0.9765258795 -0.0662304663
1701500000.0 -0.9804878261 -0.1449722548
1711450000.0 -0.9726220746 -0.2260146977
1721400000.0 -0.9493409678 -0.3011698694
1731350000.0 -0.9152802441 -0.3672613389
1741300000.0 -0.8747561409 -0.4263689397
1751250000.0 -0.8334862955 -0.4796566522
1761200000.0 -0.794602201 -0.5334384761
1771150000.0 -0.7574546065 -0.5905920617
1781100000.0 -0.7188499915 -0.6532814888
1791050000.0 -0.6737527661 -0.7180127746
1801000000.0 -0.6201331618 -0.7803701041
1810950000.0 -0.5567734163 -0.8322606107
1820900000.0 -0.4886122565 -0.8695375793
1830850000.0 -0.4193398731 -0.8921194461
1840800000.0 -0.3535169341 -0.9067921487
1850750000.0 -0.2909255386 -0.9188711587
1860700000.0 -0.2282738512 -0.9345778848
1870650000.0 -0.1605202306 -0.9541032092
1880600000.0 -0.0861112164 -0.9752652426
1890550000.0 -0.0028818669 -0.9924888352
1900500000.0 0.0831332743 -0.9981715905
1910450000.0 0.1684699662 -0.9905198876
1920400000.0 0.2456073753 -0.9680327714
1930350000.0 0.3117805354 -0.9372010518
1940300000.0 0.3690617584 -0.9038103871
1950250000.0 0.4228387542 -0.8730103449
1960200000.0 0.4799811793 -0.8443411792
1970150000.0 0.54359147 -0.8155258456
1980100000.0 0.6129931666 -0.7799571036
1990050000.0 0.6824484603 -0.7348416811
2000000000.0 0.7461270824 -0.6797707162
