!Created with skrf (http://scikit-rf.org).
# GHz S RI R 50.0 
!freq ReS11 ImS11
10000000.0 -0.8087554613 0.6064149431
19950000.0 -0.2918065832 0.9466678866
29900000.0 0.3232288512 0.9200957389
39850000.0 0.8122788215 0.5351311387
49800000.0 0.9818292119 -0.0774282279
59750000.0 0.7371786144 -0.683510159
69700000.0 0.1483519394 -1.008759977
79650000.0 -0.5280188403 -0.8664305977
89600000.0 -0.9477026494 -0.293117102
99550000.0 -0.8657694255 0.4344830129
109500000.0 -0.2826710358 0.9197737745
119450000.0 0.505089247 0.8379757711
129400000.0 0.9668910685 0.1830474975
139350000.0 0.7768495484 -0.6452554675
149300000.0 0.0117885761 -0.9876999377
159250000.0 -0.7180415836 -0.6303895768
169200000.0 -0.9330586411 0.1186316165
179150000.0 -0.5618828719 0.7667973206
189100000.0 0.1300549886 0.9624396622
199050000.0 0.7449091128 0.6398655139
209000000.0 0.9739836881 0.0062965206
218950000.0 0.742673539 -0.5967437398
228900000.0 0.1966543745 -0.9091993386
238850000.0 -0.4185021094 -0.8163538392
248800000.0 -0.7083897258 -0.4742546664
258750000.0 -0.9169878137 0.1850967828
268700000.0 -0.6226056897 0.7175953228
278650000.0 -0.0667156483 0.9461473434
288600000.0 0.5039117827 0.7762298977
298550000.0 0.8395733893 0.2913911954
308500000.0 0.7995738093 -0.2929726765
318450000.0 0.4033486151 -0.7179300292
328400000.0 -0.1669123108 -0.78565621
338350000.0 -0.6259780569 -0.461000405
348300000.0 -0.7255699637 0.0681109506
358250000.0 -0.4385949689 0.4803014495
368200000.0 0.0103961192 0.5511012088
378150000.0 0.3290849358 0.3072845672
388100000.0 0.3640852177 -0.0362211917
398050000.0 0.173138791 -0.2538434688
408000000.0 -0.0648911569 -0.2548919172
417950000.0 -0.1934628856 -0.1070634232
427900000.0 -0.1707225356 0.0543167665
437850000.0 -0.0548191998 0.1313122176
447800000.0 0.0608963336 0.1031691573
457750000.0 0.1124376976 0.0149948577
467700000.0 0.0876958594 -0.0672324544
477650000.0 0.0227090629 -0.0959660231
487600000.0 -0.0254211406 -0.0605555225
497550000.0 -0.0631631081 -0.0756850385
507500000.0 -0.0458062896 0.0018027596
517450000.0 -0.0093061227 0.0158621546
527400000.0 0.010462155 -0.0016378748
537350000.0 -0.0006281812 -0.0241545786
547300000.0 -0.0405989582 -0.0246783242
557250000.0 -0.0683499088 0.0163273097
567200000.0 -0.060696255 0.0733567563
577150000.0 -0.0106602494 0.1167456885
587100000.0 0.065138511 0.1165017509
597050000.0 0.1306159269 0.0597477455
607000000.0 0.1492252244 -0.0342190028
616950000.0 0.1025668466 -0.127534085
626900000.0 0.0066677435 -0.1766055361
636850000.0 -0.1037381362 -0.1584344725
646800000.0 -0.1788825851 -0.0772445946
656750000.0 -0.188922847 0.0327190024
666700000.0 -0.1280088988 0.1234443937
676650000.0 -0.0244250935 0.1541139023
686600000.0 0.0745891995 0.1136020987
696550000.0 0.1230058839 0.0211326522
706500000.0 0.1025412349 -0.075162397
716450000.0 0.0292089842 -0.1260180004
726400000.0 -0.0525925966 -0.1101640856
736350000.0 -0.0901853855 -0.0388769551
746300000.0 -0.0581999856 0.0403750192
756250000.0 0.0303532448 0.0734529325
766200000.0 0.124863875 0.0302270974
776150000.0 0.1657516239 -0.0766187228
786100000.0 0.1156955811 -0.1916948773
796050000.0 -0.0145677349 -0.2458574991
806000000.0 -0.1665267959 -0.1898408172
815950000.0 -0.2566398984 -0.029604904
825900000.0 -0.2231221069 0.1705617958
835850000.0 -0.0625230929 0.318819388
845800000.0 0.166634613 0.3389428636
855750000.0 0.3677006574 0.2095031597
865700000.0 0.4482375918 -0.0266535876
875650000.0 0.3629570784 -0.2681456018
885600000.0 0.1355658856 -0.4140399773
895550000.0 -0.145360673 -0.3882827094
905500000.0 -0.3607358317 -0.1862684541
915450000.0 -0.4050234198 0.1127454303
925400000.0 -0.2482488706 0.3739768939
935350000.0 0.0416759176 0.469525424
945300000.0 0.3225807927 0.3419190058
955250000.0 0.4337707355 0.042292493
965200000.0 0.2948161338 -0.2510484693
975150000.0 -0.028172953 -0.3694409207
985100000.0 -0.3656504087 -0.1891346013
995050000.0 -0.4373599529 0.2234290478
1005000000.0 -0.1273790771 0.5598832157
1014950000.0 0.3764807086 0.5107167894
1024900000.0 0.677853448 0.0334023838
1034850000.0 0.4731919151 -0.5576158238
1044800000.0 -0.1676166111 -0.7741074946
1054750000.0 -0.7154072344 -0.371312647
1064700000.0 -0.8134748225 0.1763547715
1074650000.0 -0.4833601302 0.7203593902
1084600000.0 0.1158796081 0.8231695681
1094550000.0 0.6317051452 0.5054674572
1104500000.0 0.768373171 -0.0970551634
1114450000.0 0.4242041691 -0.6099718654
1124400000.0 -0.1663009562 -0.6912361905
1134350000.0 -0.5851544018 -0.3295240268
1144300000.0 -0.6024586386 0.1747727899
1154250000.0 -0.2834880262 0.5110586566
1164200000.0 0.1497754331 0.5242080671
1174150000.0 0.4615480866 0.2453817243
1184100000.0 0.485349342 -0.1732056171
1194050000.0 0.2065207136 -0.4766935827
1204000000.0 -0.1880092218 -0.4973350044
1213950000.0 -0.4828545112 -0.2649410614
1223900000.0 -0.5644577785 0.0869239583
1233850000.0 -0.4211686533 0.4103233347
1243800000.0 -0.1112899288 0.5873081532
1253750000.0 0.2527278206 0.5425022978
1263700000.0 0.5239008527 0.2796198301
1273650000.0 0.582346321 -0.0986270165
1283600000.0 0.4091296887 -0.4342599127
1293550000.0 0.0877454338 -0.6074081144
1303500000.0 -0.2624005856 -0.5807813935
1313450000.0 -0.538517822 -0.3799205194
1323400000.0 -0.6708093508 -0.066011693
1333350000.0 -0.6174660521 0.2780230363
1343300000.0 -0.3760302374 0.5477620554
1353250000.0 -0.0104655082 0.6383973186
1363200000.0 0.3506926379 0.500871433
1373150000.0 0.5704509904 0.1847098936
1383100000.0 0.5802238063 -0.1874015459
1393050000.0 0.4000383413 -0.4927512746
1403000000.0 0.1019839841 -0.6522487933
1412950000.0 -0.2243021237 -0.6328994476
1422900000.0 -0.4879315131 -0.447318701
1432850000.0 -0.612234684 -0.1475153239
1442800000.0 -0.5564141087 0.1792529856
1452750000.0 -0.3280780042 0.4313983777
1462700000.0 0.0076274983 0.5201192135
1472650000.0 0.334631067 0.4093492278
1482600000.0 0.5387279554 0.1446027389
1492550000.0 0.5611397739 -0.1750300585
1502500000.0 0.4080685609 -0.4423890912
1512450000.0 0.1360185471 -0.5740263336
1522400000.0 -0.1630557521 -0.5241476848
1532350000.0 -0.3796012181 -0.3032168071
1542300000.0 -0.4245945413 0.0083213855
1552250000.0 -0.2752865029 0.2835829751
1562200000.0 -0.0009566019 0.4104605676
1572150000.0 0.2818740245 0.350566324
1582100000.0 0.4615090709 0.1394169664
1592050000.0 0.4710518095 -0.1298927756
1602000000.0 0.3117614439 -0.3470693196
1611950000.0 0.04535523 -0.4230158485
1621900000.0 -0.2219042812 -0.3174570294
1631850000.0 -0.3742060703 -0.0622535105
1641800000.0 -0.3371468966 0.2377630741
1651750000.0 -0.122521515 0.4494695632
1661700000.0 0.1723853629 0.4824767122
1671650000.0 0.4236568309 0.3325286396
1681600000.0 0.5387869182 0.0635560711
1691550000.0 0.4785357076 -0.2286244338
1701500000.0 0.2561419928 -0.4407276095
1711450000.0 -0.051386548 -0.4841892895
1721400000.0 -0.3147598063 -0.3629397934
1731350000.0 -0.5125017159 -0.1214131352
1741300000.0 -0.5250236623 0.2231368137
1751250000.0 -0.3297756882 0.5028574567
1761200000.0 -0.0207929562 0.6184843973
1771150000.0 0.2928946897 0.5507503207
1781100000.0 0.5229829119 0.3336230611
1791050000.0 0.6114870636 0.0279388135
1801000000.0 0.5281073615 -0.2879111372
1810950000.0 0.2812466162 -0.5201346725
1820900000.0 -0.0616997185 -0.5783709132
1830850000.0 -0.3811690601 -0.4311461443
1840800000.0 -0.557685677 -0.1368175155
1850750000.0 -0.5466242005 0.1889348734
1860700000.0 -0.3792901862 0.4438547503
1870650000.0 -0.1232463435 0.5728280666
1880600000.0 0.1500008358 0.5585585996
1890550000.0 0.3739656892 0.4124094168
1900500000.0 0.4893622084 0.169985725
1910450000.0 0.4557568276 -0.0979320828
1920400000.0 0.2801859668 -0.3005041076
1930350000.0 0.0315806167 -0.3671768587
1940300000.0 -0.1930987007 -0.2904027576
1950250000.0 -0.3254358703 -0.1273042804
1960200000.0 -0.3471013855 0.0503434824
1970150000.0 -0.2832344913 0.1828390885
1980100000.0 -0.1823695411 0.2387829656
1990050000.0 -0.1007085177 0.2219785614
2000000000.0 -0.0797853033 0.1765155196
