!Created with skrf (http://scikit-rf.org).
# GHz S RI R 50.0 
!freq ReS11 ImS11
10000000.0 -0.9722811835 0.0662890218
14975000.0 -0.9698131696 0.099845238
19950000.0 -0.9662555181 0.1342549578
24925000.0 -0.9612714228 0.1699138002
29900000.0 -0.955029116 0.2064447137
34875000.0 -0.9462420654 0.2447557747
39850000.0 -0.9350667179 0.2848155854
44825000.0 -0.9213260751 0.3267920844
49800000.0 -0.9050511864 0.3708611213
54775000.0 -0.8853982566 0.4168634564
59750000.0 -0.8620346137 0.4650730715
64725000.0 -0.8343623114 0.5151353343
69700000.0 -0.8013248945 0.5670111689
74675000.0 -0.7618364067 0.6204845991
79650000.0 -0.7149615363 0.6751594957
84625000.0 -0.659714945 0.7304683792
89600000.0 -0.5948189717 0.7855384605
94575000.0 -0.5193590285 0.838925929
99550000.0 -0.4322053345 0.8887918481
104525000.0 -0.3324989551 0.9325498076
109500000.0 -0.2200523106 0.9667945146
114475000.0 -0.095176177 0.987728128
119450000.0 0.0397891289 0.9920494749
124425000.0 0.1816084184 0.9763194664
129400000.0 0.3119173616 0.913477563
134375000.0 0.4624052139 0.8783606477
139350000.0 0.5933685715 0.7944163306
144325000.0 0.7092747649 0.6904280183
149300000.0 0.8060467069 0.570442738
154275000.0 0.881051747 0.4399544575
159250000.0 0.9336910212 0.3044110084
164225000.0 0.9643741543 0.1692838895
169200000.0 0.9755423965 0.0385778417
174175000.0 0.969492619 -0.0846150551
179150000.0 0.9497728024 -0.1978134497
184125000.0 0.9198426529 -0.300079633
189100000.0 0.8827501656 -0.3914171085
194075000.0 0.8408982125 -0.4721747592
199050000.0 0.7961040097 -0.5431897083
204025000.0 0.7492784924 -0.6053141891
209000000.0 0.7001309508 -0.6574947979
213975000.0 0.6515753302 -0.7052226602
218950000.0 0.6028149351 -0.7467929239
223925000.0 0.5538640433 -0.7831791721
228900000.0 0.5048507944 -0.8150479004
233875000.0 0.4554534664 -0.8426911961
238850000.0 0.4044764046 -0.8669828231
243825000.0 0.3467334655 -0.8886392871
248800000.0 0.2874067938 -0.7276255451
253775000.0 0.291101995 -0.9046335426
258750000.0 0.2358090565 -0.9201898541
263725000.0 0.1861899741 -0.9298033571
268700000.0 0.1380599294 -0.9358860777
273675000.0 0.0902972345 -0.9387802226
278650000.0 0.042337527 -0.9384264976
283625000.0 -0.0057658384 -0.934896749
288600000.0 -0.0544657301 -0.9283836488
293575000.0 -0.104101682 -0.9182090546
298550000.0 -0.1548416147 -0.9040478492
303525000.0 -0.2062016082 -0.8851823361
308500000.0 -0.2582498002 -0.8612952505
313475000.0 -0.3100940271 -0.831279438
318450000.0 -0.3611915955 -0.7946675242
323425000.0 -0.4105970464 -0.7509022515
328400000.0 -0.4569190706 -0.7007284461
333375000.0 -0.4988976509 -0.6431572988
338350000.0 -0.5355763777 -0.5790299704
343325000.0 -0.565104575 -0.5093390117
348300000.0 -0.5848210901 -0.4349253925
353275000.0 -0.5952514739 -0.3571998781
358250000.0 -0.5947094023 -0.278776272
363225000.0 -0.5825337851 -0.2012086387
368200000.0 -0.5603121314 -0.1263811474
373175000.0 -0.529023333 -0.0578283616
378150000.0 -0.4898738513 0.0025789946
383125000.0 -0.4448320636 0.0555169434
388100000.0 -0.3965114523 0.0996475358
393075000.0 -0.3454982082 0.1344290029
398050000.0 -0.2940706797 0.160933225
403025000.0 -0.2445835757 0.179580066
408000000.0 -0.1970362413 0.1905706893
412975000.0 -0.1515355194 0.1950761439
417950000.0 -0.1101896948 0.1946955179
422925000.0 -0.0734130604 0.1900001999
427900000.0 -0.0404892725 0.1817706808
432875000.0 -0.0118838624 0.1706475672
437850000.0 0.0118884487 0.1570217425
442825000.0 0.0317469291 0.1421736074
447800000.0 0.0477574517 0.127262968
452775000.0 0.0598541749 0.111817909
457750000.0 0.068126769 0.0964320192
462725000.0 0.0732138497 0.0822089978
467700000.0 0.0752077996 0.0686435733
472675000.0 0.0744903784 0.0556771903
477650000.0 0.0704664192 0.0441129607
482625000.0 0.0638261994 0.0336869198
487600000.0 0.0541174876 0.0255525236
492575000.0 0.0366858223 0.024073903
497550000.0 0.0687905381 0.0735006022
502525000.0 0.0606461337 0.0065900711
507500000.0 0.0415010638 -0.0007708102
512475000.0 0.0269078229 -0.0043469754
517450000.0 0.0136306198 -0.0064487115
522425000.0 0.0008591146 -0.0067634452
527400000.0 -0.0112697625 -0.0062981562
532375000.0 -0.0229454693 -0.0048123921
537350000.0 -0.0348848022 -0.0020522752
542325000.0 -0.0464622897 0.001780787
547300000.0 -0.0574264472 0.0069720349
552275000.0 -0.0679093934 0.0129154725
557250000.0 -0.0778549312 0.0193783037
562225000.0 -0.0869896547 0.0268095729
567200000.0 -0.0956434029 0.0355316424
572175000.0 -0.1039605467 0.0436842201
577150000.0 -0.1112381257 0.0522038377
582125000.0 -0.1174750553 0.0609518105
587100000.0 -0.1227482802 0.0696584784
592075000.0 -0.1272995222 0.0782044839
597050000.0 -0.1307860197 0.0871104698
602025000.0 -0.1332734589 0.0957690731
607000000.0 -0.134782773 0.1041009873
611975000.0 -0.1351789751 0.11229442
616950000.0 -0.1347259418 0.1200951105
621925000.0 -0.1329692694 0.1275698942
626900000.0 -0.1302258555 0.1348243658
631875000.0 -0.1267841958 0.1414714045
636850000.0 -0.1227143313 0.1475045798
641825000.0 -0.1174585684 0.152932712
646800000.0 -0.1112122975 0.1576915612
651775000.0 -0.1047053969 0.1616199668
656750000.0 -0.097551282 0.164810811
661725000.0 -0.0892924296 0.1667092592
666700000.0 -0.0803161054 0.1680879384
671675000.0 -0.0712130146 0.1686504465
676650000.0 -0.0616276275 0.1681285701
681625000.0 -0.0510422321 0.1666214155
686600000.0 -0.0400948741 0.163817324
691575000.0 -0.0288296754 0.1595966711
696550000.0 -0.0166341596 0.1545636301
701525000.0 -0.0039396167 0.1486731137
706500000.0 0.0085271472 0.1411714938
711475000.0 0.0210337793 0.1325347385
716450000.0 0.0337955433 0.1226965701
721425000.0 0.0466116331 0.1115170353
726400000.0 0.0592149472 0.0988555571
731375000.0 0.0714124566 0.0848240957
736350000.0 0.0831932011 0.0700633505
741325000.0 0.0943089594 0.0537538534
746300000.0 0.1043932056 0.0362009549
751275000.0 0.1137826519 0.0173420677
756250000.0 0.1224081346 -0.0022924467
761225000.0 0.1295072582 -0.0228654167
766200000.0 0.1356101051 -0.0441457613
771175000.0 0.1404080471 -0.0665597744
776150000.0 0.1439986384 -0.0893340026
781125000.0 0.1462638761 -0.1123237796
786100000.0 0.1471032335 -0.1352427849
791075000.0 0.1460002526 -0.158632687
796050000.0 0.1433618529 -0.1816349257
801025000.0 0.1396608542 -0.2043317337
806000000.0 0.1342474851 -0.226729011
810975000.0 0.1272361781 -0.2485935393
815950000.0 0.1190967567 -0.2688280631
820925000.0 0.1093731144 -0.2883892935
825900000.0 0.0979116736 -0.3071852693
830875000.0 0.0852542671 -0.3252505215
835850000.0 0.0718167474 -0.3416517466
840825000.0 0.0574403411 -0.3565672479
845800000.0 0.0418252698 -0.3707855851
850775000.0 0.0250600366 -0.3836008474
855750000.0 0.0076573095 -0.3945954133
860725000.0 -0.0103387982 -0.4043421685
865700000.0 -0.0293198296 -0.4128188642
870675000.0 -0.0493310756 -0.4193760039
875650000.0 -0.070558544 -0.4243535745
880625000.0 -0.0920180875 -0.427439051
885600000.0 -0.1141208342 -0.4283895187
890575000.0 -0.1371528888 -0.4267775427
895550000.0 -0.160787016 -0.4223726601
900525000.0 -0.1850181554 -0.4158015413
905500000.0 -0.2097602705 -0.4063638778
910475000.0 -0.2350330011 -0.3938075434
915450000.0 -0.2603058333 -0.3778525997
920425000.0 -0.2855857566 -0.358226923
925400000.0 -0.3105829196 -0.3345258883
930375000.0 -0.3352948387 -0.3065267914
935350000.0 -0.3589962595 -0.2745953565
940325000.0 -0.3813611385 -0.2374446968
945300000.0 -0.401128382 -0.1951603708
950275000.0 -0.4182796801 -0.147386109
955250000.0 -0.4317514852 -0.0934993574
960225000.0 -0.4400914571 -0.0340329197
965200000.0 -0.4420464515 0.0311523745
970175000.0 -0.4361345744 0.1020083494
975150000.0 -0.4197849321 0.1774036641
980125000.0 -0.3922307066 0.2558753475
985100000.0 -0.3508508295 0.3355124237
990075000.0 -0.2946851887 0.4119769211
995050000.0 -0.2245847762 0.4824171401
1000025000.0 -0.1414599234 0.5441996743
1005000000.0 -0.0458156877 0.5950047631
1009975000.0 0.0612609041 0.6310693532
1014950000.0 0.1762218274 0.6480484161
1019925000.0 0.2946893516 0.6449551925
1024900000.0 0.4120664105 0.6210801952
1029875000.0 0.5239097941 0.5774276385
1034850000.0 0.6260129149 0.5151654641
1039825000.0 0.7148963697 0.4371117974
1044800000.0 0.7887331284 0.3461867112
1049775000.0 0.8457300256 0.245265787
1054750000.0 0.8837942678 0.1370895769
1059725000.0 0.8989922393 0.0257442832
1064700000.0 0.893327907 -0.070659521
1069675000.0 0.891911858 -0.1633558165
1074650000.0 0.8741670724 -0.2654614942
1079625000.0 0.8345924252 -0.3624866432
1084600000.0 0.7810488163 -0.4405517988
1089575000.0 0.7328619846 -0.5182944035
1094550000.0 0.6630892966 -0.5956275239
1099525000.0 0.5792885807 -0.6584322099
1104500000.0 0.4870748131 -0.7054472354
1109475000.0 0.3896186641 -0.7365023732
1114450000.0 0.2909327006 -0.750564719
1119425000.0 0.1966327813 -0.7490752793
1124400000.0 0.1118291294 -0.7373642837
1129375000.0 0.034079821 -0.7240697387
1134350000.0 -0.0475442519 -0.7110787303
1139325000.0 -0.1362084751 -0.687779814
1144300000.0 -0.2225729353 -0.6471323315
1149275000.0 -0.3003528689 -0.5939934161
1154250000.0 -0.3672378473 -0.5317201595
1159225000.0 -0.422460384 -0.4645370404
1164200000.0 -0.4664347081 -0.3951410107
1169175000.0 -0.5010863561 -0.3269958355
1174150000.0 -0.5289601702 -0.2611274135
1179125000.0 -0.5506574698 -0.1951835523
1184100000.0 -0.5654741023 -0.1312650446
1189075000.0 -0.5743295726 -0.069999492
1194050000.0 -0.5780213929 -0.0121298545
1199025000.0 -0.5774623185 0.0417344712
1204000000.0 -0.5728264285 0.091740338
1208975000.0 -0.5662136158 0.1372400623
1213950000.0 -0.557348474 0.1798541315
1218925000.0 -0.5471473318 0.2184875944
1223900000.0 -0.5362890068 0.2537362459
1228875000.0 -0.5252749036 0.2858880025
1233850000.0 -0.5143472699 0.315189197
1238825000.0 -0.5034301039 0.3420086638
1243800000.0 -0.4921629551 0.3669883565
1248775000.0 -0.4818953095 0.3897878426
1253750000.0 -0.4722041804 0.4104238522
1258725000.0 -0.4622563851 0.4304604659
1263700000.0 -0.4529888193 0.4475328571
1268675000.0 -0.445167839 0.4636789998
1273650000.0 -0.4375500127 0.4786675851
1278625000.0 -0.4299565626 0.4916396751
1283600000.0 -0.4229490906 0.5030161261
1288575000.0 -0.4169210843 0.5131538199
1293550000.0 -0.4110245268 0.5225710168
1298525000.0 -0.404636691 0.5312570956
1303500000.0 -0.3995594723 0.5380464406
1308475000.0 -0.3951074795 0.5447540976
1313450000.0 -0.3904285054 0.5507491329
1318425000.0 -0.3867492385 0.5560642282
1323400000.0 -0.3834156961 0.5604388416
1328375000.0 -0.3808342419 0.564949748
1333350000.0 -0.3780867921 0.569338178
1338325000.0 -0.3762183308 0.5733924239
1343300000.0 -0.3741137304 0.5779804722
1348275000.0 -0.3722135614 0.5824785301
1353250000.0 -0.3699524585 0.5871121699
1358225000.0 -0.3673262933 0.5914272989
1363200000.0 -0.3642157651 0.5951913974
1368175000.0 -0.3608152577 0.5987104493
1373150000.0 -0.3570797251 0.6021100532
1378125000.0 -0.3526448337 0.6051923199
1383100000.0 -0.3483738157 0.6070388033
1388075000.0 -0.3435096879 0.6093454961
1393050000.0 -0.3387306261 0.61038854
1398025000.0 -0.333098642 0.6112181233
1403000000.0 -0.3273082866 0.6117622998
1407975000.0 -0.3218081293 0.6116640265
1412950000.0 -0.3160558879 0.6109012806
1417925000.0 -0.3097132885 0.6100228176
1422900000.0 -0.3040739883 0.6084839176
1427875000.0 -0.2992825957 0.6070329762
1432850000.0 -0.2942331637 0.6051752808
1437825000.0 -0.2892086526 0.6040902789
1442800000.0 -0.2842711856 0.6025232689
1447775000.0 -0.2792493549 0.6019018902
1452750000.0 -0.2720292913 0.6019919529
1457725000.0 -0.2645168492 0.6019120171
1462700000.0 -0.2556232691 0.6011831853
1467675000.0 -0.2454090774 0.6014349928
1472650000.0 -0.2338682388 0.6017619615
1477625000.0 -0.221740915 0.6006951421
1482600000.0 -0.2084014422 0.5997656518
1487575000.0 -0.1939094657 0.5989708376
1492550000.0 -0.1796125416 0.5968449002
1497525000.0 -0.1626223991 0.5938058747
1502500000.0 -0.1456664315 0.5917294488
1507475000.0 -0.1278402968 0.5880607181
1512450000.0 -0.1096278721 0.5848772325
1517425000.0 -0.0911411958 0.5811259666
1522400000.0 -0.0717211719 0.5754463808
1527375000.0 -0.0528310513 0.5697601528
1532350000.0 -0.033502719 0.5635596985
1537325000.0 -0.0127224288 0.5558102377
1542300000.0 0.0079167078 0.5470188878
1547275000.0 0.027957745 0.53755848
1552250000.0 0.0492407024 0.5267134448
1557225000.0 0.0705761951 0.5158905126
1562200000.0 0.0892941773 0.5024036813
1567175000.0 0.1088398602 0.4909533452
1572150000.0 0.128340645 0.4798698688
1577125000.0 0.1490650037 0.4669395872
1582100000.0 0.1698240674 0.4536701802
1587075000.0 0.1906202693 0.4412012564
1592050000.0 0.2120206237 0.42746199
1597025000.0 0.2337097812 0.4120810282
1602000000.0 0.2545951998 0.397788742
1606975000.0 0.2755392011 0.3828869783
1611950000.0 0.2974623447 0.3677815402
1616925000.0 0.3187311228 0.351930924
1621900000.0 0.3387630213 0.3360906143
1626875000.0 0.3593480932 0.3197297531
1631850000.0 0.37984258 0.3032409445
1636825000.0 0.3992110908 0.2858870524
1641800000.0 0.4171130731 0.2696306389
1646775000.0 0.4347372046 0.2524141121
1651750000.0 0.452463096 0.235680152
1656725000.0 0.4682516595 0.2191211638
1661700000.0 0.4827325621 0.202521651
1666675000.0 0.497133227 0.1871887109
1671650000.0 0.5101069942 0.1713732592
1676625000.0 0.5225584577 0.1553746313
1681600000.0 0.5333487599 0.1413410958
1686575000.0 0.5429534434 0.1270954216
1691550000.0 0.5526059819 0.112570167
1696525000.0 0.5610549723 0.0990501372
1701500000.0 0.5682289104 0.0865582935
1706475000.0 0.5753017176 0.0742741799
1711450000.0 0.5820597277 0.0623589619
1716425000.0 0.5874170595 0.0511214294
1721400000.0 0.5916974921 0.0407205738
1726375000.0 0.5970693656 0.0304861873
1731350000.0 0.6019113987 0.0203125919
1736325000.0 0.6049606732 0.0103705601
1741300000.0 0.6077044474 1.73973e-05
1746275000.0 0.6100343162 -0.0112707421
1751250000.0 0.6074222393 -0.0236754445
1756225000.0 0.5946920083 -0.0358068966
1761200000.0 0.565892264 -0.0342762839
1766175000.0 0.5519113648 0.0135608981
1771150000.0 0.5996576319 0.0440424697
1776125000.0 0.6299850262 0.0308115015
1781100000.0 0.6423050137 0.0166773809
1786075000.0 0.6490495133 0.0060137328
1791050000.0 0.6518268868 -0.0016076348
1796025000.0 0.6538179277 -0.0069722715
1801000000.0 0.655071079 -0.0107719682
1805975000.0 0.6549713332 -0.0130718301
1810950000.0 0.6549531393 -0.014700582
1815925000.0 0.654668103 -0.0152123844
1820900000.0 0.6537691323 -0.014338439
1825875000.0 0.653590142 -0.0140187519
1830850000.0 0.6524955913 -0.0124314549
1835825000.0 0.6515727944 -0.010768896
1840800000.0 0.6501878955 -0.0093746241
1845775000.0 0.648157059 -0.0071325637
1850750000.0 0.6454523637 -0.0054291271
1855725000.0 0.6420534997 -0.0039038172
1860700000.0 0.6378353261 -0.001953755
1865675000.0 0.632355106 -0.0005065842
1870650000.0 0.6267721535 0.0012069338
1875625000.0 0.6204987386 0.0022392097
1880600000.0 0.6121105548 0.0036459572
1885575000.0 0.6042791357 0.0051326435
1890550000.0 0.5953135235 0.0057544168
1895525000.0 0.584844959 0.0072741691
1900500000.0 0.5747757207 0.0086469434
1905475000.0 0.5635771322 0.0095108041
1910450000.0 0.5513502301 0.0115600152
1915425000.0 0.5393107613 0.0135465779
1920400000.0 0.5261974818 0.0154811362
1925375000.0 0.5129301121 0.0184230455
1930350000.0 0.4987762861 0.0207014592
1935325000.0 0.4835523143 0.0230198374
1940300000.0 0.4672403253 0.0256810805
1945275000.0 0.4499310111 0.0273696236
1950250000.0 0.4305303562 0.0297870946
1955225000.0 0.4107441616 0.0329494682
1960200000.0 0.3888296691 0.0343867217
1965175000.0 0.3649092555 0.0380646792
1970150000.0 0.3409098843 0.0409239853
1975125000.0 0.3133861892 0.0434510175
1980100000.0 0.2853409743 0.0478733609
1985075000.0 0.2558711038 0.051324388
1990050000.0 0.2228113594 0.0552366602
1995025000.0 0.1895666093 0.0615172661
2000000000.0 0.1533414995 0.0668198877
