!Created with skrf (http://scikit-rf.org).
# GHz S RI R 50.0 
!freq ReS11 ImS11
10000000.0 -0.8914628209 0.4473978828
19950000.0 -0.6014634893 0.7863426446
29900000.0 -0.1921024369 0.9669988466
39850000.0 0.262202768 0.9497475048
49800000.0 0.6698836479 0.7249526791
59750000.0 0.9358053069 0.3247513484
69700000.0 0.9795365128 -0.1707206221
79650000.0 0.7638736255 -0.6396288177
89600000.0 0.320697864 -0.9416202237
99550000.0 -0.2378212619 -0.9595949308
109500000.0 -0.7330331579 -0.650533382
119450000.0 -0.968559273 -0.0872378463
129400000.0 -0.8034378299 0.5345599285
139350000.0 -0.2858725052 0.9271780399
149300000.0 0.3822779268 0.8952312455
159250000.0 0.8663934431 0.4473291705
169200000.0 0.9542560716 -0.1803232193
179150000.0 0.6600326816 -0.7015603088
189100000.0 0.1511112789 -0.9417935022
199050000.0 -0.3752745138 -0.8692724546
209000000.0 -0.7692512034 -0.546546033
218950000.0 -0.9387592891 -0.0890777201
228900000.0 -0.8639045744 0.3826680451
238850000.0 -0.5708401932 0.7548878731
248800000.0 -0.1982062131 0.7389213208
258750000.0 0.2765198989 0.9004380663
268700000.0 0.6603441971 0.6601525045
278650000.0 0.8792128503 0.2749197657
288600000.0 0.8907542711 -0.1631559767
298550000.0 0.6950454296 -0.5522383254
308500000.0 0.3367205686 -0.7983159549
318450000.0 -0.0963722722 -0.8350394851
328400000.0 -0.4854110169 -0.645688359
338350000.0 -0.710370848 -0.283025408
348300000.0 -0.6961901785 0.1302153381
358250000.0 -0.4604404888 0.4419135505
368200000.0 -0.1171266723 0.5447552562
378150000.0 0.1817640648 0.4354028412
388100000.0 0.3312233274 0.2043630765
398050000.0 0.3139634147 -0.0290718224
408000000.0 0.1835161798 -0.1747464865
417950000.0 0.0240750433 -0.2054719442
427900000.0 -0.0968584098 -0.1442697675
437850000.0 -0.1452682412 -0.0423043501
447800000.0 -0.125371877 0.0509661705
457750000.0 -0.0637547222 0.1031790555
467700000.0 0.0041162279 0.1063338163
477650000.0 0.0508384499 0.0728699896
487600000.0 0.0595741749 0.0257205492
497550000.0 0.0859770743 0.046566302
507500000.0 0.0420621377 -0.0318537112
517450000.0 0.0066596038 -0.0293800069
527400000.0 -0.0101834328 -0.0080811242
537350000.0 -0.004784507 0.015982635
547300000.0 0.023690945 0.0296647249
557250000.0 0.0570091164 0.0138446331
567200000.0 0.0777515093 -0.0234122242
577150000.0 0.0752000573 -0.0731397482
587100000.0 0.0441019854 -0.1211176269
597050000.0 -0.0119744242 -0.1501136753
607000000.0 -0.0800934203 -0.1484552966
616950000.0 -0.1427321354 -0.1118907204
626900000.0 -0.1816610335 -0.0467109612
636850000.0 -0.1848379172 0.0320955324
646800000.0 -0.1486437078 0.1051468312
656750000.0 -0.0807434301 0.1532571545
666700000.0 0.0032457014 0.1636161932
676650000.0 0.0817773124 0.132998714
686600000.0 0.1349835479 0.0696714905
696550000.0 0.1499575614 -0.0089874906
706500000.0 0.1236918757 -0.0807322088
716450000.0 0.0655068497 -0.124623762
726400000.0 -0.0057750465 -0.1274843127
736350000.0 -0.064204749 -0.0877402551
746300000.0 -0.0886115124 -0.0181844811
756250000.0 -0.0657321405 0.057674432
766200000.0 0.0013885354 0.1105353396
776150000.0 0.0940176463 0.1173595623
786100000.0 0.1821305612 0.0685710815
796050000.0 0.2339529066 -0.0275161743
806000000.0 0.2269717754 -0.1450543477
815950000.0 0.1526468134 -0.2508779049
825900000.0 0.0245032104 -0.3094727681
835850000.0 -0.1284582587 -0.2958169733
845800000.0 -0.2656617017 -0.2029408631
855750000.0 -0.3471937338 -0.0459397851
865700000.0 -0.3442227079 0.1396925962
875650000.0 -0.2505921929 0.3081536554
885600000.0 -0.0841400667 0.4142421013
895550000.0 0.1171091674 0.4278522084
905500000.0 0.3030867377 0.3403604623
915450000.0 0.4243383866 0.1678964878
925400000.0 0.4424633451 -0.0497038813
935350000.0 0.3398686908 -0.2542023843
945300000.0 0.1316611972 -0.3786253105
955250000.0 -0.1274473087 -0.3627387496
965200000.0 -0.3422401774 -0.1843974235
975150000.0 -0.4046585419 0.1120374708
985100000.0 -0.2471441974 0.4024813115
995050000.0 0.0912626319 0.5272064379
1005000000.0 0.4643528412 0.3815917609
1014950000.0 0.664313773 -0.0169612748
1024900000.0 0.5349320143 -0.4898358066
1034850000.0 0.0924807132 -0.775416474
1044800000.0 -0.4464838143 -0.6932414654
1054750000.0 -0.7940698768 -0.2763186112
1064700000.0 -0.7922269078 0.1722877176
1074650000.0 -0.6182891101 0.5982649233
1084600000.0 -0.1968060953 0.8344792134
1094550000.0 0.2684367354 0.7883578562
1104500000.0 0.6223705423 0.4943146852
1114450000.0 0.74422229 0.0545421172
1124400000.0 0.5873602595 -0.3661835222
1134350000.0 0.2233621649 -0.601341264
1144300000.0 -0.1841921609 -0.5725466049
1154250000.0 -0.4713135838 -0.3280789569
1164200000.0 -0.5568921032 0.0055755473
1174150000.0 -0.455001014 0.3062842574
1184100000.0 -0.2184485668 0.4966913775
1194050000.0 0.0754300108 0.5281853553
1204000000.0 0.3374668593 0.4013086859
1213950000.0 0.4939131483 0.1583634273
1223900000.0 0.5049209959 -0.1277827702
1233850000.0 0.3754682037 -0.3782741341
1243800000.0 0.1490353869 -0.5332816221
1253750000.0 -0.1145123361 -0.5678828587
1263700000.0 -0.3580098117 -0.4876632029
1273650000.0 -0.5399490553 -0.3193986259
1283600000.0 -0.635863009 -0.0974032617
1293550000.0 -0.636002121 0.1428443634
1303500000.0 -0.5407477778 0.3647622639
1313450000.0 -0.3628112096 0.5344445708
1323400000.0 -0.1259592368 0.6220125572
1333350000.0 0.1325073195 0.6072004111
1343300000.0 0.3682516905 0.4877785179
1353250000.0 0.5376273335 0.2826670776
1363200000.0 0.6118966231 0.0298367753
1373150000.0 0.5828116967 -0.2262045274
1383100000.0 0.4615485433 -0.4445869729
1393050000.0 0.2740903467 -0.595336629
1403000000.0 0.0514550172 -0.6634712146
1412950000.0 -0.1752606354 -0.6446477517
1422900000.0 -0.3768088241 -0.5438816644
1432850000.0 -0.5257092802 -0.3735876622
1442800000.0 -0.5998017382 -0.1566145468
1452750000.0 -0.5847619584 0.0769649176
1462700000.0 -0.4768742599 0.2923778893
1472650000.0 -0.2876517053 0.4502828695
1482600000.0 -0.0486417319 0.5176596961
1492550000.0 0.1936815353 0.4801815329
1502500000.0 0.3920480239 0.3487879694
1512450000.0 0.5118919535 0.1543516499
1522400000.0 0.5377216702 -0.0624254485
1532350000.0 0.4717516377 -0.2616240742
1542300000.0 0.3303849471 -0.4094554802
1552250000.0 0.1397918235 -0.4804056191
1562200000.0 -0.0634978062 -0.4598475126
1572150000.0 -0.2393493313 -0.3486911665
1582100000.0 -0.3472870769 -0.1661316608
1592050000.0 -0.3587222466 0.0475269585
1602000000.0 -0.2708609907 0.2416156142
1611950000.0 -0.1026771814 0.3689000989
1621900000.0 0.1003550571 0.4012248377
1631850000.0 0.29064497 0.3369570537
1641800000.0 0.4277557575 0.1940780952
1651750000.0 0.4851622229 0.0046732402
1661700000.0 0.4520810124 -0.1936301367
1671650000.0 0.3319732041 -0.3624872073
1681600000.0 0.1434590978 -0.4659733927
1691550000.0 -0.0804421078 -0.4781269546
1701500000.0 -0.2944601359 -0.3877171889
1711450000.0 -0.4495930171 -0.208300796
1721400000.0 -0.5082567559 0.0220057743
1731350000.0 -0.4550492392 0.2429340957
1741300000.0 -0.3404380935 0.3920570971
1751250000.0 -0.2053347564 0.5275621547
1761200000.0 0.0039899062 0.6016769013
1771150000.0 0.2245935296 0.5781366289
1781100000.0 0.4151954427 0.4718137107
1791050000.0 0.5518525075 0.3029441224
1801000000.0 0.616289984 0.0936964325
1810950000.0 0.5981099859 -0.1285278913
1820900000.0 0.4949709694 -0.3316199586
1830850000.0 0.3176286056 -0.4819356517
1840800000.0 0.093629782 -0.5514322879
1850750000.0 -0.1393526538 -0.5277295871
1860700000.0 -0.33982355 -0.4161376246
1870650000.0 -0.476771038 -0.2422368445
1880600000.0 -0.5350172601 -0.0403510686
1890550000.0 -0.5157174483 0.1566116024
1900500000.0 -0.4319171916 0.32169229
1910450000.0 -0.302432235 0.4375039626
1920400000.0 -0.1490241159 0.494113647
1930350000.0 0.0059575485 0.4883635818
1940300000.0 0.1393678143 0.4257551398
1950250000.0 0.2301924594 0.319120001
1960200000.0 0.2642204823 0.1928159226
1970150000.0 0.2403815094 0.0767077548
1980100000.0 0.1750229497 -0.0015231813
1990050000.0 0.0981716126 -0.0271553721
2000000000.0 0.0458118718 -0.0027719362
