!Created with skrf (http://scikit-rf.org).
# GHz S RI R 50.0 
!freq ReS11 ImS11
10000000.0 -0.8197240341 0.6106382791
19950000.0 -0.2989649651 0.9527558257
29900000.0 0.319018862 0.9280831919
39850000.0 0.8122064155 0.5461983696
49800000.0 0.9896461798 -0.0641766145
59750000.0 0.7556766314 -0.6740099236
69700000.0 0.1739864872 -1.011657825
79650000.0 -0.5064859606 -0.8867927964
89600000.0 -0.9430372874 -0.327012177
99550000.0 -0.8863230679 0.4000981436
109500000.0 -0.3264802585 0.9054698504
119450000.0 0.4593720535 0.8623958729
129400000.0 0.9671645998 0.2317110975
139350000.0 0.8151424913 -0.6001359239
149300000.0 0.0691326777 -0.9890449035
159250000.0 -0.6851726092 -0.6712095215
169200000.0 -0.9406287263 0.0729806611
179150000.0 -0.5948430015 0.7453728768
189100000.0 0.0989361606 0.9716690999
199050000.0 0.7342541131 0.6662949681
209000000.0 0.9841694495 0.0310600031
218950000.0 0.7634768449 -0.5838942269
228900000.0 0.2180170233 -0.9101746507
238850000.0 -0.4019475663 -0.8304359404
248800000.0 -0.6364147079 -0.3804172538
258750000.0 -0.9265288452 0.1778265956
268700000.0 -0.6356810815 0.7168291947
278650000.0 -0.0766586681 0.9523306303
288600000.0 0.5009643667 0.7851955931
298550000.0 0.8417817514 0.2990587078
308500000.0 0.8045539582 -0.2877101638
318450000.0 0.4093962515 -0.7153655938
328400000.0 -0.1621416928 -0.7858148347
338350000.0 -0.622727851 -0.4622900516
348300000.0 -0.7234242293 0.0660559958
358250000.0 -0.4376886583 0.4762918894
368200000.0 0.0093229042 0.5458655084
378150000.0 0.3253994241 0.3028061225
388100000.0 0.3602291245 -0.0398202719
398050000.0 0.1686253712 -0.2563235769
408000000.0 -0.0697674169 -0.2564466352
417950000.0 -0.1993441605 -0.1082057006
427900000.0 -0.1760272952 0.0561005149
437850000.0 -0.057544644 0.1360908201
447800000.0 0.0631164174 0.1101842848
457750000.0 0.1199674779 0.0212770909
467700000.0 0.1003548267 -0.0656930398
477650000.0 0.037160811 -0.1018070045
487600000.0 -0.0156739458 -0.0816122677
497550000.0 -0.0656724446 -0.1085124328
507500000.0 -0.0504378343 -0.0037688799
517450000.0 -0.0167314611 0.0106267219
527400000.0 0.0007505335 -0.0033145264
537350000.0 -0.0120938041 -0.0207734772
547300000.0 -0.0462493575 -0.014006101
557250000.0 -0.0677210505 0.0271630377
567200000.0 -0.0545390997 0.0826788333
577150000.0 -3.3199e-06 0.1221623856
587100000.0 0.0774058791 0.1160512001
597050000.0 0.1409703636 0.0541139096
607000000.0 0.1537302326 -0.0433570808
616950000.0 0.1009369933 -0.1369054034
626900000.0 -0.0010224377 -0.1835561364
636850000.0 -0.114982472 -0.160044577
646800000.0 -0.1911487233 -0.0738170889
656750000.0 -0.1989706571 0.0409613971
666700000.0 -0.1326975535 0.1349621866
676650000.0 -0.0223642499 0.1661418681
686600000.0 0.0826693779 0.1209075232
696550000.0 0.1346350446 0.0232751612
706500000.0 0.1134195525 -0.0790650461
716450000.0 0.0370942916 -0.1362708292
726400000.0 -0.0500198616 -0.122437446
736350000.0 -0.0941309688 -0.0507703176
746300000.0 -0.0676935084 0.0318976555
756250000.0 0.0187899212 0.0712913126
766200000.0 0.1146112327 0.0330250227
776150000.0 0.1591186074 -0.0700736767
786100000.0 0.1138330921 -0.1847203845
796050000.0 -0.0127194507 -0.24018734
806000000.0 -0.1620068837 -0.1871946458
815950000.0 -0.2509637697 -0.0310429404
825900000.0 -0.2192028828 0.166795186
835850000.0 -0.0601997725 0.3137187876
845800000.0 0.1679943438 0.3342490814
855750000.0 0.3678805518 0.2053399955
865700000.0 0.4483456688 -0.027489229
875650000.0 0.3611609271 -0.2717761467
885600000.0 0.1292832064 -0.4139607858
895550000.0 -0.1538554025 -0.3801826834
905500000.0 -0.3628331369 -0.1708297989
915450000.0 -0.3934906834 0.1288947341
925400000.0 -0.2228777278 0.3764884534
935350000.0 0.0621090654 0.4489174791
945300000.0 0.3186703708 0.3133500023
955250000.0 0.4178359455 0.0288361064
965200000.0 0.2739732143 -0.2613634631
975150000.0 -0.0667891741 -0.3614979344
985100000.0 -0.3905971725 -0.1425460959
995050000.0 -0.4165405414 0.2811034507
1005000000.0 -0.0640074058 0.5849977759
1014950000.0 0.4437888889 0.4755187793
1024900000.0 0.6962396013 -0.044481446
1034850000.0 0.4253479896 -0.6197736382
1044800000.0 -0.2354272435 -0.7818473702
1054750000.0 -0.7889072377 -0.3605372927
1064700000.0 -0.8165604559 0.2912304731
1074650000.0 -0.4050134895 0.7493960376
1084600000.0 0.1345411806 0.8178465837
1094550000.0 0.6554587259 0.4867302314
1104500000.0 0.7724103823 -0.1194972201
1114450000.0 0.4202325791 -0.6205013592
1124400000.0 -0.1647041575 -0.6972359765
1134350000.0 -0.5836531672 -0.3430361492
1144300000.0 -0.6128130532 0.1555551021
1154250000.0 -0.3105614376 0.5000562709
1164200000.0 0.1187600657 0.5361650029
1174150000.0 0.4445376048 0.2774184301
1184100000.0 0.4950306978 -0.1356703074
1194050000.0 0.2389379752 -0.4561383435
1204000000.0 -0.1524435238 -0.5029162881
1213950000.0 -0.4600375896 -0.2892246622
1223900000.0 -0.5607549707 0.0545892402
1233850000.0 -0.4376871025 0.3832459419
1243800000.0 -0.1398466035 0.5764072526
1253750000.0 0.2236648313 0.5520549995
1263700000.0 0.5067803886 0.3054109308
1273650000.0 0.5833542268 -0.0676104743
1283600000.0 0.4249714024 -0.4110543578
1293550000.0 0.1102506745 -0.5977332818
1303500000.0 -0.2424399987 -0.5845840718
1313450000.0 -0.5283426892 -0.3935291089
1323400000.0 -0.6722701823 -0.0825781647
1333350000.0 -0.6291486093 0.2636203523
1343300000.0 -0.395476823 0.5416363469
1353250000.0 -0.0315783113 0.6436219901
1363200000.0 0.3344194896 0.5185130481
1373150000.0 0.5667217844 0.2103345018
1383100000.0 0.5916225173 -0.1636868512
1393050000.0 0.4228972373 -0.4793889388
1403000000.0 0.1273902732 -0.6548333691
1412950000.0 -0.2079603539 -0.651343098
1422900000.0 -0.4903258686 -0.4724460577
1432850000.0 -0.633995198 -0.1638297882
1442800000.0 -0.5826949241 0.1816231433
1452750000.0 -0.3436696453 0.4470386384
1462700000.0 0.0049073859 0.5365974952
1472650000.0 0.3386661394 0.4218068766
1482600000.0 0.5468258265 0.1533368698
1492550000.0 0.5722969519 -0.1694478201
1502500000.0 0.421485691 -0.441234978
1512450000.0 0.1503500133 -0.5785267247
1522400000.0 -0.1519057874 -0.5357854105
1532350000.0 -0.3767240272 -0.3206337011
1542300000.0 -0.434242005 -0.0092004022
1552250000.0 -0.2957558501 0.275451088
1562200000.0 -0.0219139865 0.4162612408
1572150000.0 0.2667167224 0.3667480357
1582100000.0 0.4560880925 0.1626525751
1592050000.0 0.4798354845 -0.1051312076
1602000000.0 0.3349402799 -0.3309280022
1611950000.0 0.0754216874 -0.4237927868
1621900000.0 -0.197402321 -0.3373602749
1631850000.0 -0.367648474 -0.0949476778
1641800000.0 -0.3530076411 0.2067851555
1651750000.0 -0.1553808539 0.434564154
1661700000.0 0.1360514189 0.4907461681
1671650000.0 0.3984066208 0.3599483794
1681600000.0 0.533155273 0.100162807
1691550000.0 0.4950035822 -0.1957803999
1701500000.0 0.290621164 -0.4273833566
1711450000.0 -0.0201794214 -0.5083890427
1721400000.0 -0.3352107995 -0.3925614173
1731350000.0 -0.5275585208 -0.1089378672
1741300000.0 -0.5142457085 0.2321685628
1751250000.0 -0.3088405877 0.4890960435
1761200000.0 -0.0230843421 0.572566822
1771150000.0 0.2421686465 0.530198668
1781100000.0 0.4814867084 0.3599511395
1791050000.0 0.5996835483 0.0686530622
1801000000.0 0.5416454287 -0.2509395745
1810950000.0 0.3111740341 -0.4981575977
1820900000.0 -0.0282807606 -0.5768663842
1830850000.0 -0.3546461903 -0.446763872
1840800000.0 -0.545760832 -0.1613849504
1850750000.0 -0.5484574874 0.1652398917
1860700000.0 -0.390094851 0.427046518
1870650000.0 -0.1379587323 0.5652805001
1880600000.0 0.1368280269 0.5604099772
1890550000.0 0.3674570764 0.4216769441
1900500000.0 0.4916463412 0.1819727885
1910450000.0 0.4650461263 -0.0890000914
1920400000.0 0.2922443298 -0.295968204
1930350000.0 0.0428344468 -0.3660002568
1940300000.0 -0.1839080351 -0.2924404347
1950250000.0 -0.3157882389 -0.130570766
1960200000.0 -0.3382474542 0.0448120167
1970150000.0 -0.2765306286 0.1741195416
1980100000.0 -0.1783775858 0.2277765903
1990050000.0 -0.0999441733 0.2093953576
2000000000.0 -0.0826041847 0.1616889789
