!Created with skrf (http://scikit-rf.org).
# GHz S RI R 50.0 
!freq ReS11 ImS11
10000000.0 -1.001254263 0.1631414995
19950000.0 -0.945132156 0.3112798843
29900000.0 -0.8666517228 0.4527730258
39850000.0 -0.7665290091 0.592654905
49800000.0 -0.6467267002 0.7252109317
59750000.0 -0.5024586797 0.8444028461
69700000.0 -0.3263486622 0.9380063901
79650000.0 -0.1148767674 0.9879519118
89600000.0 0.1303914801 0.9775665706
99550000.0 0.3957195928 0.8895646879
109500000.0 0.6601189164 0.7129631756
119450000.0 0.8848489442 0.4351854736
129400000.0 1.007470028 0.0606580793
139350000.0 0.9692270425 -0.3374389666
149300000.0 0.7537821607 -0.6873677848
159250000.0 0.4216869717 -0.9052322148
169200000.0 0.0603416802 -0.9798290311
179150000.0 -0.2699364911 -0.9401191563
189100000.0 -0.5394230904 -0.8227042516
199050000.0 -0.7363066067 -0.6578268085
209000000.0 -0.8590025095 -0.4667176988
218950000.0 -0.921547879 -0.268965688
228900000.0 -0.9369437675 -0.074843548
238850000.0 -0.9182870704 0.1137293348
248800000.0 -0.7973951554 0.346696236
258750000.0 -0.8244075168 0.4221445908
268700000.0 -0.7372539106 0.5703917704
278650000.0 -0.6231456979 0.688853066
288600000.0 -0.4811304008 0.7756914254
298550000.0 -0.3156582212 0.8285475731
308500000.0 -0.1322696413 0.848199962
318450000.0 0.0624447795 0.8298653859
328400000.0 0.2570863238 0.7658483957
338350000.0 0.42847269 0.647790485
348300000.0 0.5498823356 0.4758765442
358250000.0 0.5951752221 0.2685508615
368200000.0 0.5584180065 0.0612236693
378150000.0 0.4570304275 -0.1106433257
388100000.0 0.322103453 -0.2264888885
398050000.0 0.1830070675 -0.2812227003
408000000.0 0.0631799905 -0.2812225457
417950000.0 -0.0266034454 -0.2416159074
427900000.0 -0.0851118538 -0.1809925532
437850000.0 -0.1188159141 -0.113223896
447800000.0 -0.1327489829 -0.0513661485
457750000.0 -0.1317780578 -0.0032480514
467700000.0 -0.1196039238 0.0270303866
477650000.0 -0.0987086109 0.0374819838
487600000.0 -0.0709740715 0.0299629218
497550000.0 -0.0470365871 -0.0191571512
507500000.0 -0.0344549322 0.0203924402
517450000.0 -0.0075903388 -0.0058851455
527400000.0 0.0019036552 -0.0262232531
537350000.0 -0.0035105521 -0.0437815408
547300000.0 -0.0218871237 -0.0616727305
557250000.0 -0.0529056631 -0.0747635657
567200000.0 -0.0857683798 -0.0862332122
577150000.0 -0.1180104078 -0.0946722585
587100000.0 -0.1457480231 -0.0970477134
597050000.0 -0.1659248754 -0.0905426091
607000000.0 -0.1787446128 -0.0733868869
616950000.0 -0.1869717384 -0.0464000439
626900000.0 -0.1916014018 -0.0121892453
636850000.0 -0.1931963943 0.02394632
646800000.0 -0.1915791215 0.0575654808
656750000.0 -0.1853084316 0.0856197291
666700000.0 -0.1710944861 0.1048045621
676650000.0 -0.1470339799 0.1146505128
686600000.0 -0.113151648 0.1166170843
696550000.0 -0.0718624423 0.1124715509
706500000.0 -0.028316439 0.1027653067
716450000.0 0.0124679151 0.0879023134
726400000.0 0.044382072 0.06519275
736350000.0 0.0640066953 0.033400758
746300000.0 0.0690587968 -0.008492699
756250000.0 0.0610485083 -0.0601768167
766200000.0 0.0406040293 -0.1171360952
776150000.0 0.010559237 -0.1734249144
786100000.0 -0.0271392037 -0.2223368071
796050000.0 -0.0719972924 -0.2566843811
806000000.0 -0.1231733486 -0.2726415818
815950000.0 -0.1803028684 -0.2680427909
825900000.0 -0.2417635483 -0.2459733893
835850000.0 -0.3048967546 -0.2100087888
845800000.0 -0.3648375586 -0.1647191622
855750000.0 -0.4164274256 -0.1133533221
865700000.0 -0.4523711765 -0.0563817511
875650000.0 -0.4706056562 0.0060449963
885600000.0 -0.4660048628 0.0741160548
895550000.0 -0.4407897857 0.1476040756
905500000.0 -0.3964938312 0.2254293972
915450000.0 -0.3363551148 0.3026069913
925400000.0 -0.2602687223 0.3717176796
935350000.0 -0.1673689858 0.4237154445
945300000.0 -0.0572331155 0.4460478658
955250000.0 0.0696143485 0.4263623008
965200000.0 0.2060322785 0.3529168734
975150000.0 0.3363293676 0.2184413575
985100000.0 0.4294074672 0.0202457296
995050000.0 0.4444163475 -0.2241735834
1005000000.0 0.3441352735 -0.4690564373
1014950000.0 0.1248739386 -0.6477477508
1024900000.0 -0.166452658 -0.7054264296
1034850000.0 -0.4601479555 -0.6336920327
1044800000.0 -0.6986534408 -0.4602370644
1054750000.0 -0.8478542766 -0.2210667468
1064700000.0 -0.8758655643 0.0464154805
1074650000.0 -0.8140271139 0.2361511643
1084600000.0 -0.7016053008 0.4314409304
1094550000.0 -0.5793080578 0.6034789772
1104500000.0 -0.3446580449 0.7374243438
1114450000.0 -0.0838877712 0.7831900704
1124400000.0 0.1744667642 0.7349915599
1134350000.0 0.3928943266 0.5901326096
1144300000.0 0.5337018618 0.368257231
1154250000.0 0.5794884127 0.1179006238
1164200000.0 0.5426349732 -0.1153119066
1174150000.0 0.456400145 -0.3061862281
1184100000.0 0.3359649387 -0.4533541381
1194050000.0 0.1909209766 -0.5444531716
1204000000.0 0.0406575577 -0.5796394492
1213950000.0 -0.1011091436 -0.5726139867
1223900000.0 -0.2285274389 -0.5402271445
1233850000.0 -0.3402500427 -0.4954127904
1243800000.0 -0.4357721025 -0.4451895352
1253750000.0 -0.5143491136 -0.3913852238
1263700000.0 -0.573659787 -0.3330285205
1273650000.0 -0.6146716016 -0.2695109973
1283600000.0 -0.6379056947 -0.2005512617
1293550000.0 -0.6501832304 -0.1271891269
1303500000.0 -0.6569563677 -0.0527979523
1313450000.0 -0.6623347042 0.01987956
1323400000.0 -0.6684121935 0.0879622744
1333350000.0 -0.6728786776 0.1507050293
1343300000.0 -0.6715593464 0.2079156834
1353250000.0 -0.6604833579 0.2586630885
1363200000.0 -0.6362187393 0.3059194368
1373150000.0 -0.5991402248 0.3510502745
1383100000.0 -0.5539222838 0.3970619288
1393050000.0 -0.5055344114 0.4437474269
1403000000.0 -0.4575523974 0.490152555
1412950000.0 -0.4112726528 0.5339137915
1422900000.0 -0.3652425273 0.5717461824
1432850000.0 -0.3177663244 0.5977936418
1442800000.0 -0.2658365005 0.6124220261
1452750000.0 -0.2083756042 0.6161866299
1462700000.0 -0.1445647309 0.6131242828
1472650000.0 -0.0731100547 0.6081937715
1482600000.0 0.0036543259 0.6013186952
1492550000.0 0.0817913952 0.5906191063
1502500000.0 0.1569341043 0.5716336896
1512450000.0 0.2251397491 0.539745257
1522400000.0 0.2845544195 0.4929941344
1532350000.0 0.3342414045 0.4275248904
1542300000.0 0.375629643 0.3456186804
1552250000.0 0.4086432384 0.2511140003
1562200000.0 0.4341335192 0.1501796933
1572150000.0 0.4474750002 0.0494192013
1582100000.0 0.4445390353 -0.0482814802
1592050000.0 0.4213788611 -0.1392872269
1602000000.0 0.3754033562 -0.2218807799
1611950000.0 0.3085111732 -0.2938655967
1621900000.0 0.2254692781 -0.3562263632
1631850000.0 0.1332967709 -0.4087406014
1641800000.0 0.0388509477 -0.4508901185
1651750000.0 -0.053099453 -0.4800654887
1661700000.0 -0.140090638 -0.4920275515
1671650000.0 -0.2199309341 -0.4837159146
1681600000.0 -0.2929566599 -0.4564184355
1691550000.0 -0.3606395079 -0.4155192595
1701500000.0 -0.4252051826 -0.3661079334
1711450000.0 -0.4859492218 -0.3133266069
1721400000.0 -0.5418071236 -0.2610682826
1731350000.0 -0.5908184405 -0.2114219442
1741300000.0 -0.6278310306 -0.1621608145
1751250000.0 -0.6497222971 -0.1101286593
1761200000.0 -0.6562989876 -0.0555822556
1771150000.0 -0.6510327689 0.0018507972
1781100000.0 -0.6411250727 0.0617906168
1791050000.0 -0.6312378229 0.1210196235
1801000000.0 -0.6246208839 0.1785653291
1810950000.0 -0.6207506075 0.2318339289
1820900000.0 -0.6153935296 0.2796058645
1830850000.0 -0.6037570829 0.3197902146
1840800000.0 -0.5800264866 0.3543445693
1850750000.0 -0.5426226744 0.3834663074
1860700000.0 -0.494505529 0.4079076827
1870650000.0 -0.450852616 0.4259724391
1880600000.0 -0.4082620494 0.4486790565
1890550000.0 -0.3681519509 0.4743904932
1900500000.0 -0.3323947938 0.4946330246
1910450000.0 -0.3008815497 0.5071290124
1920400000.0 -0.2702149439 0.5079455193
1930350000.0 -0.2354336911 0.4966897111
1940300000.0 -0.1960842396 0.4742315143
1950250000.0 -0.1524457725 0.4427757479
1960200000.0 -0.1082250163 0.4064252591
1970150000.0 -0.0717299625 0.3679907714
1980100000.0 -0.0474289187 0.3273721423
1990050000.0 -0.0412782111 0.2838308871
2000000000.0 -0.0572529738 0.2343957256
