!Created with skrf (http://scikit-rf.org).
# GHz S RI R 50.0 
!freq ReS11 ImS11
10000000.0 -0.7754442351 0.5869134653
19950000.0 -0.2835067274 0.9248947201
29900000.0 0.3125537061 0.9118612883
39850000.0 0.7949149486 0.5452890918
49800000.0 0.9678915559 -0.0509005549
59750000.0 0.7358442803 -0.6460819455
69700000.0 0.1669310847 -0.9729359607
79650000.0 -0.4956500665 -0.8496279034
89600000.0 -0.9227898006 -0.2979400759
99550000.0 -0.8600230089 0.4264326519
109500000.0 -0.283447402 0.9204417311
119450000.0 0.5070465771 0.8329212455
129400000.0 0.9739229399 0.1476267637
139350000.0 0.7299556834 -0.6597616372
149300000.0 -0.0466031469 -0.9649927394
159250000.0 -0.749890154 -0.5729574588
169200000.0 -0.9173930509 0.1760387724
179150000.0 -0.5169203056 0.7831077335
189100000.0 0.1565516741 0.9304926625
199050000.0 0.7269706727 0.5964964638
209000000.0 0.9310062584 -0.0104643345
218950000.0 0.7137211522 -0.5853192964
228900000.0 0.2010650797 -0.8922764671
238850000.0 -0.3808329471 -0.8232294934
248800000.0 -0.7891320111 -0.4195809313
258750000.0 -0.8957866747 0.1446048961
268700000.0 -0.6367255022 0.6559403044
278650000.0 -0.1272928753 0.9061423503
288600000.0 0.4253956657 0.7947544702
298550000.0 0.7948459567 0.3687129414
308500000.0 0.8257896393 -0.1960259367
318450000.0 0.4994353532 -0.6541685183
328400000.0 -0.0370555174 -0.7957810169
338350000.0 -0.5212813042 -0.5527202335
348300000.0 -0.6997932491 -0.0652888934
358250000.0 -0.5000979806 0.37389953
368200000.0 -0.0911525727 0.51818684
378150000.0 0.2397949246 0.3451568622
388100000.0 0.3166278159 0.0427625471
398050000.0 0.1728022842 -0.1627117227
408000000.0 -0.0255427665 -0.1759156303
417950000.0 -0.1301907475 -0.0572995234
427900000.0 -0.1023102679 0.0715439071
437850000.0 0.0028012256 0.1185144077
447800000.0 0.09759281 0.0669738259
457750000.0 0.1220329578 -0.0329404835
467700000.0 0.068684375 -0.1170065652
477650000.0 -0.0211713053 -0.1388647963
487600000.0 -0.0951486458 -0.0959947191
497550000.0 -0.122315707 -0.0235966667
507500000.0 -0.0935095444 0.0482067412
517450000.0 -0.0353720208 0.0748052262
527400000.0 0.0150828357 0.0593489393
537350000.0 0.0321891849 0.021160207
547300000.0 0.0159902216 -0.0064210591
557250000.0 -0.012745524 -0.0065787895
567200000.0 -0.0262126345 0.019542144
577150000.0 -0.0065446376 0.0484070603
587100000.0 0.0387072755 0.0516973548
597050000.0 0.0834980059 0.0133692561
607000000.0 0.0938876094 -0.0555460678
616950000.0 0.054121529 -0.1232014684
626900000.0 -0.0253213243 -0.1540591102
636850000.0 -0.1109610334 -0.1256100994
646800000.0 -0.1635765774 -0.0445258014
656750000.0 -0.1553897199 0.0564655267
666700000.0 -0.0838474988 0.1340143217
676650000.0 0.0226828011 0.1509957675
686600000.0 0.1180955569 0.09663453
696550000.0 0.1598300653 -0.0047701718
706500000.0 0.1274355878 -0.1080923841
716450000.0 0.0394192494 -0.1650794519
726400000.0 -0.0604814966 -0.1471959309
736350000.0 -0.1181701339 -0.0663965418
746300000.0 -0.1016376052 0.0340395109
756250000.0 -0.0164313519 0.0973513931
766200000.0 0.0908779082 0.0821542592
776150000.0 0.1587523844 -0.0058242081
786100000.0 0.1418803049 -0.1212401349
796050000.0 0.0399063888 -0.1956150248
806000000.0 -0.0982685588 -0.1737969883
815950000.0 -0.1973917406 -0.0512903444
825900000.0 -0.1908630206 0.1216850397
835850000.0 -0.065768852 0.2598793729
845800000.0 0.1282158357 0.2862520135
855750000.0 0.3038156637 0.1763933098
865700000.0 0.3743831295 -0.031681401
875650000.0 0.2918596567 -0.2498614665
885600000.0 0.0755170387 -0.3706743375
895550000.0 -0.183606368 -0.3202008418
905500000.0 -0.3577811376 -0.1031433475
915450000.0 -0.3482942494 0.1874309033
925400000.0 -0.1451910159 0.4035020988
935350000.0 0.1545143449 0.4236927
945300000.0 0.388472009 0.2240940425
955250000.0 0.4166614882 -0.0865870707
965200000.0 0.2150263652 -0.3494240979
975150000.0 -0.150090885 -0.4000146876
985100000.0 -0.4597025429 -0.1273818327
995050000.0 -0.4472721465 0.3168115939
1005000000.0 -0.0738665435 0.6182060808
1014950000.0 0.4442472956 0.509766151
1024900000.0 0.7134063698 -0.0096411966
1034850000.0 0.4587715991 -0.5953766467
1044800000.0 -0.1907510011 -0.7666997915
1054750000.0 -0.7371072278 -0.3615503903
1064700000.0 -0.7880263515 0.2961670627
1074650000.0 -0.364141444 0.7603641474
1084600000.0 0.224648855 0.7857955231
1094550000.0 0.678446379 0.3998754476
1104500000.0 0.7223365979 -0.2003133378
1114450000.0 0.3247032495 -0.6428515143
1124400000.0 -0.2432331767 -0.6560921034
1134350000.0 -0.6208343624 -0.2838738958
1144300000.0 -0.6321957214 0.2063984837
1154250000.0 -0.3284877412 0.5524560976
1164200000.0 0.1097084541 0.6033802337
1174150000.0 0.4643821903 0.3522785852
1184100000.0 0.5557816681 -0.0737458595
1194050000.0 0.334776085 -0.4408424366
1204000000.0 -0.0577662962 -0.5588372903
1213950000.0 -0.4131015147 -0.4043395033
1223900000.0 -0.5895710604 -0.0811943412
1233850000.0 -0.5417012021 0.2714165573
1243800000.0 -0.2973225665 0.5269528154
1253750000.0 0.0568412902 0.5897163924
1263700000.0 0.3878117228 0.4227736401
1273650000.0 0.5558960096 0.0845095128
1283600000.0 0.4912306864 -0.284114422
1293550000.0 0.2348189245 -0.5385657888
1303500000.0 -0.1038203882 -0.6025924438
1313450000.0 -0.4094485277 -0.4773993293
1323400000.0 -0.5991940017 -0.2142471993
1333350000.0 -0.6243932101 0.111943445
1343300000.0 -0.4673371795 0.4106740072
1353250000.0 -0.1579853907 0.5773010564
1363200000.0 0.2040703701 0.5356029956
1373150000.0 0.4801014249 0.2892407222
1383100000.0 0.5667339473 -0.0613704977
1393050000.0 0.4506914587 -0.3869596344
1403000000.0 0.191791801 -0.5869444414
1412950000.0 -0.1183731271 -0.615735022
1422900000.0 -0.3908990438 -0.477542757
1432850000.0 -0.5483403582 -0.2105400402
1442800000.0 -0.5374397724 0.1110922172
1452750000.0 -0.3419435168 0.3803214946
1462700000.0 -0.0223081748 0.4889156562
1472650000.0 0.2973476414 0.3948333229
1482600000.0 0.4962204179 0.1427352205
1492550000.0 0.5147706915 -0.1615691461
1502500000.0 0.3642594455 -0.4108787582
1512450000.0 0.104730148 -0.5255479994
1522400000.0 -0.1733423062 -0.4674749914
1532350000.0 -0.3661630408 -0.2499058949
1542300000.0 -0.3909308395 0.0481968426
1552250000.0 -0.2265152006 0.3004411839
1562200000.0 0.0518023519 0.3944190119
1572150000.0 0.3165036183 0.3021806836
1582100000.0 0.4649243689 0.0775426816
1592050000.0 0.448334203 -0.1865381401
1602000000.0 0.2730385254 -0.388259331
1611950000.0 0.000603462 -0.446822775
1621900000.0 -0.2649901348 -0.3247984736
1631850000.0 -0.4097984046 -0.0539126953
1641800000.0 -0.3605657714 0.2558780772
1651750000.0 -0.1321635019 0.4714186644
1661700000.0 0.1739517755 0.5061738808
1671650000.0 0.4377432484 0.3585090371
1681600000.0 0.5713106898 0.0897560097
1691550000.0 0.5355571418 -0.2118283084
1701500000.0 0.334286886 -0.4525469898
1711450000.0 0.0226506407 -0.5464245256
1721400000.0 -0.3030074656 -0.4439040063
1731350000.0 -0.5194003686 -0.1661620469
1741300000.0 -0.5407167529 0.1850637952
1751250000.0 -0.3676000199 0.4789537538
1761200000.0 -0.0747336867 0.6234705931
1771150000.0 0.2391316423 0.5927686129
1781100000.0 0.4879583427 0.4095452674
1791050000.0 0.6112929844 0.124407231
1801000000.0 0.571753744 -0.1916711877
1810950000.0 0.3683739069 -0.450082492
1820900000.0 0.0488113298 -0.5594213428
1830850000.0 -0.2824756699 -0.4696594457
1840800000.0 -0.5056401645 -0.2135962726
1850750000.0 -0.5523453025 0.107094662
1860700000.0 -0.4321204852 0.3840480388
1870650000.0 -0.2031141079 0.5490541159
1880600000.0 0.0634734791 0.5733834699
1890550000.0 0.2972664419 0.4605347236
1900500000.0 0.4383866045 0.2439818046
1910450000.0 0.4440689007 -0.0158303848
1920400000.0 0.3099838441 -0.2348367064
1930350000.0 0.0847616245 -0.3353946803
1940300000.0 -0.1409547534 -0.295929177
1950250000.0 -0.2907082405 -0.1553538095
1960200000.0 -0.3305886557 0.0144980516
1970150000.0 -0.2768735505 0.1470049615
1980100000.0 -0.1788065553 0.1995785497
1990050000.0 -0.1016917927 0.17798231
2000000000.0 -0.0819659086 0.124338494
