!Created with skrf (http://scikit-rf.org).
# GHz S RI R 50.0 
!freq ReS11 ImS11
10000000.0 -0.8031698719 0.6064152447
19950000.0 -0.2873719134 0.9495677043
29900000.0 0.3290712834 0.9273847384
39850000.0 0.820482477 0.5445621249
49800000.0 0.99065835 -0.0670322701
59750000.0 0.7470057821 -0.6705298703
69700000.0 0.1634657378 -0.995699106
79650000.0 -0.5090778743 -0.8638299663
89600000.0 -0.9384706467 -0.3068253553
99550000.0 -0.8801172975 0.4145491068
109500000.0 -0.3207211836 0.9136349209
119450000.0 0.4592220259 0.8623953506
129400000.0 0.9594958384 0.2187249407
139350000.0 0.7998477717 -0.5884001603
149300000.0 0.0650648978 -0.975989029
159250000.0 -0.685939787 -0.6692465942
169200000.0 -0.946791448 0.0687609746
179150000.0 -0.6034344426 0.7399362039
189100000.0 0.0881923939 0.9630309443
199050000.0 0.7189724136 0.6570081451
209000000.0 0.9676508075 0.0258000536
218950000.0 0.7500514777 -0.5875941751
228900000.0 0.2067776588 -0.9142581638
238850000.0 -0.411700492 -0.8323743168
248800000.0 -0.6746935746 -0.4247415708
258750000.0 -0.9194820299 0.1806984839
268700000.0 -0.6207983011 0.709747069
278650000.0 -0.0633924162 0.9353698948
288600000.0 0.5080647543 0.7654795595
298550000.0 0.844716953 0.2813510125
308500000.0 0.8047939564 -0.3014132297
318450000.0 0.4087846958 -0.7227127168
328400000.0 -0.1585054965 -0.7865211629
338350000.0 -0.6121852942 -0.4632584151
348300000.0 -0.71365742 0.059459596
358250000.0 -0.436922792 0.4710266102
368200000.0 0.0055738433 0.5518215617
378150000.0 0.3269032211 0.3195346375
388100000.0 0.3709463032 -0.0197775511
398050000.0 0.1870399963 -0.2404343261
408000000.0 -0.0490282362 -0.2486353427
417950000.0 -0.1831381294 -0.1081323836
427900000.0 -0.1681825843 0.0525529658
437850000.0 -0.0573929453 0.1325121125
447800000.0 0.0568194284 0.1087736157
457750000.0 0.1087286819 0.022822622
467700000.0 0.0851217037 -0.0605771631
477650000.0 0.0201079263 -0.0924978537
487600000.0 -0.0327392234 -0.0658382771
497550000.0 -0.0738570401 -0.0808900226
507500000.0 -0.0586561742 0.0068454462
517450000.0 -0.0218294093 0.02198255
527400000.0 0.0007130002 0.004849765
537350000.0 -0.0068070869 -0.018737902
547300000.0 -0.0396562013 -0.0225011421
557250000.0 -0.0645990568 0.0106372108
567200000.0 -0.0571461231 0.0605700445
577150000.0 -0.0099308761 0.098555766
587100000.0 0.0609599599 0.0957149806
597050000.0 0.1213943657 0.0408073059
607000000.0 0.1362959165 -0.047920842
616950000.0 0.0895999031 -0.1340168916
626900000.0 -0.003726523 -0.175855756
636850000.0 -0.1070611218 -0.1521864054
646800000.0 -0.1748605573 -0.0690253342
656750000.0 -0.1758097606 0.0395558063
666700000.0 -0.1076441358 0.1263241861
676650000.0 0.0003501636 0.1508258627
686600000.0 0.0995104212 0.1016543483
696550000.0 0.1438223598 0.0034999158
706500000.0 0.1144794752 -0.0954263504
716450000.0 0.030458898 -0.1455880262
726400000.0 -0.061294932 -0.1220154394
736350000.0 -0.1059428993 -0.0392054095
746300000.0 -0.075845558 0.054139601
756250000.0 0.0186252086 0.1008183972
766200000.0 0.1251853947 0.0651238946
776150000.0 0.1804311575 -0.0423428734
786100000.0 0.142547404 -0.1680130453
796050000.0 0.0167324071 -0.2393522572
806000000.0 -0.1413061398 -0.2027846964
815950000.0 -0.2489952204 -0.0570746814
825900000.0 -0.2384102473 0.1420872458
835850000.0 -0.0958727193 0.3015267037
845800000.0 0.1263451212 0.3400008006
855750000.0 0.3318791687 0.2285620453
865700000.0 0.4283833504 0.0059421926
875650000.0 0.3606649154 -0.2386939842
885600000.0 0.1463404816 -0.395274195
895550000.0 -0.1316614102 -0.3835159657
905500000.0 -0.3501908079 -0.1930834245
915450000.0 -0.399260817 0.1000611902
925400000.0 -0.2442419833 0.3582580601
935350000.0 0.0455937769 0.4499493998
945300000.0 0.3233659551 0.316566455
955250000.0 0.430125576 0.0135973441
965200000.0 0.2727378262 -0.2828373726
975150000.0 -0.0654170491 -0.3694646131
985100000.0 -0.3800581486 -0.166738083
995050000.0 -0.4276095968 0.245938809
1005000000.0 -0.104389206 0.5675362596
1014950000.0 0.39859746 0.5083625646
1024900000.0 0.6987251441 0.0286645662
1034850000.0 0.4947579673 -0.5637547957
1044800000.0 -0.1424967842 -0.7895051807
1054750000.0 -0.7299819797 -0.4171442008
1064700000.0 -0.7847384249 0.2114923723
1074650000.0 -0.479891346 0.6948689612
1084600000.0 0.0809103181 0.8250749915
1094550000.0 0.6239184529 0.5395111756
1104500000.0 0.7820714431 -0.061194482
1114450000.0 0.4576599854 -0.5836204249
1124400000.0 -0.1236881769 -0.6929643031
1134350000.0 -0.5628687864 -0.3636463051
1144300000.0 -0.6238370904 0.1316073498
1154250000.0 -0.3436711685 0.4952574133
1164200000.0 0.0837283361 0.5568351299
1174150000.0 0.4218494376 0.315299998
1184100000.0 0.4975946799 -0.0905672271
1194050000.0 0.2674767132 -0.4279118513
1204000000.0 -0.1176489848 -0.5085033101
1213950000.0 -0.4419639603 -0.322426109
1223900000.0 -0.5702760719 0.0097408833
1233850000.0 -0.4730728175 0.344258285
1243800000.0 -0.1943175069 0.5557065127
1253750000.0 0.1651385479 0.5594223024
1263700000.0 0.4633889277 0.3401264591
1273650000.0 0.5717648903 -0.0200604971
1283600000.0 0.4469822769 -0.3726162242
1293550000.0 0.1524238249 -0.5851901048
1303500000.0 -0.1972412741 -0.6000841732
1313450000.0 -0.4925533495 -0.4308925849
1323400000.0 -0.6534237068 -0.1344389976
1333350000.0 -0.6324771564 0.2075829611
1343300000.0 -0.4219120042 0.4948230412
1353250000.0 -0.0739705248 0.6208648385
1363200000.0 0.2945445579 0.5266341666
1373150000.0 0.5461306129 0.2406741553
1383100000.0 0.5958078242 -0.1264847833
1393050000.0 0.4475671299 -0.4480266813
1403000000.0 0.164326408 -0.6349671647
1412950000.0 -0.1653454873 -0.6461646368
1422900000.0 -0.4498923256 -0.4834754116
1432850000.0 -0.6049366866 -0.1894736215
1442800000.0 -0.5742486226 0.1498159468
1452750000.0 -0.3569170553 0.4216334563
1462700000.0 -0.0228507051 0.5282573449
1472650000.0 0.3091262483 0.4337478568
1482600000.0 0.5248154652 0.1800016202
1492550000.0 0.5623840425 -0.135303683
1502500000.0 0.4256835525 -0.406488318
1512450000.0 0.1670137934 -0.5521654626
1522400000.0 -0.1283892165 -0.5255080515
1532350000.0 -0.3576442216 -0.3299649212
1542300000.0 -0.4303022195 -0.0314058304
1552250000.0 -0.3100176009 0.2515826048
1562200000.0 -0.0495253987 0.4012676625
1572150000.0 0.2352643058 0.3634649847
1582100000.0 0.4289825868 0.1697600709
1592050000.0 0.4622190399 -0.0914813547
1602000000.0 0.3298312451 -0.3171834093
1611950000.0 0.0825542706 -0.4182039525
1621900000.0 -0.1849804592 -0.3452645616
1631850000.0 -0.3583455264 -0.1148826597
1641800000.0 -0.3509663697 0.1795565932
1651750000.0 -0.1623962736 0.4049072913
1661700000.0 0.1163554014 0.4624521508
1671650000.0 0.3607819392 0.355061565
1681600000.0 0.5159141067 0.1279417241
1691550000.0 0.5094637956 -0.1636030665
1701500000.0 0.3304103977 -0.4089099411
1711450000.0 0.0303990471 -0.514172777
1721400000.0 -0.2903601506 -0.423615689
1731350000.0 -0.5050709208 -0.1571901804
1741300000.0 -0.5246241506 0.1841329673
1751250000.0 -0.3497853769 0.4694349297
1761200000.0 -0.0565589427 0.6055573251
1771150000.0 0.2546802673 0.5659897447
1781100000.0 0.4970277653 0.3741179441
1791050000.0 0.6079277805 0.0830248103
1801000000.0 0.5499770764 -0.232673915
1810950000.0 0.3237659559 -0.4783598339
1820900000.0 -0.0111903857 -0.5611929691
1830850000.0 -0.3367420046 -0.4404830903
1840800000.0 -0.5341985705 -0.1651099226
1850750000.0 -0.5494461109 0.1563915841
1860700000.0 -0.4039630569 0.4200103222
1870650000.0 -0.1600625873 0.5653180343
1880600000.0 0.1119398803 0.5686954558
1890550000.0 0.3442841542 0.4358677919
1900500000.0 0.4738225113 0.1998078378
1910450000.0 0.45443832 -0.0705133834
1920400000.0 0.2886656165 -0.2827487929
1930350000.0 0.0431722826 -0.36134241
1940300000.0 -0.1842743348 -0.2960228664
1950250000.0 -0.3204696932 -0.1397871081
1960200000.0 -0.3451514285 0.0338052245
1970150000.0 -0.2830490298 0.163464847
1980100000.0 -0.1833925416 0.2155298743
1990050000.0 -0.1039853171 0.1934901127
2000000000.0 -0.0869378943 0.1422573361
