!Created with skrf (http://scikit-rf.org).
# GHz S RI R 50.0 
!freq ReS11 ImS11
10000000.0 -0.5793733388 0.0528671235
14975000.0 -0.5894057851 0.0828729486
19950000.0 -0.6012331747 0.1160954208
24925000.0 -0.6122038255 0.1532104013
29900000.0 -0.6206095642 0.1932260052
34875000.0 -0.6240401579 0.236624916
39850000.0 -0.6214136617 0.2827204309
44825000.0 -0.6124309505 0.3308526672
49800000.0 -0.5973883647 0.3805297974
54775000.0 -0.5764301442 0.430964299
59750000.0 -0.5501880875 0.482128479
64725000.0 -0.5197416864 0.5334653574
69700000.0 -0.485434668 0.5846654096
74675000.0 -0.4477284896 0.6360599279
79650000.0 -0.4067761976 0.6877828342
84625000.0 -0.3620241211 0.7397133383
89600000.0 -0.311901507 0.7917554607
94575000.0 -0.2542741306 0.8429431412
99550000.0 -0.1862394607 0.8909281495
104525000.0 -0.1053316157 0.9322317531
109500000.0 -0.0107652884 0.9617856697
114475000.0 0.0958680479 0.9744513551
119450000.0 0.2104198486 0.9663544119
124425000.0 0.3276071491 0.9347056775
129400000.0 0.4402021942 0.8785423411
134375000.0 0.5455152979 0.8019805523
139350000.0 0.6398139762 0.7029731723
144325000.0 0.7175154127 0.5886170078
149300000.0 0.7765365936 0.4635697288
154275000.0 0.8151674787 0.3340753362
159250000.0 0.8329609759 0.2049288335
164225000.0 0.8305034816 0.0817335002
169200000.0 0.810564855 -0.032001942
174175000.0 0.7769957398 -0.1335333744
179150000.0 0.7353116717 -0.2216792529
184125000.0 0.6903690998 -0.2969642371
189100000.0 0.6463029319 -0.3610108969
194075000.0 0.6052698932 -0.4161281978
199050000.0 0.5678412424 -0.4647218019
204025000.0 0.5329089916 -0.5088688851
209000000.0 0.4994804339 -0.5494600002
213975000.0 0.4650681276 -0.5875851583
218950000.0 0.4286919038 -0.6230077253
223925000.0 0.389515886 -0.6557025531
228900000.0 0.3469106613 -0.6851442812
233875000.0 0.3013236092 -0.7109275562
238850000.0 0.2527515495 -0.7330435263
243825000.0 0.2007060471 -0.7511909686
248800000.0 0.1313925037 -0.7254816163
253775000.0 0.1167513306 -0.7718284562
258750000.0 0.067804162 -0.7799881279
263725000.0 0.0238246781 -0.7844609218
268700000.0 -0.0164189325 -0.7866403676
273675000.0 -0.053262064 -0.787067647
278650000.0 -0.0871373857 -0.7865227823
283625000.0 -0.1192176967 -0.7854363478
288600000.0 -0.150990125 -0.7842227397
293575000.0 -0.1839049856 -0.7826284462
298550000.0 -0.2192769221 -0.7794541405
303525000.0 -0.2579144878 -0.7737779122
308500000.0 -0.299675388 -0.7642670802
313475000.0 -0.3440626905 -0.7492099081
318450000.0 -0.3898443418 -0.727396708
323425000.0 -0.4353025119 -0.6985747387
328400000.0 -0.4785609724 -0.6622548372
333375000.0 -0.5180320984 -0.6179365204
338350000.0 -0.5526879377 -0.5669716986
343325000.0 -0.5797201734 -0.50916181
348300000.0 -0.6015032938 -0.4477878356
353275000.0 -0.613032363 -0.38118759
358250000.0 -0.6101255718 -0.3110102278
363225000.0 -0.6077450764 -0.2445611063
368200000.0 -0.5909999392 -0.1789820936
373175000.0 -0.5662166577 -0.1184044796
378150000.0 -0.5340195097 -0.0653706149
383125000.0 -0.4953736859 -0.0231773646
388100000.0 -0.4566676908 0.0060250832
393075000.0 -0.4170913162 0.0222031331
398050000.0 -0.376537652 0.0530240936
403025000.0 -0.3310285809 0.083635176
408000000.0 -0.2896203779 0.0981036811
412975000.0 -0.2471465335 0.1028482949
417950000.0 -0.2077815515 0.1007737871
422925000.0 -0.1720817127 0.0942450633
427900000.0 -0.1401526407 0.0845846157
432875000.0 -0.1117318073 0.072451441
437850000.0 -0.0874175707 0.0579806527
442825000.0 -0.0671362517 0.0425287607
447800000.0 -0.0503869111 0.0265660713
452775000.0 -0.0368322636 0.0103725982
457750000.0 -0.0265355301 -0.0051291042
462725000.0 -0.0185820325 -0.0199393555
467700000.0 -0.0124878569 -0.0337722825
472675000.0 -0.008055005 -0.0464495025
477650000.0 -0.0051417648 -0.0578071249
482625000.0 -0.003015217 -0.0679532431
487600000.0 -0.0021874759 -0.0765707074
492575000.0 -0.0040551339 -0.0821660652
497550000.0 0.0116038047 -0.0851138017
502525000.0 0.0084373375 -0.0949505188
507500000.0 0.0069550901 -0.0987387729
512475000.0 0.0057231146 -0.1015982345
517450000.0 0.0046046018 -0.1033246138
522425000.0 0.0032593144 -0.1040020769
527400000.0 0.0017434986 -0.1037460656
532375000.0 -9.4343e-06 -0.1024433495
537350000.0 -0.0017721199 -0.1002118584
542325000.0 -0.0036028665 -0.0968291317
547300000.0 -0.0054072725 -0.0926886864
552275000.0 -0.0071247977 -0.0877238441
557250000.0 -0.008378876 -0.0819839712
562225000.0 -0.0096114744 -0.0749856452
567200000.0 -0.0104920892 -0.0669233117
572175000.0 -0.0106456439 -0.0580117035
577150000.0 -0.0104071185 -0.0483290379
582125000.0 -0.0096338341 -0.0378515112
587100000.0 -0.0076780312 -0.0269094659
592075000.0 -0.0046953299 -0.015669166
597050000.0 -0.0009701064 -0.0040878801
602025000.0 0.0040352985 0.0076847725
607000000.0 0.0100811842 0.0191637401
611975000.0 0.0172943166 0.0303038734
616950000.0 0.0253184972 0.0408527899
621925000.0 0.0342974016 0.0508688508
626900000.0 0.0440145638 0.0597233283
631875000.0 0.0542692092 0.0678107152
636850000.0 0.0646899043 0.0752203818
641825000.0 0.0753431989 0.0815075904
646800000.0 0.0855602133 0.0876716631
651775000.0 0.0953247656 0.0931243073
656750000.0 0.104748508 0.0980733703
661725000.0 0.1138092353 0.1026937306
666700000.0 0.1223529567 0.1072640943
671675000.0 0.130890978 0.1114983887
676650000.0 0.1397229334 0.1155577011
681625000.0 0.1488815089 0.1190430051
686600000.0 0.1586042699 0.1219568536
691575000.0 0.1688124109 0.1239363534
696550000.0 0.179411664 0.1249365231
701525000.0 0.1905876186 0.1248359271
706500000.0 0.2023142462 0.1231040894
711475000.0 0.2136511261 0.1198224074
716450000.0 0.2250582756 0.1150897981
721425000.0 0.2362284248 0.108569709
726400000.0 0.2470492001 0.1006215701
731375000.0 0.2575795962 0.0916464326
736350000.0 0.2672313534 0.0812625781
741325000.0 0.2756771741 0.0695620141
746300000.0 0.2834002875 0.0570741212
751275000.0 0.2895463406 0.0429477578
756250000.0 0.2944999085 0.0284731658
761225000.0 0.2977145197 0.0127546753
766200000.0 0.2994990901 -0.0033970674
771175000.0 0.2993566438 -0.0203254235
776150000.0 0.2973236805 -0.0375899821
781125000.0 0.2934273916 -0.0554445262
786100000.0 0.2875221521 -0.073309106
791075000.0 0.279681779 -0.0915654777
796050000.0 0.2700830933 -0.1097329553
801025000.0 0.2588837889 -0.1278630508
806000000.0 0.2470604286 -0.144968712
810975000.0 0.2323014353 -0.1618189283
815950000.0 0.2161298787 -0.1774702627
820925000.0 0.1989681723 -0.1920823538
825900000.0 0.1807058511 -0.2054263564
830875000.0 0.1621861626 -0.2174320307
835850000.0 0.1435747375 -0.2280305385
840825000.0 0.1249726009 -0.2372034081
845800000.0 0.1069068925 -0.2456504702
850775000.0 0.088708989 -0.2531043433
855750000.0 0.0705748385 -0.2600582323
860725000.0 0.051625805 -0.2666016486
865700000.0 0.0310321251 -0.2727916804
870675000.0 0.0078765386 -0.2780509587
875650000.0 -0.0174338331 -0.2825003844
880625000.0 -0.0451271235 -0.2850298705
885600000.0 -0.074688771 -0.2851398244
890575000.0 -0.1058622603 -0.2827536881
895550000.0 -0.1385508495 -0.2772012354
900525000.0 -0.171558852 -0.2684837455
905500000.0 -0.2044305298 -0.2559368307
910475000.0 -0.2364391956 -0.2397145835
915450000.0 -0.2672314566 -0.2202665973
920425000.0 -0.2959821535 -0.1967545192
925400000.0 -0.3226523306 -0.1693466726
930375000.0 -0.3469701762 -0.1388632106
935350000.0 -0.3688358818 -0.1053087207
940325000.0 -0.3889696593 -0.0678909825
945300000.0 -0.4065627702 -0.0268476301
950275000.0 -0.4214991149 0.0175427156
955250000.0 -0.4342461138 0.0663117372
960225000.0 -0.4429448782 0.1200286213
965200000.0 -0.4465638774 0.1780692457
970175000.0 -0.443719466 0.2407058409
975150000.0 -0.4316097534 0.3068066674
980125000.0 -0.4088979754 0.3747036512
985100000.0 -0.374341319 0.4426687803
990075000.0 -0.3262911358 0.5071939405
995050000.0 -0.2652774442 0.5656325644
1000025000.0 -0.1913391876 0.6144065981
1005000000.0 -0.1048880683 0.6493569847
1009975000.0 -0.0104105063 0.6671887735
1014950000.0 0.0894052184 0.6639771181
1019925000.0 0.1888956468 0.6384719821
1024900000.0 0.2829079483 0.5907062728
1029875000.0 0.3658869768 0.5225177105
1034850000.0 0.4339569028 0.4370145869
1039825000.0 0.4854756984 0.3386842
1044800000.0 0.521032994 0.2322739124
1049775000.0 0.5419044755 0.1215452878
1054750000.0 0.5479559658 0.0094304047
1059725000.0 0.5384656684 -0.0999162009
1064700000.0 0.5200387583 -0.1984573364
1069675000.0 0.5018858536 -0.2976590153
1074650000.0 0.4655420413 -0.3945836313
1079625000.0 0.4099508696 -0.4736650248
1084600000.0 0.3645484828 -0.5255920635
1089575000.0 0.3100169671 -0.5996094095
1094550000.0 0.2377725244 -0.6597313878
1099525000.0 0.1606751634 -0.7031189993
1104500000.0 0.0832988048 -0.73167197
1109475000.0 0.0064779365 -0.7476536593
1114450000.0 -0.0674591848 -0.7526092073
1119425000.0 -0.1377873172 -0.7481360536
1124400000.0 -0.2037546328 -0.7349601274
1129375000.0 -0.265755001 -0.7153076377
1134350000.0 -0.3242137145 -0.6893113938
1139325000.0 -0.3786405004 -0.6575286236
1144300000.0 -0.4289950465 -0.6202054794
1149275000.0 -0.474155847 -0.5789619295
1154250000.0 -0.5138031861 -0.5338831372
1159225000.0 -0.5462791715 -0.4867669428
1164200000.0 -0.5724290183 -0.4380460726
1169175000.0 -0.5928659534 -0.3898254323
1174150000.0 -0.6086027375 -0.3419844688
1179125000.0 -0.6204062957 -0.2932459855
1184100000.0 -0.6272897056 -0.2442129093
1189075000.0 -0.6294957341 -0.1966929526
1194050000.0 -0.6279568643 -0.1510713197
1199025000.0 -0.6224322758 -0.1075915034
1204000000.0 -0.6130567875 -0.065929865
1208975000.0 -0.6010533227 -0.0282523254
1213950000.0 -0.5873065903 0.0069044998
1218925000.0 -0.5722927873 0.0390817783
1223900000.0 -0.5574146541 0.0676758698
1228875000.0 -0.5433432593 0.0937352854
1233850000.0 -0.5304712621 0.1179067744
1238825000.0 -0.518650362 0.1401166977
1243800000.0 -0.5073996311 0.1623067124
1248775000.0 -0.4961079984 0.1839915669
1253750000.0 -0.4828031721 0.2053635372
1258725000.0 -0.4670213758 0.2272940131
1263700000.0 -0.4505185458 0.2483099614
1268675000.0 -0.4336757529 0.267841833
1273650000.0 -0.4159240665 0.2869370921
1278625000.0 -0.3966606316 0.3044478202
1283600000.0 -0.3762021339 0.320373786
1288575000.0 -0.3546718845 0.3345395338
1293550000.0 -0.3319303219 0.3469039808
1298525000.0 -0.3086475033 0.3573021273
1303500000.0 -0.2885266675 0.3650656654
1308475000.0 -0.2672420089 0.3700361835
1313450000.0 -0.2484724724 0.372095714
1318425000.0 -0.2338448495 0.3722287183
1323400000.0 -0.2240953566 0.3708547898
1328375000.0 -0.2198868775 0.3689387909
1333350000.0 -0.2207211963 0.3687669336
1338325000.0 -0.2249977571 0.371139084
1343300000.0 -0.2304984573 0.3771026232
1348275000.0 -0.235150641 0.3864813494
1353250000.0 -0.236966044 0.3987824647
1358225000.0 -0.2348761565 0.4130189162
1363200000.0 -0.228510448 0.4278247108
1368175000.0 -0.21805648 0.4421308625
1373150000.0 -0.2036378421 0.4563378427
1378125000.0 -0.185914162 0.4694785183
1383100000.0 -0.1654612077 0.4801569159
1388075000.0 -0.1437795377 0.4898437934
1393050000.0 -0.1203392895 0.4968339546
1398025000.0 -0.0968976201 0.5013902614
1403000000.0 -0.0735632344 0.5037517818
1407975000.0 -0.0519970125 0.5035316137
1412950000.0 -0.0334709923 0.5006651893
1417925000.0 -0.0188213189 0.4956175895
1422900000.0 -0.0097211259 0.4889103954
1427875000.0 -0.0070781503 0.4826216919
1432850000.0 -0.0097468953 0.4774796925
1437825000.0 -0.0172097262 0.4753138306
1442800000.0 -0.0267553432 0.4772432428
1447775000.0 -0.0356187846 0.4827209498
1452750000.0 -0.0409772865 0.4913374917
1457725000.0 -0.0420806474 0.5017314292
1462700000.0 -0.038514605 0.5128553389
1467675000.0 -0.0299735517 0.5231841371
1472650000.0 -0.0175821487 0.532992242
1477625000.0 -0.0026809578 0.5417606137
1482600000.0 0.0146800251 0.5484809099
1487575000.0 0.0332175893 0.5532131921
1492550000.0 0.0523524267 0.5565315391
1497525000.0 0.0717267046 0.558505396
1502500000.0 0.0896345613 0.5583743136
1507475000.0 0.108148582 0.5576982406
1512450000.0 0.125116064 0.5558916721
1517425000.0 0.1403033191 0.5531860638
1522400000.0 0.1535518796 0.549312157
1527375000.0 0.1638951259 0.545221223
1532350000.0 0.1723538755 0.541166614
1537325000.0 0.1795248799 0.5362553854
1542300000.0 0.1857992721 0.5321111821
1547275000.0 0.1922277697 0.5290692503
1552250000.0 0.1999494717 0.5246867566
1557225000.0 0.2081114148 0.520182322
1562200000.0 0.2178362518 0.5152355974
1567175000.0 0.2282299794 0.5085111251
1572150000.0 0.2391879563 0.5006409609
1577125000.0 0.2504266936 0.492170693
1582100000.0 0.2617631097 0.482199169
1587075000.0 0.2729583084 0.4715902985
1592050000.0 0.2838210211 0.4609280958
1597025000.0 0.2946756237 0.4498519877
1602000000.0 0.3041459449 0.4385005306
1606975000.0 0.3141120751 0.4271172659
1611950000.0 0.3232691705 0.4156889717
1616925000.0 0.3323407239 0.403669236
1621900000.0 0.3406225029 0.3914132098
1626875000.0 0.3485346022 0.379400266
1631850000.0 0.3560082205 0.3666491208
1636825000.0 0.3636634473 0.3538510815
1641800000.0 0.3709362002 0.3408207679
1646775000.0 0.3783553525 0.3272670434
1651750000.0 0.3855206003 0.3131225525
1656725000.0 0.3921613955 0.2984921961
1661700000.0 0.3978027697 0.2837262634
1666675000.0 0.4030622456 0.2685284791
1671650000.0 0.4065107776 0.2533465508
1676625000.0 0.4092726705 0.2380991813
1681600000.0 0.4101877576 0.2227935919
1686575000.0 0.4090889035 0.2080851578
1691550000.0 0.4069095788 0.1935794864
1696525000.0 0.4025598481 0.1797720201
1701500000.0 0.3951838985 0.1658304598
1706475000.0 0.3873278894 0.1536082488
1711450000.0 0.3787818319 0.1427550093
1716425000.0 0.3694728372 0.133531747
1721400000.0 0.3608182463 0.1252345462
1726375000.0 0.3545092335 0.1180865868
1731350000.0 0.3508862246 0.1121484421
1736325000.0 0.3500924258 0.1059016506
1741300000.0 0.3519282124 0.0989697045
1746275000.0 0.3558668014 0.0910100527
1751250000.0 0.3603869176 0.0822315655
1756225000.0 0.3646494295 0.0723385404
1761200000.0 0.3675252583 0.0617365304
1766175000.0 0.3693277412 0.0510160399
1771150000.0 0.3702106744 0.0400309488
1776125000.0 0.3681723129 0.0291552927
1781100000.0 0.362988125 0.0185390937
1786075000.0 0.3545566089 0.0086954769
1791050000.0 0.3437319758 0.0010520846
1796025000.0 0.3314121365 -0.0032820743
1801000000.0 0.3161405995 -0.0050141949
1805975000.0 0.3043841221 -0.0050805273
1810950000.0 0.294170212 -0.0047743952
1815925000.0 0.2866059882 -0.0021415378
1820900000.0 0.2828814729 0.0011081866
1825875000.0 0.2836489882 0.0048058111
1830850000.0 0.288134989 0.0081051687
1835825000.0 0.295940084 0.0099306555
1840800000.0 0.3050129943 0.0094955309
1845775000.0 0.3146241863 0.0077061284
1850750000.0 0.3233343434 0.0038001435
1855725000.0 0.3303070476 -0.0017196746
1860700000.0 0.3346290991 -0.0081476225
1865675000.0 0.3355269568 -0.0149897391
1870650000.0 0.3334418897 -0.0224177892
1875625000.0 0.3275234032 -0.0299716094
1880600000.0 0.3183563971 -0.0367738792
1885575000.0 0.3068338837 -0.0431689847
1890550000.0 0.2920152583 -0.0485353276
1895525000.0 0.2755935361 -0.0520694912
1900500000.0 0.2570126444 -0.0510666076
1905475000.0 0.2402959095 -0.0513219746
1910450000.0 0.2248218475 -0.0480413271
1915425000.0 0.2119852227 -0.0411929752
1920400000.0 0.204350202 -0.0356189852
1925375000.0 0.2036237749 -0.0299911041
1930350000.0 0.2044394729 -0.0243338692
1935325000.0 0.2080208447 -0.0206727935
1940300000.0 0.2118545824 -0.018554813
1945275000.0 0.2143039673 -0.0180776956
1950250000.0 0.215022224 -0.0181182761
1955225000.0 0.2129831427 -0.0188772831
1960200000.0 0.210216697 -0.0214036853
1965175000.0 0.2028560746 -0.0223257301
1970150000.0 0.1927261213 -0.024356074
1975125000.0 0.1781334168 -0.0262057974
1980100000.0 0.1624936214 -0.0270412025
1985075000.0 0.142808403 -0.0285275746
1990050000.0 0.1197075049 -0.0293284671
1995025000.0 0.0949010785 -0.0296702055
2000000000.0 0.0646736182 -0.0290663425
