!Created with skrf (http://scikit-rf.org).
# GHz S RI R 50.0 
!freq ReS11 ImS11
10000000.0 -0.9804434171 0.0706151029
19950000.0 -0.9710664791 0.1343463794
29900000.0 -0.9574986605 0.2002276373
39850000.0 -0.9377468783 0.2700998506
49800000.0 -0.9085010832 0.3473904906
59750000.0 -0.8669774729 0.4339601409
69700000.0 -0.8084331637 0.5306794905
79650000.0 -0.7267975994 0.6384931518
89600000.0 -0.6116313953 0.753267741
99550000.0 -0.451376159 0.8647057657
109500000.0 -0.2353897652 0.9530127144
119450000.0 0.0387231835 0.9853362355
129400000.0 0.3467554928 0.9255750679
139350000.0 0.6346384216 0.7590867865
149300000.0 0.8507425079 0.5039790935
159250000.0 0.9634011948 0.2138382733
169200000.0 0.9795715036 -0.0605231672
179150000.0 0.9293935111 -0.2883061024
189100000.0 0.8441374897 -0.4642087444
199050000.0 0.7477139124 -0.5944959068
209000000.0 0.6518860261 -0.6885813265
218950000.0 0.5632228185 -0.7576474808
228900000.0 0.4835841138 -0.8078247236
238850000.0 0.4094036835 -0.8441104873
248800000.0 0.3333363128 -0.8681292614
258750000.0 0.271766353 -0.8855520565
268700000.0 0.2023053021 -0.8973710582
278650000.0 0.1309875683 -0.9030046365
288600000.0 0.0575228088 -0.9026886118
298550000.0 -0.0185001901 -0.8938658244
308500000.0 -0.0990658635 -0.8737411674
318450000.0 -0.1841765611 -0.8368822098
328400000.0 -0.2721754457 -0.776886666
338350000.0 -0.3573872893 -0.6886824236
348300000.0 -0.428214755 -0.5698852632
358250000.0 -0.4689993078 -0.426898952
368200000.0 -0.4676272457 -0.2740462716
378150000.0 -0.4221749468 -0.132254309
388100000.0 -0.3404891558 -0.0186257493
398050000.0 -0.2397207327 0.058107127
408000000.0 -0.1381155399 0.1002733629
417950000.0 -0.0478343131 0.1153730609
427900000.0 0.0252612459 0.1128719755
437850000.0 0.0795682685 0.0990937455
447800000.0 0.1170344425 0.0786204718
457750000.0 0.1401360478 0.054992287
467700000.0 0.1515525459 0.0311907397
477650000.0 0.1542069959 0.0094826961
487600000.0 0.1499150783 -0.0082360877
497550000.0 0.1396244841 -0.0195444072
507500000.0 0.1275118409 -0.0289192286
517450000.0 0.1072899488 -0.0314232016
527400000.0 0.0836943279 -0.0301989815
537350000.0 0.0582728619 -0.0251868183
547300000.0 0.0335277982 -0.0163738874
557250000.0 0.0098282287 -0.0055136585
567200000.0 -0.0112536531 0.0094116663
577150000.0 -0.0291863503 0.0275753214
587100000.0 -0.044417321 0.0483026845
597050000.0 -0.0570278585 0.0702774063
607000000.0 -0.0669821842 0.0924578271
616950000.0 -0.0743230826 0.1126868721
626900000.0 -0.0775243037 0.1310319118
636850000.0 -0.0767587837 0.1469119766
646800000.0 -0.0711013812 0.1603365613
656750000.0 -0.0618253166 0.1725026709
666700000.0 -0.0493443892 0.1834048858
676650000.0 -0.0358936059 0.1920294028
686600000.0 -0.0213331109 0.1974003348
696550000.0 -0.0053357241 0.1979215488
706500000.0 0.0114566888 0.1922671212
716450000.0 0.0307578699 0.180477623
726400000.0 0.0523562258 0.1628890968
736350000.0 0.07568102 0.1403017628
746300000.0 0.0988808346 0.1144353086
756250000.0 0.1201009599 0.0850379984
766200000.0 0.1365635108 0.0516920012
776150000.0 0.1469913685 0.0136076053
786100000.0 0.1510045071 -0.0290631726
796050000.0 0.1483947385 -0.0767060725
806000000.0 0.1405739775 -0.1276782976
815950000.0 0.127584279 -0.1784803133
825900000.0 0.1101145881 -0.2262215363
835850000.0 0.0874433622 -0.2685549201
845800000.0 0.058373063 -0.3040937721
855750000.0 0.0212623085 -0.3324233498
865700000.0 -0.0228046772 -0.354888702
875650000.0 -0.0733491434 -0.3708772622
885600000.0 -0.1297352531 -0.3798423956
895550000.0 -0.1916087942 -0.3761011183
905500000.0 -0.2360213716 -0.3375015761
915450000.0 -0.2541652055 -0.3441466683
925400000.0 -0.3103248582 -0.328400911
935350000.0 -0.3637134982 -0.2863991779
945300000.0 -0.41399734 -0.2266423598
955250000.0 -0.4615694177 -0.1460845325
965200000.0 -0.4972374178 -0.0436099323
975150000.0 -0.5122653501 0.0815377663
985100000.0 -0.4932616772 0.2273632604
995050000.0 -0.4245928718 0.3870802926
1005000000.0 -0.291700772 0.5435514908
1014950000.0 -0.089898139 0.6648528443
1024900000.0 0.1638374158 0.7128312085
1034850000.0 0.4274609778 0.6624583202
1044800000.0 0.6514272846 0.5170974058
1054750000.0 0.8009847925 0.3080335182
1064700000.0 0.8673416471 0.0751031058
1074650000.0 0.8587020856 -0.1474325173
1084600000.0 0.7820690435 -0.3357497873
1094550000.0 0.7010296644 -0.4842613628
1104500000.0 0.5743047084 -0.6128073177
1114450000.0 0.4243598625 -0.6994893745
1124400000.0 0.2629062783 -0.7467659194
1134350000.0 0.1013000941 -0.7570500226
1144300000.0 -0.0507981177 -0.7345831297
1154250000.0 -0.1850155536 -0.6839648521
1164200000.0 -0.2974820056 -0.6165072903
1174150000.0 -0.393816591 -0.5345824047
1184100000.0 -0.4705875827 -0.4391938656
1194050000.0 -0.5274204126 -0.3385793113
1204000000.0 -0.5668269342 -0.240330254
1213950000.0 -0.5905270716 -0.1493894007
1223900000.0 -0.6027148481 -0.0694957563
1233850000.0 -0.6055421186 -0.0003437782
1243800000.0 -0.6010828905 0.0597476233
1253750000.0 -0.5907984247 0.1141065594
1263700000.0 -0.5768436791 0.1651785122
1273650000.0 -0.5618323887 0.2117967026
1283600000.0 -0.5481924014 0.2542196694
1293550000.0 -0.5365682976 0.2900788292
1303500000.0 -0.5280675122 0.3182033039
1313450000.0 -0.5212600219 0.3395107255
1323400000.0 -0.5152147877 0.3549510684
1333350000.0 -0.5074250758 0.3677893619
1343300000.0 -0.4984792027 0.3807387176
1353250000.0 -0.4885382101 0.3952951452
1363200000.0 -0.4794382538 0.4112303301
1373150000.0 -0.470505627 0.4267702768
1383100000.0 -0.4634289348 0.4403117426
1393050000.0 -0.4581924352 0.4498824621
1403000000.0 -0.4531736526 0.4551961338
1412950000.0 -0.4468039005 0.4565217033
1422900000.0 -0.4372762394 0.4570182305
1432850000.0 -0.4249311895 0.4585603312
1442800000.0 -0.4103025743 0.4634370543
1452750000.0 -0.395556222 0.4711005442
1462700000.0 -0.3800679015 0.4811704544
1472650000.0 -0.3648616978 0.4913292449
1482600000.0 -0.3492632963 0.5001954669
1492550000.0 -0.3322635376 0.5062736259
1502500000.0 -0.311259455 0.5100505413
1512450000.0 -0.2860430056 0.5123093152
1522400000.0 -0.2562635088 0.5148905893
1532350000.0 -0.2229874386 0.5180641183
1542300000.0 -0.1860871925 0.5220943957
1552250000.0 -0.1473415849 0.5259998976
1562200000.0 -0.1071059526 0.5287682884
1572150000.0 -0.0664092414 0.5284142308
1582100000.0 -0.0243846868 0.5250575043
1592050000.0 0.0188748369 0.5189189176
1602000000.0 0.0629987478 0.510285772
1611950000.0 0.1069826759 0.500211772
1621900000.0 0.1503725647 0.4889576952
1631850000.0 0.1927752733 0.4754500682
1641800000.0 0.2336151505 0.4596979316
1651750000.0 0.272939069 0.4402756252
1661700000.0 0.3111381336 0.4182586885
1671650000.0 0.3470904986 0.3952756747
1681600000.0 0.381131371 0.3729349797
1691550000.0 0.412390764 0.3524307866
1701500000.0 0.4408369481 0.3350083131
1711450000.0 0.4653896529 0.319563756
1721400000.0 0.4860656161 0.3052666629
1731350000.0 0.5030369572 0.2902279437
1741300000.0 0.5177374238 0.2747768657
1751250000.0 0.5307806016 0.259359707
1761200000.0 0.5422392067 0.2448765871
1771150000.0 0.551880218 0.2336241969
1781100000.0 0.5597253052 0.2267488908
1791050000.0 0.5648909297 0.2242226816
1801000000.0 0.5671166469 0.2242231228
1810950000.0 0.5640846003 0.226839368
1820900000.0 0.5631025516 0.2309989978
1830850000.0 0.5626496191 0.2292826444
1840800000.0 0.5615773373 0.2252340061
1850750000.0 0.5597186445 0.2203551748
1860700000.0 0.556292247 0.2161445054
1870650000.0 0.5501288922 0.2144278001
1880600000.0 0.5399573206 0.2156879463
1890550000.0 0.5246225057 0.219272224
1900500000.0 0.5051500497 0.2228557182
1910450000.0 0.4834588363 0.2243996794
1920400000.0 0.4607374533 0.2221927502
1930350000.0 0.4387032826 0.2165177694
1940300000.0 0.4166564328 0.2083908277
1950250000.0 0.3938119977 0.1987360206
1960200000.0 0.3684598582 0.1890429291
1970150000.0 0.3393009485 0.1791748052
1980100000.0 0.3039815697 0.1697966242
1990050000.0 0.2622076016 0.1579962536
2000000000.0 0.2131749298 0.142661911
