!Created with skrf (http://scikit-rf.org).
# GHz S RI R 50.0 
!freq ReS11 ImS11
10000000.0 -0.7738947784 0.6767174283
19950000.0 -0.143773707 0.9895565395
29900000.0 0.5310999266 0.8213898472
39850000.0 0.9399927601 0.2523369473
49800000.0 0.8754228167 -0.4583180731
59750000.0 0.3348300612 -0.9572618969
69700000.0 -0.4264168603 -0.940751252
79650000.0 -0.9618208948 -0.3649880638
89600000.0 -0.8998465326 0.440170719
99550000.0 -0.2392070528 0.9396231989
109500000.0 0.5932942942 0.7505933623
119450000.0 0.9743717941 -0.0515228513
129400000.0 0.52644012 -0.8590113949
139350000.0 -0.4090390246 -0.9311685313
149300000.0 -0.9715977782 -0.1930550626
159250000.0 -0.6956146654 0.6529003973
169200000.0 0.1030804424 0.9341337872
179150000.0 0.8014592714 0.5206898675
189100000.0 0.9529854449 -0.2496284417
199050000.0 0.5049848251 -0.8676855429
209000000.0 -0.2294452741 -0.9707165587
218950000.0 -0.8039256295 -0.5435990616
228900000.0 -0.9301063781 0.1403478157
238850000.0 -0.5773959502 0.7215152293
248800000.0 0.0561626343 0.9043202359
258750000.0 0.6757820482 0.6671916088
268700000.0 0.9692365143 0.0642772856
278650000.0 0.784430876 -0.5801470541
288600000.0 0.2176083591 -0.9303271559
298550000.0 -0.4291194571 -0.8085896412
308500000.0 -0.8200017683 -0.2889316971
318450000.0 -0.7534840573 0.3493869694
328400000.0 -0.2692564905 0.7565131068
338350000.0 0.3458310153 0.6959227302
348300000.0 0.696395327 0.2232554757
358250000.0 0.5708487773 -0.30404536
368200000.0 0.1381261505 -0.5115307461
378150000.0 -0.2250336307 -0.3315217759
388100000.0 -0.2849047329 -0.0033586725
398050000.0 -0.1006104262 0.1874157573
408000000.0 0.1000998784 0.1452204347
417950000.0 0.1498060647 -0.013804473
427900000.0 0.0521825028 -0.1182254879
437850000.0 -0.0759208043 -0.0893328721
447800000.0 -0.1254241236 0.0311395042
457750000.0 -0.0660394431 0.1422760086
467700000.0 0.0523938056 0.165286277
477650000.0 0.1470582098 0.0939716004
487600000.0 0.1623310978 -0.0175253407
497550000.0 0.1041551545 -0.0966322021
507500000.0 0.007966924 -0.1124983789
517450000.0 -0.0596904042 -0.0669226779
527400000.0 -0.0732956903 -0.0053012687
537350000.0 -0.0445587145 0.0309494406
547300000.0 -0.0126738747 0.0292269659
557250000.0 -0.0079692458 0.009785774
567200000.0 -0.0321049689 0.0056198362
577150000.0 -0.0528626412 0.0334653219
587100000.0 -0.0365637304 0.0775554253
597050000.0 0.0232683737 0.1001993623
607000000.0 0.0976066867 0.0686255082
616950000.0 0.136678896 -0.0216223503
626900000.0 0.0989652022 -0.1161340056
636850000.0 0.0035408424 -0.1756357793
646800000.0 -0.1139881654 -0.1565428691
656750000.0 -0.19071927 -0.0608957744
666700000.0 -0.18072863 0.0649805295
676650000.0 -0.0857086114 0.1519237522
686600000.0 0.0436451706 0.1502452366
696550000.0 0.1364482159 0.0605562196
706500000.0 0.1419391642 -0.0662765872
716450000.0 0.0618697804 -0.1575160334
726400000.0 -0.0530938137 -0.1623408701
736350000.0 -0.1275787321 -0.0828270498
746300000.0 -0.1122452762 0.0229727309
756250000.0 -0.0188652378 0.075639935
766200000.0 0.0851169725 0.0318928982
776150000.0 0.118009178 -0.0852669264
786100000.0 0.042965034 -0.1938792178
796050000.0 -0.1028680235 -0.2075364787
806000000.0 -0.2216490683 -0.0932232941
815950000.0 -0.2172205388 0.0940002337
825900000.0 -0.0624632657 0.2364535939
835850000.0 0.1702194253 0.2269807023
845800000.0 0.344563572 0.0433677062
855750000.0 0.3434031365 -0.227024827
865700000.0 0.144591821 -0.4333249583
875650000.0 -0.158657459 -0.4441787687
885600000.0 -0.397460288 -0.2246519172
895550000.0 -0.4062218238 0.12050475
905500000.0 -0.137972095 0.3496225474
915450000.0 0.1361742616 0.2961387756
925400000.0 0.3320910277 0.183609772
935350000.0 0.4405162875 -0.1059578506
945300000.0 0.2805010207 -0.4064555161
955250000.0 -0.0697838391 -0.4870822962
965200000.0 -0.376786821 -0.2616410387
975150000.0 -0.3986234627 0.1458577713
985100000.0 -0.0596620854 0.430438125
995050000.0 0.4042513765 0.302389986
1005000000.0 0.5633607834 -0.1943793779
1014950000.0 0.2002511657 -0.6337857583
1024900000.0 -0.4204123594 -0.5626651993
1034850000.0 -0.7331763236 0.0499800554
1044800000.0 -0.3590686081 0.7019652913
1054750000.0 0.4341531466 0.7329080914
1064700000.0 0.874175762 0.1091344957
1074650000.0 0.6742518794 -0.6043827465
1084600000.0 0.0090424423 -0.8776138834
1094550000.0 -0.6081007744 -0.5760225156
1104500000.0 -0.7963811197 0.0791497737
1114450000.0 -0.4214733054 0.6497137357
1124400000.0 0.2484360546 0.7138081056
1134350000.0 0.688906973 0.2498488334
1144300000.0 0.6144108615 -0.335177561
1154250000.0 0.1669167811 -0.6401434083
1164200000.0 -0.3256068219 -0.5329919747
1174150000.0 -0.5859126887 -0.1225422648
1184100000.0 -0.4668691318 0.3498382071
1194050000.0 -0.0336636951 0.5742413558
1204000000.0 0.4106330588 0.3998423335
1213950000.0 0.5767182307 -0.027659633
1223900000.0 0.4024542655 -0.4275466999
1233850000.0 0.0210567795 -0.5992967764
1243800000.0 -0.3733856496 -0.4834572399
1253750000.0 -0.6036103202 -0.1383297607
1263700000.0 -0.5503455831 0.2843957297
1273650000.0 -0.2194439207 0.5688821518
1283600000.0 0.2220289187 0.5557897099
1293550000.0 0.5396135054 0.2570629101
1303500000.0 0.5891350601 -0.1629046854
1313450000.0 0.3758019198 -0.5126910973
1323400000.0 0.0032242915 -0.6631508099
1333350000.0 -0.3858800443 -0.5643139539
1343300000.0 -0.6439779673 -0.2465508064
1353250000.0 -0.6518901141 0.1764201748
1363200000.0 -0.3818536098 0.5190998305
1373150000.0 0.0511262169 0.6097722485
1383100000.0 0.4374813066 0.4041186221
1393050000.0 0.6055548764 0.0138395373
1403000000.0 0.5065802254 -0.383171288
1412950000.0 0.2024063915 -0.6365901391
1422900000.0 -0.1848791812 -0.6628519056
1432850000.0 -0.5122433502 -0.45417323
1442800000.0 -0.6489617987 -0.0837978122
1452750000.0 -0.5242856695 0.2972268179
1462700000.0 -0.1823748411 0.5131990196
1472650000.0 0.2165359761 0.4592905346
1482600000.0 0.4844876334 0.1703010246
1492550000.0 0.5085365797 -0.2083378381
1502500000.0 0.2972009536 -0.5043586791
1512450000.0 -0.0435329505 -0.6001708485
1522400000.0 -0.3637886325 -0.4650307234
1532350000.0 -0.5233330925 -0.160362471
1542300000.0 -0.4430671733 0.175952671
1552250000.0 -0.1562361018 0.377084251
1562200000.0 0.1882186326 0.3347833606
1572150000.0 0.4024365261 0.074154606
1582100000.0 0.3775004838 -0.2544412456
1592050000.0 0.1425350518 -0.4742322182
1602000000.0 -0.170377387 -0.4793187367
1611950000.0 -0.4042962399 -0.2704084946
1621900000.0 -0.4406180041 0.0511210108
1631850000.0 -0.2504321801 0.3255252866
1641800000.0 0.0829873823 0.3999647576
1651750000.0 0.385588971 0.2186092374
1661700000.0 0.4873353697 -0.1269484353
1671650000.0 0.3313344432 -0.4482806391
1681600000.0 0.0033569009 -0.5841076164
1691550000.0 -0.3392761075 -0.4783456058
1701500000.0 -0.5477873976 -0.1810900477
1711450000.0 -0.5320160179 0.1879739251
1721400000.0 -0.2799425626 0.4784614741
1731350000.0 0.1153126088 0.5494809688
1741300000.0 0.4748860936 0.3480121442
1751250000.0 0.6179139408 -0.0384666232
1761200000.0 0.4808190554 -0.4218229844
1771150000.0 0.144616423 -0.6344491191
1781100000.0 -0.2394733986 -0.6088925582
1791050000.0 -0.5321679456 -0.3734768884
1801000000.0 -0.639713637 -0.0122051794
1810950000.0 -0.5195428114 0.3549453711
1820900000.0 -0.1967450305 0.5886419513
1830850000.0 0.2112428444 0.572925876
1840800000.0 0.5196998278 0.2976325562
1850750000.0 0.5824652244 -0.1047505116
1860700000.0 0.3913329936 -0.4430735934
1870650000.0 0.0556893312 -0.5920342845
1880600000.0 -0.2849976921 -0.5248452096
1890550000.0 -0.474943782 -0.2817165955
1900500000.0 -0.5603583482 -0.0052567128
1910450000.0 -0.4779678523 0.2616843414
1920400000.0 -0.2255392724 0.4485909248
1930350000.0 0.0796661726 0.4353853368
1940300000.0 0.2967691356 0.2421989204
1950250000.0 0.3409331856 -0.021677008
1960200000.0 0.227142694 -0.2326875375
1970150000.0 0.0380146741 -0.3242505964
1980100000.0 -0.1369288185 -0.2980266178
1990050000.0 -0.2392844821 -0.2013835069
2000000000.0 -0.2578321559 -0.1003957781
