!Created with skrf (http://scikit-rf.org).
# GHz S RI R 50.0 
!freq ReS11 ImS11
10000000.0 -0.7905409298 0.5984276104
19950000.0 -0.28336673 0.9383482199
29900000.0 0.3247543348 0.9182915665
39850000.0 0.8109236176 0.5414051777
49800000.0 0.9806113946 -0.0630348948
59750000.0 0.7413445757 -0.6610265381
69700000.0 0.165124468 -0.9852095646
79650000.0 -0.5012178881 -0.8579245987
89600000.0 -0.9296740288 -0.3077634866
99550000.0 -0.8759358076 0.4091279664
109500000.0 -0.3234553843 0.9091670645
119450000.0 0.4521155486 0.8638538828
129400000.0 0.9478620408 0.2397011253
139350000.0 0.803553793 -0.5773463057
149300000.0 0.0758944697 -0.9710139595
159250000.0 -0.6745700057 -0.6728263699
169200000.0 -0.9402982885 0.0579999824
179150000.0 -0.6069434737 0.7250624638
189100000.0 0.0711789768 0.9522333287
199050000.0 0.6949134123 0.6603390741
209000000.0 0.9507704734 0.0437788059
218950000.0 0.7490187502 -0.565517629
228900000.0 0.2189066753 -0.8984688048
238850000.0 -0.3939857943 -0.8267894555
248800000.0 -0.6049680186 -0.3852180427
258750000.0 -0.9075371145 0.1586872602
268700000.0 -0.6237992116 0.6863142296
278650000.0 -0.0805897433 0.9200375929
288600000.0 0.4853150937 0.7653293048
298550000.0 0.8286246969 0.2940333033
308500000.0 0.8003067854 -0.2858984229
318450000.0 0.4127112004 -0.7108673734
328400000.0 -0.1498694958 -0.7808978284
338350000.0 -0.6027032474 -0.4645414805
348300000.0 -0.70787572 0.0533022823
358250000.0 -0.4366113617 0.465184448
368200000.0 0.0039760071 0.54838417
378150000.0 0.3263022311 0.3173550038
388100000.0 0.3709128811 -0.0214010692
398050000.0 0.186717838 -0.2417382215
408000000.0 -0.050249286 -0.251009178
417950000.0 -0.1854486596 -0.1100478491
427900000.0 -0.1731477641 0.0517851001
437850000.0 -0.0643483578 0.1347256879
447800000.0 0.0515181549 0.1146194523
457750000.0 0.1075830683 0.0298128982
467700000.0 0.0863216492 -0.0551773386
477650000.0 0.02264883 -0.0897599449
487600000.0 -0.0315830387 -0.0652236417
497550000.0 0.0011494769 -0.090793594
507500000.0 -0.0586946598 -0.0030541972
517450000.0 -0.0243697481 0.0153580691
527400000.0 -0.0032488376 0.0017245512
537350000.0 -0.0104943557 -0.0198660701
547300000.0 -0.0435064677 -0.0244819592
557250000.0 -0.0708465554 0.0110993871
567200000.0 -0.063322918 0.0636086128
577150000.0 -0.0144206229 0.1040995137
587100000.0 0.0590319984 0.102281729
597050000.0 0.1232914643 0.0480619768
607000000.0 0.1418669686 -0.0433844722
616950000.0 0.0985094591 -0.1336869832
626900000.0 0.0060330336 -0.1821041387
636850000.0 -0.0999716878 -0.1637364222
646800000.0 -0.1729773932 -0.081975358
656750000.0 -0.180990677 0.0273060159
666700000.0 -0.1190204309 0.1180944816
676650000.0 -0.0138443732 0.1517867859
686600000.0 0.0881474774 0.1118052203
696550000.0 0.1407572871 0.0187470519
706500000.0 0.1211665304 -0.08058556
716450000.0 0.0448608075 -0.1370659181
726400000.0 -0.0438307147 -0.1229588316
736350000.0 -0.0920255237 -0.0498193963
746300000.0 -0.0698115886 0.0378308879
756250000.0 0.0156279462 0.0856887858
766200000.0 0.1159207127 0.056344489
776150000.0 0.1704996837 -0.043197819
786100000.0 0.1358522864 -0.1631289504
796050000.0 0.015093981 -0.2314347427
806000000.0 -0.1377420597 -0.1955342678
815950000.0 -0.2421256997 -0.0528352901
825900000.0 -0.2316852183 0.1417960158
835850000.0 -0.0925049912 0.2990491067
845800000.0 0.1249933974 0.3381116432
855750000.0 0.3286682825 0.2293821144
865700000.0 0.4253073505 0.0095913011
875650000.0 0.3610547539 -0.2326953285
885600000.0 0.1532498133 -0.3879118731
895550000.0 -0.1172437511 -0.3827140764
905500000.0 -0.3364376299 -0.2056152781
915450000.0 -0.3981800891 0.0790321504
925400000.0 -0.2620982986 0.3403828835
935350000.0 0.0122590756 0.4500837973
945300000.0 0.2928102749 0.3470746087
955250000.0 0.4308586514 0.0700203055
965200000.0 0.3266426875 -0.2430020896
975150000.0 0.0041562278 -0.3928757326
985100000.0 -0.3487119926 -0.2345217275
995050000.0 -0.4574020392 0.1701433977
1005000000.0 -0.1869658123 0.533902373
1014950000.0 0.3104768684 0.5476710946
1024900000.0 0.6654219886 0.1259797167
1034850000.0 0.5475152724 -0.4728477591
1044800000.0 -0.0394558793 -0.7722628719
1054750000.0 -0.6498740073 -0.4769215338
1064700000.0 -0.7796019566 0.0907153228
1074650000.0 -0.5615648968 0.6302458625
1084600000.0 0.0098627231 0.8292408001
1094550000.0 0.5487140347 0.596593804
1104500000.0 0.7730032862 0.0356006589
1114450000.0 0.5220938701 -0.5154333423
1124400000.0 -0.034319278 -0.6982475339
1134350000.0 -0.5110722086 -0.4308535391
1144300000.0 -0.6354203096 0.0541638793
1154250000.0 -0.3999793035 0.449776796
1164200000.0 0.0150291242 0.5596557431
1174150000.0 0.3782596908 0.3614071294
1184100000.0 0.496844932 -0.0359527064
1194050000.0 0.2984458092 -0.3917445484
1204000000.0 -0.0759110287 -0.5021987614
1213950000.0 -0.4093147192 -0.3419551598
1223900000.0 -0.5568507135 -0.0220423857
1233850000.0 -0.4804728327 0.3112902052
1243800000.0 -0.2187242868 0.5326838514
1253750000.0 0.1327219523 0.554415712
1263700000.0 0.4355176739 0.351816452
1273650000.0 0.5566104943 0.0021166219
1283600000.0 0.4478868925 -0.3495054917
1293550000.0 0.1648457816 -0.5681702324
1303500000.0 -0.1774569306 -0.5928707208
1313450000.0 -0.4698178465 -0.435988569
1323400000.0 -0.6346494835 -0.1526689768
1333350000.0 -0.6264584496 0.1799961099
1343300000.0 -0.4336852938 0.4673874648
1353250000.0 -0.0999065643 0.6049907172
1363200000.0 0.2645508458 0.5273558015
1373150000.0 0.5235967272 0.2555176618
1383100000.0 0.5849287539 -0.1058493667
1393050000.0 0.4474597522 -0.4274902525
1403000000.0 0.1746105705 -0.6179404388
1412950000.0 -0.144688991 -0.6361170506
1422900000.0 -0.4211131315 -0.4879280029
1432850000.0 -0.5785756382 -0.214159489
1442800000.0 -0.5666691865 0.1091406179
1452750000.0 -0.3774807832 0.3833508731
1462700000.0 -0.0612042155 0.5122782047
1472650000.0 0.273079676 0.4429453741
1482600000.0 0.5043313781 0.2049492403
1492550000.0 0.5608306248 -0.1074004471
1502500000.0 0.4402588628 -0.3855669497
1512450000.0 0.1921981064 -0.5452224607
1522400000.0 -0.1016597674 -0.5367713288
1532350000.0 -0.3408091728 -0.3580605248
1542300000.0 -0.43353322 -0.066588952
1552250000.0 -0.3343819532 0.2265608923
1562200000.0 -0.0826852959 0.3977388836
1572150000.0 0.2084032893 0.3821429148
1582100000.0 0.4194975046 0.2033343027
1592050000.0 0.4755382134 -0.0559802598
1602000000.0 0.3652221095 -0.2921731763
1611950000.0 0.1311557779 -0.4154960468
1621900000.0 -0.1395046811 -0.3721433983
1631850000.0 -0.3364699314 -0.165002132
1641800000.0 -0.3637944096 0.1284580263
1651750000.0 -0.202420708 0.3755321806
1661700000.0 0.0713113661 0.4676618369
1671650000.0 0.3376157171 0.3780478851
1681600000.0 0.4967276488 0.1537242346
1691550000.0 0.4994903971 -0.1192695516
1701500000.0 0.3536052291 -0.3507762839
1711450000.0 0.0936028098 -0.4786156832
1721400000.0 -0.2176408748 -0.435138437
1731350000.0 -0.4559768535 -0.2058524306
1741300000.0 -0.5146945718 0.1237217819
1751250000.0 -0.3746985585 0.4207187112
1761200000.0 -0.1019438699 0.5824207404
1771150000.0 0.204389526 0.5716729718
1781100000.0 0.4556006157 0.405994332
1791050000.0 0.5866098624 0.1339252085
1801000000.0 0.5569177802 -0.1747966479
1810950000.0 0.3616085508 -0.4305504301
1820900000.0 0.048592602 -0.5407670709
1830850000.0 -0.2769327366 -0.4556324793
1840800000.0 -0.4949920501 -0.2070439411
1850750000.0 -0.5395838285 0.1057485551
1860700000.0 -0.4196662818 0.3764838411
1870650000.0 -0.1933162065 0.5368888476
1880600000.0 0.0695765349 0.5598378989
1890550000.0 0.3009932494 0.4489760425
1900500000.0 0.440686698 0.2339817621
1910450000.0 0.444181699 -0.0235380404
1920400000.0 0.3067073529 -0.2405261063
1930350000.0 0.0789661199 -0.3407520819
1940300000.0 -0.1487060163 -0.3007962603
1950250000.0 -0.2989507828 -0.1593482284
1960200000.0 -0.3415320383 0.0113842916
1970150000.0 -0.2922516981 0.1495392712
1980100000.0 -0.195681195 0.2160072125
1990050000.0 -0.1079042437 0.205378452
2000000000.0 -0.0751934266 0.1542747277
