!Created with skrf (http://scikit-rf.org).
# GHz S RI R 50.0 
!freq ReS11 ImS11
10000000.0 -0.9780722014 0.0695549841
19950000.0 -0.9680708699 0.134857218
29900000.0 -0.9527050011 0.2029818637
39850000.0 -0.9311867497 0.2753756691
49800000.0 -0.9006807973 0.35393344
59750000.0 -0.8590428913 0.4397606744
69700000.0 -0.8017746009 0.5332164137
79650000.0 -0.7238728296 0.6350905958
89600000.0 -0.6158146427 0.7420672253
99550000.0 -0.4680607708 0.8464892646
109500000.0 -0.2716608145 0.9328283602
119450000.0 -0.0232264304 0.9748993853
129400000.0 0.2723908061 0.9173630413
139350000.0 0.5390613568 0.8186319361
149300000.0 0.7715242205 0.6051606334
159250000.0 0.9188901316 0.3384964781
169200000.0 0.9733321032 0.0638294677
179150000.0 0.9513096062 -0.1820830549
189100000.0 0.8807627469 -0.3821558296
199050000.0 0.7872185254 -0.5358851947
209000000.0 0.6854422328 -0.6498057632
218950000.0 0.585002178 -0.7344623063
228900000.0 0.4878450078 -0.7971235175
238850000.0 0.3888333828 -0.8438331826
248800000.0 0.3820553853 -0.7245318007
258750000.0 0.2406612085 -0.8844916186
268700000.0 0.1484318658 -0.8979710861
278650000.0 0.0588069697 -0.8998869428
288600000.0 -0.0318318467 -0.8914417122
298550000.0 -0.1241434933 -0.8701256303
308500000.0 -0.2194883242 -0.8330996536
318450000.0 -0.3156651285 -0.7754569235
328400000.0 -0.4077218424 -0.692571785
338350000.0 -0.4875842541 -0.5823963641
348300000.0 -0.5431141885 -0.4465835519
358250000.0 -0.5617335953 -0.2950996116
368200000.0 -0.5374713625 -0.1441890832
378150000.0 -0.4745277359 -0.0131635549
388100000.0 -0.3848428914 0.0861911723
398050000.0 -0.2849257788 0.1493639346
408000000.0 -0.1875237646 0.1806604794
417950000.0 -0.1023788052 0.1869768856
427900000.0 -0.033553336 0.1763354064
437850000.0 0.0176371977 0.1551275274
447800000.0 0.0523169356 0.1287486903
457750000.0 0.0723952429 0.1002642605
467700000.0 0.0800346308 0.0730603202
477650000.0 0.0765881363 0.0478430344
487600000.0 0.0580025354 0.0256000405
497550000.0 0.0793068071 0.0549140296
507500000.0 0.0513670605 0.0132308113
517450000.0 0.0273746877 0.0051915335
527400000.0 0.003673793 0.0034000475
537350000.0 -0.0200551043 0.0052815005
547300000.0 -0.0470036875 0.0137637558
557250000.0 -0.0667555091 0.0277615177
567200000.0 -0.0841064424 0.0422017951
577150000.0 -0.0984548212 0.0582603979
587100000.0 -0.110044176 0.0754093165
597050000.0 -0.1181602788 0.0923623072
607000000.0 -0.1229248974 0.1091691552
616950000.0 -0.1247557117 0.1246101802
626900000.0 -0.1226426399 0.1389311252
636850000.0 -0.116923672 0.1516604849
646800000.0 -0.1072036589 0.1619215907
656750000.0 -0.0944691769 0.1699055524
666700000.0 -0.0785813868 0.1750582487
676650000.0 -0.0614195564 0.1769619515
686600000.0 -0.042107926 0.175190855
696550000.0 -0.0206811922 0.1695200294
706500000.0 0.0025050249 0.1584943696
716450000.0 0.027437355 0.1422464825
726400000.0 0.0533513218 0.1211470361
736350000.0 0.078703322 0.0948484008
746300000.0 0.1025497241 0.0649599812
756250000.0 0.1235312455 0.0302289758
766200000.0 0.1395678353 -0.0084466984
776150000.0 0.1500284615 -0.0510175407
786100000.0 0.1543885798 -0.0958478248
796050000.0 0.1522174806 -0.1427435428
806000000.0 0.1445949406 -0.1903237737
815950000.0 0.1318496611 -0.2358262884
825900000.0 0.1140095314 -0.2772693505
835850000.0 0.0912318817 -0.3136086849
845800000.0 0.0630565745 -0.343163518
855750000.0 0.0297782987 -0.3662203175
865700000.0 -0.0083000214 -0.3837696936
875650000.0 -0.0510024913 -0.3944807002
885600000.0 -0.0974821964 -0.3981254215
895550000.0 -0.1467746892 -0.3933330306
905500000.0 -0.1980225182 -0.3782311961
915450000.0 -0.2502095191 -0.3501186413
925400000.0 -0.3026346278 -0.3059694309
935350000.0 -0.3534919936 -0.2413140932
945300000.0 -0.3990067076 -0.1533131888
955250000.0 -0.4311342407 -0.0365028291
965200000.0 -0.435079318 0.1104339731
975150000.0 -0.3921093439 0.2819848608
985100000.0 -0.2810220754 0.4565291539
995050000.0 -0.0943665762 0.6016673427
1005000000.0 0.1554023962 0.6720824376
1014950000.0 0.4198796005 0.6377178314
1024900000.0 0.6455466731 0.5074404793
1034850000.0 0.7956494101 0.3154964567
1044800000.0 0.8623903418 0.1001799114
1054750000.0 0.8433916986 -0.1044901085
1064700000.0 0.7793505306 -0.2647809398
1074650000.0 0.6562878466 -0.3073683735
1084600000.0 0.6840455009 -0.4183921857
1094550000.0 0.581629302 -0.5550364306
1104500000.0 0.4430342657 -0.6412373821
1114450000.0 0.2896147537 -0.6879987221
1124400000.0 0.1312854061 -0.6978766011
1134350000.0 -0.0217014664 -0.6725987135
1144300000.0 -0.1601910336 -0.6161920389
1154250000.0 -0.2761727761 -0.5354608674
1164200000.0 -0.366238294 -0.4426647534
1174150000.0 -0.4392914034 -0.3447665313
1184100000.0 -0.4944976311 -0.2391173522
1194050000.0 -0.5296158072 -0.1339534508
1204000000.0 -0.5470222299 -0.0369851524
1213950000.0 -0.5513751913 0.0483722406
1223900000.0 -0.5471076018 0.1207976059
1233850000.0 -0.5380272309 0.1811792359
1243800000.0 -0.5261149222 0.232255442
1253750000.0 -0.5126172878 0.2762837893
1263700000.0 -0.4985526759 0.3154207654
1273650000.0 -0.486011852 0.3488046214
1283600000.0 -0.4749477847 0.3779098356
1293550000.0 -0.4658335047 0.4016572726
1303500000.0 -0.4589416171 0.4200649217
1313450000.0 -0.4543560836 0.4337656238
1323400000.0 -0.4507158834 0.4438640403
1333350000.0 -0.4469886626 0.4517610168
1343300000.0 -0.4434285703 0.4599516106
1353250000.0 -0.4400052204 0.4678394288
1363200000.0 -0.4362284175 0.4759562955
1373150000.0 -0.4313189208 0.4829380268
1383100000.0 -0.4259099953 0.4885740073
1393050000.0 -0.420381656 0.4918962403
1403000000.0 -0.4138394612 0.4926618567
1412950000.0 -0.4066976322 0.4904920291
1422900000.0 -0.3990717568 0.4870597876
1432850000.0 -0.3914875296 0.4829142401
1442800000.0 -0.3840090111 0.480038422
1452750000.0 -0.3775425851 0.4795724003
1462700000.0 -0.3690256068 0.4826662421
1472650000.0 -0.3563921461 0.4881487878
1482600000.0 -0.3397124358 0.4936139104
1492550000.0 -0.3198032208 0.4978604499
1502500000.0 -0.2965695476 0.5013033424
1512450000.0 -0.2700828125 0.5036569846
1522400000.0 -0.2410602143 0.5054693667
1532350000.0 -0.2096043406 0.5063245053
1542300000.0 -0.1745464549 0.5060384003
1552250000.0 -0.136506547 0.5040115113
1562200000.0 -0.0961701771 0.5003226422
1572150000.0 -0.0536766733 0.4944077752
1582100000.0 -0.0094301348 0.4863136607
1592050000.0 0.0355619276 0.4772322885
1602000000.0 0.0802739736 0.4663590438
1611950000.0 0.1248396238 0.4544110796
1621900000.0 0.1684146616 0.4404887162
1631850000.0 0.210435041 0.4235603631
1641800000.0 0.2508204197 0.4040298738
1651750000.0 0.2899676666 0.3810661888
1661700000.0 0.3278738357 0.3562867986
1671650000.0 0.3637975598 0.3312487436
1681600000.0 0.3972982711 0.3068585236
1691550000.0 0.4276339717 0.2837053532
1701500000.0 0.4544400131 0.2627674421
1711450000.0 0.4772229019 0.242916131
1721400000.0 0.4956100265 0.2231470542
1731350000.0 0.5075672223 0.2003266325
1741300000.0 0.5023870945 0.1734006816
1751250000.0 0.4725813511 0.1978171007
1761200000.0 0.5217259773 0.2154633221
1771150000.0 0.5446316125 0.1978470323
1781100000.0 0.5550704974 0.1844464481
1791050000.0 0.5608512086 0.1762264725
1801000000.0 0.564239496 0.1706532535
1810950000.0 0.5653625292 0.1664640746
1820900000.0 0.5652931348 0.1629643993
1830850000.0 0.5644058493 0.1593701259
1840800000.0 0.5617307458 0.1557952798
1850750000.0 0.5567068864 0.1518311713
1860700000.0 0.5480436114 0.147518987
1870650000.0 0.5359184739 0.1436271595
1880600000.0 0.5203297 0.1402780248
1890550000.0 0.5011604105 0.1380234778
1900500000.0 0.4801737626 0.1351510643
1910450000.0 0.4578903463 0.130939652
1920400000.0 0.434045029 0.1246066092
1930350000.0 0.4075764598 0.1154813138
1940300000.0 0.3758990486 0.1037376292
1950250000.0 0.3375691893 0.0893142134
1960200000.0 0.2902620252 0.0727259495
1970150000.0 0.2318256512 0.0551734048
1980100000.0 0.158426351 0.0392535987
1990050000.0 0.0647611775 0.0296801919
2000000000.0 -0.0586305831 0.0424992747
