!Created with skrf (http://scikit-rf.org).
# GHz S RI R 50.0 
!freq ReS11 ImS11
10000000.0 -0.803005163 0.5987004213
19950000.0 -0.2964692588 0.93813462
29900000.0 0.3107673584 0.9181579107
39850000.0 0.7991885302 0.5427040059
49800000.0 0.9753306314 -0.0631776766
59750000.0 0.7400537649 -0.6697526896
69700000.0 0.1572740195 -1.002128409
79650000.0 -0.5205401002 -0.8665356387
89600000.0 -0.9441339781 -0.2903437595
99550000.0 -0.8549182988 0.447190078
109500000.0 -0.2476169658 0.9283779009
119450000.0 0.5561198385 0.8061640118
129400000.0 0.9996430644 0.0801568487
139350000.0 0.7004716183 -0.7240745014
149300000.0 -0.1095980812 -0.9751688861
159250000.0 -0.7874399062 -0.5275802255
169200000.0 -0.9055846628 0.2342307017
179150000.0 -0.4704694079 0.8228676454
189100000.0 0.2180500103 0.9419299384
199050000.0 0.7832515633 0.5781649692
209000000.0 0.9595706608 -0.0469276311
218950000.0 0.7119280821 -0.617109642
228900000.0 0.1810237313 -0.9046302275
238850000.0 -0.4045908758 -0.8161077806
248800000.0 -0.8042110294 -0.4145067549
258750000.0 -0.9110663182 0.1701248616
268700000.0 -0.6440562474 0.6885467443
278650000.0 -0.1216223416 0.938255091
288600000.0 0.4401615959 0.8159795261
298550000.0 0.8081233491 0.3778174502
308500000.0 0.8333987255 -0.1938327476
318450000.0 0.5027067399 -0.6573003953
328400000.0 -0.041030427 -0.8052054124
338350000.0 -0.5370269164 -0.5634007943
348300000.0 -0.7225367165 -0.0677442922
358250000.0 -0.5177577924 0.3784316086
368200000.0 -0.1016284739 0.5189710914
378150000.0 0.2293609718 0.3403291926
388100000.0 0.3016897006 0.036056714
398050000.0 0.1563623122 -0.1654008305
408000000.0 -0.0391657403 -0.1700172591
417950000.0 -0.1312290663 -0.0468456746
427900000.0 -0.0883853391 0.075821194
437850000.0 0.0231196979 0.1101304842
447800000.0 0.1178422806 0.0471169749
457750000.0 0.1355870595 -0.0609219891
467700000.0 0.0719550575 -0.1453300693
477650000.0 -0.0273313312 -0.1623124528
487600000.0 -0.1068400616 -0.1065485573
497550000.0 -0.133218201 -0.0206716143
507500000.0 -0.0974986659 0.0562402165
517450000.0 -0.0277784948 0.0881019595
527400000.0 0.030857519 0.0714694825
537350000.0 0.0526256231 0.0325939651
547300000.0 0.0374616478 -3.82441e-05
557250000.0 0.0057865453 -0.0033882343
567200000.0 -0.0113182781 0.0199061416
577150000.0 0.0035704928 0.0490819391
587100000.0 0.0456131231 0.0522312864
597050000.0 0.085047205 0.0156609855
607000000.0 0.0903196838 -0.0505941998
616950000.0 0.047559257 -0.1158992025
626900000.0 -0.0344553324 -0.1422451443
636850000.0 -0.1233225684 -0.1111560592
646800000.0 -0.1733350791 -0.0291211871
656750000.0 -0.1615936709 0.0722168073
666700000.0 -0.0872512482 0.1458156585
676650000.0 0.0198591851 0.1572357362
686600000.0 0.1126715756 0.0984605852
696550000.0 0.149567344 -0.0084657632
706500000.0 0.1139668895 -0.1114594036
716450000.0 0.025192376 -0.1644391013
726400000.0 -0.0702327536 -0.1450715335
736350000.0 -0.1235020825 -0.0643186702
746300000.0 -0.1011685531 0.0310919074
756250000.0 -0.0136363894 0.0855924601
766200000.0 0.0889619091 0.0625788795
776150000.0 0.1507389677 -0.0304796365
786100000.0 0.1250279149 -0.1407134276
796050000.0 0.0174493235 -0.2049503611
806000000.0 -0.1167795038 -0.1678491814
815950000.0 -0.2034226695 -0.031753296
825900000.0 -0.1760277913 0.1440387793
835850000.0 -0.0310900602 0.2742256294
845800000.0 0.1742712841 0.2816210842
855750000.0 0.3481955883 0.1506829068
865700000.0 0.4010540839 -0.0744635947
875650000.0 0.2915366187 -0.2933055323
885600000.0 0.0524877494 -0.3984848096
895550000.0 -0.2136579194 -0.3229788319
905500000.0 -0.3785727599 -0.0856681843
915450000.0 -0.360088582 0.2069073782
925400000.0 -0.1584630992 0.428293813
935350000.0 0.1456365513 0.4661397598
945300000.0 0.4037082158 0.2830969591
955250000.0 0.4700148654 -0.0458957933
965200000.0 0.2775446177 -0.3495101921
975150000.0 -0.1025903199 -0.4331978516
985100000.0 -0.4494481586 -0.1920120172
995050000.0 -0.4949840275 0.2610217675
1005000000.0 -0.1481170214 0.6072861489
1014950000.0 0.3789598876 0.5469966054
1024900000.0 0.687593615 0.0524760029
1034850000.0 0.4734608347 -0.5428375222
1044800000.0 -0.1518093475 -0.7518198663
1054750000.0 -0.7172911624 -0.3824711223
1064700000.0 -0.8146027762 0.2546759712
1074650000.0 -0.4010456326 0.7706346582
1084600000.0 0.2390335896 0.8114977287
1094550000.0 0.7118799323 0.3939003566
1104500000.0 0.7481154606 -0.2385868459
1114450000.0 0.3175744622 -0.6985743105
1124400000.0 -0.2871125772 -0.6920269505
1134350000.0 -0.6665974573 -0.2757636731
1144300000.0 -0.6433847347 0.2435311494
1154250000.0 -0.298659509 0.5813719776
1164200000.0 0.1577697913 0.6037747885
1174150000.0 0.5104412689 0.3235048956
1184100000.0 0.5785049629 -0.1239788749
1194050000.0 0.3229978028 -0.4878522901
1204000000.0 -0.0939944725 -0.5771800069
1213950000.0 -0.447633156 -0.3844452235
1223900000.0 -0.5994050277 -0.0326430681
1233850000.0 -0.5154354238 0.3275927263
1243800000.0 -0.2369775722 0.5688598923
1253750000.0 0.1374123952 0.5968941688
1263700000.0 0.4603182135 0.387054805
1273650000.0 0.5902515346 0.0185163568
1283600000.0 0.4744398528 -0.3493434465
1293550000.0 0.1798388686 -0.5740987437
1303500000.0 -0.1740443906 -0.5971256854
1313450000.0 -0.4736677234 -0.4332942935
1323400000.0 -0.640558821 -0.1394589903
1333350000.0 -0.627251285 0.2039645719
1343300000.0 -0.4208709845 0.4939450241
1353250000.0 -0.0726759383 0.6187433136
1363200000.0 0.2936648402 0.5165545846
1373150000.0 0.5350049081 0.2215640091
1383100000.0 0.5693738602 -0.1472993248
1393050000.0 0.4062997864 -0.4613987534
1403000000.0 0.1162477128 -0.6327205287
1412950000.0 -0.2085483263 -0.6253700665
1422900000.0 -0.4777677499 -0.4451987762
1432850000.0 -0.6068407734 -0.1395994214
1442800000.0 -0.5426014345 0.1987826887
1452750000.0 -0.2909669433 0.4466361118
1462700000.0 0.0580651336 0.5076438699
1472650000.0 0.3724502344 0.3622784582
1482600000.0 0.542523035 0.0780314523
1492550000.0 0.524092313 -0.2369645619
1502500000.0 0.3379343663 -0.4777296937
1512450000.0 0.0534805373 -0.5664751019
1522400000.0 -0.2319515175 -0.4703806831
1532350000.0 -0.4082909999 -0.2172107689
1542300000.0 -0.3998167266 0.099050753
1552250000.0 -0.2011303764 0.346906981
1562200000.0 0.0968543731 0.4214407183
1572150000.0 0.3690458519 0.3044610697
1582100000.0 0.506381597 0.0545887743
1592050000.0 0.4624801194 -0.2216416219
1602000000.0 0.2575483576 -0.4170610418
1611950000.0 -0.0339576884 -0.4516359912
1621900000.0 -0.3003517495 -0.2995234115
1631850000.0 -0.42793711 -0.0075552329
1641800000.0 -0.3511493892 0.3069731206
1651750000.0 -0.101289455 0.5091479955
1661700000.0 0.2146501772 0.5188500685
1671650000.0 0.4716012291 0.3433211572
1681600000.0 0.5826497798 0.0539244239
1691550000.0 0.5142557406 -0.2538871955
1701500000.0 0.2837530367 -0.4806654615
1711450000.0 -0.0447868852 -0.5479139244
1721400000.0 -0.3689799957 -0.413989729
1731350000.0 -0.5636586335 -0.112477957
1741300000.0 -0.5509533274 0.2456670332
1751250000.0 -0.3422848098 0.5263681169
1761200000.0 -0.0246486737 0.6403450023
1771150000.0 0.2946727045 0.5709925493
1781100000.0 0.52984178 0.3522992101
1791050000.0 0.6239211763 0.0433789065
1801000000.0 0.5472158068 -0.278622242
1810950000.0 0.3057506007 -0.521489289
1820900000.0 -0.0382459909 -0.5942127521
1830850000.0 -0.366740064 -0.4580726195
1840800000.0 -0.559034518 -0.1665107509
1850750000.0 -0.5625730181 0.1661354627
1860700000.0 -0.4031719817 0.4337528776
1870650000.0 -0.1481486502 0.5767262861
1880600000.0 0.1302131375 0.5747721758
1890550000.0 0.363732923 0.4361526088
1900500000.0 0.4908035114 0.1946005997
1910450000.0 0.4684594865 -0.0805988889
1920400000.0 0.2974804353 -0.2957938424
1930350000.0 0.0443003504 -0.3707812985
1940300000.0 -0.1855584616 -0.2946517655
1950250000.0 -0.3050014914 -0.1269867021
1960200000.0 -0.3309742985 0.0224438876
1970150000.0 -0.2945417114 0.154000777
1980100000.0 -0.2046158281 0.2289297483
1990050000.0 -0.1151938122 0.2294227204
2000000000.0 -0.0772583864 0.1878647939
