!Created with skrf (http://scikit-rf.org).
# GHz S RI R 50.0 
!freq ReS11 ImS11
10000000.0 -0.74985495 0.6757130491
19950000.0 -0.1132393656 0.9840164554
29900000.0 0.5679116374 0.7964235108
39850000.0 0.9579848714 0.1950312183
49800000.0 0.8377516025 -0.5254109837
59750000.0 0.2415588475 -0.9753048372
69700000.0 -0.5143098607 -0.8727283066
79650000.0 -0.9747676507 -0.2445573271
89600000.0 -0.8237079853 0.5384340173
99550000.0 -0.114606474 0.9569212718
109500000.0 0.6916141016 0.6633286695
119450000.0 0.9529577168 -0.1946060503
129400000.0 0.3739908435 -0.9171158804
139350000.0 -0.5484666297 -0.8241591831
149300000.0 -0.9672365829 -0.0180605356
159250000.0 -0.5618803928 0.7580258686
169200000.0 0.2710537321 0.8969999645
179150000.0 0.8818232489 0.3514941721
189100000.0 0.8607246357 -0.4419212674
199050000.0 0.2740309674 -0.9356325837
209000000.0 -0.4589230009 -0.8488348521
218950000.0 -0.8988060568 -0.2929773337
228900000.0 -0.8400515274 0.3933683822
238850000.0 -0.3431362941 0.8538057467
248800000.0 0.3316898404 0.8537090422
258750000.0 0.8380660275 0.4248706294
268700000.0 0.9166869533 -0.2453341046
278650000.0 0.5213099039 -0.7870601806
288600000.0 -0.1283174076 -0.9142562906
298550000.0 -0.6834584108 -0.573713481
308500000.0 -0.8582976489 0.0441335962
318450000.0 -0.5657859199 0.6076743342
328400000.0 0.0318641822 0.8032843784
338350000.0 0.5762406337 0.5106558547
348300000.0 0.7114569274 -0.0656814882
358250000.0 0.3805356408 -0.5021169586
368200000.0 -0.1038615171 -0.5138741128
378150000.0 -0.3619955698 -0.194067704
388100000.0 -0.279344811 0.1314605659
398050000.0 -0.0323430273 0.2234655052
408000000.0 0.1310307269 0.0990301187
417950000.0 0.1111363934 -0.0606308597
427900000.0 -0.0165249266 -0.1091145891
437850000.0 -0.1148840434 -0.0315315393
447800000.0 -0.1050995087 0.0880112022
457750000.0 -0.0033317873 0.151734574
467700000.0 0.1117283189 0.1150312749
477650000.0 0.1573923868 0.007091378
487600000.0 0.1102236594 -0.0978879924
497550000.0 0.0120134901 -0.1338767448
507500000.0 -0.0733125559 -0.0977755451
517450000.0 -0.0997578297 -0.0223820896
527400000.0 -0.0733932942 0.0338945766
537350000.0 -0.0312968253 0.0441881561
547300000.0 -0.0110873412 0.023560202
557250000.0 -0.0172182551 0.0076274851
567200000.0 -0.0339737412 0.0182848649
577150000.0 -0.0294929727 0.0499672001
587100000.0 0.0103506752 0.0699415992
597050000.0 0.0688707507 0.0483421021
607000000.0 0.1052218834 -0.0213601496
616950000.0 0.0816533726 -0.1089395284
626900000.0 -0.0059859254 -0.1643795939
636850000.0 -0.1195644128 -0.1472267787
646800000.0 -0.195114395 -0.0530751431
656750000.0 -0.1842086486 0.0737296019
666700000.0 -0.084902757 0.1638889288
676650000.0 0.0508561962 0.1623242838
686600000.0 0.1481315919 0.0667894378
696550000.0 0.1548592192 -0.0689947365
706500000.0 0.0696996067 -0.1678003415
716450000.0 -0.0527172775 -0.1760646115
726400000.0 -0.1382241551 -0.0968850512
736350000.0 -0.1361320191 0.0137995587
746300000.0 -0.0525907123 0.0796989616
756250000.0 0.0506681248 0.0539946364
766200000.0 0.0944513152 -0.0441818073
776150000.0 0.0402556525 -0.1421931351
786100000.0 -0.0792386473 -0.1593454759
796050000.0 -0.1780355218 -0.0662950876
806000000.0 -0.1689838124 0.0882597873
815950000.0 -0.0315791383 0.1981247055
825900000.0 0.165283447 0.1693519688
835850000.0 0.2937447035 -0.0090619035
845800000.0 0.2516198049 -0.2394936932
855750000.0 0.0511967776 -0.3796821879
865700000.0 -0.2039285023 -0.3474373097
875650000.0 -0.3784698458 -0.1356075254
885600000.0 -0.3591077942 0.1571203312
895550000.0 -0.1311313703 0.3670083952
905500000.0 0.1920873701 0.3605952631
915450000.0 0.4248932528 0.1227953472
925400000.0 0.4231447332 -0.2181918653
935350000.0 0.1765774672 -0.4621424208
945300000.0 -0.1766609365 -0.4579466299
955250000.0 -0.4250877752 -0.1916131841
965200000.0 -0.3979049503 0.1871915776
975150000.0 -0.0800168223 0.4252662843
985100000.0 0.326722554 0.3169026829
995050000.0 0.4894663749 -0.0995125015
1005000000.0 0.2224948947 -0.4927434697
1014950000.0 -0.2924480926 -0.4910240339
1024900000.0 -0.605048789 -0.0200431454
1034850000.0 -0.3536897904 0.5555688224
1044800000.0 0.3300859173 0.6559390877
1054750000.0 0.7988801593 0.0936612552
1064700000.0 0.5714140718 -0.6132770904
1074650000.0 -0.1153089193 -0.8365318666
1084600000.0 -0.7100799645 -0.4398169816
1094550000.0 -0.773772151 0.2674867435
1104500000.0 -0.2607423736 0.7567517874
1114450000.0 0.427783698 0.6509329775
1124400000.0 0.7474036755 0.0639836076
1134350000.0 0.4995718502 -0.510426347
1144300000.0 -0.0590752228 -0.6748802295
1154250000.0 -0.5178143204 -0.3807438452
1164200000.0 -0.5940418672 0.1323393592
1174150000.0 -0.2717187348 0.5110963528
1184100000.0 0.2131520276 0.516161884
1194050000.0 0.5214763066 0.1585794627
1204000000.0 0.4592412438 -0.2916810782
1213950000.0 0.1062783941 -0.544064631
1223900000.0 -0.3086834589 -0.4754403549
1233850000.0 -0.5584439409 -0.1451517478
1243800000.0 -0.5153685129 0.265716612
1253750000.0 -0.1992483336 0.5375475409
1263700000.0 0.2211424091 0.5196896933
1273650000.0 0.5174013852 0.2234622299
1283600000.0 0.5418639341 -0.1889073179
1293550000.0 0.2992151993 -0.5140787362
1303500000.0 -0.0866698019 -0.6130674484
1313450000.0 -0.447383354 -0.4521569937
1323400000.0 -0.6312025781 -0.0989731744
1333350000.0 -0.5518219765 0.2981662893
1343300000.0 -0.2332741894 0.5582352141
1353250000.0 0.1829724968 0.5513868859
1363200000.0 0.4988922172 0.2801441564
1373150000.0 0.5722234471 -0.1226960718
1383100000.0 0.3829294394 -0.4737795226
1393050000.0 0.0262754686 -0.6326402928
1403000000.0 -0.3482661533 -0.544266473
1412950000.0 -0.5900138328 -0.2482631702
1422900000.0 -0.5985397145 0.1361339298
1432850000.0 -0.3614968757 0.4459924619
1442800000.0 0.022788925 0.5371100044
1452750000.0 0.3746785069 0.3619549168
1462700000.0 0.5286724173 0.0065454777
1472650000.0 0.423339009 -0.3559633532
1482600000.0 0.1231051535 -0.5629337061
1492550000.0 -0.2314177849 -0.5326462854
1502500000.0 -0.4826394161 -0.2857046285
1512450000.0 -0.5169080041 0.0634417383
1522400000.0 -0.3149647605 0.3489805018
1532350000.0 0.0261710716 0.4288520274
1542300000.0 0.3303962018 0.2627148852
1552250000.0 0.4404479339 -0.0567166986
1562200000.0 0.3093252245 -0.3569192189
1572150000.0 0.0187222905 -0.4874963571
1582100000.0 -0.2799672592 -0.3940435896
1592050000.0 -0.4388856381 -0.1260340728
1602000000.0 -0.3744725951 0.1863868922
1611950000.0 -0.1114402763 0.3755529412
1621900000.0 0.2138823598 0.3331903612
1631850000.0 0.4204852648 0.0736746975
1641800000.0 0.392148076 -0.2589132543
1651750000.0 0.1470024116 -0.4824248099
1661700000.0 -0.1851725723 -0.4831743311
1671650000.0 -0.4412699878 -0.2635971948
1681600000.0 -0.4980660746 0.0749202646
1691550000.0 -0.3186615111 0.3783064388
1701500000.0 0.0256261008 0.4965145207
1711450000.0 0.3722403412 0.3575009368
1721400000.0 0.5439747835 0.0210513368
1731350000.0 0.452675693 -0.3450238752
1741300000.0 0.1516298606 -0.5668739175
1751250000.0 -0.2177498789 -0.5544079429
1761200000.0 -0.5014453801 -0.321737371
1771150000.0 -0.5907404215 0.0360871794
1781100000.0 -0.4460687384 0.380513596
1791050000.0 -0.1156337174 0.5693073517
1801000000.0 0.2680217591 0.510184087
1810950000.0 0.5294309881 0.2196160175
1820900000.0 0.5465676652 -0.1673095607
1830850000.0 0.3229493729 -0.4730833476
1840800000.0 -0.0291787303 -0.575795577
1850750000.0 -0.3619596699 -0.4539149331
1860700000.0 -0.5560424215 -0.1669668325
1870650000.0 -0.547163076 0.1748596612
1880600000.0 -0.3389906646 0.4420843659
1890550000.0 -0.012731149 0.5273345057
1900500000.0 0.2938939456 0.3946856857
1910450000.0 0.4469004398 0.1088622047
1920400000.0 0.3907401653 -0.1952472053
1930350000.0 0.1748690714 -0.3903007766
1940300000.0 -0.0922504826 -0.4176208321
1950250000.0 -0.3048958988 -0.2940668933
1960200000.0 -0.3967442159 -0.0878445587
1970150000.0 -0.3531186796 0.113504248
1980100000.0 -0.215400706 0.2337972458
1990050000.0 -0.0580512039 0.2409283904
2000000000.0 0.0480610918 0.1638682421
