!Created with skrf (http://scikit-rf.org).
# GHz S RI R 50.0 
!freq ReS11 ImS11
10000000.0 -1.017461696 0.0147626054
19950000.0 -1.003404461 0.0226619163
29900000.0 -0.9893790514 0.0314729548
39850000.0 -0.977819421 0.0459252881
49800000.0 -0.9726199053 0.0607942816
59750000.0 -0.9730944774 0.075469917
69700000.0 -0.9795001137 0.0886277724
79650000.0 -0.9870452932 0.0973686891
89600000.0 -0.9930183742 0.1021969366
99550000.0 -0.9911648312 0.1046868308
109500000.0 -0.9820216212 0.1069888178
119450000.0 -0.9692883595 0.1118629248
129400000.0 -0.9571335606 0.1195680287
139350000.0 -0.9489900926 0.130910262
149300000.0 -0.944800246 0.1438834499
159250000.0 -0.9475386969 0.1572149836
169200000.0 -0.9541661428 0.1685647341
179150000.0 -0.9615999936 0.1757886084
189100000.0 -0.964858572 0.1794397176
199050000.0 -0.961563558 0.1806865421
209000000.0 -0.9515396616 0.180600562
218950000.0 -0.9393431387 0.1858855745
228900000.0 -0.9285389293 0.193334939
238850000.0 -0.9209033206 0.2039054393
248800000.0 -0.9199252493 0.2163117936
258750000.0 -0.9235613049 0.2290735518
268700000.0 -0.9303851393 0.2391311691
278650000.0 -0.9361202222 0.2453015609
288600000.0 -0.9372925107 0.2485188992
298550000.0 -0.9314205213 0.2492200642
308500000.0 -0.9209292361 0.2503696992
318450000.0 -0.9087723286 0.2543213686
328400000.0 -0.8996928219 0.2617088489
338350000.0 -0.894416365 0.2724209754
348300000.0 -0.8944119354 0.2842283333
358250000.0 -0.8990204308 0.2961782491
368200000.0 -0.9058260726 0.3042875113
378150000.0 -0.9098227211 0.3098840309
388100000.0 -0.9084793583 0.3116372863
398050000.0 -0.9003689151 0.312762758
408000000.0 -0.8892478614 0.3150222932
417950000.0 -0.8776469206 0.3201376901
427900000.0 -0.868730552 0.3284960901
437850000.0 -0.8654748048 0.3395686713
447800000.0 -0.8670508712 0.3512736121
457750000.0 -0.8728225077 0.3613338607
467700000.0 -0.8783650436 0.3676591476
477650000.0 -0.8806965351 0.3707234439
487600000.0 -0.8773287458 0.3703419628
497550000.0 -0.8677694464 0.3700861255
507500000.0 -0.8568312066 0.3717821201
517450000.0 -0.8448430857 0.3771093492
527400000.0 -0.8375957585 0.3867424056
537350000.0 -0.8355457008 0.3999828309
547300000.0 -0.837713016 0.4112366029
557250000.0 -0.8427309415 0.4212471946
567200000.0 -0.8471176034 0.4270745322
577150000.0 -0.8471464476 0.4293200621
587100000.0 -0.8418423745 0.4281459298
597050000.0 -0.8310677535 0.4271130287
607000000.0 -0.8200486241 0.4290883574
616950000.0 -0.8102099753 0.4348723579
626900000.0 -0.8047828559 0.4445183025
636850000.0 -0.8036531126 0.4563345733
646800000.0 -0.8072799937 0.467388801
656750000.0 -0.8122277424 0.4770846428
666700000.0 -0.8145997733 0.4820841851
676650000.0 -0.8125777827 0.4836020587
686600000.0 -0.8052647854 0.4822830164
696550000.0 -0.793808627 0.4824688147
706500000.0 -0.7811580955 0.4853596939
716450000.0 -0.7725810778 0.4930599614
726400000.0 -0.7689848196 0.5030657504
736350000.0 -0.7691279525 0.514588409
746300000.0 -0.7737408816 0.524851861
756250000.0 -0.7784126248 0.5314905765
766200000.0 -0.7811949344 0.53402917
776150000.0 -0.7768469079 0.534677756
786100000.0 -0.7682601509 0.5317195853
796050000.0 -0.7558223914 0.5322772278
806000000.0 -0.7434665712 0.5381986
815950000.0 -0.7340644485 0.5473505407
825900000.0 -0.7312038998 0.5592371513
835850000.0 -0.7326659732 0.5715947066
845800000.0 -0.7370771342 0.5814729099
855750000.0 -0.742103786 0.586790183
865700000.0 -0.7428899024 0.5864026998
875650000.0 -0.7381057106 0.5842046249
885600000.0 -0.7281104612 0.5811659152
895550000.0 -0.71528833 0.5818067368
905500000.0 -0.7022363085 0.587874765
915450000.0 -0.6943824847 0.5991117481
925400000.0 -0.6909885351 0.612105873
935350000.0 -0.6919948608 0.6253645387
945300000.0 -0.6954166099 0.6350343085
955250000.0 -0.6978665471 0.6397457179
965200000.0 -0.6963762927 0.6385836614
975150000.0 -0.6906738731 0.6344685887
985100000.0 -0.6802455859 0.6298772985
995050000.0 -0.6676598728 0.6290782234
1005000000.0 -0.6575584448 0.6351205929
1014950000.0 -0.6501324659 0.645571249
1024900000.0 -0.6487704104 0.6593328061
1034850000.0 -0.6504062704 0.6724357515
1044800000.0 -0.65274283 0.6821867577
1054750000.0 -0.6540235258 0.6857964895
1064700000.0 -0.6509145338 0.682909282
1074650000.0 -0.6424894804 0.6781795697
1084600000.0 -0.6316844325 0.6729988796
1094550000.0 -0.6203956175 0.6721272092
1104500000.0 -0.611609857 0.6773703633
1114450000.0 -0.6079884204 0.6882879187
1124400000.0 -0.6078862705 0.701504894
1134350000.0 -0.6101683437 0.7135176012
1144300000.0 -0.6110226607 0.7233750477
1154250000.0 -0.6084573956 0.7270877792
1164200000.0 -0.6009220103 0.7255689262
1174150000.0 -0.5889875529 0.721532035
1184100000.0 -0.5748328193 0.7192636564
1194050000.0 -0.5622885619 0.7207629776
1204000000.0 -0.555133419 0.7265663111
1213950000.0 -0.5530096459 0.7371690187
1223900000.0 -0.556068138 0.7483094379
1233850000.0 -0.5609190974 0.7581926806
1243800000.0 -0.5638509169 0.764593097
1253750000.0 -0.5627443299 0.7659279123
1263700000.0 -0.5542258125 0.7638042845
1273650000.0 -0.5408794696 0.7590488274
1283600000.0 -0.5249378441 0.7571595293
1293550000.0 -0.5117096066 0.7613939753
1303500000.0 -0.5023837004 0.7698084483
1313450000.0 -0.5000459421 0.7807856707
1323400000.0 -0.5028672938 0.7926392475
1333350000.0 -0.5076768296 0.8007805324
1343300000.0 -0.5096523455 0.80474294
1353250000.0 -0.5089868178 0.8033243058
1363200000.0 -0.500970165 0.7992811829
1373150000.0 -0.4882804507 0.7945612257
1383100000.0 -0.4737281428 0.794713638
1393050000.0 -0.4604341564 0.7997635837
1403000000.0 -0.4524579081 0.809923171
1412950000.0 -0.4498364853 0.821496661
1422900000.0 -0.4513963055 0.8329518078
1432850000.0 -0.4540342984 0.8390864481
1442800000.0 -0.4550805934 0.841311494
1452750000.0 -0.4515593274 0.838351682
1462700000.0 -0.4426094177 0.8325450002
1472650000.0 -0.4294824325 0.8285103819
1482600000.0 -0.4157230886 0.8301288839
1492550000.0 -0.405316987 0.8376027838
1502500000.0 -0.3980591165 0.8486812547
1512450000.0 -0.395930864 0.861357438
1522400000.0 -0.3969554843 0.8717392744
1532350000.0 -0.3981755042 0.8760672407
1542300000.0 -0.3975054562 0.8746297152
1552250000.0 -0.3931132107 0.8676819352
1562200000.0 -0.3847137146 0.860029743
1572150000.0 -0.3735500354 0.8553640924
1582100000.0 -0.3621548475 0.8569616453
1592050000.0 -0.3547180103 0.86534595
1602000000.0 -0.3490177452 0.8789161259
1611950000.0 -0.3479910772 0.8925433202
1621900000.0 -0.3467503301 0.9035139236
1631850000.0 -0.3458931324 0.9072643931
1641800000.0 -0.3414107396 0.9036350202
1651750000.0 -0.3328939025 0.8946395505
1661700000.0 -0.3218087058 0.8855671411
1671650000.0 -0.3095980912 0.8801479418
1681600000.0 -0.3001662525 0.8831365142
1691550000.0 -0.2921572229 0.8917766476
1701500000.0 -0.2895006022 0.9061992985
1711450000.0 -0.2900463794 0.9191764107
1721400000.0 -0.2898159247 0.9298382293
1731350000.0 -0.2858797956 0.9330613445
1741300000.0 -0.27822596 0.9286733341
1751250000.0 -0.266425406 0.9188262757
1761200000.0 -0.2523344701 0.908525276
1771150000.0 -0.2374279937 0.9050670065
1781100000.0 -0.2259756972 0.9069659327
1791050000.0 -0.2204619388 0.9160618208
1801000000.0 -0.2194659209 0.9294505461
1810950000.0 -0.2209117597 0.9428433467
1820900000.0 -0.2228411046 0.9521308215
1830850000.0 -0.2212525429 0.9532578744
1840800000.0 -0.2133498473 0.9484748056
1850750000.0 -0.2007276383 0.9393827323
1860700000.0 -0.1845834011 0.9299011595
1870650000.0 -0.1701119657 0.9258961761
1880600000.0 -0.1595107142 0.9283313319
1890550000.0 -0.1559931722 0.9373696011
1900500000.0 -0.1577572281 0.9476857633
1910450000.0 -0.1612984029 0.9589283828
1920400000.0 -0.1654720762 0.9657109007
1930350000.0 -0.1643774887 0.9658569559
1940300000.0 -0.1573928472 0.960951339
1950250000.0 -0.1440840346 0.9537857119
1960200000.0 -0.1265814206 0.947658626
1970150000.0 -0.1105303537 0.9457360401
1980100000.0 -0.0996522305 0.9500040706
1990050000.0 -0.0944757077 0.9587439505
2000000000.0 -0.0952423914 0.969828474
