!Created with skrf (http://scikit-rf.org).
# GHz S RI R 50.0 
!freq ReS11 ImS11
10000000.0 -0.8159758265 0.609504729
19950000.0 -0.2972282793 0.9504100119
29900000.0 0.3176887583 0.9263793856
39850000.0 0.8088048152 0.5478457906
49800000.0 0.9877438675 -0.0580733272
59750000.0 0.7592001645 -0.6658336067
69700000.0 0.1838999102 -1.007018412
79650000.0 -0.4939810775 -0.8908688495
89600000.0 -0.9358856196 -0.3407152658
99550000.0 -0.8924840649 0.382268615
109500000.0 -0.3489857439 0.8957890365
119450000.0 0.4300471775 0.875641804
129400000.0 0.9638092056 0.2487954648
139350000.0 0.8393152913 -0.5621767925
149300000.0 0.11224316 -0.9838966813
159250000.0 -0.6562523652 -0.6975233113
169200000.0 -0.9403136324 0.0384098238
179150000.0 -0.6164628611 0.7229236783
189100000.0 0.0701101307 0.9697813136
199050000.0 0.7133774451 0.6811985605
209000000.0 0.9782315159 0.0508363703
218950000.0 0.7681728512 -0.569979387
228900000.0 0.2253683593 -0.904143963
238850000.0 -0.396918898 -0.8280380514
248800000.0 -0.7132939541 -0.4708888314
258750000.0 -0.922268646 0.1729996945
268700000.0 -0.6351116552 0.7105950172
278650000.0 -0.0798330952 0.9474070875
288600000.0 0.4958874537 0.783481044
298550000.0 0.8381090923 0.2994457143
308500000.0 0.8020870628 -0.2874354743
318450000.0 0.4077498897 -0.714617117
328400000.0 -0.1607388955 -0.785974467
338350000.0 -0.6200400986 -0.4682717692
348300000.0 -0.7278919067 0.0546002734
358250000.0 -0.4537614839 0.470034222
368200000.0 -0.0089442815 0.5537918001
378150000.0 0.3182327649 0.3223940929
388100000.0 0.3692885663 -0.0198621134
398050000.0 0.1886974794 -0.2477758484
408000000.0 -0.0495194396 -0.2636448535
417950000.0 -0.1875896247 -0.1255349849
427900000.0 -0.1769756949 0.0364002696
437850000.0 -0.0687584459 0.1209657712
447800000.0 0.0475784903 0.1034562859
457750000.0 0.1050402233 0.0218469596
467700000.0 0.0861404233 -0.0594908586
477650000.0 0.0263631055 -0.0899810738
487600000.0 -0.0204012475 -0.0602622406
497550000.0 -0.044748883 -0.0961136175
507500000.0 -0.0439402746 -0.0042449132
517450000.0 -0.009487806 0.0111671238
527400000.0 0.0094161261 -0.0041107818
537350000.0 -0.0014522424 -0.0264373368
547300000.0 -0.041017968 -0.0275490101
557250000.0 -0.0702774948 0.014051088
567200000.0 -0.0628996198 0.0720710332
577150000.0 -0.0123642079 0.1170779778
587100000.0 0.0639441541 0.1177786547
597050000.0 0.1311829251 0.0629171372
607000000.0 0.1504385306 -0.0318695822
616950000.0 0.1048657436 -0.1260594493
626900000.0 0.0079539494 -0.1770344908
636850000.0 -0.1031461303 -0.1607627305
646800000.0 -0.1817071993 -0.0794830866
656750000.0 -0.1933678457 0.0325374113
666700000.0 -0.1312259827 0.1263744321
676650000.0 -0.0234924325 0.1602087883
686600000.0 0.0808850815 0.1177303983
696550000.0 0.1347284262 0.0211650175
706500000.0 0.1154302996 -0.0817089726
716450000.0 0.03848668 -0.141522633
726400000.0 -0.0517906178 -0.1294969721
736350000.0 -0.1011281178 -0.0567154127
746300000.0 -0.0785022044 0.031274662
756250000.0 0.0079893669 0.0795482251
766200000.0 0.1104464223 0.0503547377
776150000.0 0.1666330284 -0.0483245512
786100000.0 0.1358807206 -0.1668286267
796050000.0 0.0202436991 -0.2356322666
806000000.0 -0.1279168311 -0.2027689446
815950000.0 -0.229949618 -0.06457566
825900000.0 -0.2208492576 0.1258320812
835850000.0 -0.086255189 0.281911508
845800000.0 0.1263437905 0.3244069589
855750000.0 0.3274826251 0.2225057914
865700000.0 0.4243896339 0.0099894868
875650000.0 0.3629606829 -0.2267538214
885600000.0 0.1550536527 -0.3788494995
895550000.0 -0.1157101719 -0.3661752197
905500000.0 -0.3277035811 -0.1803244958
915450000.0 -0.3756950037 0.1067869181
925400000.0 -0.2242154097 0.3591663642
935350000.0 0.059092573 0.4452713104
945300000.0 0.3284331541 0.3087658734
955250000.0 0.425403903 0.0066746894
965200000.0 0.2594800016 -0.2946747803
975150000.0 -0.1084955097 -0.3788747087
985100000.0 -0.4384442715 -0.1255145611
995050000.0 -0.4420481863 0.3284502933
1005000000.0 -0.0511061367 0.6278310065
1014950000.0 0.465201861 0.4919516219
1024900000.0 0.7064524039 -0.0332716906
1034850000.0 0.4438520171 -0.6001533059
1044800000.0 -0.1956442498 -0.7761075583
1054750000.0 -0.7396138884 -0.3786913333
1064700000.0 -0.807816511 0.1972478774
1074650000.0 -0.4608132968 0.7065242862
1084600000.0 0.0977999107 0.8088966059
1094550000.0 0.607595622 0.4992863422
1104500000.0 0.7441601684 -0.0880557749
1114450000.0 0.4113662853 -0.5863992238
1124400000.0 -0.1568057756 -0.6673949374
1134350000.0 -0.5626863728 -0.3260244521
1144300000.0 -0.590012997 0.1557104107
1154250000.0 -0.2953855818 0.4859641717
1164200000.0 0.1158478611 0.5211314552
1174150000.0 0.4386599557 0.2737307641
1184100000.0 0.4936086464 -0.1342582146
1194050000.0 0.2459659656 -0.4541169681
1204000000.0 -0.138301322 -0.5121409696
1213950000.0 -0.4509326819 -0.314273127
1223900000.0 -0.5695520973 0.0204377521
1233850000.0 -0.4685229168 0.3532800962
1243800000.0 -0.1895426291 0.5659323638
1253750000.0 0.1712675692 0.5731570369
1263700000.0 0.473565513 0.3551707263
1273650000.0 0.5851507509 -0.0064177594
1283600000.0 0.4628859367 -0.3616216728
1293550000.0 0.1693403939 -0.5782535312
1303500000.0 -0.1808206005 -0.6001889671
1313450000.0 -0.4810230784 -0.4401192824
1323400000.0 -0.6528351142 -0.1512299836
1333350000.0 -0.6482116383 0.1900545248
1343300000.0 -0.4527844027 0.485969545
1353250000.0 -0.1112101701 0.627212834
1363200000.0 0.2606865505 0.5470517393
1373150000.0 0.523348578 0.2700381942
1383100000.0 0.5871407446 -0.0968915854
1393050000.0 0.4513768318 -0.424487776
1403000000.0 0.1781448973 -0.6227477773
1412950000.0 -0.145648482 -0.6484196257
1422900000.0 -0.4298697656 -0.5026740239
1432850000.0 -0.5920004245 -0.225769408
1442800000.0 -0.5785812053 0.1013689774
1452750000.0 -0.3846231609 0.3761483018
1462700000.0 -0.0644166813 0.5025637677
1472650000.0 0.2711122077 0.4300564219
1482600000.0 0.5018945249 0.190693721
1492550000.0 0.5578219989 -0.1218613055
1502500000.0 0.4347343625 -0.3994373853
1512450000.0 0.1824676504 -0.5539825628
1522400000.0 -0.1129018549 -0.5336508345
1532350000.0 -0.3435468887 -0.3396790775
1542300000.0 -0.416647978 -0.0407236957
1552250000.0 -0.2966145647 0.2442047588
1562200000.0 -0.0355276578 0.3953437628
1572150000.0 0.2501185349 0.3596273094
1582100000.0 0.444683237 0.1665600047
1592050000.0 0.4769063205 -0.096565102
1602000000.0 0.3406469302 -0.3224575156
1611950000.0 0.08759066 -0.4209223257
1621900000.0 -0.1852586715 -0.3443793081
1631850000.0 -0.3638712351 -0.1083773622
1641800000.0 -0.360842076 0.1960881374
1651750000.0 -0.1703045008 0.4344063693
1661700000.0 0.1215981868 0.5038929786
1671650000.0 0.3918265101 0.3862913476
1681600000.0 0.5426906704 0.1343350304
1691550000.0 0.5254523145 -0.1647036812
1701500000.0 0.339315109 -0.4131582319
1711450000.0 0.0334312342 -0.5224886658
1721400000.0 -0.2963633113 -0.4352587453
1731350000.0 -0.5203306097 -0.1656530196
1741300000.0 -0.5396102865 0.1847252746
1751250000.0 -0.3457692286 0.4584467275
1761200000.0 -0.1099385679 0.561677512
1771150000.0 0.1887477447 0.5893100148
1781100000.0 0.4632550586 0.4231233806
1791050000.0 0.6072345563 0.1379267887
1801000000.0 0.5833546798 -0.1872699938
1810950000.0 0.3848382132 -0.46141378
1820900000.0 0.0580511022 -0.5860691781
1830850000.0 -0.2871657211 -0.5033047841
1840800000.0 -0.5211689994 -0.2439283913
1850750000.0 -0.5716635893 0.0855820414
1860700000.0 -0.4491635555 0.3721122829
1870650000.0 -0.2156217336 0.5467737359
1880600000.0 0.0585259301 0.5822548307
1890550000.0 0.3077771294 0.4801863269
1900500000.0 0.4688363917 0.2642380608
1910450000.0 0.4886820878 -0.0063645
1920400000.0 0.3555126705 -0.2426675908
1930350000.0 0.119473015 -0.359128888
1940300000.0 -0.1240416173 -0.3262560823
1950250000.0 -0.2892984286 -0.184449347
1960200000.0 -0.3443168604 -0.0072973204
1970150000.0 -0.3045824059 0.1393279945
1980100000.0 -0.214491054 0.2139532469
1990050000.0 -0.1330952436 0.2122865454
2000000000.0 -0.1082624272 0.1744644699
