!Created with skrf (http://scikit-rf.org).
# GHz S RI R 50.0 
!freq ReS11 ImS11
10000000.0 -0.7578265529 0.6796790571
19950000.0 -0.1171056265 0.9866602214
29900000.0 0.5647697484 0.7961839653
39850000.0 0.9544943425 0.1940435529
49800000.0 0.8360285342 -0.5270879019
59750000.0 0.2409872387 -0.9808435686
69700000.0 -0.5179342809 -0.8817795929
79650000.0 -0.9829319007 -0.2528345337
89600000.0 -0.8333463091 0.5331003859
99550000.0 -0.125385085 0.9547787727
109500000.0 0.6825506782 0.6683889908
119450000.0 0.9563033834 -0.1856303072
129400000.0 0.3885267942 -0.920339353
139350000.0 -0.5404877183 -0.8427227119
149300000.0 -0.9733293165 -0.0368250953
159250000.0 -0.5737486857 0.748157135
169200000.0 0.2613213237 0.8961735374
179150000.0 0.8804663761 0.3552976934
189100000.0 0.8667625067 -0.4431961678
199050000.0 0.2786081356 -0.9433866646
209000000.0 -0.4590264384 -0.8564028292
218950000.0 -0.898642608 -0.2967448654
228900000.0 -0.8367469037 0.3905754815
238850000.0 -0.3385801318 0.8496299773
248800000.0 0.3271620855 0.8449418537
258750000.0 0.8433001865 0.4202593521
268700000.0 0.9225466361 -0.2516202676
278650000.0 0.5247770694 -0.7946936417
288600000.0 -0.1277158777 -0.9191880896
298550000.0 -0.6823694734 -0.5760796176
308500000.0 -0.856465522 0.0434341619
318450000.0 -0.5638670652 0.6092202013
328400000.0 0.0353699268 0.8073523895
338350000.0 0.5835561449 0.5165818889
348300000.0 0.7227839883 -0.0609799753
358250000.0 0.3966340827 -0.5006658423
368200000.0 -0.0866490571 -0.5216141266
378150000.0 -0.3566695506 -0.212279575
388100000.0 -0.2905140178 0.1187422397
398050000.0 -0.0471237173 0.2296138842
408000000.0 0.1261872434 0.1184111839
417950000.0 0.1180187152 -0.0421069568
427900000.0 -0.0030027364 -0.0980548847
437850000.0 -0.0991244186 -0.026782527
447800000.0 -0.0899886677 0.0883396861
457750000.0 0.0064242671 0.1460775762
467700000.0 0.1126503796 0.1065467038
477650000.0 0.150437871 0.0017922327
487600000.0 0.1013076409 -0.0941060006
497550000.0 0.0062971808 -0.1235609706
507500000.0 -0.0770447485 -0.0854121821
517450000.0 -0.1011117905 -0.0098892313
527400000.0 -0.0710240723 0.0457114673
537350000.0 -0.0231485335 0.0544575339
547300000.0 8.81618e-05 0.0282472207
557250000.0 -0.0111300498 0.0044199619
567200000.0 -0.036912306 0.0105923408
577150000.0 -0.0399108709 0.0448022837
587100000.0 -0.0022846941 0.0730533732
597050000.0 0.0590705603 0.0586083025
607000000.0 0.0997834793 -0.0094996721
616950000.0 0.0789434918 -0.1003119479
626900000.0 -0.006615715 -0.1593264629
636850000.0 -0.1189293506 -0.1439690182
646800000.0 -0.1946017969 -0.0511111974
656750000.0 -0.1860867798 0.0732287348
666700000.0 -0.0903981174 0.1612473057
676650000.0 0.0430960596 0.1598703377
686600000.0 0.1413135284 0.0668994555
696550000.0 0.1507537883 -0.0674113734
706500000.0 0.0670551035 -0.1683140081
716450000.0 -0.0577100797 -0.1803558044
726400000.0 -0.14724466 -0.1022228645
736350000.0 -0.1471864494 0.0120826008
746300000.0 -0.0602729749 0.0830767222
756250000.0 0.048520098 0.0579726137
766200000.0 0.0926414001 -0.0443826544
776150000.0 0.0397310477 -0.1374221752
786100000.0 -0.068607379 -0.1616990443
796050000.0 -0.1691357697 -0.0831377005
806000000.0 -0.1722953694 0.0642144961
815950000.0 -0.0491694082 0.1791958445
825900000.0 0.1397324776 0.1661993353
835850000.0 0.2754145586 0.0066798833
845800000.0 0.255785059 -0.2196580274
855750000.0 0.0701909986 -0.3764596141
865700000.0 -0.1874231621 -0.3569033578
875650000.0 -0.3697121026 -0.1513240918
885600000.0 -0.358748721 0.1398491719
895550000.0 -0.1383212012 0.3540728494
905500000.0 0.1830096359 0.3557537264
915450000.0 0.4225825996 0.1245056304
925400000.0 0.4289980436 -0.2172800723
935350000.0 0.1850222928 -0.4669188522
945300000.0 -0.1719430908 -0.466473168
955250000.0 -0.4263329029 -0.2011386106
965200000.0 -0.4052232114 0.1803920066
975150000.0 -0.0907759559 0.4287771661
985100000.0 0.3218511878 0.3391751436
995050000.0 0.5098994929 -0.0652803285
1005000000.0 0.277474655 -0.4776953015
1014950000.0 -0.2230245862 -0.5290156105
1024900000.0 -0.584446938 -0.1188680815
1034850000.0 -0.4394401945 0.4681137987
1044800000.0 0.1888237999 0.6904495333
1054750000.0 0.7532610727 0.2460030111
1064700000.0 0.6770848123 -0.4931592883
1074650000.0 0.0220448448 -0.8441259128
1084600000.0 -0.6397048391 -0.5210266896
1094550000.0 -0.7110111217 0.1773569802
1104500000.0 -0.403312671 0.6755951701
1114450000.0 0.3242858448 0.7208631925
1124400000.0 0.74655625 0.1628503155
1134350000.0 0.5555178212 -0.4613342022
1144300000.0 -0.0059731171 -0.67877737
1154250000.0 -0.4956377425 -0.4079053112
1164200000.0 -0.6013409219 0.1108400744
1174150000.0 -0.2897873529 0.5094236948
1184100000.0 0.1996964832 0.5312775988
1194050000.0 0.5235219447 0.1794523391
1204000000.0 0.4722614088 -0.2778956493
1213950000.0 0.1199239612 -0.5418379545
1223900000.0 -0.3014687089 -0.4834728609
1233850000.0 -0.5624171166 -0.1569278167
1243800000.0 -0.5305390711 0.2599849419
1253750000.0 -0.219343704 0.5443139809
1263700000.0 0.2042869076 0.5381909989
1273650000.0 0.5110906136 0.247542622
1283600000.0 0.5486669719 -0.1667968521
1293550000.0 0.3163691795 -0.5011925515
1303500000.0 -0.0665691775 -0.6148254221
1313450000.0 -0.4358008988 -0.4682925673
1323400000.0 -0.6365642535 -0.1224143016
1333350000.0 -0.5741967128 0.2793780573
1343300000.0 -0.2640867899 0.5545339982
1353250000.0 0.1555193457 0.5650271174
1363200000.0 0.4836926726 0.304711045
1373150000.0 0.571976773 -0.0981897528
1383100000.0 0.3946667581 -0.459388585
1393050000.0 0.0424339263 -0.6324342765
1403000000.0 -0.3370322475 -0.5570596652
1412950000.0 -0.5899922916 -0.2664464113
1422900000.0 -0.6088396221 0.1202657265
1432850000.0 -0.3774657855 0.4363067639
1442800000.0 0.0049899365 0.5331079433
1452750000.0 0.3585434963 0.3636898146
1462700000.0 0.5191891994 0.0136930775
1472650000.0 0.4223270273 -0.3487474895
1482600000.0 0.1253339842 -0.5603492266
1492550000.0 -0.2303361761 -0.5340114575
1502500000.0 -0.4819209156 -0.2877786287
1512450000.0 -0.5118394718 0.0614470271
1522400000.0 -0.3039125923 0.3428617912
1532350000.0 0.0373742017 0.4131848156
1542300000.0 0.3309766166 0.2385416245
1552250000.0 0.4256648072 -0.0780931967
1562200000.0 0.2890448558 -0.3658958146
1572150000.0 0.0022808035 -0.4866202394
1582100000.0 -0.2903503307 -0.3847856436
1592050000.0 -0.440329059 -0.1091494062
1602000000.0 -0.3635429368 0.2033850416
1611950000.0 -0.088200486 0.3833018872
1621900000.0 0.2419130403 0.3241714446
1631850000.0 0.4422681096 0.0513046563
1641800000.0 0.3999430503 -0.2869859044
1651750000.0 0.1384613579 -0.5062389162
1661700000.0 -0.2044042268 -0.495137271
1671650000.0 -0.4604034134 -0.2604828657
1681600000.0 -0.507367626 0.0901741002
1691550000.0 -0.3158668313 0.3992194605
1701500000.0 0.0406365458 0.5159970723
1711450000.0 0.3947305893 0.3699803859
1721400000.0 0.5703650731 0.0213839984
1731350000.0 0.4762032002 -0.3560823495
1741300000.0 0.1661706256 -0.5842578114
1751250000.0 -0.2134166932 -0.5718223551
1761200000.0 -0.5066312862 -0.3353471838
1771150000.0 -0.6033990696 0.0291771458
1781100000.0 -0.4632900731 0.3841734301
1791050000.0 -0.1313220454 0.587206973
1801000000.0 0.2633292396 0.5401936369
1810950000.0 0.5426775089 0.2517986798
1820900000.0 0.575606828 -0.1461018915
1830850000.0 0.3567104922 -0.4697473372
1840800000.0 -0.0031155319 -0.5895616692
1850750000.0 -0.3514509089 -0.4767354884
1860700000.0 -0.5641486658 -0.1901038043
1870650000.0 -0.5714687876 0.1616448904
1880600000.0 -0.3703983302 0.4479356311
1890550000.0 -0.0393746957 0.5558782551
1900500000.0 0.285703046 0.4365552843
1910450000.0 0.4608395801 0.1472494854
1920400000.0 0.4203543228 -0.1744573474
1930350000.0 0.2065102885 -0.3916407174
1940300000.0 -0.0725279801 -0.4365766459
1950250000.0 -0.3060992975 -0.319345017
1960200000.0 -0.418630684 -0.1067232237
1970150000.0 -0.3871084014 0.1109312391
1980100000.0 -0.2472857412 0.2519934584
1990050000.0 -0.0723161595 0.2753878814
2000000000.0 0.058819434 0.1991323865
