!Created with skrf (http://scikit-rf.org).
# GHz S RI R 50.0 
!freq ReS11 ImS11
10000000.0 -0.7688093184 0.6785447643
19950000.0 -0.1350728178 0.9894898142
29900000.0 0.5410141541 0.8148602711
39850000.0 0.944143486 0.2392302271
49800000.0 0.8686008911 -0.47192507
59750000.0 0.319369647 -0.9615340218
69700000.0 -0.4394557939 -0.932197828
79650000.0 -0.9634999541 -0.3527632978
89600000.0 -0.8962739012 0.4432078234
99550000.0 -0.247846294 0.9371910773
109500000.0 0.571430842 0.7682666803
119450000.0 0.9745029421 8.14871e-05
129400000.0 0.5898846584 -0.8127937913
139350000.0 -0.3203286151 -0.96385681
149300000.0 -0.9481056776 -0.2942875139
159250000.0 -0.7639273968 0.5751698298
169200000.0 0.0060993335 0.9396885906
179150000.0 0.7487258928 0.588853544
189100000.0 0.9643281396 -0.179468868
199050000.0 0.5479809784 -0.836384539
209000000.0 -0.196432456 -0.9748101078
218950000.0 -0.795058774 -0.5527474025
228900000.0 -0.9267887243 0.1473531171
238850000.0 -0.548860588 0.7399100022
248800000.0 0.0290013412 0.9098648957
258750000.0 0.6984320548 0.637239808
268700000.0 0.9651646159 0.005426221
278650000.0 0.7291914972 -0.6340108018
288600000.0 0.1240726716 -0.9342762337
298550000.0 -0.5134475855 -0.7402268973
308500000.0 -0.8393230155 -0.169355065
318450000.0 -0.680220598 0.4593497321
328400000.0 -0.1316693552 0.7873748204
338350000.0 0.4681826373 0.6185763737
348300000.0 0.7269831418 0.0833362531
358250000.0 0.5024704761 -0.4195992746
368200000.0 0.0248601252 -0.5491549381
378150000.0 -0.3251054867 -0.2946875239
388100000.0 -0.3400296692 0.0739535216
398050000.0 -0.1043600633 0.2711943359
408000000.0 0.1413679301 0.2116083466
417950000.0 0.2191766209 0.0199616399
427900000.0 0.126212387 -0.125211109
437850000.0 -0.0205034386 -0.1348307188
447800000.0 -0.1043309632 -0.0389423219
457750000.0 -0.0837565547 0.0697564452
467700000.0 0.0008983909 0.1131769196
477650000.0 0.0723494245 0.077556636
487600000.0 0.0655727797 0.0219814485
497550000.0 0.0849115299 -0.0434246545
507500000.0 0.0170248462 -0.0499648872
517450000.0 -0.0131209228 -0.0181586583
527400000.0 -0.0034333119 0.0095515333
537350000.0 0.0225427961 0.0047739869
547300000.0 0.0240710292 -0.0325188289
557250000.0 -0.0160146693 -0.0595393547
567200000.0 -0.0751898039 -0.044775698
577150000.0 -0.1111130078 0.0187428403
587100000.0 -0.0873464497 0.0999609241
597050000.0 -0.0014498316 0.146250237
607000000.0 0.1058799997 0.1132149465
616950000.0 0.146496306 -0.0045897692
626900000.0 0.129479796 -0.0806775851
636850000.0 0.0525291639 -0.1689537329
646800000.0 -0.070900531 -0.1770928872
656750000.0 -0.1662280607 -0.0984418277
666700000.0 -0.1800546351 0.0220789276
676650000.0 -0.1075463908 0.1162495743
686600000.0 0.0079348778 0.1318504073
696550000.0 0.0973301732 0.063040365
706500000.0 0.1097140207 -0.0429846997
716450000.0 0.0456903744 -0.1182485572
726400000.0 -0.0458847559 -0.1172978208
736350000.0 -0.0962427107 -0.0460047529
746300000.0 -0.0643531624 0.0370846225
756250000.0 0.0304930809 0.0606514104
766200000.0 0.1178256262 -0.00834286
776150000.0 0.1219418178 -0.1356464822
786100000.0 0.0175520661 -0.2356088167
796050000.0 -0.1461077236 -0.2259139728
806000000.0 -0.2662549317 -0.0846021137
815950000.0 -0.2493482561 0.1233076672
825900000.0 -0.0758470258 0.2758962171
835850000.0 0.1749779644 0.2681696873
845800000.0 0.36732067 0.0817753167
855750000.0 0.3857919222 -0.1987756107
865700000.0 0.2042666468 -0.4286707759
875650000.0 -0.0956835532 -0.4794836559
885600000.0 -0.3617776859 -0.308453987
895550000.0 -0.444806054 0.0087009887
905500000.0 -0.2842159851 0.3078047491
915450000.0 0.047221729 0.4171120922
925400000.0 0.3652896951 0.2590255644
935350000.0 0.4723940977 -0.0819386824
945300000.0 0.3010627172 -0.3837587849
955250000.0 -0.0359457382 -0.4721991397
965200000.0 -0.3388248724 -0.265829121
975150000.0 -0.3649624076 0.1248759561
985100000.0 -0.034442843 0.3909976746
995050000.0 0.4015022889 0.2446310253
1005000000.0 0.5184965594 -0.246940783
1014950000.0 0.1214159845 -0.6439288309
1024900000.0 -0.486448601 -0.507404022
1034850000.0 -0.7314890673 0.1367031246
1044800000.0 -0.2872145519 0.7420650737
1054750000.0 0.4572848102 0.680740467
1064700000.0 0.8839260487 0.0918494817
1074650000.0 0.6402211705 -0.6052220245
1084600000.0 0.0313590623 -0.8566758167
1094550000.0 -0.5833123034 -0.574854769
1104500000.0 -0.7686381976 0.0684338125
1114450000.0 -0.3908739792 0.6169026989
1124400000.0 0.2570297061 0.6470030224
1134350000.0 0.6380307242 0.1748871562
1144300000.0 0.505763779 -0.3594263799
1154250000.0 0.05783204 -0.5731613809
1164200000.0 -0.3649043833 -0.3994748835
1174150000.0 -0.520021218 0.0227686446
1184100000.0 -0.2986866096 0.4163472874
1194050000.0 0.1430905539 0.4964777618
1204000000.0 0.4842623263 0.2186744373
1213950000.0 0.5123716559 -0.2045497937
1223900000.0 0.2479530865 -0.5168944829
1233850000.0 -0.148432996 -0.5740976392
1243800000.0 -0.4896855232 -0.3620330445
1253750000.0 -0.6173417859 0.0290841646
1263700000.0 -0.4525704434 0.4201669525
1273650000.0 -0.0590804024 0.6081601126
1283600000.0 0.3625334912 0.4872975897
1293550000.0 0.6006496187 0.1276749254
1303500000.0 0.5622699999 -0.2905152409
1313450000.0 0.288009872 -0.5928166569
1323400000.0 -0.1060971279 -0.6765331941
1333350000.0 -0.4768463306 -0.513895572
1343300000.0 -0.6846777901 -0.1540664061
1353250000.0 -0.6285179557 0.2716066218
1363200000.0 -0.3085253323 0.5761843526
1373150000.0 0.1368195015 0.6082900329
1383100000.0 0.4979345583 0.3563843399
1393050000.0 0.6239194043 -0.0498207153
1403000000.0 0.4881730929 -0.4349849098
1412950000.0 0.1641446693 -0.661261965
1422900000.0 -0.2229198018 -0.6598665585
1432850000.0 -0.5347922838 -0.4350714511
1442800000.0 -0.6549684925 -0.0664185949
1452750000.0 -0.5261334161 0.3075470115
1462700000.0 -0.186646645 0.5253918759
1472650000.0 0.2165607008 0.4797323279
1482600000.0 0.4959227677 0.1938272552
1492550000.0 0.5322186322 -0.1907968952
1502500000.0 0.3294844966 -0.5022077894
1512450000.0 -0.0111013943 -0.618157329
1522400000.0 -0.3429755074 -0.5015925722
1532350000.0 -0.5255455046 -0.205342689
1542300000.0 -0.4756936936 0.1393897614
1552250000.0 -0.2122340797 0.3673458838
1562200000.0 0.1309984056 0.3614690747
1572150000.0 0.3725879226 0.1302300771
1582100000.0 0.3918980301 -0.1920159731
1592050000.0 0.1948732869 -0.4312971692
1602000000.0 -0.1039445821 -0.4731133491
1611950000.0 -0.3522738207 -0.3032148797
1621900000.0 -0.422946418 -0.0065419887
1631850000.0 -0.2699656295 0.2665268039
1641800000.0 0.0375779862 0.3629627465
1651750000.0 0.3332240853 0.2154711089
1661700000.0 0.4449287507 -0.0986571752
1671650000.0 0.3092912531 -0.4040506321
1681600000.0 0.0042408887 -0.5400680655
1691550000.0 -0.3182096429 -0.4459410953
1701500000.0 -0.5122059427 -0.1654114617
1711450000.0 -0.4893814307 0.1848958005
1721400000.0 -0.2419311368 0.4550354861
1731350000.0 0.135037665 0.5077067785
1741300000.0 0.4647120742 0.2979839908
1751250000.0 0.5784051328 -0.0791038707
1761200000.0 0.425848481 -0.4366587908
1771150000.0 0.0929076614 -0.6172598317
1781100000.0 -0.2728315362 -0.5651246045
1791050000.0 -0.5373038589 -0.3145377428
1801000000.0 -0.611908688 0.0442123888
1810950000.0 -0.4601849137 0.3866210929
1820900000.0 -0.1211409602 0.5742316987
1830850000.0 0.2700752833 0.5025336614
1840800000.0 0.5139838615 0.1909293257
1850750000.0 0.4973721513 -0.1420915784
1860700000.0 0.337643515 -0.4353815289
1870650000.0 0.0163173169 -0.5665297013
1880600000.0 -0.3027719997 -0.4872098916
1890550000.0 -0.5114938546 -0.2526106345
1900500000.0 -0.5508655951 0.0507338639
1910450000.0 -0.4092619697 0.3174905394
1920400000.0 -0.1403262637 0.4428591255
1930350000.0 0.1383774207 0.373550481
1940300000.0 0.2992520599 0.1562634411
1950250000.0 0.2881959899 -0.0869809515
1960200000.0 0.150453366 -0.2463746518
1970150000.0 -0.0220586838 -0.2830044606
1980100000.0 -0.1451370186 -0.2258285618
1990050000.0 -0.1832075565 -0.1485917994
2000000000.0 -0.1725755256 -0.1261410559
