!Created with skrf (http://scikit-rf.org).
# GHz S RI R 50.0 
!freq ReS11 ImS11
10000000.0 -0.7798232096 0.5956249323
19950000.0 -0.2772134806 0.9372580099
29900000.0 0.3292229412 0.9207253916
39850000.0 0.8150150821 0.5453111524
49800000.0 0.9823001281 -0.0587146105
59750000.0 0.7396606208 -0.6533450665
69700000.0 0.1645924829 -0.9725804581
79650000.0 -0.4970557864 -0.8450297082
89600000.0 -0.924098122 -0.299541098
99550000.0 -0.8735904035 0.4145496646
109500000.0 -0.3236591096 0.9135456795
119450000.0 0.4485383853 0.8653977917
129400000.0 0.9488087626 0.2337383532
139350000.0 0.7922892794 -0.5673567838
149300000.0 0.0725736422 -0.9606685897
159250000.0 -0.6752144097 -0.6703623732
169200000.0 -0.9447310008 0.0553265622
179150000.0 -0.614742779 0.7209961255
189100000.0 0.0601185517 0.947219906
199050000.0 0.6806964611 0.6576562386
209000000.0 0.9388710045 0.0461912958
218950000.0 0.7444682941 -0.5625709358
228900000.0 0.2208368073 -0.9001337325
238850000.0 -0.3889807371 -0.8352679042
248800000.0 -0.776552923 -0.2938053145
258750000.0 -0.9051947824 0.1476503462
268700000.0 -0.6232944342 0.6729554201
278650000.0 -0.0840395193 0.9079715039
288600000.0 0.4807376506 0.7583984696
298550000.0 0.8267630502 0.2915296446
308500000.0 0.8026662712 -0.286506725
318450000.0 0.418226681 -0.7107069243
328400000.0 -0.1405193674 -0.7805287604
338350000.0 -0.5907698968 -0.4667950349
348300000.0 -0.6980908965 0.0479797649
358250000.0 -0.4309740778 0.4611738041
368200000.0 0.0074708213 0.5493842472
378150000.0 0.3310097502 0.322400239
388100000.0 0.3786705137 -0.0147902797
398050000.0 0.1960922762 -0.23738145
408000000.0 -0.0433195263 -0.2494842031
417950000.0 -0.1828486272 -0.1099337007
427900000.0 -0.1755862359 0.0542923707
437850000.0 -0.0698175372 0.1422924589
447800000.0 0.0471882579 0.1251637695
457750000.0 0.1043389438 0.0416533313
467700000.0 0.0864862052 -0.0430721165
477650000.0 0.0263347701 -0.0822926234
487600000.0 -0.0283794012 -0.0671990238
497550000.0 -0.0209576917 -0.0328457076
507500000.0 -0.0644071592 -0.0027474467
517450000.0 -0.0278729907 0.0129772054
527400000.0 -0.009059314 -0.0038083137
537350000.0 -0.0196921996 -0.0267779197
547300000.0 -0.0534805239 -0.0285634927
557250000.0 -0.0804664608 0.0070016395
567200000.0 -0.0725004333 0.0606898355
577150000.0 -0.0224514519 0.102371714
587100000.0 0.0543582755 0.1020337221
597050000.0 0.1228207747 0.0479796312
607000000.0 0.1471194683 -0.0450980381
616950000.0 0.1075125407 -0.1392177997
626900000.0 0.0157348174 -0.1925879184
636850000.0 -0.0909223681 -0.1772212917
646800000.0 -0.1683149248 -0.0987365335
656750000.0 -0.1816508151 0.0133772113
666700000.0 -0.1231855367 0.1115199703
676650000.0 -0.0175934507 0.1523579866
686600000.0 0.0878768794 0.1191828412
696550000.0 0.1462967312 0.0304051024
706500000.0 0.1344356689 -0.0682909751
716450000.0 0.0634224213 -0.1282841204
726400000.0 -0.0244180509 -0.1215072597
736350000.0 -0.077528336 -0.0534738462
746300000.0 -0.0624986384 0.0341745858
756250000.0 0.0161751566 0.0839360029
766200000.0 0.1122142347 0.0594764472
776150000.0 0.1655283608 -0.0345011387
786100000.0 0.1328605394 -0.1488531827
796050000.0 0.0165267261 -0.2167267545
806000000.0 -0.1349216686 -0.1842719064
815950000.0 -0.2411001518 -0.0449813099
825900000.0 -0.2329977798 0.1476175386
835850000.0 -0.0958322493 0.303386867
845800000.0 0.1197340002 0.3394268222
855750000.0 0.3162883209 0.229271189
865700000.0 0.408570539 0.0180065842
875650000.0 0.3547139531 -0.2164564135
885600000.0 0.1583741637 -0.3802324655
895550000.0 -0.1110745044 -0.3874408853
905500000.0 -0.3355471194 -0.2178081967
915450000.0 -0.4048474907 0.0624642551
925400000.0 -0.2780267383 0.3262811423
935350000.0 -0.0088531922 0.4452890834
945300000.0 0.2742234046 0.3532695698
955250000.0 0.4231302776 0.0841122083
965200000.0 0.3337073381 -0.2292668694
975150000.0 0.0199209501 -0.3906215081
985100000.0 -0.3354506556 -0.2422469865
995050000.0 -0.448026556 0.1601605508
1005000000.0 -0.1810488438 0.5250964622
1014950000.0 0.3166793 0.5412546722
1024900000.0 0.6736607399 0.1172831286
1034850000.0 0.5502680565 -0.4827239858
1044800000.0 -0.0376382318 -0.774920689
1054750000.0 -0.6466110196 -0.4907160043
1064700000.0 -0.8056448576 0.1339068168
1074650000.0 -0.5432688289 0.6325006685
1084600000.0 0.0117655784 0.8437607104
1094550000.0 0.5567492656 0.6003019848
1104500000.0 0.7728914307 0.0419794514
1114450000.0 0.5241127851 -0.5003700879
1124400000.0 -0.021272822 -0.6836221116
1134350000.0 -0.4933053314 -0.4303579202
1144300000.0 -0.6300540981 0.0412605044
1154250000.0 -0.4124588201 0.4388049724
1164200000.0 -0.0029914042 0.5605233139
1174150000.0 0.3588485061 0.3664189744
1184100000.0 0.4786440602 -0.0199874531
1194050000.0 0.2921685752 -0.3723070156
1204000000.0 -0.0722939193 -0.4898041212
1213950000.0 -0.4036575603 -0.3414426378
1223900000.0 -0.5569663487 -0.0305322703
1233850000.0 -0.4875307541 0.3009556924
1243800000.0 -0.2298006512 0.5222342476
1253750000.0 0.1181624723 0.5449948459
1263700000.0 0.4190978595 0.3471607603
1273650000.0 0.5438617233 0.0028988002
1283600000.0 0.4430829773 -0.346732656
1293550000.0 0.1685447555 -0.5687583751
1303500000.0 -0.1698512154 -0.5999909149
1313450000.0 -0.4626214557 -0.448601249
1323400000.0 -0.6296009319 -0.1680348993
1333350000.0 -0.6246428805 0.163551622
1343300000.0 -0.4369026917 0.4518532872
1353250000.0 -0.1077473406 0.5960775116
1363200000.0 0.2569752219 0.5282998475
1373150000.0 0.5230147016 0.2659284234
1383100000.0 0.5961633647 -0.0921117778
1393050000.0 0.4690813474 -0.4176065871
1403000000.0 0.2020101749 -0.6167226942
1412950000.0 -0.1180527296 -0.6456027995
1422900000.0 -0.4029857842 -0.5058547731
1432850000.0 -0.5748233389 -0.2331277552
1442800000.0 -0.5756855974 0.0995893721
1452750000.0 -0.3902893075 0.3879885522
1462700000.0 -0.0703956645 0.5269092686
1472650000.0 0.2697989742 0.4631021574
1482600000.0 0.5069396353 0.2259981895
1492550000.0 0.5658495604 -0.0889484852
1502500000.0 0.4420105306 -0.3610934779
1512450000.0 0.2161214392 -0.5161920222
1522400000.0 -0.0652703268 -0.5326816484
1532350000.0 -0.3145435817 -0.3795705252
1542300000.0 -0.4316034428 -0.1004769398
1552250000.0 -0.3574418729 0.1987783569
1562200000.0 -0.1194554374 0.3885653877
1572150000.0 0.1725464122 0.3935108604
1582100000.0 0.3950556297 0.2295161873
1592050000.0 0.4710375417 -0.0228275123
1602000000.0 0.3828259291 -0.2653822023
1611950000.0 0.1633631904 -0.4096366602
1621900000.0 -0.1093138525 -0.390752957
1631850000.0 -0.3216658181 -0.1994238031
1641800000.0 -0.3695451662 0.0900542577
1651750000.0 -0.2271798027 0.3465059144
1661700000.0 0.0379414123 0.4600552009
1671650000.0 0.3124660513 0.3934979231
1681600000.0 0.4942010188 0.1817436396
1691550000.0 0.5226305748 -0.0981691373
1701500000.0 0.384043619 -0.3529807576
1711450000.0 0.1129259515 -0.4907399666
1721400000.0 -0.2039554723 -0.4448620926
1731350000.0 -0.4436400317 -0.2156190975
1741300000.0 -0.5066574976 0.1118079517
1751250000.0 -0.3754405345 0.4092770594
1761200000.0 -0.1121709334 0.577994057
1771150000.0 0.1907308447 0.5801600162
1781100000.0 0.4461256152 0.4270167317
1791050000.0 0.5871701574 0.1616637668
1801000000.0 0.5688819539 -0.147630097
1810950000.0 0.3817376666 -0.4103006128
1820900000.0 0.0714655392 -0.5322078226
1830850000.0 -0.2582910421 -0.4589031785
1840800000.0 -0.4880096773 -0.2194127118
1850750000.0 -0.5484178639 0.090824636
1860700000.0 -0.4440552261 0.367937442
1870650000.0 -0.2267496028 0.5426022963
1880600000.0 0.0373411223 0.5810230026
1890550000.0 0.2794973708 0.4809695088
1900500000.0 0.4354664142 0.2684397766
1910450000.0 0.4544482452 0.0019692276
1920400000.0 0.3269158708 -0.2325336879
1930350000.0 0.0974235862 -0.3530676283
1940300000.0 -0.1430727811 -0.329738061
1950250000.0 -0.3119355457 -0.1946197981
1960200000.0 -0.3728033843 -0.0166677738
1970150000.0 -0.3345335673 0.1382700245
1980100000.0 -0.234380599 0.2265274544
1990050000.0 -0.1267194239 0.2339841389
2000000000.0 -0.0641348471 0.1827859289
