!Created with skrf (http://scikit-rf.org).
# GHz S RI R 50.0 
!freq ReS11 ImS11
10000000.0 -0.7851296711 0.596338851
19950000.0 -0.2826588316 0.9412634752
29900000.0 0.325489844 0.9300856476
39850000.0 0.8156761461 0.5602228894
49800000.0 0.9907257497 -0.0401838086
59750000.0 0.7586229966 -0.6361209435
69700000.0 0.1929660522 -0.9656676002
79650000.0 -0.4692984776 -0.8575226704
89600000.0 -0.9140560815 -0.3303402218
99550000.0 -0.8925072116 0.3814838138
109500000.0 -0.3660758608 0.9008844497
119450000.0 0.4048321735 0.8860515167
129400000.0 0.9311406753 0.2772878327
139350000.0 0.8126879574 -0.5241764146
149300000.0 0.1123826854 -0.9524741478
159250000.0 -0.6516980601 -0.6961221137
169200000.0 -0.9517782788 0.0237536942
179150000.0 -0.6389937811 0.7058417116
189100000.0 0.0384912635 0.9504115601
199050000.0 0.6713686943 0.6701496319
209000000.0 0.9419937677 0.0586523907
218950000.0 0.7552226008 -0.5576252585
228900000.0 0.2317124825 -0.9057344156
238850000.0 -0.3846467255 -0.8482262536
248800000.0 -0.7373927753 -0.3006870064
258750000.0 -0.9143500689 0.138087736
268700000.0 -0.6332903045 0.6679292057
278650000.0 -0.0915176401 0.9077223196
288600000.0 0.4788874782 0.7622195774
298550000.0 0.8319472491 0.2963238399
308500000.0 0.8123752243 -0.2840848564
318450000.0 0.4287599118 -0.711907596
328400000.0 -0.1320580559 -0.7828300299
338350000.0 -0.5833815834 -0.4689382125
348300000.0 -0.6914673018 0.0450503541
358250000.0 -0.4263163298 0.457788209
368200000.0 0.0101031749 0.5466151516
378150000.0 0.3314311351 0.3210771778
388100000.0 0.3773223943 -0.0139213905
398050000.0 0.1936839953 -0.2332518959
408000000.0 -0.0449178978 -0.2431037025
417950000.0 -0.1830021406 -0.1023404467
427900000.0 -0.1736327314 0.061632741
437850000.0 -0.0662405955 0.1486039048
447800000.0 0.0513002634 0.1295725566
457750000.0 0.1074206591 0.0444222103
467700000.0 0.0873977438 -0.0410436591
477650000.0 0.0246151683 -0.0796135567
487600000.0 -0.0305824449 -0.0606010119
497550000.0 -0.0020375431 -0.094126606
507500000.0 -0.067428236 -0.003347367
517450000.0 -0.0343978299 0.0127814241
527400000.0 -0.015655679 -0.0033138495
537350000.0 -0.0254896678 -0.0266357542
547300000.0 -0.0604028904 -0.029406328
557250000.0 -0.0859966435 0.0076971141
567200000.0 -0.0758774652 0.0617141371
577150000.0 -0.0233607147 0.1027567533
587100000.0 0.0552532121 0.1014285895
597050000.0 0.1248443686 0.0459566478
607000000.0 0.1492808677 -0.048540096
616950000.0 0.1088398063 -0.1436664498
626900000.0 0.0159060953 -0.1972398345
636850000.0 -0.0925290067 -0.1818865175
646800000.0 -0.1706930434 -0.1015321888
656750000.0 -0.183675772 0.0124441087
666700000.0 -0.1231129884 0.1116260485
676650000.0 -0.0150615809 0.1523456256
686600000.0 0.0919174047 0.1181272529
696550000.0 0.1504820758 0.0284258732
706500000.0 0.1375108214 -0.0706031268
716450000.0 0.0650619322 -0.1293689458
726400000.0 -0.0237800204 -0.1208014317
736350000.0 -0.077504293 -0.0507103974
746300000.0 -0.0618780762 0.0385834681
756250000.0 0.0169923343 0.0891533297
766200000.0 0.1138816378 0.0651131479
776150000.0 0.1671389161 -0.029469627
786100000.0 0.1347406189 -0.1447867642
796050000.0 0.0189793486 -0.2145767852
806000000.0 -0.1325576446 -0.1852075331
815950000.0 -0.2407297598 -0.0496613947
825900000.0 -0.2367746463 0.1401813985
835850000.0 -0.105061725 0.2963732083
845800000.0 0.1064982335 0.3381738467
855750000.0 0.3070757007 0.2353723274
865700000.0 0.4053234172 0.0213166901
875650000.0 0.3480860294 -0.2170914569
885600000.0 0.1460873695 -0.377716186
895550000.0 -0.1236539303 -0.37628979
905500000.0 -0.3395380532 -0.1971179412
915450000.0 -0.3904753083 0.0853225434
925400000.0 -0.24132531 0.3357864457
935350000.0 0.0404725764 0.4235650795
945300000.0 0.3111733122 0.2907132854
955250000.0 0.4135591147 -0.0072672096
965200000.0 0.2532147504 -0.3061941725
975150000.0 -0.1122424477 -0.386057419
985100000.0 -0.4312682829 -0.1224399665
995050000.0 -0.413570594 0.3303087484
1005000000.0 -0.0094931805 0.6176145764
1014950000.0 0.5087068322 0.4627596184
1024900000.0 0.7260639838 -0.0811829199
1034850000.0 0.4263648189 -0.6157191077
1044800000.0 -0.1809847877 -0.7510020078
1054750000.0 -0.7001843364 -0.3780416388
1064700000.0 -0.7407392918 0.1790188132
1074650000.0 -0.499616475 0.663619907
1084600000.0 0.0698050543 0.8361371257
1094550000.0 0.5901308611 0.5580356263
1104500000.0 0.7645823006 -0.0067972773
1114450000.0 0.4800447499 -0.5218828437
1124400000.0 -0.0696348386 -0.6602216348
1134350000.0 -0.5125866094 -0.3759033756
1144300000.0 -0.6094840544 0.0948084292
1154250000.0 -0.3661725075 0.4639654642
1164200000.0 0.0392497038 0.5498901235
1174150000.0 0.3793768295 0.3399783481
1184100000.0 0.4774115901 -0.0501149447
1194050000.0 0.2735105145 -0.3929816477
1204000000.0 -0.0971363815 -0.4967695135
1213950000.0 -0.4263012907 -0.3380914135
1223900000.0 -0.5743809496 -0.0218978475
1233850000.0 -0.4999527191 0.3117302499
1243800000.0 -0.2385202291 0.5344629105
1253750000.0 0.1132175956 0.5599284723
1263700000.0 0.4205451269 0.3657226393
1273650000.0 0.5556147178 0.0213812298
1283600000.0 0.4650741163 -0.3360666166
1293550000.0 0.1947450613 -0.5718205201
1303500000.0 -0.1481627418 -0.6169208703
1313450000.0 -0.4516008064 -0.4748373301
1323400000.0 -0.6315075615 -0.197693266
1333350000.0 -0.6388583405 0.1361021057
1343300000.0 -0.4617749725 0.4331512098
1353250000.0 -0.1385144617 0.5928643289
1363200000.0 0.229832321 0.5445218637
1373150000.0 0.5105152909 0.2968569998
1383100000.0 0.6030524502 -0.0579861917
1393050000.0 0.491364522 -0.3907607169
1403000000.0 0.2317573228 -0.6013992952
1412950000.0 -0.0874887601 -0.642195735
1422900000.0 -0.3758040467 -0.5132302781
1432850000.0 -0.5543123539 -0.2513533983
1442800000.0 -0.5671848165 0.071219732
1452750000.0 -0.4011480322 0.356970977
1462700000.0 -0.0992553461 0.5077645971
1472650000.0 0.2342443396 0.4628276729
1482600000.0 0.475145786 0.2443008594
1492550000.0 0.5491721566 -0.056583531
1502500000.0 0.4481015121 -0.3350024696
1512450000.0 0.2162001881 -0.5055943555
1522400000.0 -0.0704910386 -0.5146446134
1532350000.0 -0.3117985835 -0.354717838
1542300000.0 -0.4143745175 -0.0785214805
1552250000.0 -0.3283666602 0.2052117731
1562200000.0 -0.0896776031 0.3735061367
1572150000.0 0.1908339787 0.3586978376
1582100000.0 0.3926399767 0.1832874545
1592050000.0 0.4435694973 -0.0685360939
1602000000.0 0.333179713 -0.2957576959
1611950000.0 0.1031017693 -0.4122956174
1621900000.0 -0.1611780151 -0.3631538078
1631850000.0 -0.3479861995 -0.1500834963
1641800000.0 -0.3606031826 0.1435322109
1651750000.0 -0.1863299312 0.3828867906
1661700000.0 0.0941461799 0.4648816065
1671650000.0 0.3625023777 0.3670979019
1681600000.0 0.5244201028 0.1358896206
1691550000.0 0.5288217502 -0.1503453352
1701500000.0 0.3670537213 -0.3994236999
1711450000.0 0.077466394 -0.5207673278
1721400000.0 -0.2460628902 -0.4499114053
1731350000.0 -0.4754099334 -0.1971858329
1741300000.0 -0.5168925586 0.1420437943
1751250000.0 -0.3632132472 0.4366575447
1761200000.0 -0.0856997039 0.591286721
1771150000.0 0.2172225334 0.5727495303
1781100000.0 0.4510118407 0.4073450239
1791050000.0 0.572990579 0.1682689516
1801000000.0 0.5760783985 -0.1208502832
1810950000.0 0.408961368 -0.3931276288
1820900000.0 0.1036327013 -0.5341757493
1830850000.0 -0.2338266856 -0.4796518328
1840800000.0 -0.4819772794 -0.2508126314
1850750000.0 -0.5612353441 0.0627174847
1860700000.0 -0.4690971746 0.350565816
1870650000.0 -0.2568530164 0.5384110578
1880600000.0 0.0082870293 0.5896616835
1890550000.0 0.2570252654 0.5011032092
1900500000.0 0.4242230954 0.2970228274
1910450000.0 0.4578582459 0.0326493823
1920400000.0 0.3429276447 -0.2067417904
1930350000.0 0.1218920817 -0.337077727
1940300000.0 -0.1142929664 -0.3257117133
1950250000.0 -0.2831140513 -0.2029388076
1960200000.0 -0.3455109242 -0.0374821816
1970150000.0 -0.3127298268 0.102732455
1980100000.0 -0.2274617397 0.1749828569
1990050000.0 -0.1474312562 0.173663345
2000000000.0 -0.1214991936 0.1349809975
