!Created with skrf (http://scikit-rf.org).
# GHz S RI R 50.0 
!freq ReS11 ImS11
10000000.0 -0.9460372375 0.0668190865
14975000.0 -0.9451258479 0.1006688222
19950000.0 -0.9435384073 0.1354217456
24925000.0 -0.9402750652 0.1716885917
29900000.0 -0.9359659303 0.2085331959
34875000.0 -0.9284397634 0.2472374904
39850000.0 -0.9176472253 0.2877453978
44825000.0 -0.903486401 0.3303360802
49800000.0 -0.8858843032 0.3751095718
54775000.0 -0.8642777043 0.422166866
59750000.0 -0.8381547251 0.4715860525
64725000.0 -0.8071359474 0.523452226
69700000.0 -0.7704025974 0.57747227
74675000.0 -0.7267279025 0.6335756396
79650000.0 -0.675131062 0.6913429507
84625000.0 -0.6145186517 0.7498078964
89600000.0 -0.5431881391 0.8079660795
94575000.0 -0.4599322659 0.8634982372
99550000.0 -0.3630862032 0.9137750512
104525000.0 -0.251849263 0.9551699602
109500000.0 -0.1265701035 0.9828673157
114475000.0 0.0114406608 0.9921682185
119450000.0 0.1580802372 0.9792389564
124425000.0 0.3080616196 0.9413350067
129400000.0 0.4549363196 0.8769138804
134375000.0 0.5888616619 0.7898415185
139350000.0 0.710619657 0.6783170771
144325000.0 0.8101159153 0.5507336496
149300000.0 0.8856369147 0.4128141322
154275000.0 0.9362040534 0.2712399302
159250000.0 0.9633421187 0.1314658266
164225000.0 0.9691692494 -0.0011993302
169200000.0 0.9573719136 -0.124005312
174175000.0 0.9312072649 -0.2349442969
179150000.0 0.8952510732 -0.3329477226
184125000.0 0.852976629 -0.4185695564
189100000.0 0.8075120335 -0.4931241292
194075000.0 0.7605634116 -0.55774078
199050000.0 0.7138857821 -0.6137327668
204025000.0 0.6675750706 -0.66283105
209000000.0 0.6229195956 -0.705444839
213975000.0 0.5791113893 -0.7430089234
218950000.0 0.5365288751 -0.775829819
223925000.0 0.4950924108 -0.8044579799
228900000.0 0.4546955299 -0.8292379503
233875000.0 0.4151967898 -0.8504087496
238850000.0 0.3760927262 -0.8682850837
243825000.0 0.3368309391 -0.8832850434
248800000.0 0.2968752715 -0.8734037098
253775000.0 0.266173352 -0.9031299866
258750000.0 0.2279884082 -0.9108373746
263725000.0 0.1906758457 -0.9163404496
268700000.0 0.1536013777 -0.9202504478
273675000.0 0.1165936937 -0.9226151831
278650000.0 0.0793920056 -0.923453385
283625000.0 0.0416774168 -0.9228828794
288600000.0 0.0030050612 -0.9207180348
293575000.0 -0.0365914934 -0.916669159
298550000.0 -0.0775351454 -0.9099103827
303525000.0 -0.1198617098 -0.9001870909
308500000.0 -0.1633089162 -0.8862560178
313475000.0 -0.2076980642 -0.8671728921
318450000.0 -0.2525979462 -0.8422109691
323425000.0 -0.2972902623 -0.8104858042
328400000.0 -0.3410407375 -0.7720597418
333375000.0 -0.3825028167 -0.7265296471
338350000.0 -0.4207357064 -0.6736815279
343325000.0 -0.4542479101 -0.613950884
348300000.0 -0.4813168612 -0.5480416812
353275000.0 -0.4999883611 -0.4769577815
358250000.0 -0.5092575838 -0.4020532435
363225000.0 -0.5079037724 -0.3257536186
368200000.0 -0.4952370993 -0.2507921973
373175000.0 -0.4717398231 -0.1794429912
378150000.0 -0.4390231446 -0.1140432576
383125000.0 -0.3978233301 -0.0562550334
388100000.0 -0.3500966312 -0.007143578
393075000.0 -0.2986545003 0.03230564
398050000.0 -0.2454748615 0.0624968668
403025000.0 -0.1922747822 0.0841023434
408000000.0 -0.1411587854 0.098169086
412975000.0 -0.0935285688 0.1052673037
417950000.0 -0.049835258 0.1068367228
422925000.0 -0.0102672212 0.1039965073
427900000.0 0.0243611185 0.0975516209
432875000.0 0.0542490564 0.0885802427
437850000.0 0.0792131528 0.0777944112
442825000.0 0.099751108 0.0657244177
447800000.0 0.1162629235 0.0528797008
452775000.0 0.1291627256 0.0393677216
457750000.0 0.1389522384 0.0258329385
462725000.0 0.1460458996 0.0124887771
467700000.0 0.1504978446 -0.0003257476
472675000.0 0.1525783716 -0.0120893131
477650000.0 0.1526428391 -0.0228995338
482625000.0 0.1511740989 -0.0323248541
487600000.0 0.1482740523 -0.0401615922
492575000.0 0.1439233828 -0.0458075061
497550000.0 0.1425268515 -0.0493295843
502525000.0 0.1345215668 -0.0554505155
507500000.0 0.1265814431 -0.0575913568
512475000.0 0.1176996391 -0.0583256122
517450000.0 0.1080355658 -0.0580546086
522425000.0 0.0976861297 -0.0569168387
527400000.0 0.0866920088 -0.0549249541
532375000.0 0.0752826421 -0.0516923637
537350000.0 0.0640157265 -0.0477191959
542325000.0 0.0529687273 -0.0430373399
547300000.0 0.0422893085 -0.0379569281
552275000.0 0.0317485483 -0.0320922848
557250000.0 0.0217904025 -0.0251812953
562225000.0 0.0124507449 -0.0175175446
567200000.0 0.0039069933 -0.008905235
572175000.0 -0.0035357657 0.0007685031
577150000.0 -0.0099804259 0.0114591337
582125000.0 -0.0158413112 0.0225602621
587100000.0 -0.021062138 0.0346958943
592075000.0 -0.0257631907 0.0471283868
597050000.0 -0.0298339814 0.0592697162
602025000.0 -0.0333808138 0.0717283402
607000000.0 -0.0361735693 0.0838065826
611975000.0 -0.0380250219 0.0955034995
616950000.0 -0.0394235129 0.1065828641
621925000.0 -0.0400562557 0.1170029449
626900000.0 -0.0397138357 0.1264519971
631875000.0 -0.0381975547 0.134971451
636850000.0 -0.0357235005 0.14275289
641825000.0 -0.0324192551 0.1499087232
646800000.0 -0.0278882969 0.1562994423
651775000.0 -0.0225065662 0.1620167437
656750000.0 -0.0160538201 0.1674390083
661725000.0 -0.0089110806 0.1720321727
666700000.0 -0.0016266847 0.176229337
671675000.0 0.0062867131 0.1795442653
676650000.0 0.0145356038 0.1824088693
681625000.0 0.0231524842 0.1844411646
686600000.0 0.031957941 0.1857936704
691575000.0 0.0407654285 0.1860798987
696550000.0 0.0494273083 0.1848907558
701525000.0 0.0583230624 0.1822015017
706500000.0 0.0672498453 0.1778863693
711475000.0 0.0762900034 0.1717717333
716450000.0 0.0856054884 0.164400645
721425000.0 0.0949493143 0.1554542
726400000.0 0.1045067897 0.1451366755
731375000.0 0.1139714725 0.1333439229
736350000.0 0.1232903513 0.1204582825
741325000.0 0.1318951889 0.106352847
746300000.0 0.1405335272 0.0911661877
751275000.0 0.148487491 0.0752267358
756250000.0 0.1551096695 0.0582333862
761225000.0 0.1608324893 0.0403728952
766200000.0 0.1648921069 0.0220790724
771175000.0 0.167711086 0.002422302
776150000.0 0.1685654482 -0.0176848407
781125000.0 0.1676440127 -0.0390219003
786100000.0 0.1652462426 -0.0606691221
791075000.0 0.1609860726 -0.0832113416
796050000.0 0.1552719915 -0.1061134415
801025000.0 0.1480846062 -0.1296639265
806000000.0 0.1391276232 -0.1530625856
810975000.0 0.1286005168 -0.1761568763
815950000.0 0.1163795656 -0.1987087161
820925000.0 0.102670057 -0.2207483621
825900000.0 0.087983028 -0.2419202775
830875000.0 0.0723938154 -0.2616239111
835850000.0 0.0550052637 -0.279480364
840825000.0 0.0363977081 -0.296103335
845800000.0 0.0164959928 -0.3109627869
850775000.0 -0.0046662149 -0.3239227626
855750000.0 -0.0270541592 -0.3356733093
860725000.0 -0.0507357454 -0.3459881231
865700000.0 -0.0754286812 -0.3546980137
870675000.0 -0.1011018657 -0.3619364106
875650000.0 -0.1276619497 -0.3677348756
880625000.0 -0.1548181809 -0.3712231484
885600000.0 -0.1821591105 -0.3728802994
890575000.0 -0.210314182 -0.3723303434
895550000.0 -0.2383351948 -0.3694060468
900525000.0 -0.2659468421 -0.3638864898
905500000.0 -0.2932892612 -0.3552058255
910475000.0 -0.3200807051 -0.3430433389
915450000.0 -0.3465195131 -0.3280217833
920425000.0 -0.3718851015 -0.3089537652
925400000.0 -0.3968769031 -0.2864235088
930375000.0 -0.4207074374 -0.2601673605
935350000.0 -0.443486542 -0.2302396803
940325000.0 -0.4650758166 -0.1965939218
945300000.0 -0.4848646567 -0.1590914313
950275000.0 -0.5027293304 -0.1173469542
955250000.0 -0.5180586431 -0.0714643693
960225000.0 -0.5295429495 -0.0210010257
965200000.0 -0.53628729 0.0339652726
970175000.0 -0.5375122011 0.0934927123
975150000.0 -0.5312726925 0.1569741176
980125000.0 -0.5161186772 0.2245529909
985100000.0 -0.49016275 0.295152887
990075000.0 -0.4522985245 0.3674241642
995050000.0 -0.4006022528 0.4394743847
1000025000.0 -0.3340941111 0.5090598302
1005000000.0 -0.2523431392 0.5734074937
1009975000.0 -0.1549585431 0.6278358558
1014950000.0 -0.0428991273 0.6676559472
1019925000.0 0.0817203513 0.6889656697
1024900000.0 0.2147161681 0.6873449339
1029875000.0 0.3502309723 0.658667251
1034850000.0 0.4814424543 0.601541405
1039825000.0 0.6002886921 0.5160185891
1044800000.0 0.6991143183 0.4054056314
1049775000.0 0.7715981122 0.2754979675
1054750000.0 0.8126618575 0.1346478129
1059725000.0 0.8196441687 -0.0069242241
1064700000.0 0.7929184897 -0.1336270587
1069675000.0 0.7455364417 -0.2283982806
1074650000.0 0.7080616505 -0.2884290568
1079625000.0 0.7002869197 -0.3527276332
1084600000.0 0.6840678922 -0.4464459635
1089575000.0 0.6475897761 -0.5322625808
1094550000.0 0.593490996 -0.6329987543
1099525000.0 0.50902114 -0.7138659139
1104500000.0 0.4088266582 -0.7681897465
1109475000.0 0.3104086535 -0.8051440609
1114450000.0 0.2164193016 -0.8274359296
1119425000.0 0.1202490226 -0.8336006094
1124400000.0 0.0252400328 -0.8259348437
1129375000.0 -0.0605527002 -0.8104188679
1134350000.0 -0.1410736598 -0.7868191848
1139325000.0 -0.2154638596 -0.7560865653
1144300000.0 -0.2829225801 -0.718956289
1149275000.0 -0.3438890119 -0.6772361743
1154250000.0 -0.3982091978 -0.6310437136
1159225000.0 -0.4443873942 -0.5815846306
1164200000.0 -0.4830417468 -0.5301740534
1169175000.0 -0.5150533047 -0.4795215959
1174150000.0 -0.5421382168 -0.4290546261
1179125000.0 -0.5653182452 -0.3784881139
1184100000.0 -0.5849674275 -0.3270558814
1189075000.0 -0.60017438 -0.2756958201
1194050000.0 -0.6109607326 -0.225433326
1199025000.0 -0.6186860144 -0.1765130146
1204000000.0 -0.6219361753 -0.1280221349
1208975000.0 -0.6233647321 -0.0832355803
1213950000.0 -0.6224097467 -0.0400048039
1218925000.0 -0.6194420789 0.0008221209
1223900000.0 -0.6152134049 0.0387203645
1228875000.0 -0.6088874376 0.0743973056
1233850000.0 -0.601611532 0.1081975415
1238825000.0 -0.5929474793 0.1398662317
1243800000.0 -0.583126709 0.1692095816
1248775000.0 -0.5727143494 0.1978511089
1253750000.0 -0.5616897635 0.2248041102
1258725000.0 -0.5504139635 0.2497215086
1263700000.0 -0.5388664628 0.2740225
1268675000.0 -0.5278703116 0.2971206576
1273650000.0 -0.5169205378 0.3187118159
1278625000.0 -0.5064715409 0.338722227
1283600000.0 -0.4963699407 0.357360584
1288575000.0 -0.4865768793 0.3742412143
1293550000.0 -0.4770312728 0.3903306979
1298525000.0 -0.4678940343 0.4040459893
1303500000.0 -0.4589423442 0.4168662597
1308475000.0 -0.4498901944 0.4288111166
1313450000.0 -0.4415662329 0.4389811394
1318425000.0 -0.4331311917 0.4477459463
1323400000.0 -0.4247005221 0.4558398513
1328375000.0 -0.4169343036 0.4633076262
1333350000.0 -0.4091107416 0.4710197039
1338325000.0 -0.4013919897 0.4786898045
1343300000.0 -0.3944205384 0.4870398216
1348275000.0 -0.3866563607 0.4965526709
1353250000.0 -0.3787466817 0.5058873506
1358225000.0 -0.3708949007 0.5157169674
1363200000.0 -0.3625854611 0.5257137538
1368175000.0 -0.354364559 0.5354229676
1373150000.0 -0.346268484 0.5441157292
1378125000.0 -0.3379122898 0.5523792326
1383100000.0 -0.3295229001 0.560093262
1388075000.0 -0.3215354552 0.5665218616
1393050000.0 -0.3135423032 0.5718488906
1398025000.0 -0.3048458789 0.5759172534
1403000000.0 -0.2963791562 0.5790397674
1407975000.0 -0.2879601334 0.5814111913
1412950000.0 -0.2791220934 0.582737553
1417925000.0 -0.2701052251 0.5835701286
1422900000.0 -0.2622125251 0.5843127631
1427875000.0 -0.2544787365 0.5848604238
1432850000.0 -0.2472766846 0.5854752946
1437825000.0 -0.240764954 0.5869323752
1442800000.0 -0.2344853319 0.5893065404
1447775000.0 -0.2277893564 0.5927095946
1452750000.0 -0.2201365711 0.5961543034
1457725000.0 -0.2118379507 0.5993247566
1462700000.0 -0.2025742212 0.6033268387
1467675000.0 -0.1923223325 0.6068695685
1472650000.0 -0.1811715746 0.6091319639
1477625000.0 -0.1697729255 0.611271081
1482600000.0 -0.1573720093 0.6126925667
1487575000.0 -0.1446141828 0.6125910239
1492550000.0 -0.1305651867 0.6115733272
1497525000.0 -0.1157889014 0.6104417046
1502500000.0 -0.1008047618 0.6088386169
1507475000.0 -0.0848947934 0.6072525285
1512450000.0 -0.0691948272 0.6054305394
1517425000.0 -0.0534721221 0.603522409
1522400000.0 -0.0381864747 0.6015142972
1527375000.0 -0.0228050684 0.5993638588
1532350000.0 -0.0080578093 0.5966702414
1537325000.0 0.0064633654 0.5939235384
1542300000.0 0.0211973134 0.5906507572
1547275000.0 0.0363816113 0.5863287434
1552250000.0 0.0513103476 0.5819316931
1557225000.0 0.0662130664 0.5765131717
1562200000.0 0.0822537627 0.5695105714
1567175000.0 0.0979357252 0.5619249752
1572150000.0 0.1140966022 0.5531871403
1577125000.0 0.1309807022 0.5433100438
1582100000.0 0.1483268165 0.5327528093
1587075000.0 0.1659395526 0.5217744662
1592050000.0 0.1844601945 0.5104504753
1597025000.0 0.2028154162 0.4993865555
1602000000.0 0.2218478543 0.4881575648
1606975000.0 0.2408161182 0.4769445007
1611950000.0 0.2599690017 0.4660257179
1616925000.0 0.2788591903 0.4547298146
1621900000.0 0.2971346674 0.4435924428
1626875000.0 0.3155155211 0.432201289
1631850000.0 0.3329764456 0.4196992086
1636825000.0 0.3492946805 0.4072938617
1641800000.0 0.3654142527 0.3944094154
1646775000.0 0.3807465776 0.3806396893
1651750000.0 0.3952529948 0.3664577381
1656725000.0 0.4092023123 0.352757314
1661700000.0 0.4228942666 0.338313094
1666675000.0 0.435550372 0.3240057167
1671650000.0 0.4476664554 0.3100577583
1676625000.0 0.4595214158 0.2966269423
1681600000.0 0.4707424587 0.2830968986
1686575000.0 0.4808266701 0.2699341078
1691550000.0 0.4909394462 0.2574086431
1696525000.0 0.4998100392 0.2454334085
1701500000.0 0.5084551898 0.2332110204
1706475000.0 0.5157915117 0.2212647084
1711450000.0 0.5223626272 0.2094282384
1716425000.0 0.5280894295 0.197561569
1721400000.0 0.5330730834 0.1855602496
1726375000.0 0.5378866713 0.1733293521
1731350000.0 0.5422065321 0.1614298773
1736325000.0 0.5473010505 0.1492338535
1741300000.0 0.5515842204 0.1364662953
1746275000.0 0.5575453645 0.1250333124
1751250000.0 0.5632499897 0.1135012986
1756225000.0 0.5687498539 0.102610357
1761200000.0 0.5744485754 0.0923452479
1766175000.0 0.5796420065 0.0830289287
1771150000.0 0.5847718832 0.0745039361
1776125000.0 0.5893447149 0.0669412954
1781100000.0 0.5928918824 0.0600919203
1786075000.0 0.5958014335 0.054289337
1791050000.0 0.5969227214 0.0494373851
1796025000.0 0.5976802245 0.0448172521
1801000000.0 0.5970327124 0.0405762747
1805975000.0 0.595432481 0.0374026069
1810950000.0 0.5931382262 0.034066881
1815925000.0 0.5911497405 0.0314699214
1820900000.0 0.5889733038 0.02884357
1825875000.0 0.5865317756 0.0256682111
1830850000.0 0.5853593208 0.0232304202
1835825000.0 0.5844868788 0.0202295227
1840800000.0 0.5838394696 0.0174467588
1845775000.0 0.5832888525 0.0146128104
1850750000.0 0.5819055907 0.0123578097
1855725000.0 0.5810723823 0.0101316455
1860700000.0 0.5788652799 0.0077727942
1865675000.0 0.5754352667 0.0069365412
1870650000.0 0.5717279622 0.0060164108
1875625000.0 0.5663993071 0.0049198731
1880600000.0 0.5594093516 0.0046296031
1885575000.0 0.5513993798 0.0040102929
1890550000.0 0.5413444656 0.0036573686
1895525000.0 0.531018994 0.003044621
1900500000.0 0.5190584731 0.0025471442
1905475000.0 0.5058908956 0.0024869199
1910450000.0 0.4937491536 0.0026729365
1915425000.0 0.480911476 0.0039378787
1920400000.0 0.4693497359 0.0061394512
1925375000.0 0.4596190178 0.0079431712
1930350000.0 0.4493581855 0.0097119418
1935325000.0 0.4403331516 0.010940647
1940300000.0 0.4301167101 0.0116204235
1945275000.0 0.418928469 0.0133829648
1950250000.0 0.4076427649 0.014740645
1955225000.0 0.394086789 0.0163827772
1960200000.0 0.3792867524 0.0187244175
1965175000.0 0.3627842711 0.0216252621
1970150000.0 0.3440831753 0.0245140106
1975125000.0 0.3242529092 0.0266493232
1980100000.0 0.3017902239 0.0292606762
1985075000.0 0.2777558417 0.0320993669
1990050000.0 0.2522778053 0.0329350215
1995025000.0 0.2238519476 0.03387547
2000000000.0 0.1939132275 0.0359983598
