!Created with skrf (http://scikit-rf.org).
# GHz S RI R 50.0 
!freq ReS11 ImS11
10000000.0 -0.9904850689 0.0700823449
14975000.0 -0.9883042211 0.1049770118
19950000.0 -0.9847534185 0.1400414416
24925000.0 -0.9797632081 0.1762746981
29900000.0 -0.9740032915 0.2120014141
34875000.0 -0.9652774954 0.2495135755
39850000.0 -0.9537172179 0.2883774908
44825000.0 -0.9391530153 0.3290752383
49800000.0 -0.9219353835 0.3716985785
54775000.0 -0.90107358 0.4164024936
59750000.0 -0.8762297212 0.4634722617
64725000.0 -0.8472381079 0.5130455205
69700000.0 -0.8127499114 0.5647744357
74675000.0 -0.7723885121 0.6186512903
79650000.0 -0.7244000849 0.6743452602
84625000.0 -0.6685778502 0.7308804932
89600000.0 -0.6031841724 0.7874880179
94575000.0 -0.5271944809 0.8421864575
99550000.0 -0.4395877538 0.8930229361
104525000.0 -0.3394543437 0.9371145704
109500000.0 -0.2266188212 0.9710310895
114475000.0 -0.1012450542 0.9909655554
119450000.0 0.0344179745 0.9936051509
124425000.0 0.1772042138 0.9757301668
129400000.0 0.3135279704 0.9374883107
134375000.0 0.4590968279 0.87402409
139350000.0 0.5913268652 0.7886686186
144325000.0 0.7090849922 0.6837176458
149300000.0 0.8081779922 0.5630815834
154275000.0 0.8856749402 0.432275278
159250000.0 0.9409652001 0.2962521769
164225000.0 0.9736854648 0.1604426198
169200000.0 0.9861940773 0.0290068485
174175000.0 0.9807122067 -0.0951109764
179150000.0 0.9606278988 -0.209382394
184125000.0 0.9293300823 -0.3128168153
189100000.0 0.8903369637 -0.4051983539
194075000.0 0.8462804604 -0.4874178416
199050000.0 0.798886791 -0.5597368712
204025000.0 0.7493628734 -0.6235005044
209000000.0 0.6997039994 -0.6788579209
213975000.0 0.6495007375 -0.7277209377
218950000.0 0.5999059642 -0.7703305751
223925000.0 0.5507698919 -0.8074458324
228900000.0 0.5015387648 -0.8396490655
233875000.0 0.4522744205 -0.8673321108
238850000.0 0.4007870989 -0.8912124811
243825000.0 0.3381830869 -0.9123463451
248800000.0 0.3923563752 -0.7768600597
253775000.0 0.2978959831 -0.9222033855
258750000.0 0.2417101247 -0.9365719745
263725000.0 0.1914098511 -0.9447272423
268700000.0 0.1422545246 -0.9495477119
273675000.0 0.0936647366 -0.9513908488
278650000.0 0.0448864585 -0.9507394844
283625000.0 -0.004492771 -0.9472418169
288600000.0 -0.0545964788 -0.9409598827
293575000.0 -0.1048895044 -0.9312220905
298550000.0 -0.1558884674 -0.9175610847
303525000.0 -0.2070882845 -0.899447696
308500000.0 -0.2580825645 -0.8756122337
313475000.0 -0.3085003777 -0.8455723915
318450000.0 -0.357412395 -0.8088606751
323425000.0 -0.4046758363 -0.7647756193
328400000.0 -0.4488440475 -0.7138150411
333375000.0 -0.4883697889 -0.6558951543
338350000.0 -0.5227890496 -0.5911383307
343325000.0 -0.5510789914 -0.5212146415
348300000.0 -0.5707039818 -0.4470069984
353275000.0 -0.5810820448 -0.3697468838
358250000.0 -0.5826460332 -0.2918019955
363225000.0 -0.573484097 -0.2150713989
368200000.0 -0.5533916346 -0.1405329736
373175000.0 -0.5243176856 -0.071350338
378150000.0 -0.4874039134 -0.010336899
383125000.0 -0.4431923608 0.042962552
388100000.0 -0.3943571278 0.0881609397
393075000.0 -0.3429247474 0.1231814013
398050000.0 -0.2904078006 0.1496948063
403025000.0 -0.2385748877 0.1692623241
408000000.0 -0.1889435879 0.1811200194
412975000.0 -0.1423829636 0.1857576249
417950000.0 -0.099619128 0.1860210447
422925000.0 -0.0614019496 0.1826774764
427900000.0 -0.0278390294 0.1756272453
432875000.0 0.0008538041 0.1658300625
437850000.0 0.023485833 0.1542822435
442825000.0 0.0420618726 0.1406171532
447800000.0 0.0574415806 0.1256285759
452775000.0 0.0681328489 0.1104164636
457750000.0 0.075333952 0.0953165167
462725000.0 0.0803485069 0.0802169406
467700000.0 0.0825026656 0.0657082504
472675000.0 0.0816512806 0.0518304727
477650000.0 0.0784436055 0.0394591823
482625000.0 0.0720928939 0.0280216386
487600000.0 0.0608730627 0.01726986
492575000.0 0.0336231018 0.0145061335
497550000.0 0.0825259673 0.0559790844
502525000.0 0.0685821647 0.0131653934
507500000.0 0.0543169637 0.0035590649
512475000.0 0.0414170365 -3.74901e-05
517450000.0 0.0288949758 -0.0011404246
522425000.0 0.0164152359 -0.0011669101
527400000.0 0.0031446156 -0.0006772628
532375000.0 -0.0100145723 0.0009007843
537350000.0 -0.022935652 0.0030489767
542325000.0 -0.0369101456 0.0050586134
547300000.0 -0.0514709318 0.0099358147
552275000.0 -0.0625746743 0.0170153052
557250000.0 -0.0723161185 0.0236236355
562225000.0 -0.0806294716 0.029847525
567200000.0 -0.0882919588 0.0369784483
572175000.0 -0.0955517724 0.0453296507
577150000.0 -0.1016291947 0.0540207824
582125000.0 -0.1066917579 0.0625736972
587100000.0 -0.1111994754 0.0721296465
592075000.0 -0.1154338441 0.0821753657
597050000.0 -0.1180885565 0.0916789128
602025000.0 -0.1205918156 0.1014374584
607000000.0 -0.1229111709 0.1109813386
611975000.0 -0.1242568425 0.1202753192
616950000.0 -0.1248842746 0.128848085
621925000.0 -0.1250372939 0.1361616209
626900000.0 -0.1238572183 0.1429087699
631875000.0 -0.1213260259 0.1488658319
636850000.0 -0.117896171 0.1543111105
641825000.0 -0.1134583203 0.1585555095
646800000.0 -0.1077777956 0.1621762951
651775000.0 -0.1005179601 0.1654808122
656750000.0 -0.0923053403 0.1683386703
661725000.0 -0.0841654827 0.1704272034
666700000.0 -0.0750608735 0.1715979219
671675000.0 -0.0644984188 0.1722331697
676650000.0 -0.0538052577 0.1725013973
681625000.0 -0.0429573012 0.1718873781
686600000.0 -0.0319896711 0.1706034079
691575000.0 -0.0210164853 0.1678592077
696550000.0 -0.0099126335 0.163322043
701525000.0 0.0012140038 0.1570664704
706500000.0 0.012702539 0.1496136465
711475000.0 0.0243785648 0.140418889
716450000.0 0.0359671275 0.1293660664
721425000.0 0.047728214 0.1166263325
726400000.0 0.0598144096 0.1029108341
731375000.0 0.0716486146 0.0879016123
736350000.0 0.083278154 0.071118719
741325000.0 0.0947577419 0.0536546794
746300000.0 0.1058020227 0.0356993235
751275000.0 0.116079506 0.0167497284
756250000.0 0.1251347438 -0.0031197129
761225000.0 0.1328193674 -0.0236657566
766200000.0 0.1391710119 -0.044163273
771175000.0 0.1442682898 -0.0658566728
776150000.0 0.147335806 -0.0877229198
781125000.0 0.1484162472 -0.1105987209
786100000.0 0.1483589894 -0.1338428275
791075000.0 0.1466877246 -0.157209656
796050000.0 0.143198111 -0.1810716855
801025000.0 0.1384456016 -0.2052642918
806000000.0 0.1324009947 -0.2285454848
810975000.0 0.1249151128 -0.251847535
815950000.0 0.1163404183 -0.2751801629
820925000.0 0.1069883925 -0.2970288369
825900000.0 0.0965660643 -0.3175141859
830875000.0 0.0847891219 -0.3364913695
835850000.0 0.0716414536 -0.354133317
840825000.0 0.0573284218 -0.3706004885
845800000.0 0.0420223565 -0.3847412498
850775000.0 0.0249041671 -0.3969821848
855750000.0 0.0064625742 -0.4082952309
860725000.0 -0.0129669934 -0.4181260152
865700000.0 -0.0331877927 -0.4262205122
870675000.0 -0.0545960124 -0.4333454754
875650000.0 -0.076803498 -0.4383718356
880625000.0 -0.0998149084 -0.4418009602
885600000.0 -0.1235319837 -0.4441335232
890575000.0 -0.1473538782 -0.4445886612
895550000.0 -0.171379191 -0.4427284208
900525000.0 -0.1956345109 -0.4382297066
905500000.0 -0.2201821086 -0.4311062863
910475000.0 -0.2451000762 -0.4208243462
915450000.0 -0.2700006738 -0.4067775376
920425000.0 -0.295010832 -0.3889451149
925400000.0 -0.320405499 -0.3671032164
930375000.0 -0.3448779104 -0.3405081706
935350000.0 -0.3697061355 -0.3088437345
940325000.0 -0.3935226316 -0.272663834
945300000.0 -0.4162168762 -0.2308565417
950275000.0 -0.435621158 -0.1832692705
955250000.0 -0.4517332485 -0.1297023061
960225000.0 -0.4619191579 -0.0694407052
965200000.0 -0.4642991559 -0.0044117926
970175000.0 -0.4573554591 0.0637912647
975150000.0 -0.4394198432 0.1329406115
980125000.0 -0.4114987855 0.2000377116
985100000.0 -0.3755033351 0.2652770375
990075000.0 -0.3316175604 0.3303416667
995050000.0 -0.2766730425 0.3943443048
1000025000.0 -0.2095265418 0.4533687075
1005000000.0 -0.1339518444 0.503796354
1009975000.0 -0.0525732255 0.5473257448
1014950000.0 0.0374599811 0.5850343446
1019925000.0 0.1374779205 0.6125493564
1024900000.0 0.2466204387 0.6255413685
1029875000.0 0.3610938734 0.619364053
1034850000.0 0.4761792287 0.5915901723
1039825000.0 0.5860502216 0.5403794364
1044800000.0 0.6852993516 0.4670347542
1049775000.0 0.7682385707 0.3727748229
1054750000.0 0.8257194046 0.2600478774
1059725000.0 0.8384457609 0.1447628934
1064700000.0 0.8389089575 0.0849676322
1069675000.0 0.8872530792 0.0059968518
1074650000.0 0.9099860239 -0.108446473
1079625000.0 0.902203515 -0.2266264748
1084600000.0 0.8661390472 -0.3379959754
1089575000.0 0.8182422059 -0.4233275182
1094550000.0 0.7690159946 -0.5132814248
1099525000.0 0.6996697467 -0.5957041878
1104500000.0 0.616429805 -0.6632667087
1109475000.0 0.5234671665 -0.7167548251
1114450000.0 0.4238715276 -0.7544808961
1119425000.0 0.3198034732 -0.7774385156
1124400000.0 0.2145967289 -0.7851484168
1129375000.0 0.1109869603 -0.7791750564
1134350000.0 0.0109214772 -0.7597153147
1139325000.0 -0.0832933719 -0.7282228364
1144300000.0 -0.1706693324 -0.6867134164
1149275000.0 -0.248967529 -0.6362962776
1154250000.0 -0.3181977287 -0.5790450353
1159225000.0 -0.3763850255 -0.5165523163
1164200000.0 -0.4240807479 -0.4525244678
1169175000.0 -0.4625868963 -0.3891771792
1174150000.0 -0.4947814334 -0.3261111874
1179125000.0 -0.5218513842 -0.2625921071
1184100000.0 -0.5420509693 -0.1982684915
1189075000.0 -0.5559735385 -0.1353588893
1194050000.0 -0.5646578898 -0.0757547031
1199025000.0 -0.5684699478 -0.0192955083
1204000000.0 -0.5691012928 0.0344312143
1208975000.0 -0.5661928775 0.083932981
1213950000.0 -0.5615556374 0.129803777
1218925000.0 -0.5553239403 0.1722287078
1223900000.0 -0.5474143688 0.211391312
1228875000.0 -0.5380642616 0.2469333552
1233850000.0 -0.5287074787 0.2790458373
1238825000.0 -0.5175554654 0.3085721041
1243800000.0 -0.5062129945 0.3360306704
1248775000.0 -0.4945959716 0.3603887414
1253750000.0 -0.482457193 0.3833088878
1258725000.0 -0.4717646452 0.4050726667
1263700000.0 -0.4609608989 0.4251738566
1268675000.0 -0.4514887077 0.4431903964
1273650000.0 -0.4434699643 0.4604609413
1278625000.0 -0.4360720381 0.4761469803
1283600000.0 -0.4295567674 0.490940084
1288575000.0 -0.4244665846 0.5037337501
1293550000.0 -0.419468074 0.5156357409
1298525000.0 -0.4159297999 0.5265513022
1303500000.0 -0.4123018249 0.5361092319
1308475000.0 -0.4091015418 0.5443530758
1313450000.0 -0.4058935611 0.5518055563
1318425000.0 -0.4029397471 0.5580008333
1323400000.0 -0.3991245201 0.5634737848
1328375000.0 -0.3949713451 0.5682728119
1333350000.0 -0.3906207482 0.5730239165
1338325000.0 -0.3856868669 0.5774274469
1343300000.0 -0.3811162493 0.5819006501
1348275000.0 -0.3758989307 0.5863701664
1353250000.0 -0.3708459986 0.5912782604
1358225000.0 -0.3664194023 0.5962558425
1363200000.0 -0.3618701346 0.6009807492
1368175000.0 -0.3575819579 0.6055544771
1373150000.0 -0.3540652525 0.6097781434
1378125000.0 -0.350537148 0.6136901422
1383100000.0 -0.3467095477 0.6170294329
1388075000.0 -0.3439285008 0.619633722
1393050000.0 -0.3402232007 0.6205358571
1398025000.0 -0.3368831001 0.6214504942
1403000000.0 -0.3329490175 0.6216722986
1407975000.0 -0.3289734585 0.6202055511
1412950000.0 -0.3241640095 0.6185462367
1417925000.0 -0.3191148847 0.6172427775
1422900000.0 -0.3141374284 0.6146670071
1427875000.0 -0.3089521612 0.6121900492
1432850000.0 -0.3037900332 0.6099489623
1437825000.0 -0.2989855432 0.607606282
1442800000.0 -0.2940049065 0.6054891537
1447775000.0 -0.2898518448 0.6035727584
1452750000.0 -0.2857603313 0.6024014785
1457725000.0 -0.2815667551 0.6019463549
1462700000.0 -0.2762159932 0.6020325126
1467675000.0 -0.2699604901 0.6025440219
1472650000.0 -0.2631781284 0.6029339976
1477625000.0 -0.2548125843 0.6033477916
1482600000.0 -0.2442425987 0.6033189793
1487575000.0 -0.2333256775 0.6024279905
1492550000.0 -0.2212925729 0.5995914762
1497525000.0 -0.2060376559 0.5982101114
1502500000.0 -0.1905650398 0.5962980268
1507475000.0 -0.1746188328 0.5930264765
1512450000.0 -0.1578804694 0.5907554902
1517425000.0 -0.1405474273 0.5889811546
1522400000.0 -0.1222800667 0.5859202312
1527375000.0 -0.1051716363 0.582837859
1532350000.0 -0.0884968574 0.5807942542
1537325000.0 -0.0701153908 0.5766777464
1542300000.0 -0.0519890047 0.5713946965
1547275000.0 -0.0353076674 0.565923833
1552250000.0 -0.0162702038 0.5593300474
1557225000.0 0.0019229175 0.5522923449
1562200000.0 0.0199133048 0.5419694041
1567175000.0 0.0387821727 0.5315115531
1572150000.0 0.0583438074 0.5208114672
1577125000.0 0.0775729939 0.5078173783
1582100000.0 0.0986418402 0.4934775496
1587075000.0 0.1193077059 0.4811736504
1592050000.0 0.1408051748 0.4672852777
1597025000.0 0.1637855553 0.4531146745
1602000000.0 0.1868132829 0.4393643904
1606975000.0 0.2097348627 0.4262751249
1611950000.0 0.2331521914 0.4131144186
1616925000.0 0.2561256028 0.3999558691
1621900000.0 0.2782017381 0.3859591041
1626875000.0 0.2998018603 0.3724262077
1631850000.0 0.3210918083 0.3576498889
1636825000.0 0.3411211799 0.3430149647
1641800000.0 0.3587036557 0.3273643962
1646775000.0 0.3761847617 0.31048377
1651750000.0 0.3926410832 0.2950468413
1656725000.0 0.406670783 0.2797544425
1661700000.0 0.4219587419 0.264295877
1666675000.0 0.4374601315 0.2502786563
1671650000.0 0.452097883 0.2356979379
1676625000.0 0.4679375355 0.2209310684
1681600000.0 0.4825790047 0.2068871996
1686575000.0 0.4954994948 0.1927419486
1691550000.0 0.5089418148 0.1786551779
1696525000.0 0.5216109244 0.1659488539
1701500000.0 0.5324935215 0.1534847719
1706475000.0 0.5429013777 0.1408977884
1711450000.0 0.5523251901 0.1290297992
1716425000.0 0.5601638021 0.1174439082
1721400000.0 0.5670099334 0.1056622355
1726375000.0 0.5738342564 0.0941924589
1731350000.0 0.57989797 0.0828625969
1736325000.0 0.5853947591 0.0715263095
1741300000.0 0.5908292806 0.0598806632
1746275000.0 0.5974514666 0.0495356834
1751250000.0 0.6028696057 0.0401277929
1756225000.0 0.608680041 0.030794911
1761200000.0 0.615258294 0.0226014219
1766175000.0 0.6209503471 0.0159653107
1771150000.0 0.6267023383 0.009907811
1776125000.0 0.6327866798 0.004632599
1781100000.0 0.6372953367 0.0008733934
1786075000.0 0.6418193817 -0.0023704844
1791050000.0 0.6450415787 -0.0044354747
1796025000.0 0.6476659301 -0.0063425522
1801000000.0 0.6490696413 -0.0082952222
1805975000.0 0.6492990342 -0.0086268019
1810950000.0 0.6491093576 -0.010046636
1815925000.0 0.6480581967 -0.0114354409
1820900000.0 0.6465614218 -0.0120375867
1825875000.0 0.6445812051 -0.0141588371
1830850000.0 0.6429944555 -0.0151109001
1835825000.0 0.6413237627 -0.0161168872
1840800000.0 0.6390241825 -0.0173191991
1845775000.0 0.6373324346 -0.0172322132
1850750000.0 0.6354218157 -0.0172283347
1855725000.0 0.6325820301 -0.016899513
1860700000.0 0.6296138875 -0.015149145
1865675000.0 0.6256459057 -0.0132698435
1870650000.0 0.6212794299 -0.0114456563
1875625000.0 0.6158223084 -0.0089087918
1880600000.0 0.6088851371 -0.0060980774
1885575000.0 0.6011981404 -0.0036221438
1890550000.0 0.5921244619 -0.001411291
1895525000.0 0.5823536273 0.0005184843
1900500000.0 0.5724404807 0.0017932366
1905475000.0 0.5607319351 0.0029807663
1910450000.0 0.5496303201 0.0036765397
1915425000.0 0.5384650646 0.0033381368
1920400000.0 0.525259803 0.0037405801
1925375000.0 0.5135727013 0.0042864582
1930350000.0 0.5010649248 0.0046248503
1935325000.0 0.4875792619 0.0047831968
1940300000.0 0.4735199396 0.0063931424
1945275000.0 0.4586542315 0.0077062621
1950250000.0 0.4423436791 0.0097258255
1955225000.0 0.4248810042 0.0123904956
1960200000.0 0.4045488583 0.0152963181
1965175000.0 0.3837203297 0.0193819639
1970150000.0 0.3606262104 0.0225538705
1975125000.0 0.3333499218 0.0265851393
1980100000.0 0.3063194177 0.0311137105
1985075000.0 0.2763116105 0.0343543377
1990050000.0 0.2436846587 0.0390527813
1995025000.0 0.2103108543 0.0431294387
2000000000.0 0.172859947 0.0483040978
