!Created with skrf (http://scikit-rf.org).
# GHz S RI R 50.0 
!freq ReS11 ImS11
10000000.0 -0.7697543511 0.6762435925
19950000.0 -0.1399382949 0.9886079497
29900000.0 0.5351213782 0.819023257
39850000.0 0.9420338526 0.2480671932
49800000.0 0.8729242255 -0.463054072
59750000.0 0.3271897165 -0.9574899293
69700000.0 -0.4345540958 -0.9326252912
79650000.0 -0.9628188175 -0.3492924477
89600000.0 -0.888199578 0.4562681411
99550000.0 -0.2168192855 0.9446034981
109500000.0 0.6137144814 0.7356957911
119450000.0 0.9730016704 -0.079559701
129400000.0 0.4972313248 -0.8733539837
139350000.0 -0.4358211331 -0.9138512678
149300000.0 -0.9735331733 -0.1616465104
159250000.0 -0.6759560497 0.6721576072
169200000.0 0.1252586761 0.9326270493
179150000.0 0.8108214445 0.5064863116
189100000.0 0.9474768056 -0.2622146207
199050000.0 0.4925702941 -0.8698550446
209000000.0 -0.2393170731 -0.9640408364
218950000.0 -0.8078677442 -0.53360869
228900000.0 -0.928403385 0.1489022855
238850000.0 -0.5728131734 0.7264408511
248800000.0 0.0550522855 0.907966432
258750000.0 0.6762368222 0.6642718215
268700000.0 0.9660539091 0.061955087
278650000.0 0.7798755848 -0.5798356503
288600000.0 0.2133560173 -0.9281531589
298550000.0 -0.4324346265 -0.8057568488
308500000.0 -0.8224530554 -0.2854362298
318450000.0 -0.754082058 0.3528682746
328400000.0 -0.2685740249 0.7588865517
338350000.0 0.3461762954 0.6960770539
348300000.0 0.6957173564 0.2219321896
358250000.0 0.5706996712 -0.3063215472
368200000.0 0.1375306374 -0.5145626539
378150000.0 -0.2293067914 -0.3341868333
388100000.0 -0.2927532438 -0.0042113284
398050000.0 -0.1075704965 0.1888958757
408000000.0 0.0976754513 0.1487310696
417950000.0 0.1517744039 -0.0092560487
427900000.0 0.0563360366 -0.1144526183
437850000.0 -0.0719174616 -0.0893115468
447800000.0 -0.1228827898 0.0252744706
457750000.0 -0.0649865172 0.1331877982
467700000.0 0.0513894706 0.1571935794
477650000.0 0.142548327 0.0892736533
487600000.0 0.1552089558 -0.0178244461
497550000.0 0.0942264003 -0.0933995976
507500000.0 0.0050548001 -0.1083746053
517450000.0 -0.0567622136 -0.0631527113
527400000.0 -0.0657954218 -0.002684345
537350000.0 -0.0362516552 0.0311963015
547300000.0 -0.0060304559 0.0267416186
557250000.0 -0.0034362337 0.0020326631
567200000.0 -0.0302255746 -0.0054039852
577150000.0 -0.0546910932 0.0230504475
587100000.0 -0.042819893 0.0718335918
597050000.0 0.0149749166 0.1013587452
607000000.0 0.0903346382 0.0759839117
616950000.0 0.1347550689 -0.0062641276
626900000.0 0.1105865801 -0.10862718
636850000.0 0.0179269073 -0.1743804054
646800000.0 -0.1006958197 -0.1615541065
656750000.0 -0.1824021378 -0.0696649661
666700000.0 -0.1792804569 0.0550623741
676650000.0 -0.0900180147 0.1444825029
686600000.0 0.0366061951 0.1472424
696550000.0 0.130045346 0.0627695486
706500000.0 0.139376588 -0.0587473147
716450000.0 0.0640056751 -0.1472456177
726400000.0 -0.0457890757 -0.1529463362
736350000.0 -0.1171717874 -0.0780702036
746300000.0 -0.1022686083 0.0215956144
756250000.0 -0.0116368774 0.0710000376
766200000.0 0.088317797 0.0268108911
776150000.0 0.1183009129 -0.0880826555
786100000.0 0.0419828693 -0.1938088533
796050000.0 -0.1034641282 -0.2060122586
806000000.0 -0.2221589639 -0.0919585469
815950000.0 -0.2187153199 0.0947534381
825900000.0 -0.0662307542 0.2384129987
835850000.0 0.1644647736 0.2333719259
845800000.0 0.3409051866 0.0572464559
855750000.0 0.3498064922 -0.207992272
865700000.0 0.1654906298 -0.4192332151
875650000.0 -0.1277165002 -0.4489830334
885600000.0 -0.3744056127 -0.2605857795
895550000.0 -0.4270713556 0.0608400945
905500000.0 -0.2358236737 0.3423366649
915450000.0 0.1088150964 0.4153846137
925400000.0 0.4126224332 0.2203217105
935350000.0 0.4902251256 -0.1382372616
945300000.0 0.2836790908 -0.4492101135
955250000.0 -0.0950217889 -0.5129854538
965200000.0 -0.409244862 -0.2629006375
975150000.0 -0.4213968911 0.1649938867
985100000.0 -0.064240325 0.457471937
995050000.0 0.4177669401 0.3248319371
1005000000.0 0.5844165338 -0.1893836615
1014950000.0 0.2172069719 -0.6408926128
1024900000.0 -0.4101986165 -0.5764978528
1034850000.0 -0.7266228076 0.0330537064
1044800000.0 -0.3524236389 0.667794521
1054750000.0 0.38875697 0.6704942415
1064700000.0 0.7473683103 0.1356471144
1074650000.0 0.6833685741 -0.4562710252
1084600000.0 0.1204827251 -0.8402054547
1094550000.0 -0.538911116 -0.6388273667
1104500000.0 -0.8020329132 0.0130462332
1114450000.0 -0.4555411325 0.6229518382
1124400000.0 0.2259025432 0.7131999199
1134350000.0 0.6789488556 0.2491538746
1144300000.0 0.6007823433 -0.3398910514
1154250000.0 0.1465071536 -0.6368587965
1164200000.0 -0.3435888058 -0.5123896235
1174150000.0 -0.5807685449 -0.0901462905
1184100000.0 -0.437784934 0.3706958479
1194050000.0 0.0047850515 0.5691774721
1204000000.0 0.4365327034 0.3699455971
1213950000.0 0.5780439419 -0.0642345308
1223900000.0 0.3841835488 -0.4545468778
1233850000.0 -0.0059861487 -0.6097270956
1243800000.0 -0.3984783029 -0.4764882548
1253750000.0 -0.6156082477 -0.1174478913
1263700000.0 -0.5438292913 0.3064888962
1273650000.0 -0.1993877473 0.5809897612
1283600000.0 0.2437656145 0.5535076398
1293550000.0 0.5536561363 0.2446115885
1303500000.0 0.5941280104 -0.1776464966
1313450000.0 0.3744040354 -0.5241756878
1323400000.0 -0.0009370876 -0.6692638754
1333350000.0 -0.3892108048 -0.5660253542
1343300000.0 -0.644900963 -0.2455141206
1353250000.0 -0.6506373071 0.1775560968
1363200000.0 -0.3800006246 0.5193273393
1373150000.0 0.0524211434 0.6097085808
1383100000.0 0.4384295408 0.4048388979
1393050000.0 0.6071284022 0.0164211283
1403000000.0 0.5104015846 -0.3795725036
1412950000.0 0.2082077934 -0.6323783068
1422900000.0 -0.1775099341 -0.6603255958
1432850000.0 -0.5049786735 -0.45478538
1442800000.0 -0.6433155371 -0.0879928394
1452750000.0 -0.5212528024 0.2917875505
1462700000.0 -0.1809556201 0.5091946676
1472650000.0 0.217519802 0.4565412865
1482600000.0 0.4824671168 0.1667107821
1492550000.0 0.5002925425 -0.210202879
1502500000.0 0.2852956682 -0.500673944
1512450000.0 -0.0524135476 -0.5887529306
1522400000.0 -0.3637144617 -0.4461947986
1532350000.0 -0.5095230448 -0.1395640207
1542300000.0 -0.4178937074 0.1880999186
1552250000.0 -0.129410912 0.3705513605
1562200000.0 0.2027265391 0.3087102885
1572150000.0 0.3963119326 0.0406487059
1582100000.0 0.3530709441 -0.2782224386
1592050000.0 0.1089408006 -0.476376429
1602000000.0 -0.2011448974 -0.4569083715
1611950000.0 -0.4197642541 -0.2312865166
1621900000.0 -0.4319977022 0.0917816823
1631850000.0 -0.2176758559 0.3493775193
1641800000.0 0.1264139505 0.3950344813
1651750000.0 0.417743737 0.18741482
1661700000.0 0.4907341715 -0.1683588753
1671650000.0 0.3060680185 -0.4810312064
1681600000.0 -0.0362693096 -0.5965080146
1691550000.0 -0.3763881723 -0.4697133856
1701500000.0 -0.5701727661 -0.1569350132
1711450000.0 -0.5338094119 0.2187233017
1721400000.0 -0.2634190147 0.5039324113
1731350000.0 0.141381826 0.5593408799
1741300000.0 0.4963780976 0.3384784912
1751250000.0 0.6271342499 -0.060609586
1761200000.0 0.4781208536 -0.4450420784
1771150000.0 0.1353008743 -0.6513841022
1781100000.0 -0.2514172847 -0.6189977082
1791050000.0 -0.5456722705 -0.3778000137
1801000000.0 -0.6544668603 -0.01227614
1810950000.0 -0.5338079484 0.358876851
1820900000.0 -0.2079970554 0.596333905
1830850000.0 0.2075805916 0.5839742063
1840800000.0 0.5254026561 0.3103767632
1850750000.0 0.5983908422 -0.0952768303
1860700000.0 0.4149759983 -0.4432599704
1870650000.0 0.0826167587 -0.6063266931
1880600000.0 -0.2635411916 -0.5566911544
1890550000.0 -0.5145768066 -0.3353962927
1900500000.0 -0.6019095715 -0.0206515168
1910450000.0 -0.4975202778 0.2854850968
1920400000.0 -0.2340306157 0.4705656219
1930350000.0 0.0821572497 0.4572715761
1940300000.0 0.311368094 0.2588952511
1950250000.0 0.3633540403 -0.0170361205
1960200000.0 0.2505225465 -0.2425516397
1970150000.0 0.0554612861 -0.3463494507
1980100000.0 -0.1308949129 -0.3252057868
1990050000.0 -0.247585042 -0.2253279804
2000000000.0 -0.2787716522 -0.1129589239
