!Created with skrf (http://scikit-rf.org).
# GHz S RI R 50.0 
!freq ReS11 ImS11
10000000.0 -0.8070734406 0.6057426371
19950000.0 -0.2932623568 0.9485218073
29900000.0 0.3205544547 0.929126961
39850000.0 0.8129427911 0.5522173383
49800000.0 0.9902789335 -0.0554699041
59750000.0 0.7547665887 -0.6628994764
69700000.0 0.1710752435 -0.9967511093
79650000.0 -0.5108083675 -0.8654077809
89600000.0 -0.9430993674 -0.2933418384
99550000.0 -0.8633382634 0.4440578652
109500000.0 -0.2633367897 0.9295053959
119450000.0 0.5362470939 0.816970307
129400000.0 0.9865632374 0.1065975268
139350000.0 0.7092274737 -0.6951755001
149300000.0 -0.0895381579 -0.9702218431
159250000.0 -0.7812260917 -0.5456635647
169200000.0 -0.9212217762 0.2133997317
179150000.0 -0.4975949094 0.8145095115
189100000.0 0.1941717189 0.9492137849
199050000.0 0.7725783681 0.5959146946
209000000.0 0.9680002273 -0.0299730323
218950000.0 0.7286855027 -0.6118132442
228900000.0 0.1958983539 -0.9139617762
238850000.0 -0.3987200175 -0.8361005727
248800000.0 -0.8059730789 -0.4225975086
258750000.0 -0.9270066765 0.1494579723
268700000.0 -0.6657692846 0.6740444641
278650000.0 -0.1420151046 0.9339829406
288600000.0 0.4300711272 0.8216862997
298550000.0 0.8119454773 0.3857750107
308500000.0 0.8453729748 -0.1896284196
318450000.0 0.5159177755 -0.655693742
328400000.0 -0.0267095364 -0.8033714839
338350000.0 -0.5196766773 -0.5637628274
348300000.0 -0.7063099483 -0.0752668792
358250000.0 -0.509516992 0.3662292045
368200000.0 -0.1016297439 0.5100950377
378150000.0 0.2271002956 0.3371699593
388100000.0 0.3010556287 0.0368981756
398050000.0 0.1556512812 -0.1648095317
408000000.0 -0.040890517 -0.1727074657
417950000.0 -0.1401058295 -0.049620908
427900000.0 -0.103008126 0.0812736233
437850000.0 0.0121203336 0.1265986238
447800000.0 0.1146897162 0.0707071543
457750000.0 0.1444733412 -0.0361833738
467700000.0 0.0912096722 -0.1285924263
477650000.0 -0.0049201285 -0.1580938836
487600000.0 -0.0900464263 -0.118995789
497550000.0 -0.1348603934 -0.0403886228
507500000.0 -0.1056403545 0.0373684773
517450000.0 -0.0513377949 0.0718473521
527400000.0 0.000593702 0.0644718803
537350000.0 0.0229158057 0.0329482293
547300000.0 0.0135104459 0.0093259566
557250000.0 -0.0056990748 0.0111699741
567200000.0 -0.0100958067 0.0341309398
577150000.0 0.0148753982 0.0564526254
587100000.0 0.0608560793 0.0513872186
597050000.0 0.1005533376 0.0057817398
607000000.0 0.1033420266 -0.0674756425
616950000.0 0.0537155647 -0.1363293974
626900000.0 -0.036204714 -0.1642880598
636850000.0 -0.1302968493 -0.1296285732
646800000.0 -0.1872109013 -0.04074418
656750000.0 -0.177571933 0.0690317202
666700000.0 -0.0983909594 0.1522748916
676650000.0 0.0184747547 0.1697777015
686600000.0 0.1231454088 0.1111851389
696550000.0 0.1712968118 0.0029782153
706500000.0 0.1417417946 -0.1079402295
716450000.0 0.0518390581 -0.1725123698
726400000.0 -0.0530627233 -0.1598859927
736350000.0 -0.1179513027 -0.0809156218
746300000.0 -0.1077481823 0.0212071155
756250000.0 -0.0264491414 0.0882295537
766200000.0 0.0796240619 0.0775890935
776150000.0 0.1491992947 -0.0068222612
786100000.0 0.1350262783 -0.1202162144
796050000.0 0.0350446978 -0.1941171505
806000000.0 -0.1017258044 -0.1717579971
815950000.0 -0.1985496646 -0.0469382861
825900000.0 -0.1876981128 0.1283004403
835850000.0 -0.0550022514 0.2674827613
845800000.0 0.147500761 0.2913411654
855750000.0 0.3282657004 0.17456811
865700000.0 0.3954201481 -0.0424851789
875650000.0 0.3017465192 -0.2649540162
885600000.0 0.0723558962 -0.3835731059
895550000.0 -0.1970472687 -0.323291424
905500000.0 -0.3728698883 -0.0932039425
915450000.0 -0.354729723 0.2072698497
925400000.0 -0.1347048683 0.4223508011
935350000.0 0.1785384761 0.4238292986
945300000.0 0.3987799313 0.1950221771
955250000.0 0.3822615408 -0.1169444875
965200000.0 0.1591887894 -0.3347458007
975150000.0 -0.1929448506 -0.3443461614
985100000.0 -0.4721510291 -0.0368453272
995050000.0 -0.3824541858 0.4303901939
1005000000.0 0.1014328093 0.6538805345
1014950000.0 0.6186999107 0.3654667797
1024900000.0 0.7043378745 -0.2807738316
1034850000.0 0.2031712072 -0.7700454987
1044800000.0 -0.5055344072 -0.6576689156
1054750000.0 -0.8263778663 -0.0458580587
1064700000.0 -0.6156109075 0.4753740322
1074650000.0 -0.1618577448 0.6841079056
1084600000.0 0.2714036432 0.7322019503
1094550000.0 0.7135354677 0.3229396997
1104500000.0 0.7030938236 -0.2747392867
1114450000.0 0.2760549748 -0.6747409288
1124400000.0 -0.2804617665 -0.6499853866
1134350000.0 -0.6322256645 -0.2698289241
1144300000.0 -0.6304014967 0.2071808211
1154250000.0 -0.3345014974 0.5410507494
1164200000.0 0.0881709186 0.5997887781
1174150000.0 0.4446571946 0.3733938825
1184100000.0 0.5608220635 -0.0378273661
1194050000.0 0.3673423082 -0.4144717973
1204000000.0 -0.0159968833 -0.558893609
1213950000.0 -0.3810441751 -0.4266388146
1223900000.0 -0.5770026221 -0.1126997452
1233850000.0 -0.5471137359 0.2429825188
1243800000.0 -0.3138942234 0.5112938772
1253750000.0 0.038185936 0.5915395528
1263700000.0 0.375927461 0.4409333998
1273650000.0 0.5581165601 0.1111530084
1283600000.0 0.5070901927 -0.2606274529
1293550000.0 0.2571367978 -0.5268984912
1303500000.0 -0.0849926174 -0.6053833989
1313450000.0 -0.4047187336 -0.4905772907
1323400000.0 -0.611450364 -0.2284360414
1333350000.0 -0.6458270451 0.1061011612
1343300000.0 -0.4872056023 0.4160456745
1353250000.0 -0.1708727427 0.5901569364
1363200000.0 0.2008998215 0.5517585871
1373150000.0 0.4850030707 0.3066977786
1383100000.0 0.5812823581 -0.048388273
1393050000.0 0.4725310701 -0.3832171523
1403000000.0 0.2145627587 -0.5979683443
1412950000.0 -0.1076517013 -0.6426883011
1422900000.0 -0.4013017031 -0.5102592558
1432850000.0 -0.5789148586 -0.2367226354
1442800000.0 -0.5757034166 0.1004696076
1452750000.0 -0.3763587435 0.3848722038
1462700000.0 -0.0475125317 0.5074382999
1472650000.0 0.2873264828 0.4233383005
1482600000.0 0.5061483128 0.1755146812
1492550000.0 0.5472826113 -0.1345472645
1502500000.0 0.414159626 -0.4024985129
1512450000.0 0.1586054987 -0.5447038417
1522400000.0 -0.1330200101 -0.5131346417
1532350000.0 -0.3568690097 -0.3129546307
1542300000.0 -0.4200723032 -0.0101035945
1552250000.0 -0.2863479068 0.2714048141
1562200000.0 -0.0138179483 0.4112230482
1572150000.0 0.2741052821 0.3575451193
1582100000.0 0.4622829006 0.1505266385
1592050000.0 0.4842206496 -0.1203184021
1602000000.0 0.3392154737 -0.3493976927
1611950000.0 0.0769427692 -0.4493994581
1621900000.0 -0.2062812009 -0.3691195036
1631850000.0 -0.3917145201 -0.1244779069
1641800000.0 -0.3895153144 0.1912815428
1651750000.0 -0.1960001941 0.4388952329
1661700000.0 0.1016733385 0.5193525065
1671650000.0 0.3834335037 0.411244903
1681600000.0 0.5512324819 0.1638297933
1691550000.0 0.5540714336 -0.139823944
1701500000.0 0.3832251925 -0.4034578099
1711450000.0 0.0821686553 -0.5363721552
1721400000.0 -0.2576275369 -0.4732522553
1731350000.0 -0.5058435421 -0.2193531039
1741300000.0 -0.5619117457 0.1310643083
1751250000.0 -0.4114016238 0.4432831321
1761200000.0 -0.1246724351 0.6132302815
1771150000.0 0.1974650175 0.6041868773
1781100000.0 0.4631168606 0.4309343848
1791050000.0 0.583533104 0.1348171952
1801000000.0 0.5742669655 -0.0975121672
1810950000.0 0.4294265529 -0.4085026311
1820900000.0 0.1123259073 -0.5657289527
1830850000.0 -0.2396885406 -0.5119424886
1840800000.0 -0.4937497982 -0.2731982174
1850750000.0 -0.5699034964 0.0490495627
1860700000.0 -0.4708128337 0.342146547
1870650000.0 -0.252383404 0.5314963223
1880600000.0 0.0166405371 0.5836728612
1890550000.0 0.2677808986 0.4969934391
1900500000.0 0.4372097363 0.2934384665
1910450000.0 0.4703995493 0.0318115686
1920400000.0 0.3554948625 -0.2017426619
1930350000.0 0.1397301616 -0.3268050988
1940300000.0 -0.0897149085 -0.3146353376
1950250000.0 -0.255315393 -0.1974468651
1960200000.0 -0.3219598266 -0.0388090553
1970150000.0 -0.2978977255 0.0984319282
1980100000.0 -0.2220811795 0.1717346823
1990050000.0 -0.1505038585 0.172925808
2000000000.0 -0.1358892492 0.1328265603
