!Created with skrf (http://scikit-rf.org).
# GHz S RI R 50.0 
!freq ReS11 ImS11
10000000.0 -0.9993838534 0.1652184833
19950000.0 -0.9433348587 0.3155753199
29900000.0 -0.8641154485 0.4595215365
39850000.0 -0.7617993793 0.6009917209
49800000.0 -0.6380144714 0.7346123988
59750000.0 -0.4878547105 0.853267622
69700000.0 -0.3045923468 0.9446969264
79650000.0 -0.0850942973 0.9899531443
89600000.0 0.1675031592 0.9715233671
99550000.0 0.4375080842 0.8709686595
109500000.0 0.7003051752 0.6766206586
119450000.0 0.9129298873 0.3789167995
129400000.0 1.007961712 -0.0103829962
139350000.0 0.9407427832 -0.406930973
149300000.0 0.7009400445 -0.7383432055
159250000.0 0.3600448115 -0.9307361881
169200000.0 0.0032794063 -0.9830858936
179150000.0 -0.315652771 -0.9279518412
189100000.0 -0.5723105209 -0.8018721286
199050000.0 -0.7576942317 -0.6338666519
209000000.0 -0.8716808455 -0.4435538252
218950000.0 -0.9293522913 -0.2483568861
228900000.0 -0.9416136225 -0.0575717735
238850000.0 -0.9206841622 0.1279875808
248800000.0 -0.7948679169 0.1618698472
258750000.0 -0.8230288112 0.432689412
268700000.0 -0.735331159 0.5764601873
278650000.0 -0.62107105 0.6928473276
288600000.0 -0.4798913076 0.7787043429
298550000.0 -0.3156925068 0.8311786693
308500000.0 -0.1338471163 0.8508179919
318450000.0 0.0587159103 0.8323365103
328400000.0 0.250974918 0.7681744737
338350000.0 0.4204427827 0.6509146958
348300000.0 0.5412024742 0.4809771708
358250000.0 0.5882690252 0.2764709834
368200000.0 0.554708219 0.0704770183
378150000.0 0.455966691 -0.1004350148
388100000.0 0.3232615576 -0.2157438937
398050000.0 0.1857970075 -0.2703666285
408000000.0 0.0671020871 -0.2712376865
417950000.0 -0.0226832059 -0.2329523061
427900000.0 -0.0816812559 -0.1730899532
437850000.0 -0.115321739 -0.1065770676
447800000.0 -0.1287521508 -0.0459704045
457750000.0 -0.1269028508 0.0014349675
467700000.0 -0.1138860991 0.0313532451
477650000.0 -0.0925477 0.0418434793
487600000.0 -0.0648495469 0.0333727789
497550000.0 -0.0935710796 -0.0159210328
507500000.0 -0.0225114861 0.0216683756
517450000.0 -4.8091e-06 -0.0032112372
527400000.0 0.0082656081 -0.0238361282
537350000.0 0.002620755 -0.0415204183
547300000.0 -0.0153259343 -0.0597775343
557250000.0 -0.0458193915 -0.0733419814
567200000.0 -0.0782218154 -0.0843718359
577150000.0 -0.1102210484 -0.0918007102
587100000.0 -0.138086531 -0.0931883304
597050000.0 -0.1588105722 -0.0858698963
607000000.0 -0.172459787 -0.0681615774
616950000.0 -0.1807864474 -0.0403786039
626900000.0 -0.1849611774 -0.0050608198
636850000.0 -0.1844531458 0.0337378577
646800000.0 -0.1774448598 0.072691769
656750000.0 -0.1522086405 0.1096517999
666700000.0 -0.0943080926 0.0657772915
676650000.0 -0.1335912478 0.0783915627
686600000.0 -0.1085335447 0.09509688
696550000.0 -0.0687708378 0.0985861016
706500000.0 -0.0249582348 0.0931375799
716450000.0 0.0169328099 0.0801420867
726400000.0 0.0502309482 0.0584602209
736350000.0 0.0720241512 0.0268401204
746300000.0 0.0796862084 -0.0148403326
756250000.0 0.0741435451 -0.0670459044
766200000.0 0.0557288557 -0.1242830255
776150000.0 0.0276232803 -0.1813084843
786100000.0 -0.0097825178 -0.231137672
796050000.0 -0.0549123163 -0.2676270542
806000000.0 -0.1069367434 -0.286708799
815950000.0 -0.1657496579 -0.2857066093
825900000.0 -0.2292162599 -0.2674105709
835850000.0 -0.2949006616 -0.2347887512
845800000.0 -0.3573536131 -0.1926954496
855750000.0 -0.4119751382 -0.1435283347
865700000.0 -0.4522275405 -0.0879002903
875650000.0 -0.4753895842 -0.0254380803
885600000.0 -0.4770566765 0.0433928669
895550000.0 -0.4586731555 0.1186610914
905500000.0 -0.4216737962 0.1992987024
915450000.0 -0.3686622211 0.2808928574
925400000.0 -0.2994282938 0.3569931878
935350000.0 -0.2094963766 0.4194233923
945300000.0 -0.0955284517 0.4447566345
955250000.0 0.0061567262 0.4285333938
965200000.0 0.1309226312 0.3920965221
975150000.0 0.2663494279 0.3013226787
985100000.0 0.3855312627 0.1506311919
995050000.0 0.4528380819 -0.0533288503
1005000000.0 0.432897256 -0.2784702315
1014950000.0 0.318564052 -0.4908586432
1024900000.0 0.098865402 -0.6480410124
1034850000.0 -0.1880167848 -0.6983012218
1044800000.0 -0.4790028583 -0.6283201877
1054750000.0 -0.7182677582 -0.4514633385
1064700000.0 -0.8506091424 -0.1980840867
1074650000.0 -0.8818766198 0.0471276965
1084600000.0 -0.8167805504 0.3074103299
1094550000.0 -0.6775299239 0.5190902333
1104500000.0 -0.4516508803 0.6995359838
1114450000.0 -0.1765681549 0.7871491203
1124400000.0 0.1112820449 0.7662438901
1134350000.0 0.3612563619 0.6308744203
1144300000.0 0.5272478641 0.4087265026
1154250000.0 0.5924969417 0.1521150663
1164200000.0 0.5695996465 -0.0927250137
1174150000.0 0.4866231559 -0.2940961405
1184100000.0 0.3701824659 -0.4475642647
1194050000.0 0.2283670552 -0.5476029072
1204000000.0 0.0802103935 -0.5921437968
1213950000.0 -0.0616340535 -0.5946379621
1223900000.0 -0.1899568773 -0.5705814606
1233850000.0 -0.3029632268 -0.5327479228
1243800000.0 -0.4004273455 -0.4878625988
1253750000.0 -0.4820254961 -0.4387648254
1263700000.0 -0.5457173587 -0.3840576649
1273650000.0 -0.5923409674 -0.3238296329
1283600000.0 -0.6225046968 -0.2568921931
1293550000.0 -0.6416465229 -0.1849422732
1303500000.0 -0.6538477259 -0.1114439692
1313450000.0 -0.6640160876 -0.0401358119
1323400000.0 -0.6747126441 0.0290159964
1333350000.0 -0.6823075934 0.0932478782
1343300000.0 -0.6832568773 0.152940167
1353250000.0 -0.6749559857 0.2069777887
1363200000.0 -0.6536443365 0.2580334293
1373150000.0 -0.6192918981 0.3075119337
1383100000.0 -0.5770256269 0.3570242297
1393050000.0 -0.5303010976 0.4070411933
1403000000.0 -0.4838763856 0.4561112644
1412950000.0 -0.4378385539 0.5023956398
1422900000.0 -0.3920099226 0.5420318465
1432850000.0 -0.343975774 0.5711043924
1442800000.0 -0.2913622009 0.5894655171
1452750000.0 -0.232887316 0.5979482232
1462700000.0 -0.1669314594 0.5992776366
1472650000.0 -0.0928630205 0.5968179018
1482600000.0 -0.0145871197 0.5912655564
1492550000.0 0.0645057943 0.581013279
1502500000.0 0.1410610759 0.5621343985
1512450000.0 0.2113249148 0.5309292305
1522400000.0 0.2732699837 0.4838281027
1532350000.0 0.3255683597 0.4181247262
1542300000.0 0.3684281576 0.3366518034
1552250000.0 0.40256967 0.2434057105
1562200000.0 0.4292848071 0.1445716366
1572150000.0 0.4450218107 0.0459436193
1582100000.0 0.4462205135 -0.0513576758
1592050000.0 0.4270403468 -0.1438068028
1602000000.0 0.3840659858 -0.2280447997
1611950000.0 0.3213196867 -0.3010514534
1621900000.0 0.2436415461 -0.3642990936
1631850000.0 0.1575935781 -0.4187816315
1641800000.0 0.0687999217 -0.4648232303
1651750000.0 -0.0192995725 -0.4987445195
1661700000.0 -0.1037217862 -0.5162625121
1671650000.0 -0.1825011839 -0.5150907544
1681600000.0 -0.2558417566 -0.4956203104
1691550000.0 -0.3248901448 -0.4623947268
1701500000.0 -0.3911807299 -0.4200425131
1711450000.0 -0.4541557771 -0.3735856107
1721400000.0 -0.5130886298 -0.3264243012
1731350000.0 -0.5650506801 -0.2805433566
1741300000.0 -0.6062434287 -0.2346437025
1751250000.0 -0.6339193892 -0.1853200881
1761200000.0 -0.6476243006 -0.1330869148
1771150000.0 -0.6494656785 -0.0771231892
1781100000.0 -0.6461833052 -0.0182549369
1791050000.0 -0.6417326722 0.0404523255
1801000000.0 -0.6390764242 0.0970828841
1810950000.0 -0.6392806119 0.1505288163
1820900000.0 -0.6371600088 0.1985993907
1830850000.0 -0.6293604511 0.2402426807
1840800000.0 -0.6109886129 0.277653851
1850750000.0 -0.5806177174 0.3105303495
1860700000.0 -0.5394791365 0.3399677065
1870650000.0 -0.4932570181 0.3686700701
1880600000.0 -0.4477852 0.3951474833
1890550000.0 -0.4068110977 0.4202768292
1900500000.0 -0.3697471798 0.4399793118
1910450000.0 -0.3360461766 0.453571059
1920400000.0 -0.2993025197 0.4562112883
1930350000.0 -0.2613713369 0.4485042121
1940300000.0 -0.2128150443 0.4263069955
1950250000.0 -0.1925934697 0.3845578695
1960200000.0 -0.1745347299 0.3287244174
1970150000.0 -0.1372781819 0.3104253489
1980100000.0 -0.1085337127 0.2870677995
1990050000.0 -0.0972786359 0.2529509739
2000000000.0 -0.1055072027 0.2112456587
