!Created with skrf (http://scikit-rf.org).
# GHz S RI R 50.0 
!freq ReS11 ImS11
10000000.0 -1.00137433 0.1630238402
19950000.0 -0.945614204 0.3114763395
29900000.0 -0.8673734836 0.4535801617
39850000.0 -0.7672052348 0.5937703985
49800000.0 -0.6470475278 0.7267498603
59750000.0 -0.5020483239 0.8458058052
69700000.0 -0.3256131945 0.939392913
79650000.0 -0.1137627166 0.9888362504
89600000.0 0.1310779914 0.9782907112
99550000.0 0.3958786529 0.890434948
109500000.0 0.6592364168 0.7145489338
119450000.0 0.8836072631 0.437832395
129400000.0 1.007104609 0.0739243309
139350000.0 0.9698593486 -0.3338063888
149300000.0 0.7559186439 -0.6852672278
159250000.0 0.4233370118 -0.9053924914
169200000.0 0.0597328729 -0.9813815431
179150000.0 -0.2734890386 -0.9410217167
189100000.0 -0.5454619315 -0.8211302612
199050000.0 -0.7433872971 -0.6527165788
209000000.0 -0.8657045553 -0.4577001846
218950000.0 -0.9272479097 -0.2568263173
228900000.0 -0.9404767041 -0.0594166245
238850000.0 -0.9173824916 0.1349672442
248800000.0 -0.8299567082 0.1242012893
258750000.0 -0.8231429234 0.4304674627
268700000.0 -0.7338463965 0.5785295686
278650000.0 -0.6187875252 0.6958483743
288600000.0 -0.4767832769 0.7811981275
298550000.0 -0.3129151539 0.8323272368
308500000.0 -0.1319505294 0.8507219038
318450000.0 0.0588114746 0.8320151991
328400000.0 0.2491634573 0.7696383442
338350000.0 0.4170813019 0.65566269
348300000.0 0.5372444154 0.4903564201
358250000.0 0.5848952595 0.2901983324
368200000.0 0.553694707 0.0875573007
378150000.0 0.4584552549 -0.0825219058
388100000.0 0.3285809078 -0.1990741073
398050000.0 0.1930176509 -0.256054217
408000000.0 0.0750685276 -0.2586054194
417950000.0 -0.0141412222 -0.2208901249
427900000.0 -0.0726057329 -0.1611723881
437850000.0 -0.1059931784 -0.0943816479
447800000.0 -0.119375098 -0.0329943526
457750000.0 -0.1174039739 0.0148521744
467700000.0 -0.1039128905 0.0449207708
477650000.0 -0.08075691 0.0547485227
487600000.0 -0.0470976825 0.0432561173
497550000.0 -0.1111811678 0.0175762307
507500000.0 -0.0224511019 0.0325028255
517450000.0 0.0036068261 0.0108018826
527400000.0 0.0146991051 -0.0080424497
537350000.0 0.0119162772 -0.0252734669
547300000.0 -0.0065607995 -0.0464800416
557250000.0 -0.0386881137 -0.0579421805
567200000.0 -0.0710149296 -0.068083642
577150000.0 -0.1026268986 -0.075319066
587100000.0 -0.1299627977 -0.076553344
597050000.0 -0.1496951836 -0.0688722654
607000000.0 -0.1622586226 -0.0500940939
616950000.0 -0.1694825609 -0.0209633003
626900000.0 -0.1725161143 0.0164112145
636850000.0 -0.1704891199 0.0586378297
646800000.0 -0.1575868802 0.1040271212
656750000.0 -0.088504665 0.1209247671
666700000.0 -0.1322938276 0.0794227611
676650000.0 -0.1229714638 0.1094245234
686600000.0 -0.0899398896 0.1192810082
696550000.0 -0.0478897978 0.1196076041
706500000.0 -0.0027335067 0.1125647648
716450000.0 0.0401088544 0.0993024851
726400000.0 0.074114827 0.0778324976
736350000.0 0.0964651064 0.0462585708
746300000.0 0.1043192577 0.0044816745
756250000.0 0.0990100053 -0.047987931
766200000.0 0.081245305 -0.1063223674
776150000.0 0.0536993192 -0.1650609577
786100000.0 0.0172050172 -0.2169384731
796050000.0 -0.0270963965 -0.2554455945
806000000.0 -0.0790783359 -0.2757810628
815950000.0 -0.1383750085 -0.2752745478
825900000.0 -0.2029245134 -0.2568771449
835850000.0 -0.269900868 -0.2236306286
845800000.0 -0.3343585233 -0.1801186043
855750000.0 -0.3904154076 -0.1290499707
865700000.0 -0.4316648412 -0.0708168694
875650000.0 -0.4533422264 -0.0065251825
885600000.0 -0.4527394416 0.0654235033
895550000.0 -0.4300524063 0.1440433443
905500000.0 -0.3858011894 0.2287209894
915450000.0 -0.3181773597 0.3130358919
925400000.0 -0.2315972679 0.3743131576
935350000.0 -0.1496669599 0.4154790254
945300000.0 -0.0503003582 0.442368772
955250000.0 0.0694831869 0.4331584792
965200000.0 0.2017103229 0.3747022075
975150000.0 0.3327957729 0.2613224328
985100000.0 0.4384077785 0.0904413676
995050000.0 0.485969628 -0.1278527731
1005000000.0 0.4402762304 -0.3671387171
1014950000.0 0.2779424809 -0.5792454583
1024900000.0 0.0147798456 -0.7035661847
1034850000.0 -0.294546661 -0.7028487726
1044800000.0 -0.583758845 -0.5726609497
1054750000.0 -0.7831572125 -0.3281468189
1064700000.0 -0.8010774987 -0.1029928986
1074650000.0 -0.8616910801 0.1273406091
1084600000.0 -0.7247989735 0.3753486479
1094550000.0 -0.6194663696 0.5508107984
1104500000.0 -0.394959459 0.7142406424
1114450000.0 -0.1310170679 0.7868041512
1124400000.0 0.1372700117 0.7597811119
1134350000.0 0.3675774792 0.6320509128
1144300000.0 0.5214613725 0.4268104883
1154250000.0 0.5829143393 0.1942552649
1164200000.0 0.5838074667 -0.0225174655
1174150000.0 0.5342800542 -0.228728328
1184100000.0 0.434628452 -0.3955787618
1194050000.0 0.3045664241 -0.5097041254
1204000000.0 0.1613010621 -0.570412217
1213950000.0 0.0181068863 -0.5869551554
1223900000.0 -0.1160065064 -0.5742415774
1233850000.0 -0.2368592503 -0.5445838081
1243800000.0 -0.3426177641 -0.5055727845
1253750000.0 -0.432956414 -0.4606552051
1263700000.0 -0.50445694 -0.4080280082
1273650000.0 -0.5577013251 -0.3470458739
1283600000.0 -0.5926073748 -0.278355673
1293550000.0 -0.6155432084 -0.2033714693
1303500000.0 -0.6312869176 -0.1258421817
1313450000.0 -0.6440640044 -0.0485465414
1323400000.0 -0.6553977238 0.0244494345
1333350000.0 -0.6639249676 0.0926598417
1343300000.0 -0.6654656395 0.155725085
1353250000.0 -0.6564995004 0.2120335781
1363200000.0 -0.633361487 0.2650913157
1373150000.0 -0.5963570988 0.3159454244
1383100000.0 -0.5506385085 0.3661001675
1393050000.0 -0.5003246935 0.4163687797
1403000000.0 -0.4501583313 0.4656392266
1412950000.0 -0.400599319 0.5102328861
1422900000.0 -0.3524996119 0.5463429011
1432850000.0 -0.304519572 0.5691462554
1442800000.0 -0.2564524038 0.5808022427
1452750000.0 -0.2060658714 0.5852027973
1462700000.0 -0.1486330044 0.5878743069
1472650000.0 -0.0798455163 0.5896028896
1482600000.0 -0.0037679681 0.5889820717
1492550000.0 0.0743095436 0.5839460451
1502500000.0 0.1503571095 0.5705077151
1512450000.0 0.2208478479 0.5441389149
1522400000.0 0.2830600937 0.5020740449
1532350000.0 0.3363686859 0.4414073083
1542300000.0 0.3806309071 0.3643316969
1552250000.0 0.4165966538 0.275408937
1562200000.0 0.4454921651 0.1822148822
1572150000.0 0.4672388524 0.0911454795
1582100000.0 0.4784077793 0.0004406449
1592050000.0 0.4711159176 -0.0889655687
1602000000.0 0.4405402722 -0.1738840669
1611950000.0 0.388312084 -0.2510165365
1621900000.0 0.3192391354 -0.3206310601
1631850000.0 0.2405397744 -0.383547937
1641800000.0 0.1570169196 -0.4393930209
1651750000.0 0.0723214509 -0.4843161823
1661700000.0 -0.0109711013 -0.5133231015
1671650000.0 -0.0917068239 -0.5223941819
1681600000.0 -0.1691666324 -0.5110331318
1691550000.0 -0.2440857773 -0.4837683297
1701500000.0 -0.3170655431 -0.4451445479
1711450000.0 -0.3875023619 -0.4008346037
1721400000.0 -0.4536375496 -0.3541772047
1731350000.0 -0.5129108371 -0.3076243175
1741300000.0 -0.5606568131 -0.2582843485
1751250000.0 -0.5918656923 -0.2011031324
1761200000.0 -0.5977291599 -0.1308899771
1771150000.0 -0.5119375702 -0.0563928877
1781100000.0 -0.5909178285 -0.0906878532
1791050000.0 -0.6044714338 -0.0085423791
1801000000.0 -0.6074213828 0.0621994857
1810950000.0 -0.6092655275 0.1241255082
1820900000.0 -0.6088047337 0.1787031883
1830850000.0 -0.6008267912 0.2250134023
1840800000.0 -0.5806387073 0.2655241984
1850750000.0 -0.5474818821 0.3009365082
1860700000.0 -0.5025903232 0.3320355207
1870650000.0 -0.4530581009 0.3617915474
1880600000.0 -0.4041430409 0.3890133566
1890550000.0 -0.3607209636 0.4139459315
1900500000.0 -0.3230311236 0.433030945
1910450000.0 -0.2908398418 0.4445635091
1920400000.0 -0.2585418395 0.4454293546
1930350000.0 -0.223508338 0.4346602027
1940300000.0 -0.1840048421 0.4127947451
1950250000.0 -0.1395994373 0.3816850295
1960200000.0 -0.0950173035 0.3460063133
1970150000.0 -0.0580586676 0.3069882103
1980100000.0 -0.0334673045 0.2659973725
1990050000.0 -0.0272753109 0.2218462253
2000000000.0 -0.0444593627 0.1704458341
