!Created with skrf (http://scikit-rf.org).
# GHz S RI R 50.0 
!freq ReS11 ImS11
10000000.0 -0.7962497628 0.6014511085
19950000.0 -0.2873757892 0.9438087316
29900000.0 0.3226656373 0.9261239456
39850000.0 0.8120043068 0.5518188712
49800000.0 0.9870485557 -0.0510955296
59750000.0 0.7549437005 -0.6512048939
69700000.0 0.1846329211 -0.9837346853
79650000.0 -0.482844394 -0.8699981677
89600000.0 -0.9235890076 -0.332345164
99550000.0 -0.8910386552 0.3829695844
109500000.0 -0.3582819872 0.8984407044
119450000.0 0.4140565161 0.8829216988
129400000.0 0.9456065122 0.273011071
139350000.0 0.8302564631 -0.535032613
149300000.0 0.1238162068 -0.9663240121
159250000.0 -0.6442106281 -0.7060961008
169200000.0 -0.9465008351 0.0163002267
179150000.0 -0.6391537858 0.7031781909
189100000.0 0.0375613155 0.9585331366
199050000.0 0.6782674957 0.684313276
209000000.0 0.9550720505 0.0689154051
218950000.0 0.7668329619 -0.5517479674
228900000.0 0.2398510316 -0.9002097542
238850000.0 -0.3785530937 -0.8422575511
248800000.0 -0.7461752217 -0.2844481915
258750000.0 -0.9166641215 0.1428202688
268700000.0 -0.6395208673 0.678588583
278650000.0 -0.0960011194 0.9227467571
288600000.0 0.4767148251 0.7760611783
298550000.0 0.8295020433 0.307246421
308500000.0 0.8095811757 -0.2751576621
318450000.0 0.4279848139 -0.706593184
328400000.0 -0.1335532161 -0.78660937
338350000.0 -0.5934248134 -0.4790110729
348300000.0 -0.7105451039 0.0374172064
358250000.0 -0.4489846113 0.4569832932
368200000.0 -0.0100765671 0.552794821
378150000.0 0.3202298951 0.3319341995
388100000.0 0.3775795662 -0.006606027
398050000.0 0.2007837402 -0.2365314673
408000000.0 -0.0390500928 -0.2560408561
417950000.0 -0.1828110537 -0.1190973783
427900000.0 -0.1775851997 0.0458244158
437850000.0 -0.0713012872 0.1348109145
447800000.0 0.0462847214 0.1197751917
457750000.0 0.1062416504 0.0378532438
467700000.0 0.0905053752 -0.0475164813
477650000.0 0.0303619815 -0.0871989989
487600000.0 -0.0260210175 -0.0705522409
497550000.0 -0.0070153402 -0.0349623455
507500000.0 -0.0609915898 -0.0043950758
517450000.0 -0.0255267118 0.0140185791
527400000.0 -0.0050380786 -0.0004120294
537350000.0 -0.0135020254 -0.0223188673
547300000.0 -0.0461060368 -0.0261714089
557250000.0 -0.0747392841 0.0094664486
567200000.0 -0.0681082798 0.0631127802
577150000.0 -0.0189059784 0.1061734888
587100000.0 0.0566591136 0.107082665
597050000.0 0.1249911688 0.0537626326
607000000.0 0.1482085824 -0.0393130012
616950000.0 0.1076125752 -0.1342273053
626900000.0 0.0145531082 -0.1883027199
636850000.0 -0.0960240367 -0.1743506678
646800000.0 -0.175844159 -0.094472769
656750000.0 -0.1910476638 0.0190744104
666700000.0 -0.1317594008 0.1182836905
676650000.0 -0.0236598524 0.1598295785
686600000.0 0.0855188324 0.1250960222
696550000.0 0.1472448755 0.0322478077
706500000.0 0.135584311 -0.0720887333
716450000.0 0.0626163095 -0.1378903753
726400000.0 -0.0302472517 -0.1340403686
736350000.0 -0.0888796961 -0.0659311522
746300000.0 -0.0783372289 0.0249262536
756250000.0 -0.0003675271 0.0821491375
766200000.0 0.1004689046 0.0651274695
776150000.0 0.1627445832 -0.0250963359
786100000.0 0.1405998805 -0.1423306433
796050000.0 0.0313074519 -0.2179903838
806000000.0 -0.1177614329 -0.196211603
815950000.0 -0.2288200459 -0.0665827555
825900000.0 -0.2318904924 0.1226466277
835850000.0 -0.1060859779 0.2840938533
845800000.0 0.1038204598 0.3350155893
855750000.0 0.3091539604 0.2407651903
865700000.0 0.4163419225 0.0309030829
875650000.0 0.368538171 -0.2110524613
885600000.0 0.1702710096 -0.3797773905
895550000.0 -0.1033285987 -0.3879847002
905500000.0 -0.3316884436 -0.2170583439
915450000.0 -0.4023996059 0.0684741759
925400000.0 -0.2710771932 0.3362517272
935350000.0 0.0055028656 0.4520421438
945300000.0 0.2908766904 0.3488286065
955250000.0 0.4293495493 0.0688340745
965200000.0 0.3237891276 -0.2431918004
975150000.0 0.0007531004 -0.3923884866
985100000.0 -0.3530563129 -0.2328577198
995050000.0 -0.462132745 0.1769811568
1005000000.0 -0.1857776947 0.546109677
1014950000.0 0.3193811796 0.5593684916
1024900000.0 0.6813929629 0.1345415175
1034850000.0 0.5709838417 -0.4719264414
1044800000.0 -0.0121561288 -0.7885356665
1054750000.0 -0.6419539584 -0.5236721089
1064700000.0 -0.8125656824 0.1014719472
1074650000.0 -0.5817416766 0.6096478638
1084600000.0 -0.0228413356 0.8292758562
1094550000.0 0.5120631859 0.6360703439
1104500000.0 0.7781026066 0.0970965202
1114450000.0 0.5745389179 -0.4710288598
1124400000.0 0.0364005964 -0.7041584738
1134350000.0 -0.4661784531 -0.4841850922
1144300000.0 -0.6410149673 -0.0130023463
1154250000.0 -0.4506836926 0.406735519
1164200000.0 -0.050564396 0.5635891567
1174150000.0 0.3302667733 0.4094958083
1184100000.0 0.4960920613 0.0348232494
1194050000.0 0.347139429 -0.3426965093
1204000000.0 -0.011942214 -0.4999186477
1213950000.0 -0.3626906793 -0.3802465325
1223900000.0 -0.5458831048 -0.0781029082
1233850000.0 -0.504774777 0.262198198
1243800000.0 -0.2661474785 0.5079300791
1253750000.0 0.0796589513 0.5618937061
1263700000.0 0.39774119 0.3910983033
1273650000.0 0.5511971305 0.0557619364
1283600000.0 0.474604197 -0.3046184432
1293550000.0 0.212260522 -0.5481359905
1303500000.0 -0.1286703469 -0.6032521696
1313450000.0 -0.4359151072 -0.4698778667
1323400000.0 -0.6239868673 -0.1982866352
1333350000.0 -0.640495534 0.1352328175
1343300000.0 -0.4694177859 0.436220948
1353250000.0 -0.1475086232 0.5991099279
1363200000.0 0.2221444146 0.5511139697
1373150000.0 0.5032079652 0.3008635564
1383100000.0 0.5950209868 -0.0560355131
1393050000.0 0.4835632769 -0.3913660921
1403000000.0 0.22376203 -0.6060724013
1412950000.0 -0.0976264034 -0.6512242297
1422900000.0 -0.3907280167 -0.5243210425
1432850000.0 -0.5737366501 -0.2587837432
1442800000.0 -0.5863611289 0.071522416
1452750000.0 -0.4131406794 0.362723447
1462700000.0 -0.1030292356 0.5141498506
1472650000.0 0.2374981974 0.46879038
1482600000.0 0.4883304993 0.2469562864
1492550000.0 0.5693589358 -0.0622942735
1502500000.0 0.4707495662 -0.3506405558
1512450000.0 0.2370360327 -0.5310117768
1522400000.0 -0.0563468154 -0.550090868
1532350000.0 -0.3127233646 -0.395159118
1542300000.0 -0.4337693986 -0.1128112008
1552250000.0 -0.3635819018 0.1899209974
1562200000.0 -0.128642909 0.3866461696
1572150000.0 0.1653765155 0.4006074027
1582100000.0 0.3952614508 0.2428635884
1592050000.0 0.4798188065 -0.0105390282
1602000000.0 0.3958925094 -0.2591845049
1611950000.0 0.1756825873 -0.4090166007
1621900000.0 -0.1001911845 -0.3951413498
1631850000.0 -0.3170504695 -0.208881071
1641800000.0 -0.3759702202 0.0742257581
1651750000.0 -0.2542279227 0.3422646353
1661700000.0 0.0110689432 0.4765410338
1671650000.0 0.2960520471 0.4223168468
1681600000.0 0.4921711314 0.2138722471
1691550000.0 0.5348285495 -0.0715882174
1701500000.0 0.4056261701 -0.3390140105
1711450000.0 0.1371107888 -0.4946908386
1721400000.0 -0.1883766076 -0.4680789235
1731350000.0 -0.4468918989 -0.2508998107
1741300000.0 -0.5315422843 0.0782474777
1751250000.0 -0.4145118536 0.3904011703
1761200000.0 -0.1530341551 0.5777502217
1771150000.0 0.1574358644 0.5948523126
1781100000.0 0.4262076481 0.4513033835
1791050000.0 0.5844835339 0.1901929552
1801000000.0 0.5858411158 -0.1235380396
1810950000.0 0.4149417542 -0.4018440281
1820900000.0 0.1089526132 -0.5463938436
1830850000.0 -0.230852321 -0.4947412345
1840800000.0 -0.479884551 -0.2653464799
1850750000.0 -0.5594007044 0.0495292014
1860700000.0 -0.4664328495 0.3393107126
1870650000.0 -0.2525234592 0.5289595543
1880600000.0 0.0136921154 0.5831794505
1890550000.0 0.2644705584 0.4977219862
1900500000.0 0.436446692 0.2951081266
1910450000.0 0.4742827056 0.0289640192
1920400000.0 0.3600385551 -0.2153541765
1930350000.0 0.1346725283 -0.3523308682
1940300000.0 -0.1110689419 -0.3400485185
1950250000.0 -0.2920201846 -0.2108980365
1960200000.0 -0.3635536278 -0.0327846804
1970150000.0 -0.3338004249 0.1269762242
1980100000.0 -0.2390961729 0.2220631238
1990050000.0 -0.1323112286 0.2358693965
2000000000.0 -0.0679069565 0.18844136
