!Created with skrf (http://scikit-rf.org).
# GHz S RI R 50.0 
!freq ReS11 ImS11
10000000.0 -0.7998415839 0.6066243553
19950000.0 -0.2840554592 0.9474269576
29900000.0 0.3298504796 0.9229934893
39850000.0 0.8178724574 0.5405621719
49800000.0 0.9863717364 -0.068796424
59750000.0 0.7429780092 -0.6705878542
69700000.0 0.1594691486 -0.9945712855
79650000.0 -0.5127311767 -0.8596605871
89600000.0 -0.938098705 -0.2988044652
99550000.0 -0.872325175 0.4223155709
109500000.0 -0.3081527162 0.9149206584
119450000.0 0.4697744749 0.8554169634
129400000.0 0.9665491381 0.2076421775
139350000.0 0.7935756564 -0.5970669525
149300000.0 0.054172332 -0.9748820227
159250000.0 -0.6903927009 -0.658095203
169200000.0 -0.9401805539 0.0786285361
179150000.0 -0.5943446412 0.7404961791
189100000.0 0.090331823 0.9581345058
199050000.0 0.7138963974 0.6547857092
209000000.0 0.9611297024 0.0294079715
218950000.0 0.7466555146 -0.5799196456
228900000.0 0.208125102 -0.9053035074
238850000.0 -0.4058240647 -0.8250564413
248800000.0 -0.620588448 -0.3710131774
258750000.0 -0.9136920439 0.1701000593
268700000.0 -0.6244852115 0.6987426567
278650000.0 -0.0748058793 0.9299964993
288600000.0 0.4948326643 0.7679864652
298550000.0 0.8349695809 0.2890589983
308500000.0 0.7997168142 -0.2923925234
318450000.0 0.4082559554 -0.7142130313
328400000.0 -0.1543586369 -0.7819606427
338350000.0 -0.6073693782 -0.4653944728
348300000.0 -0.7135219962 0.0530300574
358250000.0 -0.4414080538 0.4660701952
368200000.0 0.000251788 0.5497523824
378150000.0 0.323253913 0.3189545451
388100000.0 0.3701060656 -0.0191724785
398050000.0 0.188545408 -0.2413833951
408000000.0 -0.0480469461 -0.2540363514
417950000.0 -0.1846123456 -0.1154713119
427900000.0 -0.1734706692 0.0469184063
437850000.0 -0.0647839794 0.1312991795
447800000.0 0.052002589 0.1109760144
457750000.0 0.1067870916 0.027050859
467700000.0 0.0869785497 -0.0555458512
477650000.0 0.0257129226 -0.0908441065
487600000.0 -0.0290842101 -0.0682598063
497550000.0 0.0159621534 -0.0690321032
507500000.0 -0.0553044114 -0.0058791197
517450000.0 -0.0208838131 0.0129051244
527400000.0 -0.0011031973 -0.0009587042
537350000.0 -0.008816672 -0.0219325233
547300000.0 -0.0419969526 -0.02628121
557250000.0 -0.0697061398 0.0113289956
567200000.0 -0.0612609079 0.0647110386
577150000.0 -0.0120747729 0.1048982876
587100000.0 0.0619215706 0.1028585236
597050000.0 0.1250772065 0.0480944018
607000000.0 0.1431816638 -0.0428699613
616950000.0 0.0984646952 -0.1325933634
626900000.0 0.0052193019 -0.1798463724
636850000.0 -0.1003568764 -0.1601080869
646800000.0 -0.1734307093 -0.0790643906
656750000.0 -0.18057471 0.0305381478
666700000.0 -0.1169214299 0.1219373712
676650000.0 -0.0105194839 0.1524677741
686600000.0 0.0901825628 0.1098852713
696550000.0 0.1403326741 0.0159640946
706500000.0 0.1196640408 -0.0826260652
716450000.0 0.0419039183 -0.1375284729
726400000.0 -0.0472932551 -0.1221076945
736350000.0 -0.0950536579 -0.0458988382
746300000.0 -0.0694074389 0.0451586419
756250000.0 0.021092787 0.0916135801
766200000.0 0.1266469373 0.0571293915
776150000.0 0.1804636657 -0.0539674588
786100000.0 0.1251454194 -0.1806226504
796050000.0 0.002287526 -0.2158270812
806000000.0 -0.1286846863 -0.1856354929
815950000.0 -0.2320948741 -0.0541534835
825900000.0 -0.2268050766 0.1355545159
835850000.0 -0.0939096693 0.2931139338
845800000.0 0.1200972166 0.3367700363
855750000.0 0.323682555 0.2351520195
865700000.0 0.4246232105 0.0200039432
875650000.0 0.3676497502 -0.221208464
885600000.0 0.163464336 -0.3839742053
895550000.0 -0.1116037329 -0.3839309871
905500000.0 -0.3354763367 -0.2051112395
915450000.0 -0.3981934962 0.0805776421
925400000.0 -0.2632080818 0.3432443075
935350000.0 0.0118418135 0.454462628
945300000.0 0.2940333201 0.3489471908
955250000.0 0.4291811574 0.0675307544
965200000.0 0.3164497649 -0.2456155745
975150000.0 -0.0160153468 -0.3874098424
985100000.0 -0.3697193061 -0.2100772694
995050000.0 -0.4570126243 0.2127291215
1005000000.0 -0.1489605678 0.5680534701
1014950000.0 0.3676247732 0.5363848792
1024900000.0 0.6941197686 0.0625953386
1034850000.0 0.5059150649 -0.5433585746
1044800000.0 -0.1297033545 -0.7806111427
1054750000.0 -0.7122065056 -0.4105212673
1064700000.0 -0.7459575487 0.1824676891
1074650000.0 -0.5183017616 0.6488778337
1084600000.0 0.0623849493 0.8320237671
1094550000.0 0.5907715716 0.5424386777
1104500000.0 0.7593025468 -0.0364349178
1114450000.0 0.4593705018 -0.5539870436
1124400000.0 -0.1005221493 -0.6792111374
1134350000.0 -0.5379581819 -0.3766600994
1144300000.0 -0.6173971562 0.1030369106
1154250000.0 -0.3572880978 0.46961916
1164200000.0 0.0598495224 0.5453763659
1174150000.0 0.3988661233 0.3204379217
1184100000.0 0.4879115057 -0.0738233293
1194050000.0 0.2740657866 -0.4122008915
1204000000.0 -0.1003608932 -0.503556939
1213950000.0 -0.4244111316 -0.332811685
1223900000.0 -0.5628935635 -0.0106204472
1233850000.0 -0.4798321855 0.3224152942
1243800000.0 -0.2120358164 0.5405659923
1253750000.0 0.1413715654 0.556647502
1263700000.0 0.4429833651 0.3507953609
1273650000.0 0.5618411778 -0.0007116073
1283600000.0 0.451016768 -0.3521997062
1293550000.0 0.1682291737 -0.5710331115
1303500000.0 -0.1748515089 -0.5979226003
1313450000.0 -0.4710522813 -0.4431215536
1323400000.0 -0.6406537452 -0.1585741333
1333350000.0 -0.6345198196 0.1777978327
1343300000.0 -0.4411952181 0.4688382824
1353250000.0 -0.1045438839 0.6089885401
1363200000.0 0.2621180007 0.5314368572
1373150000.0 0.5221416359 0.2609098921
1383100000.0 0.5877052125 -0.0989380914
1393050000.0 0.4560215808 -0.4222278376
1403000000.0 0.187335884 -0.6188785642
1412950000.0 -0.1334760422 -0.64567119
1422900000.0 -0.4173771519 -0.502243238
1432850000.0 -0.5824979688 -0.2266281667
1442800000.0 -0.572502758 0.1019060927
1452750000.0 -0.381609329 0.3783341628
1462700000.0 -0.0660338969 0.5079426766
1472650000.0 0.2673893554 0.4422770275
1482600000.0 0.4993508735 0.2100906696
1492550000.0 0.5619642044 -0.0962901076
1502500000.0 0.4502923049 -0.3740632935
1512450000.0 0.2094958924 -0.5388116884
1522400000.0 -0.0828150481 -0.5382997205
1532350000.0 -0.3252708163 -0.3649310596
1542300000.0 -0.4220091894 -0.0755333251
1552250000.0 -0.3271319079 0.2168167811
1562200000.0 -0.0802263946 0.3904366801
1572150000.0 0.2099972159 0.3788744275
1582100000.0 0.4208464398 0.2014809908
1592050000.0 0.4761240984 -0.0559917328
1602000000.0 0.3651320098 -0.2896341816
1611950000.0 0.1309253442 -0.4122127887
1621900000.0 -0.1408220992 -0.3665350352
1631850000.0 -0.3375882938 -0.1547237877
1641800000.0 -0.3608501321 0.1415519419
1651750000.0 -0.1950179704 0.3864364094
1661700000.0 0.0793421616 0.4757571948
1671650000.0 0.3468285323 0.3857645188
1681600000.0 0.5114732195 0.1576291097
1691550000.0 0.5166215919 -0.1293646453
1701500000.0 0.3530163468 -0.378213651
1711450000.0 0.0652791994 -0.4965813535
1721400000.0 -0.2530898289 -0.4254790163
1731350000.0 -0.4773805952 -0.1766816962
1741300000.0 -0.5137737679 0.1567549736
1751250000.0 -0.353352397 0.4414869238
1761200000.0 -0.0721239824 0.5743973509
1771150000.0 0.2062985673 0.5321765891
1781100000.0 0.416841765 0.3995517571
1791050000.0 0.5692879075 0.1552181253
1801000000.0 0.5604619663 -0.1574613782
1810950000.0 0.3713965504 -0.4249824648
1820900000.0 0.0545498454 -0.5442377088
1830850000.0 -0.2758749228 -0.4616746978
1840800000.0 -0.4973692657 -0.2135742913
1850750000.0 -0.5447627223 0.098865249
1860700000.0 -0.4284547555 0.3710136302
1870650000.0 -0.204717056 0.5359370102
1880600000.0 0.0586288164 0.5644800307
1890550000.0 0.2943857619 0.4583491985
1900500000.0 0.4402074029 0.2454004756
1910450000.0 0.4489634333 -0.0145284597
1920400000.0 0.3146288023 -0.2344856171
1930350000.0 0.0879956199 -0.3380145205
1940300000.0 -0.1404480687 -0.3016183168
1950250000.0 -0.2914423327 -0.1650737508
1960200000.0 -0.3372442996 0.0022704791
1970150000.0 -0.2929965714 0.1365491022
1980100000.0 -0.2030886667 0.2003383534
1990050000.0 -0.1256019867 0.1912399686
2000000000.0 -0.1045226203 0.1476046031
