!Created with skrf (http://scikit-rf.org).
# GHz S RI R 50.0 
!freq ReS11 ImS11
10000000.0 -0.9992687405 0.1634453851
19950000.0 -0.9449301815 0.3114408221
29900000.0 -0.8683019936 0.4531004835
39850000.0 -0.769487819 0.5926980317
49800000.0 -0.6502936635 0.7246169475
59750000.0 -0.5060348061 0.8428371455
69700000.0 -0.3302571031 0.9358135545
79650000.0 -0.1193750007 0.9861840247
89600000.0 0.1246878978 0.9780621678
99550000.0 0.3892592152 0.8937444556
109500000.0 0.6532328637 0.7214282424
119450000.0 0.8787315593 0.4476911729
129400000.0 1.003213683 0.0873260396
139350000.0 0.9711775477 -0.32245864
149300000.0 0.7617748167 -0.6765567951
159250000.0 0.4326350093 -0.9012803075
169200000.0 0.0711804376 -0.982539497
179150000.0 -0.2621899104 -0.9461728248
189100000.0 -0.5349867207 -0.8286137162
199050000.0 -0.7346123825 -0.6618132239
209000000.0 -0.8597164717 -0.4687462439
218950000.0 -0.9246408067 -0.2694543642
228900000.0 -0.9419014972 -0.0744099816
238850000.0 -0.9243539589 0.1135757587
248800000.0 -0.7380588157 0.2589391064
258750000.0 -0.827125204 0.4268323855
268700000.0 -0.7400174911 0.5711826041
278650000.0 -0.6270886777 0.6882795726
288600000.0 -0.4873471662 0.7749125557
298550000.0 -0.3260760284 0.8290103915
308500000.0 -0.1473935688 0.8510466949
318450000.0 0.04157505 0.8362315888
328400000.0 0.2312505364 0.7777583346
338350000.0 0.4005613117 0.6677027642
348300000.0 0.5250190624 0.5052457816
358250000.0 0.5793566325 0.3058261482
368200000.0 0.5548421229 0.1012924153
378150000.0 0.4644115192 -0.0724133785
388100000.0 0.336381055 -0.1926256168
398050000.0 0.2009790737 -0.2525889436
408000000.0 0.0812438453 -0.2578141335
417950000.0 -0.0107192072 -0.2225904734
427900000.0 -0.0723793831 -0.1646504652
437850000.0 -0.1084556404 -0.0993593428
447800000.0 -0.1239887425 -0.0387357379
457750000.0 -0.1233759064 0.0093411911
467700000.0 -0.1114718686 0.040492503
477650000.0 -0.0903899477 0.0521992021
487600000.0 -0.0635597628 0.0454396004
497550000.0 -0.0978501658 0.0157551401
507500000.0 -0.0175137843 0.0367420685
517450000.0 0.0042512161 0.0127263422
527400000.0 0.0126043702 -0.0072815922
537350000.0 0.0070398287 -0.0250226976
547300000.0 -0.0101010702 -0.0424597675
557250000.0 -0.0390357604 -0.0571375831
567200000.0 -0.0711611331 -0.0689473241
577150000.0 -0.1032156258 -0.0767293321
587100000.0 -0.1313797283 -0.0784339445
597050000.0 -0.1530800371 -0.0708481581
607000000.0 -0.1682620511 -0.0512962116
616950000.0 -0.1762433181 -0.0194067802
626900000.0 -0.1711226113 0.0106726757
636850000.0 -0.1725056188 0.0368648941
646800000.0 -0.1755148392 0.0686299275
656750000.0 -0.1713689369 0.0971257711
666700000.0 -0.1581462476 0.1184706401
676650000.0 -0.1343840738 0.1313632356
686600000.0 -0.1004804615 0.1367547006
696550000.0 -0.0594282507 0.1360166142
706500000.0 -0.0157664116 0.1292480844
716450000.0 0.026324548 0.1171219769
726400000.0 0.0611744327 0.0968601238
736350000.0 0.0848819343 0.0664675675
746300000.0 0.095997602 0.0258463106
756250000.0 0.0941844148 -0.0252175001
766200000.0 0.0809794537 -0.0823738621
776150000.0 0.0566907433 -0.1403428477
786100000.0 0.0234903449 -0.1922281123
796050000.0 -0.0189772192 -0.2316277344
806000000.0 -0.0689956703 -0.2540403796
815950000.0 -0.1277552153 -0.2569032613
825900000.0 -0.1917454639 -0.2418017148
835850000.0 -0.2586534839 -0.2117181992
845800000.0 -0.3225517301 -0.1713678818
855750000.0 -0.3783184298 -0.122071008
865700000.0 -0.4192508918 -0.0658187357
875650000.0 -0.4416491879 -0.0021033526
885600000.0 -0.44241778 0.0682019514
895550000.0 -0.4214888351 0.1446982045
905500000.0 -0.3810420624 0.2256395909
915450000.0 -0.3237041744 0.3056959668
925400000.0 -0.2498964124 0.3774915323
935350000.0 -0.1585332116 0.4328699122
945300000.0 -0.0493425362 0.4602410548
955250000.0 0.0770126129 0.4487605023
965200000.0 0.2144808813 0.3875367684
975150000.0 0.3501854553 0.2699434292
985100000.0 0.459101516 0.0912283947
995050000.0 0.5045016244 -0.140338337
1005000000.0 0.4461598625 -0.3953934203
1014950000.0 0.2595555823 -0.6143472471
1024900000.0 -0.0304184239 -0.7284279843
1034850000.0 -0.3560224032 -0.7017545179
1044800000.0 -0.6414263797 -0.5436026596
1054750000.0 -0.8320458781 -0.2918752119
1064700000.0 -0.8869177053 -0.0065601212
1074650000.0 -0.8494494608 0.2525792348
1084600000.0 -0.7153224788 0.4763830441
1094550000.0 -0.5214611226 0.6532065143
1104500000.0 -0.2811652787 0.7567623936
1114450000.0 -0.0279836254 0.7823741295
1124400000.0 0.2122833065 0.7232562798
1134350000.0 0.4070008338 0.5858562087
1144300000.0 0.5347375207 0.3922913178
1154250000.0 0.5906106683 0.1751447124
1164200000.0 0.582289236 -0.0347683958
1174150000.0 0.5318406964 -0.2225415156
1184100000.0 0.439856583 -0.3808271185
1194050000.0 0.3173763994 -0.492803188
1204000000.0 0.1804058217 -0.5561372661
1213950000.0 0.0409139573 -0.5779834776
1223900000.0 -0.0910832903 -0.5707907824
1233850000.0 -0.2116334958 -0.5460401668
1243800000.0 -0.3178539927 -0.510072062
1253750000.0 -0.4086012412 -0.4670995153
1263700000.0 -0.481289178 -0.415637846
1273650000.0 -0.5371681771 -0.3562304595
1283600000.0 -0.5757515101 -0.2883085069
1293550000.0 -0.6018842131 -0.2137631033
1303500000.0 -0.6209259782 -0.1368476078
1313450000.0 -0.6358646358 -0.0602392759
1323400000.0 -0.6485384738 0.0131116919
1333350000.0 -0.6579865584 0.0816152671
1343300000.0 -0.6601884166 0.1455140553
1353250000.0 -0.6520427531 0.2037246262
1363200000.0 -0.630562586 0.2591091008
1373150000.0 -0.5956438447 0.3125650788
1383100000.0 -0.5520664425 0.3654732507
1393050000.0 -0.5044061729 0.4183922076
1403000000.0 -0.4563218164 0.4699187203
1412950000.0 -0.408281787 0.5176796475
1422900000.0 -0.3609050469 0.5586708903
1432850000.0 -0.3114227695 0.588572477
1442800000.0 -0.257483654 0.6080031963
1452750000.0 -0.1974926874 0.6175177871
1462700000.0 -0.1297546629 0.6194328064
1472650000.0 -0.0551321723 0.6166903517
1482600000.0 0.0228379358 0.6107496139
1492550000.0 0.100376818 0.6010578034
1502500000.0 0.1753403586 0.5840820408
1512450000.0 0.244731796 0.5557378378
1522400000.0 0.3063646248 0.5128031182
1532350000.0 0.3601932312 0.451488901
1542300000.0 0.4070079282 0.3691640061
1552250000.0 0.4414323535 0.2845687859
1562200000.0 0.4620938663 0.204220616
1572150000.0 0.4920722432 0.1167977442
1582100000.0 0.5083918673 0.0280267648
1592050000.0 0.5071745562 -0.0602936213
1602000000.0 0.4840153864 -0.1459040144
1611950000.0 0.4399968156 -0.2253636449
1621900000.0 0.3794062557 -0.2992927129
1631850000.0 0.308003371 -0.367459207
1641800000.0 0.2307357008 -0.4292262305
1651750000.0 0.1512211231 -0.4814417905
1661700000.0 0.0708949179 -0.5190485062
1671650000.0 -0.0086740157 -0.5380853712
1681600000.0 -0.0880990535 -0.5375765706
1691550000.0 -0.1661204287 -0.5207946367
1701500000.0 -0.2439793113 -0.4920597232
1711450000.0 -0.3199168618 -0.4557732427
1721400000.0 -0.3918035793 -0.4160133957
1731350000.0 -0.4572141863 -0.375276068
1741300000.0 -0.5112479536 -0.3322703615
1751250000.0 -0.5520673385 -0.2839668881
1761200000.0 -0.5781370929 -0.2300471513
1771150000.0 -0.5915308648 -0.1705006005
1781100000.0 -0.5982018593 -0.1064563368
1791050000.0 -0.6016634904 -0.0416699974
1801000000.0 -0.6053651509 0.0214037043
1810950000.0 -0.6098019217 0.0806910648
1820900000.0 -0.6113633582 0.1348435816
1830850000.0 -0.6054935589 0.1831538889
1840800000.0 -0.5883667835 0.2263261589
1850750000.0 -0.5584836465 0.2655455913
1860700000.0 -0.5166861998 0.3010917637
1870650000.0 -0.4695398418 0.3354179946
1880600000.0 -0.4215571906 0.3673302372
1890550000.0 -0.3773207934 0.3965491619
1900500000.0 -0.3374724832 0.4193947803
1910450000.0 -0.3009288205 0.4352850122
1920400000.0 -0.2629707648 0.4389354212
1930350000.0 -0.2225808248 0.4306478913
1940300000.0 -0.1773452286 0.4100247001
1950250000.0 -0.1288399605 0.379545712
1960200000.0 -0.0806536003 0.3433488775
1970150000.0 -0.0400354485 0.3022920259
1980100000.0 -0.0119476007 0.2576666082
1990050000.0 -0.0015728373 0.2076325523
2000000000.0 -0.0135886624 0.1498197385
