!Created with skrf (http://scikit-rf.org).
# GHz S RI R 50.0 
!freq ReS11 ImS11
10000000.0 -0.7367953702 0.5684188879
19950000.0 -0.266563171 0.9024976046
29900000.0 0.3129885516 0.8952652963
39850000.0 0.7845519437 0.5356526353
49800000.0 0.9476604681 -0.0527574717
59750000.0 0.709403654 -0.6339835316
69700000.0 0.1486589671 -0.9447940237
79650000.0 -0.4931864167 -0.8178234584
89600000.0 -0.9055945207 -0.2783108678
99550000.0 -0.8456229247 0.4320231698
109500000.0 -0.2814165803 0.921204043
119450000.0 0.4961489771 0.8371121389
129400000.0 0.9576594238 0.1647717102
139350000.0 0.7300265069 -0.6317488986
149300000.0 -0.023763519 -0.9517449675
159250000.0 -0.7283001383 -0.5865076081
169200000.0 -0.9149144142 0.1490270174
179150000.0 -0.5343126056 0.7551840623
189100000.0 0.1196296648 0.9088701522
199050000.0 0.6780620575 0.5915312783
209000000.0 0.8904861033 0.0037029401
218950000.0 0.6944590735 -0.56413634
228900000.0 0.2010867511 -0.8761573649
238850000.0 -0.369092264 -0.8152744618
248800000.0 -0.7546414791 -0.40280938
258750000.0 -0.8671460418 0.1313628303
268700000.0 -0.6116437977 0.6292535477
278650000.0 -0.1185483986 0.8722946489
288600000.0 0.4154054377 0.7677572023
298550000.0 0.7768474439 0.3561755173
308500000.0 0.8110746119 -0.1961513674
318450000.0 0.4939622868 -0.6483786686
328400000.0 -0.0318459504 -0.7895297526
338350000.0 -0.5064967169 -0.552305141
348300000.0 -0.6855751571 -0.0746488837
358250000.0 -0.4957648652 0.363728854
368200000.0 -0.0964230754 0.5216729626
378150000.0 0.2392698334 0.3638703531
388100000.0 0.3311338549 0.0677876209
398050000.0 0.1994424981 -0.1443695942
408000000.0 0.0025822639 -0.1714299937
417950000.0 -0.1093065625 -0.0620299641
427900000.0 -0.0939762619 0.0618018242
437850000.0 -0.0023723855 0.1090734386
447800000.0 0.0828893942 0.06429391
457750000.0 0.1005667785 -0.029661109
467700000.0 0.048297062 -0.1072974919
477650000.0 -0.0376104704 -0.125736813
487600000.0 -0.1079048607 -0.080622381
497550000.0 -0.123869047 -0.0049588095
507500000.0 -0.0942248313 0.0607887111
517450000.0 -0.0307325316 0.0867354417
527400000.0 0.0228266318 0.0654575526
537350000.0 0.0414820407 0.0199575588
547300000.0 0.0235885396 -0.0183362464
557250000.0 -0.0120990486 -0.0274349884
567200000.0 -0.034914158 -0.0051207127
577150000.0 -0.0246055987 0.0262124111
587100000.0 0.0155286797 0.0354677314
597050000.0 0.0592485619 0.0067515457
607000000.0 0.0737600528 -0.0526255446
616950000.0 0.0450353364 -0.1154289261
626900000.0 -0.0214848928 -0.1448374165
636850000.0 -0.0966150175 -0.1203363645
646800000.0 -0.1406523499 -0.0457078938
656750000.0 -0.1301820705 0.0496796595
666700000.0 -0.0619221253 0.1229236206
676650000.0 0.0385009068 0.1396432703
686600000.0 0.1285800083 0.0885647299
696550000.0 0.1668428626 -0.0119119189
706500000.0 0.1344307141 -0.1140019324
716450000.0 0.0437336837 -0.1704415169
726400000.0 -0.0606583344 -0.1536704938
736350000.0 -0.1251696942 -0.069044377
746300000.0 -0.1133298323 0.038830584
756250000.0 -0.0283180108 0.1119772112
766200000.0 0.0847316108 0.1090400466
776150000.0 0.1642098425 0.0269949472
786100000.0 0.1618708109 -0.0886036341
796050000.0 0.0714190273 -0.1738242223
806000000.0 -0.0648142827 -0.1711540651
815950000.0 -0.1737762856 -0.0656660776
825900000.0 -0.1877658128 0.0970314196
835850000.0 -0.0850976146 0.2367243304
845800000.0 0.0929161648 0.2753334381
855750000.0 0.2633711277 0.1807914839
865700000.0 0.3391351344 -0.0159875455
875650000.0 0.2684491286 -0.2280095886
885600000.0 0.0649230363 -0.350506386
895550000.0 -0.1837533991 -0.2958863235
905500000.0 -0.3251145656 -0.0795869477
915450000.0 -0.3045113573 0.147992975
925400000.0 -0.1577772098 0.3494452624
935350000.0 0.1061287708 0.4098170429
945300000.0 0.3529924107 0.2623371034
955250000.0 0.4375479164 -0.0385426848
965200000.0 0.2740132608 -0.3408968163
975150000.0 -0.0899546352 -0.4416815498
985100000.0 -0.4358809296 -0.2141999176
995050000.0 -0.4884537296 0.2296583061
1005000000.0 -0.1694940267 0.5807254548
1014950000.0 0.3445627718 0.563304613
1024900000.0 0.6893152648 0.111568265
1034850000.0 0.5405202761 -0.4932284774
1044800000.0 -0.0587040289 -0.7562125614
1054750000.0 -0.6393208201 -0.4344717873
1064700000.0 -0.7616190235 0.1982903924
1074650000.0 -0.424908795 0.6937105309
1084600000.0 0.1534142527 0.7966459822
1094550000.0 0.6298120152 0.4653269497
1104500000.0 0.727823736 -0.1162536765
1114450000.0 0.3820976188 -0.5893978206
1124400000.0 -0.1708594101 -0.6643252381
1134350000.0 -0.5818081762 -0.3434457833
1144300000.0 -0.6531050421 0.1378315615
1154250000.0 -0.3998387988 0.5180578861
1164200000.0 0.021874191 0.6271128522
1174150000.0 0.4001547096 0.4324499047
1184100000.0 0.5517314 0.0344398902
1194050000.0 0.397793217 -0.3596868693
1204000000.0 0.0344577479 -0.5425898993
1213950000.0 -0.3379484492 -0.4507969413
1223900000.0 -0.5596430359 -0.1640146465
1233850000.0 -0.5652185823 0.1844056201
1243800000.0 -0.3661866274 0.4632945807
1253750000.0 -0.0375803265 0.5682283148
1263700000.0 0.2972645767 0.4509842279
1273650000.0 0.4997273223 0.1496800677
1283600000.0 0.484618315 -0.2129909031
1293550000.0 0.2700962672 -0.4886127039
1303500000.0 -0.0451226062 -0.5855660283
1313450000.0 -0.3494091864 -0.4963363335
1323400000.0 -0.5520762382 -0.2601950891
1333350000.0 -0.599158837 0.0505525135
1343300000.0 -0.4729706076 0.3488285887
1353250000.0 -0.1911333014 0.5342783411
1363200000.0 0.1577065873 0.5250826068
1373150000.0 0.4426457732 0.3115159548
1383100000.0 0.552337724 -0.0232005858
1393050000.0 0.4601478714 -0.3486407423
1403000000.0 0.2215140206 -0.5616684235
1412950000.0 -0.0784636563 -0.6073370927
1422900000.0 -0.3478668305 -0.4897970046
1432850000.0 -0.5173031194 -0.2414731476
1442800000.0 -0.5304098161 0.072529052
1452750000.0 -0.3638509816 0.3534982622
1462700000.0 -0.0600285412 0.4915893322
1472650000.0 0.263673536 0.4275672841
1482600000.0 0.4825681451 0.1945857067
1492550000.0 0.5254706841 -0.1075232712
1502500000.0 0.3972116319 -0.3703330794
1512450000.0 0.1520081543 -0.5125504929
1522400000.0 -0.1272085948 -0.4916804504
1532350000.0 -0.3468603764 -0.3089498043
1542300000.0 -0.4179594989 -0.0218265097
1552250000.0 -0.2998335077 0.2565534985
1562200000.0 -0.0396678349 0.4023089577
1572150000.0 0.2453501595 0.3601019255
1582100000.0 0.4370195354 0.1618047067
1592050000.0 0.4709745998 -0.1023907863
1602000000.0 0.3438140762 -0.3349894499
1611950000.0 0.0968935133 -0.4508377319
1621900000.0 -0.1824442571 -0.3931908168
1631850000.0 -0.3798309878 -0.1673340791
1641800000.0 -0.3981259604 0.1410426304
1651750000.0 -0.2242851792 0.3969335502
1661700000.0 0.062796233 0.4943595097
1671650000.0 0.3449681166 0.4072234831
1681600000.0 0.5258862878 0.1797176267
1691550000.0 0.5508875085 -0.1084266369
1701500000.0 0.4109934581 -0.3711936152
1711450000.0 0.1389191042 -0.5164055376
1721400000.0 -0.1804151422 -0.4779912851
1731350000.0 -0.4301952497 -0.2551014666
1741300000.0 -0.5132289197 0.0738830801
1751250000.0 -0.4027102358 0.3844302887
1761200000.0 -0.1507343071 0.5741008101
1771150000.0 0.1514803312 0.5968388322
1781100000.0 0.4144184213 0.4608986521
1791050000.0 0.5697266785 0.2082219468
1801000000.0 0.5736238585 -0.0961487278
1810950000.0 0.4164760248 -0.3666248542
1820900000.0 0.1342869447 -0.5148987233
1830850000.0 -0.1888933123 -0.4803599279
1840800000.0 -0.4397533195 -0.2715515773
1850750000.0 -0.5355649186 0.0295976636
1860700000.0 -0.4635072563 0.3186029174
1870650000.0 -0.2663537441 0.5147103723
1880600000.0 -0.0124049676 0.5775663383
1890550000.0 0.2272869544 0.5020146059
1900500000.0 0.3908073877 0.3126488142
1910450000.0 0.43394025 0.0608756795
1920400000.0 0.341627608 -0.1789136765
1930350000.0 0.1402978025 -0.3269987521
1940300000.0 -0.0948264943 -0.3369576974
1950250000.0 -0.2784610415 -0.2252449169
1960200000.0 -0.3591884807 -0.0544316738
1970150000.0 -0.335797541 0.1069957798
1980100000.0 -0.2411452655 0.2076650579
1990050000.0 -0.1298286595 0.2240792023
2000000000.0 -0.0616537468 0.1707477478
