!Created with skrf (http://scikit-rf.org).
# GHz S RI R 50.0 
!freq ReS11 ImS11
10000000.0 -0.8151310281 0.611489088
19950000.0 -0.2927923964 0.9533381864
29900000.0 0.3268580685 0.9259557664
39850000.0 0.8187713492 0.538940885
49800000.0 0.9894920096 -0.0759901325
59750000.0 0.7445997241 -0.6841719471
69700000.0 0.1543064079 -1.011193321
79650000.0 -0.5255457661 -0.8706537327
89600000.0 -0.9495150734 -0.2980342695
99550000.0 -0.8715216483 0.4308639521
109500000.0 -0.2906233208 0.9194069035
119450000.0 0.4977105464 0.8424046105
129400000.0 0.9789153757 0.1872136818
139350000.0 0.7794809619 -0.6389415358
149300000.0 0.0153439219 -0.9871154924
159250000.0 -0.719067326 -0.6329876672
169200000.0 -0.9373434862 0.1187876354
179150000.0 -0.5634296046 0.7712174958
189100000.0 0.1354801502 0.9664638276
199050000.0 0.7545071509 0.6382415599
209000000.0 0.9808006815 -0.0011778018
218950000.0 0.7429013868 -0.6062566593
228900000.0 0.1909832056 -0.916341864
238850000.0 -0.4250879954 -0.8208428518
248800000.0 -0.7342512173 -0.4432597635
258750000.0 -0.9221792286 0.2001365151
268700000.0 -0.6185235327 0.7290739628
278650000.0 -0.0559034976 0.9506424464
288600000.0 0.5162210257 0.7723819425
298550000.0 0.8478997908 0.2816338457
308500000.0 0.8008549697 -0.303669125
318450000.0 0.3989020244 -0.7241105932
328400000.0 -0.1724275633 -0.7849326994
338350000.0 -0.628044744 -0.4558046856
348300000.0 -0.7223787537 0.0733060975
358250000.0 -0.4324683891 0.4814806322
368200000.0 0.0151835078 0.5472981251
378150000.0 0.3290980821 0.3010250069
388100000.0 0.3585431887 -0.0403937105
398050000.0 0.1648523622 -0.2521098397
408000000.0 -0.0706258383 -0.2475704807
417950000.0 -0.1939782954 -0.0977549767
427900000.0 -0.1662690306 0.0618403452
437850000.0 -0.0471783482 0.1355190915
447800000.0 0.0693858986 0.1034718116
457750000.0 0.1201419039 0.0122016213
467700000.0 0.0934287346 -0.0726640093
477650000.0 0.0257503712 -0.1039323632
487600000.0 -0.026129613 -0.0761603324
497550000.0 -0.0839447762 -0.0600171547
507500000.0 -0.0522328033 0.0088480548
517450000.0 -0.0146676976 0.0216052625
527400000.0 0.0058502291 0.0050603949
537350000.0 -0.0034509662 -0.0154991236
547300000.0 -0.036294375 -0.0145454609
557250000.0 -0.0591622804 0.0211380443
567200000.0 -0.0494067339 0.0728659586
577150000.0 0.0004580035 0.1099159999
587100000.0 0.0721139411 0.1041069375
597050000.0 0.1309517971 0.0449152699
607000000.0 0.1415805915 -0.0470400475
616950000.0 0.0889775269 -0.1344059469
626900000.0 -0.0100233752 -0.1744345243
636850000.0 -0.1163805203 -0.1490051552
646800000.0 -0.1850585643 -0.0620547895
656750000.0 -0.1853135582 0.0482348254
666700000.0 -0.1158220552 0.1337383855
676650000.0 -0.0083184173 0.1554643995
686600000.0 0.089000616 0.10612724
696550000.0 0.1310646575 0.0079889445
706500000.0 0.1029369463 -0.0886841906
716450000.0 0.023242851 -0.1349444041
726400000.0 -0.0606531444 -0.1125308524
736350000.0 -0.0967982037 -0.0353389389
746300000.0 -0.0610614478 0.047091665
756250000.0 0.0313463522 0.0794886742
766200000.0 0.1272836388 0.0333820477
776150000.0 0.1670279526 -0.0759795704
786100000.0 0.1138285417 -0.1919018486
796050000.0 -0.0186939139 -0.2436647318
806000000.0 -0.1699635714 -0.1845289181
815950000.0 -0.2565441737 -0.0220389906
825900000.0 -0.2173608422 0.1775209715
835850000.0 -0.0518561911 0.3208983375
845800000.0 0.1788770998 0.3335443568
855750000.0 0.3751113737 0.196783436
865700000.0 0.4484813491 -0.0419247502
875650000.0 0.3520688441 -0.2838004557
885600000.0 0.1132092246 -0.4218659227
895550000.0 -0.1722585648 -0.3789996
905500000.0 -0.3771569171 -0.1579006614
915450000.0 -0.3930943602 0.1439001365
925400000.0 -0.222592217 0.3826661475
935350000.0 0.0653952202 0.4617206102
945300000.0 0.3382704825 0.3217447481
955250000.0 0.43919548 0.0157598478
965200000.0 0.2812079403 -0.2877880568
975150000.0 -0.0791476816 -0.3818957257
985100000.0 -0.4115261205 -0.1442865139
995050000.0 -0.4219393483 0.2989577625
1005000000.0 -0.0421674879 0.5958108081
1014950000.0 0.4696641797 0.452152728
1024900000.0 0.6820933661 -0.0897775623
1034850000.0 0.3705780468 -0.6269483022
1044800000.0 -0.2701176401 -0.7436310077
1054750000.0 -0.7877000995 -0.310537113
1064700000.0 -0.7958823551 0.3267140384
1074650000.0 -0.3629338475 0.7799167222
1084600000.0 0.228452283 0.8077414874
1094550000.0 0.7003923727 0.4075661494
1104500000.0 0.7459276215 -0.2073109519
1114450000.0 0.3371232566 -0.6602294146
1124400000.0 -0.2478434902 -0.6635159599
1134350000.0 -0.6156964153 -0.2664330408
1144300000.0 -0.5877716923 0.2270585848
1154250000.0 -0.2502944664 0.5345499823
1164200000.0 0.1830276544 0.5226583934
1174150000.0 0.4778099519 0.2248352478
1184100000.0 0.4819923417 -0.1907386931
1194050000.0 0.1960851716 -0.4838760806
1204000000.0 -0.1977190447 -0.4969064289
1213950000.0 -0.4879945455 -0.2600684534
1223900000.0 -0.5654450354 0.0915974864
1233850000.0 -0.4175770052 0.4133719456
1243800000.0 -0.1050243348 0.5865897711
1253750000.0 0.2584325484 0.5367988682
1263700000.0 0.525314909 0.2708903452
1273650000.0 0.5787306635 -0.1066756201
1283600000.0 0.4010940216 -0.4395423751
1293550000.0 0.0767873016 -0.6084011744
1303500000.0 -0.2741536657 -0.5766748574
1313450000.0 -0.549459678 -0.370044643
1323400000.0 -0.6760683872 -0.0507808675
1333350000.0 -0.6122517767 0.2945505757
1343300000.0 -0.3595549698 0.5587845165
1353250000.0 0.0115972988 0.6381041499
1363200000.0 0.370187448 0.4896966836
1373150000.0 0.5822694532 0.1668061558
1383100000.0 0.5833930981 -0.2069731634
1393050000.0 0.395145046 -0.5105955465
1403000000.0 0.0898278863 -0.6657750371
1412950000.0 -0.2443088065 -0.6405781116
1422900000.0 -0.5156191319 -0.4442933497
1432850000.0 -0.6399613815 -0.1257249187
1442800000.0 -0.5669869691 0.2191668483
1452750000.0 -0.3083298498 0.4711165789
1462700000.0 0.048277974 0.5368056351
1472650000.0 0.3741215539 0.3974625523
1482600000.0 0.5611180451 0.1146113759
1492550000.0 0.5630042312 -0.2082013412
1502500000.0 0.393145149 -0.4679884426
1512450000.0 0.1122144558 -0.5857042329
1522400000.0 -0.187903947 -0.5211419914
1532350000.0 -0.398564762 -0.2888404826
1542300000.0 -0.432886658 0.0278820623
1552250000.0 -0.2732447694 0.3015041199
1562200000.0 0.0078342825 0.421654545
1572150000.0 0.2913614298 0.3542766265
1582100000.0 0.4686229196 0.1389406456
1592050000.0 0.4764882028 -0.1314050301
1602000000.0 0.3171711849 -0.3493687013
1611950000.0 0.051466152 -0.4272507669
1621900000.0 -0.2159531129 -0.3245003364
1631850000.0 -0.3705750037 -0.0729893558
1641800000.0 -0.3382367549 0.224693734
1651750000.0 -0.1287902478 0.4383181759
1661700000.0 0.1625416269 0.4756404371
1671650000.0 0.4120342587 0.3295598935
1681600000.0 0.5240929182 0.0639634404
1691550000.0 0.4529017981 -0.214359754
1701500000.0 0.271166975 -0.3857424537
1711450000.0 -0.0030314201 -0.49543082
1721400000.0 -0.3268977177 -0.3934926907
1731350000.0 -0.5255664918 -0.1092669427
1741300000.0 -0.5158272027 0.23603389
1751250000.0 -0.3115746093 0.5047255796
1761200000.0 -0.0026831793 0.60896238
1771150000.0 0.3045993043 0.5334275151
1781100000.0 0.5253122392 0.3129320542
1791050000.0 0.6031548763 0.0085052767
1801000000.0 0.509029969 -0.3011252356
1810950000.0 0.2542518877 -0.5198207528
1820900000.0 -0.0883884101 -0.5610222907
1830850000.0 -0.3947309207 -0.3999223404
1840800000.0 -0.5526459508 -0.1029708814
1850750000.0 -0.5252760802 0.21435271
1860700000.0 -0.3486335455 0.4544260022
1870650000.0 -0.0910396111 0.5668423474
1880600000.0 0.1767560869 0.5369943774
1890550000.0 0.3883517437 0.3774909462
1900500000.0 0.4835747267 0.1297336203
1910450000.0 0.4256991617 -0.1300826164
1920400000.0 0.2338020307 -0.3083480167
1930350000.0 -0.0119626738 -0.3439691393
1940300000.0 -0.2142831023 -0.2461907878
1950250000.0 -0.3165339829 -0.0816360361
1960200000.0 -0.3137039814 0.0797097472
1970150000.0 -0.2397437503 0.1850375884
1980100000.0 -0.1476865079 0.211970484
1990050000.0 -0.0932718447 0.1771091439
2000000000.0 -0.1069306333 0.1369737226
