!Created with skrf (http://scikit-rf.org).
# GHz S RI R 50.0 
!freq ReS11 ImS11
10000000.0 -0.8079217419 0.5991365809
19950000.0 -0.3011235153 0.9456651681
29900000.0 0.3109620248 0.9342262834
39850000.0 0.8074074691 0.5637904
49800000.0 0.9910894006 -0.0419907395
59750000.0 0.7614117188 -0.651671793
69700000.0 0.181000744 -0.9908905513
79650000.0 -0.5021869312 -0.8668105159
89600000.0 -0.9411032453 -0.2981845429
99550000.0 -0.8658133472 0.4438956873
109500000.0 -0.2591623112 0.9331471388
119450000.0 0.5484589347 0.8084284303
129400000.0 0.9854286976 0.0803780059
139350000.0 0.6804455003 -0.7177627799
149300000.0 -0.1248278255 -0.9653830787
159250000.0 -0.8002743617 -0.5235248323
169200000.0 -0.9210841028 0.2347053087
179150000.0 -0.4867428668 0.8245201059
189100000.0 0.2045221207 0.9474164274
199050000.0 0.7767849758 0.5894702317
209000000.0 0.9689584488 -0.0335027837
218950000.0 0.7333659854 -0.6132575437
228900000.0 0.2057774668 -0.9193274316
238850000.0 -0.3890040804 -0.8492094837
248800000.0 -0.8190916867 -0.4389407399
258750000.0 -0.9316851732 0.1364831603
268700000.0 -0.672443634 0.6679010889
278650000.0 -0.1455065357 0.9332231084
288600000.0 0.4313853131 0.8225897998
298550000.0 0.8167795704 0.3841214265
308500000.0 0.848397629 -0.1964645066
318450000.0 0.5084595242 -0.6646209749
328400000.0 -0.0482199165 -0.8000111256
338350000.0 -0.5396460944 -0.5328569864
348300000.0 -0.6978189898 -0.0248715042
358250000.0 -0.4622777877 0.4050719243
368200000.0 -0.03966953 0.5110879807
378150000.0 0.2717621437 0.3015680836
388100000.0 0.3109725132 -0.0108656529
398050000.0 0.1356848586 -0.2015211645
408000000.0 -0.0748169032 -0.1882805587
417950000.0 -0.1745494831 -0.0454638376
427900000.0 -0.1315185853 0.0979073789
437850000.0 -0.008997619 0.1509166954
447800000.0 0.1020149209 0.0998725247
457750000.0 0.1391880136 -0.0055763815
467700000.0 0.0963916639 -0.0973793921
477650000.0 0.0118367119 -0.1301463097
487600000.0 -0.0612813924 -0.1004675157
497550000.0 -0.0908998554 -0.0406336925
507500000.0 -0.0705026744 0.0128279496
517450000.0 -0.0310044997 0.0282239619
527400000.0 -0.0046086016 0.0107759954
537350000.0 -0.0103068287 -0.0150297688
547300000.0 -0.0392789463 -0.0186071807
557250000.0 -0.0666912709 0.0098233123
567200000.0 -0.0625491505 0.061785113
577150000.0 -0.0145842364 0.1052879917
587100000.0 0.0613617863 0.1069226982
597050000.0 0.1298695984 0.0538614315
607000000.0 0.1531048841 -0.038960853
616950000.0 0.1124636725 -0.1331382352
626900000.0 0.0199459516 -0.1865845233
636850000.0 -0.0889823607 -0.1730748686
646800000.0 -0.1675296765 -0.0963877245
656750000.0 -0.1827879656 0.0118063181
666700000.0 -0.1284916027 0.1045751703
676650000.0 -0.0313749067 0.1420662606
686600000.0 0.0630794382 0.1109378568
696550000.0 0.1123258954 0.0322428128
706500000.0 0.097917371 -0.0499316653
716450000.0 0.0366000231 -0.092546192
726400000.0 -0.0292275638 -0.0748388995
736350000.0 -0.0535986824 -0.012505894
746300000.0 -0.0154868735 0.0497228177
756250000.0 0.0675135025 0.0628612469
766200000.0 0.1444608166 0.0034871131
776150000.0 0.1583294473 -0.108654723
786100000.0 0.081582272 -0.2129145731
796050000.0 -0.062209311 -0.2425058764
806000000.0 -0.209025936 -0.163926
815950000.0 -0.283849425 0.0086396049
825900000.0 -0.2321307445 0.2097323382
835850000.0 -0.0562453888 0.3477483197
845800000.0 0.1789037533 0.3508115275
855750000.0 0.375537832 0.2048299394
865700000.0 0.444600537 -0.0391850072
875650000.0 0.3456434468 -0.2821148695
885600000.0 0.1075029811 -0.4166067583
895550000.0 -0.1714404731 -0.3700413391
905500000.0 -0.3573568833 -0.1537576761
915450000.0 -0.3675538727 0.1262052057
925400000.0 -0.1950680181 0.3532109057
935350000.0 0.091228027 0.4035756041
945300000.0 0.3337129946 0.2324393567
955250000.0 0.3747103513 -0.0752970631
965200000.0 0.1518509263 -0.3250858971
975150000.0 -0.2184260174 -0.307566508
985100000.0 -0.4511215978 0.0334289523
995050000.0 -0.305155671 0.4607150634
1005000000.0 0.1577288151 0.622224356
1014950000.0 0.6137225294 0.3481152707
1024900000.0 0.7180750501 -0.2190419826
1034850000.0 0.3413441049 -0.7136408019
1044800000.0 -0.3112239796 -0.77220115
1054750000.0 -0.8052542805 -0.3261499372
1064700000.0 -0.8231019 0.3235266265
1074650000.0 -0.4044826088 0.7841388117
1084600000.0 0.2060710736 0.8379834697
1094550000.0 0.6929455583 0.4484622184
1104500000.0 0.7529462629 -0.1843933744
1114450000.0 0.3149169059 -0.6527285399
1124400000.0 -0.3027626737 -0.6131906662
1134350000.0 -0.6355216642 -0.1510197514
1144300000.0 -0.5178850149 0.3524352742
1154250000.0 -0.1023109228 0.5894470255
1164200000.0 0.3364224499 0.4602464153
1174150000.0 0.5511096679 0.0642032309
1184100000.0 0.4227579124 -0.3674649272
1194050000.0 0.0399295275 -0.5819214621
1204000000.0 -0.3678975213 -0.4912279265
1213950000.0 -0.6151853063 -0.1826600424
1223900000.0 -0.6312417723 0.1975682311
1233850000.0 -0.4292382551 0.5151749607
1243800000.0 -0.0759489978 0.6655767422
1253750000.0 0.312577636 0.5849854809
1263700000.0 0.5903448639 0.2859777978
1273650000.0 0.6433465497 -0.1214458804
1283600000.0 0.4585507377 -0.4803390547
1293550000.0 0.12131226 -0.6711154074
1303500000.0 -0.2492753267 -0.6564389298
1313450000.0 -0.5507434152 -0.4606098167
1323400000.0 -0.7111789458 -0.141482243
1333350000.0 -0.6851523903 0.2208045378
1343300000.0 -0.4654427979 0.5268512382
1353250000.0 -0.1018498903 0.6704729282
1363200000.0 0.2894017799 0.587694753
1373150000.0 0.5685651945 0.3031992179
1383100000.0 0.6448604521 -0.0756187623
1393050000.0 0.5147272799 -0.4202582492
1403000000.0 0.2376188675 -0.63664539
1412950000.0 -0.1005116331 -0.6774431766
1422900000.0 -0.4071400313 -0.538608245
1432850000.0 -0.5945746661 -0.2548542873
1442800000.0 -0.5962118363 0.0923025178
1452750000.0 -0.3998121361 0.3850113007
1462700000.0 -0.0725626336 0.5128252078
1472650000.0 0.2581734809 0.4329364518
1482600000.0 0.4713144035 0.1908325526
1492550000.0 0.5033435603 -0.1099840247
1502500000.0 0.3617411362 -0.357083624
1512450000.0 0.1105256367 -0.4650015861
1522400000.0 -0.1483309703 -0.3941330566
1532350000.0 -0.3007190332 -0.1752298037
1542300000.0 -0.2726292722 0.0885861864
1552250000.0 -0.0801933824 0.2622224649
1562200000.0 0.1699770701 0.2605912291
1572150000.0 0.3463560369 0.0974109761
1582100000.0 0.3682987261 -0.1396012518
1592050000.0 0.2246125606 -0.3368075747
1602000000.0 -0.0285869239 -0.3988968371
1611950000.0 -0.2810572968 -0.2788335413
1621900000.0 -0.4131664774 -0.0095264751
1631850000.0 -0.348413924 0.2988003094
1641800000.0 -0.1036589568 0.5097736993
1651750000.0 0.219225209 0.5344514231
1661700000.0 0.4967496074 0.3698310383
1671650000.0 0.6372080678 0.0785649137
1681600000.0 0.5987545535 -0.2479022972
1691550000.0 0.3866806129 -0.5148440954
1701500000.0 0.0498250182 -0.6349894327
1711450000.0 -0.3155995466 -0.5519851082
1721400000.0 -0.5866521448 -0.2721383737
1731350000.0 -0.658889063 0.1143010688
1741300000.0 -0.5103072577 0.4711170656
1751250000.0 -0.2064602761 0.6863990807
1761200000.0 0.1497023575 0.7155674887
1771150000.0 0.4646612716 0.5708188174
1781100000.0 0.670380278 0.2954653137
1791050000.0 0.7202753209 -0.050845893
1801000000.0 0.5885615365 -0.3905190725
1810950000.0 0.2884341628 -0.6268528328
1820900000.0 -0.1054139089 -0.6697288976
1830850000.0 -0.4614387551 -0.4909007751
1840800000.0 -0.6594998193 -0.1583748887
1850750000.0 -0.6552720446 0.2070927902
1860700000.0 -0.4820076274 0.5008208531
1870650000.0 -0.2068189133 0.6660808094
1880600000.0 0.1015903401 0.6819586102
1890550000.0 0.3784746005 0.5514101084
1900500000.0 0.5596862234 0.2977421746
1910450000.0 0.5864366919 -0.0205129686
1920400000.0 0.4376340006 -0.3065843451
1930350000.0 0.1649774171 -0.4614812055
1940300000.0 -0.1231877033 -0.4450864316
1950250000.0 -0.3305503676 -0.3091861352
1960200000.0 -0.4420054682 -0.1219037485
1970150000.0 -0.4504468631 0.0709496387
1980100000.0 -0.3795232472 0.2178566394
1990050000.0 -0.2741469509 0.2987124916
2000000000.0 -0.1754293615 0.3238004142
