!Created with skrf (http://scikit-rf.org).
# GHz S RI R 50.0 
!freq ReS11 ImS11
10000000.0 -0.9993863406 0.1652280197
19950000.0 -0.9431562346 0.315837173
29900000.0 -0.8642922948 0.4593570051
39850000.0 -0.7624447622 0.6002358315
49800000.0 -0.639645961 0.7329713643
59750000.0 -0.4917143539 0.8507597652
69700000.0 -0.3116849437 0.9419628978
79650000.0 -0.0967867422 0.9886281293
89600000.0 0.1501211644 0.9744477502
99550000.0 0.4153026661 0.8817749505
109500000.0 0.6763135798 0.6998856095
119450000.0 0.8944374583 0.4176157165
129400000.0 0.9813490147 0.0469525829
139350000.0 0.9614192693 -0.3535959772
149300000.0 0.7418644429 -0.6986037468
159250000.0 0.4094266219 -0.9116971633
169200000.0 0.0489258298 -0.9824638473
179150000.0 -0.279780351 -0.9392386431
189100000.0 -0.5475628607 -0.8183107636
199050000.0 -0.7426538743 -0.6503293697
209000000.0 -0.8638405331 -0.4570296767
218950000.0 -0.9255919069 -0.2579686951
228900000.0 -0.9398473576 -0.0631960239
238850000.0 -0.9188210548 0.1261426376
248800000.0 -0.6954291908 0.16634156
258750000.0 -0.8208337892 0.4287380951
268700000.0 -0.7330762525 0.5714860031
278650000.0 -0.6243928198 0.6817422231
288600000.0 -0.487950988 0.769584907
298550000.0 -0.3279134059 0.8256462151
308500000.0 -0.1510569553 0.8490187478
318450000.0 0.0362880437 0.8358118018
328400000.0 0.2240654524 0.7800759808
338350000.0 0.3926619098 0.6740881398
348300000.0 0.5177178992 0.516579317
358250000.0 0.5754017484 0.3213835104
368200000.0 0.5555068613 0.1185965309
378150000.0 0.469275147 -0.0559420635
388100000.0 0.3446893041 -0.1789057723
398050000.0 0.2105195793 -0.2422738442
408000000.0 0.0909999312 -0.2503111158
417950000.0 -0.0015155447 -0.2171474002
427900000.0 -0.0641446799 -0.1602434822
437850000.0 -0.1012280895 -0.0949156245
447800000.0 -0.1177242724 -0.0339358443
457750000.0 -0.1181081344 0.0146219659
467700000.0 -0.1066491085 0.046431153
477650000.0 -0.0857739327 0.0591850788
487600000.0 -0.0573606476 0.0541306791
497550000.0 -0.0331266616 0.000183724
507500000.0 -0.022472834 0.0447185522
517450000.0 0.0046543586 0.0222221682
527400000.0 0.015756775 0.0032547524
537350000.0 0.01261391 -0.0137830963
547300000.0 -0.0022199078 -0.0322276828
557250000.0 -0.0309107674 -0.0469103335
567200000.0 -0.0619197852 -0.0588947325
577150000.0 -0.0929555612 -0.0675502992
587100000.0 -0.1201831582 -0.0701670839
597050000.0 -0.1407542345 -0.0644604188
607000000.0 -0.1548191839 -0.0478840925
616950000.0 -0.1636300106 -0.0214282389
626900000.0 -0.1687930774 0.0121243667
636850000.0 -0.1703325601 0.0482759859
646800000.0 -0.1672052861 0.0828843695
656750000.0 -0.1579432721 0.1120803876
666700000.0 -0.1389067302 0.1333933773
676650000.0 -0.1060949004 0.1448422775
686600000.0 -0.0614583028 0.1449456602
696550000.0 -0.0201834678 0.1314120919
706500000.0 -0.016617902 0.0913014027
716450000.0 0.0164626838 0.090947561
726400000.0 0.0541005528 0.0916576393
736350000.0 0.0819212238 0.0703108764
746300000.0 0.0959029686 0.032952956
756250000.0 0.0978651569 -0.0157362849
766200000.0 0.0870791555 -0.0727122943
776150000.0 0.0661452409 -0.1321485347
786100000.0 0.0354079289 -0.1864238459
796050000.0 -0.0052941804 -0.2288656663
806000000.0 -0.0546927522 -0.2549197786
815950000.0 -0.1134215449 -0.2613538873
825900000.0 -0.1788963685 -0.2497824162
835850000.0 -0.2480466421 -0.2228296096
845800000.0 -0.3150310481 -0.1845886279
855750000.0 -0.3746347644 -0.1376214579
865700000.0 -0.4207728605 -0.0826792977
875650000.0 -0.4478435004 -0.02031361
885600000.0 -0.4538208848 0.0495445496
895550000.0 -0.4394971828 0.1262410501
905500000.0 -0.4064227411 0.2083564645
915450000.0 -0.3577363599 0.2910801232
925400000.0 -0.2948707725 0.3683035609
935350000.0 -0.2162798675 0.4327319399
945300000.0 -0.1210992884 0.474956294
955250000.0 -0.0081967639 0.4865116938
965200000.0 0.1197685603 0.4585231859
975150000.0 0.2567391836 0.3868095727
985100000.0 0.3879578861 0.2646704412
995050000.0 0.4903698595 0.0901316125
1005000000.0 0.5276166915 -0.1299054231
1014950000.0 0.4685952521 -0.3682221804
1024900000.0 0.2907467016 -0.5804203532
1034850000.0 0.0095867832 -0.7057886125
1044800000.0 -0.3181242381 -0.7006149573
1054750000.0 -0.6182448028 -0.5518397764
1064700000.0 -0.7849135958 -0.2884348095
1074650000.0 -0.8677616618 -0.059257017
1084600000.0 -0.8473939289 0.2325284795
1094550000.0 -0.7025063189 0.4763624935
1104500000.0 -0.5077495941 0.6665528761
1114450000.0 -0.2570658122 0.7801871355
1124400000.0 0.010330722 0.8000793337
1134350000.0 0.2567952594 0.7211016993
1144300000.0 0.4477712776 0.557956838
1154250000.0 0.5638476865 0.3457344814
1164200000.0 0.6049944068 0.1182410495
1174150000.0 0.5826615035 -0.0908390194
1184100000.0 0.5194609626 -0.2687685793
1194050000.0 0.4168556184 -0.4117283281
1204000000.0 0.2857355737 -0.5062447719
1213950000.0 0.1428333274 -0.5537712199
1223900000.0 0.0018892575 -0.5654883619
1233850000.0 -0.1290478186 -0.5537816771
1243800000.0 -0.2461104411 -0.527593471
1253750000.0 -0.3475166769 -0.4904954433
1263700000.0 -0.4301528273 -0.4428280459
1273650000.0 -0.4953255174 -0.3854572
1283600000.0 -0.5419008626 -0.3178204695
1293550000.0 -0.5751047935 -0.2422818621
1303500000.0 -0.5997409961 -0.1631617491
1313450000.0 -0.6188915089 -0.0839255893
1323400000.0 -0.635249038 -0.0080537098
1333350000.0 -0.6476673002 0.0631096513
1343300000.0 -0.6521106951 0.1296679767
1353250000.0 -0.6452832402 0.1897156345
1363200000.0 -0.6250302416 0.246844261
1373150000.0 -0.59061524 0.3014644045
1383100000.0 -0.5473156108 0.3554318966
1393050000.0 -0.4995487995 0.4088367942
1403000000.0 -0.4511890152 0.4603743468
1412950000.0 -0.4035083959 0.5079915552
1422900000.0 -0.3560957082 0.5478773802
1432850000.0 -0.3084284969 0.5763079262
1442800000.0 -0.2580038157 0.5939884689
1452750000.0 -0.2033510828 0.6034162828
1462700000.0 -0.1419248055 0.6076413152
1472650000.0 -0.0718839555 0.6097016422
1482600000.0 0.0034531251 0.6094484563
1492550000.0 0.0798568952 0.6057766999
1502500000.0 0.153834698 0.5947514405
1512450000.0 0.2226120308 0.5729841418
1522400000.0 0.2842464267 0.5369876715
1532350000.0 0.3388785734 0.4847417541
1542300000.0 0.3870659997 0.4176763608
1552250000.0 0.4299649503 0.3393232445
1562200000.0 0.4693042654 0.2550289651
1572150000.0 0.5019564626 0.1692546994
1582100000.0 0.5240258757 0.0821223746
1592050000.0 0.5295351616 -0.0046276316
1602000000.0 0.514504902 -0.089850089
1611950000.0 0.4794049439 -0.1709682393
1621900000.0 0.4269100424 -0.2482419045
1631850000.0 0.3628082283 -0.3222517478
1641800000.0 0.2918008847 -0.3911979156
1651750000.0 0.2169844914 -0.4514583831
1661700000.0 0.139465581 -0.4981461962
1671650000.0 0.0605483842 -0.5269922409
1681600000.0 -0.019929064 -0.5354625574
1691550000.0 -0.1006941761 -0.5266694353
1701500000.0 -0.182501316 -0.5039285597
1711450000.0 -0.2627831601 -0.4723435468
1721400000.0 -0.3393697655 -0.4363368016
1731350000.0 -0.4093339774 -0.3985503865
1741300000.0 -0.4688246453 -0.3570404532
1751250000.0 -0.515018178 -0.3092665695
1761200000.0 -0.545956185 -0.2542725191
1771150000.0 -0.563280569 -0.1917757133
1781100000.0 -0.5718327414 -0.1229324291
1791050000.0 -0.5733761628 -0.0504974077
1801000000.0 -0.5665698788 0.0266390607
1810950000.0 -0.5166613539 0.0936737085
1820900000.0 -0.5487741959 0.0483886821
1830850000.0 -0.5898781057 0.1154197005
1840800000.0 -0.5829431718 0.1764265595
1850750000.0 -0.5570013822 0.2255892086
1860700000.0 -0.5174453212 0.2677375834
1870650000.0 -0.4717430913 0.3070031623
1880600000.0 -0.4253080861 0.3425296726
1890550000.0 -0.3828883219 0.3748845675
1900500000.0 -0.3451436418 0.401377473
1910450000.0 -0.3111714279 0.4195365033
1920400000.0 -0.2769228115 0.4281088974
1930350000.0 -0.2396039405 0.4249511415
1940300000.0 -0.1972024108 0.4114399334
1950250000.0 -0.1498243733 0.3891224562
1960200000.0 -0.1013237501 0.3619541499
1970150000.0 -0.0581803911 0.3314912441
1980100000.0 -0.0246068274 0.2987551313
1990050000.0 -0.0050204353 0.262627231
2000000000.0 -0.0013226904 0.2179380595
