!Created with skrf (http://scikit-rf.org).
# GHz S RI R 50.0 
!freq ReS11 ImS11
10000000.0 -0.830990816 0.0587327305
14975000.0 -0.8341443597 0.0900236617
19950000.0 -0.8373986985 0.123525556
24925000.0 -0.8393060713 0.1597861522
29900000.0 -0.8394630009 0.1977799619
34875000.0 -0.8357950715 0.2383655772
39850000.0 -0.8281667796 0.2812088954
44825000.0 -0.8161803465 0.3260863329
49800000.0 -0.7999800733 0.372788142
54775000.0 -0.7791540027 0.4209940885
59750000.0 -0.7537775067 0.4707189381
64725000.0 -0.7236204206 0.5216211111
69700000.0 -0.6884650185 0.5737674188
74675000.0 -0.6477804186 0.6269573111
79650000.0 -0.6009584929 0.6811894132
84625000.0 -0.547173555 0.7361152616
89600000.0 -0.4848408558 0.7910735072
94575000.0 -0.4124691561 0.8448037002
99550000.0 -0.3277401078 0.8950217187
104525000.0 -0.2292000629 0.9380624886
109500000.0 -0.1166963195 0.9694705654
114475000.0 0.0089181035 0.9842657113
119450000.0 0.143860398 0.9786838372
124425000.0 0.2831295858 0.9492043963
129400000.0 0.423458366 0.8924910916
134375000.0 0.5445525238 0.8199445068
139350000.0 0.6627891686 0.7191366074
144325000.0 0.7605762457 0.6018058904
149300000.0 0.8364273601 0.472574471
154275000.0 0.8890585671 0.3377169285
159250000.0 0.9187641085 0.2027416813
164225000.0 0.9267696987 0.0730702726
169200000.0 0.9164248518 -0.0476125243
174175000.0 0.8911427373 -0.1566079065
179150000.0 0.8558196741 -0.2526313926
184125000.0 0.8144832572 -0.3359312934
189100000.0 0.7707941927 -0.4078127597
194075000.0 0.7270348183 -0.4700373313
199050000.0 0.6842777942 -0.524446429
204025000.0 0.6425287011 -0.5729260525
209000000.0 0.6019917827 -0.6164508313
213975000.0 0.5614312962 -0.6559648018
218950000.0 0.5205772672 -0.6915706331
223925000.0 0.479366504 -0.7237610693
228900000.0 0.4373123045 -0.752219346
233875000.0 0.3947223575 -0.7768807118
238850000.0 0.3511069631 -0.7980253248
243825000.0 0.305819955 -0.8155656625
248800000.0 0.2692998672 -0.7961863291
253775000.0 0.2293025639 -0.8371523644
258750000.0 0.1862122033 -0.8456679279
263725000.0 0.1451710337 -0.8511737777
268700000.0 0.1059064915 -0.8544980054
273675000.0 0.0679978741 -0.8561985161
278650000.0 0.03096943 -0.8565182367
283625000.0 -0.0054985325 -0.8557815043
288600000.0 -0.0422120146 -0.8542063826
293575000.0 -0.0799609959 -0.8516257152
298550000.0 -0.1194415936 -0.8469534522
303525000.0 -0.1611355619 -0.8397799631
308500000.0 -0.204854356 -0.8283364341
313475000.0 -0.2500641278 -0.8119194371
318450000.0 -0.2961921449 -0.7892044922
323425000.0 -0.3422273011 -0.7596830906
328400000.0 -0.386917966 -0.723102805
333375000.0 -0.4292650483 -0.6791813754
338350000.0 -0.4677664815 -0.6283237838
343325000.0 -0.5006748307 -0.5707794555
348300000.0 -0.5265504206 -0.5072842661
353275000.0 -0.5440904088 -0.4392994484
358250000.0 -0.5517703184 -0.3682289762
363225000.0 -0.5491255196 -0.2961008651
368200000.0 -0.5363809178 -0.2257385122
373175000.0 -0.5136706025 -0.159205204
378150000.0 -0.4817930525 -0.0982134798
383125000.0 -0.4427591998 -0.044479678
388100000.0 -0.3981683598 0.0006793877
393075000.0 -0.3500706123 0.0372546714
398050000.0 -0.3003412685 0.0653284188
403025000.0 -0.2509454462 0.0848577991
408000000.0 -0.202763213 0.0968886311
412975000.0 -0.1571752095 0.1026375984
417950000.0 -0.1150384888 0.1028861217
422925000.0 -0.076792516 0.0988133227
427900000.0 -0.043132708 0.0915867509
432875000.0 -0.0137261485 0.0812589691
437850000.0 0.0110461159 0.0688711271
442825000.0 0.0316230925 0.0551416646
447800000.0 0.0482302455 0.0408782142
452775000.0 0.0614160117 0.0262297989
457750000.0 0.0711357742 0.0117528987
462725000.0 0.0782500343 -0.0022778733
467700000.0 0.0831714904 -0.0156720629
472675000.0 0.0861705745 -0.0280695998
477650000.0 0.0871347913 -0.0396181369
482625000.0 0.0867687184 -0.0500674263
487600000.0 0.0845413103 -0.05896266
492575000.0 0.0801887901 -0.0658598219
497550000.0 0.0824122271 -0.0631510047
502525000.0 0.0797620419 -0.0773982813
507500000.0 0.0726078615 -0.0815802811
512475000.0 0.0656931996 -0.0840339278
517450000.0 0.0584682365 -0.0852584944
522425000.0 0.0505998105 -0.0855273971
527400000.0 0.0424564639 -0.0848056537
532375000.0 0.0339791022 -0.083025213
537350000.0 0.0254562211 -0.0802512227
542325000.0 0.0171280083 -0.0764022866
547300000.0 0.0093557409 -0.0719676558
552275000.0 0.0016783117 -0.0674465223
557250000.0 -0.0056473118 -0.0615445328
562225000.0 -0.0125025521 -0.054660488
567200000.0 -0.0189258138 -0.046655356
572175000.0 -0.0245063211 -0.0379576075
577150000.0 -0.0294222867 -0.0282984107
582125000.0 -0.0337325254 -0.018036924
587100000.0 -0.0370703337 -0.0070492044
592075000.0 -0.0395432544 0.0042164212
597050000.0 -0.0413763025 0.0159477051
602025000.0 -0.0421941424 0.0278752518
607000000.0 -0.0422657954 0.0395251739
611975000.0 -0.0414786632 0.0507833727
616950000.0 -0.0398639372 0.061651434
621925000.0 -0.0372281542 0.0721181062
626900000.0 -0.0339391725 0.081380576
631875000.0 -0.0295524731 0.0898458557
636850000.0 -0.0245509678 0.0974177528
641825000.0 -0.0186159307 0.1044486716
646800000.0 -0.0123197882 0.1109997164
651775000.0 -0.0055972067 0.1167902314
656750000.0 0.0017339279 0.1218740321
661725000.0 0.009420831 0.1266033782
666700000.0 0.017110385 0.1312038138
671675000.0 0.0253064315 0.1352893342
676650000.0 0.0336969873 0.1386803391
681625000.0 0.0426212616 0.1416507423
686600000.0 0.0520274309 0.1437597934
691575000.0 0.0617786436 0.1452270702
696550000.0 0.0717843302 0.145613226
701525000.0 0.0821632663 0.1445495017
706500000.0 0.092547305 0.1421371037
711475000.0 0.1030492209 0.1382028093
716450000.0 0.114016603 0.1327392255
721425000.0 0.1250090613 0.125633034
726400000.0 0.1361549722 0.1171110465
731375000.0 0.1471820866 0.1077300156
736350000.0 0.1575465612 0.0967534887
741325000.0 0.1674037652 0.0847566893
746300000.0 0.1762616985 0.0713033225
751275000.0 0.1846910762 0.0568403512
756250000.0 0.1917933317 0.041413691
761225000.0 0.1977636815 0.0250061465
766200000.0 0.2020343451 0.0079663603
771175000.0 0.2049339769 -0.0099831991
776150000.0 0.206236786 -0.0283614157
781125000.0 0.2056113683 -0.0475620212
786100000.0 0.203029568 -0.0671239574
791075000.0 0.1989790366 -0.0872777916
796050000.0 0.1934127072 -0.1077916076
801025000.0 0.1862771591 -0.1286420869
806000000.0 0.1757080544 -0.1495277357
810975000.0 0.1656456017 -0.1691183325
815950000.0 0.1539406997 -0.1879952421
820925000.0 0.1409212732 -0.2062767598
825900000.0 0.1268834587 -0.2235995361
830875000.0 0.1120851528 -0.2396277806
835850000.0 0.0962312942 -0.2543028698
840825000.0 0.07963404 -0.2677757139
845800000.0 0.0626286973 -0.2799364776
850775000.0 0.0446243068 -0.2907323134
855750000.0 0.0254861755 -0.300785906
860725000.0 0.0053372297 -0.3100265711
865700000.0 -0.0157968718 -0.3185006564
870675000.0 -0.0385022314 -0.3260358839
875650000.0 -0.0623315104 -0.3325270289
880625000.0 -0.0880994399 -0.3371033884
885600000.0 -0.1146822564 -0.3396464038
890575000.0 -0.1425064911 -0.3400910091
895550000.0 -0.1710723618 -0.3379110857
900525000.0 -0.1997293317 -0.3329420488
905500000.0 -0.2287583741 -0.3247671487
910475000.0 -0.2573132748 -0.3135415305
915450000.0 -0.285175796 -0.2989875348
920425000.0 -0.3120034035 -0.2809742431
925400000.0 -0.3383941126 -0.2593756464
930375000.0 -0.3632792738 -0.234414593
935350000.0 -0.3867781077 -0.2061797917
940325000.0 -0.4092863705 -0.1746543722
945300000.0 -0.4302907313 -0.139477091
950275000.0 -0.4489973291 -0.1008361757
955250000.0 -0.4658881727 -0.058717985
960225000.0 -0.4798178701 -0.0116921605
965200000.0 -0.4896622483 0.0395885797
970175000.0 -0.4946379104 0.0953016367
975150000.0 -0.4931115481 0.1554320986
980125000.0 -0.4836082629 0.2188237442
985100000.0 -0.4648350501 0.2851596106
990075000.0 -0.4350845593 0.3529588638
995050000.0 -0.394037495 0.419818288
1000025000.0 -0.3411666682 0.4840707047
1005000000.0 -0.2763526547 0.5438920009
1009975000.0 -0.2000618556 0.596486651
1014950000.0 -0.1123985369 0.638546173
1019925000.0 -0.0150244491 0.6673877048
1024900000.0 0.0899535967 0.6805343135
1029875000.0 0.1989510593 0.6755245903
1034850000.0 0.308097157 0.6504631036
1039825000.0 0.4129838868 0.60474748
1044800000.0 0.5100749341 0.5392483228
1049775000.0 0.5959381192 0.4560868682
1054750000.0 0.6669428452 0.3580227097
1059725000.0 0.7205693874 0.2473385619
1064700000.0 0.7528280048 0.1316699243
1069675000.0 0.7727593832 0.0196583356
1074650000.0 0.7807503209 -0.1008729502
1079625000.0 0.7658689601 -0.2235247478
1084600000.0 0.7273197312 -0.340678352
1089575000.0 0.6676173467 -0.4371762046
1094550000.0 0.6148889045 -0.526301187
1099525000.0 0.5381741694 -0.6113089833
1104500000.0 0.4494430374 -0.6784111653
1109475000.0 0.3541053094 -0.7280112382
1114450000.0 0.2560825542 -0.7615049645
1119425000.0 0.1578189033 -0.780294247
1124400000.0 0.061140248 -0.7854371604
1129375000.0 -0.031655069 -0.7784621015
1134350000.0 -0.1196877391 -0.7604551907
1139325000.0 -0.2019547938 -0.7323648202
1144300000.0 -0.2773453271 -0.6957184921
1149275000.0 -0.3449663362 -0.6519562145
1154250000.0 -0.4040833351 -0.6024626081
1159225000.0 -0.4535832275 -0.5491449148
1164200000.0 -0.494167261 -0.4947038807
1169175000.0 -0.5267575648 -0.4407630665
1174150000.0 -0.5538206135 -0.3878768079
1179125000.0 -0.5761144309 -0.3345283243
1184100000.0 -0.5935446939 -0.2807557553
1189075000.0 -0.6052196986 -0.2281188931
1194050000.0 -0.6124815828 -0.1780471878
1199025000.0 -0.6157516864 -0.1303668568
1204000000.0 -0.615970529 -0.0844309078
1208975000.0 -0.6126886017 -0.0418671565
1213950000.0 -0.607250632 -0.0022855865
1218925000.0 -0.6003462747 0.0344344831
1223900000.0 -0.5922389982 0.0681798678
1228875000.0 -0.5833378694 0.0990232189
1233850000.0 -0.5739911857 0.1276015857
1238825000.0 -0.5646492511 0.1541187644
1243800000.0 -0.5554448968 0.179336509
1248775000.0 -0.5458453702 0.2034195589
1253750000.0 -0.5356959869 0.2264989563
1258725000.0 -0.525346074 0.2490286172
1263700000.0 -0.5144266901 0.2708989902
1268675000.0 -0.5030698066 0.2911220847
1273650000.0 -0.4919910263 0.3102287398
1278625000.0 -0.4803304814 0.3277680042
1283600000.0 -0.4682331747 0.3442964276
1288575000.0 -0.4562499302 0.3587815927
1293550000.0 -0.4439186644 0.3717934588
1298525000.0 -0.4314483035 0.3832234401
1303500000.0 -0.4200206487 0.3925545934
1308475000.0 -0.4080583611 0.4000213317
1313450000.0 -0.3966472885 0.4053767882
1318425000.0 -0.3868427411 0.4087651271
1323400000.0 -0.3789370111 0.4112698759
1328375000.0 -0.361896027 0.387189901
1333350000.0 -0.358383497 0.3884870519
1338325000.0 -0.3572297537 0.3918834907
1343300000.0 -0.3571746362 0.3982133336
1348275000.0 -0.3567133469 0.4070057947
1353250000.0 -0.3546650481 0.4178712802
1358225000.0 -0.3511191599 0.4305058002
1363200000.0 -0.3450409257 0.4437452802
1368175000.0 -0.3364481947 0.4566208204
1373150000.0 -0.3264792064 0.4691773391
1378125000.0 -0.314997229 0.4811467625
1383100000.0 -0.3016925044 0.4913688392
1388075000.0 -0.2876376902 0.5002996241
1393050000.0 -0.2729483274 0.5069901223
1398025000.0 -0.2575100871 0.5120145598
1403000000.0 -0.2416537251 0.5150332012
1407975000.0 -0.2263688576 0.5156395442
1412950000.0 -0.2121087198 0.5137415293
1417925000.0 -0.1997573491 0.5107181389
1422900000.0 -0.1901923472 0.5059966816
1427875000.0 -0.1844605489 0.5011814359
1432850000.0 -0.1820128367 0.4976597797
1437825000.0 -0.1823955116 0.4963664657
1442800000.0 -0.1838667575 0.4979132396
1447775000.0 -0.1846202636 0.5026223434
1452750000.0 -0.183256725 0.5098650671
1457725000.0 -0.1789483432 0.5184636924
1462700000.0 -0.1716118526 0.5277103601
1467675000.0 -0.1612128872 0.5364897087
1472650000.0 -0.1482575529 0.5447493372
1477625000.0 -0.1338741592 0.5519138884
1482600000.0 -0.1173711188 0.5577162354
1487575000.0 -0.0994700914 0.5619401226
1492550000.0 -0.0808453142 0.5645612997
1497525000.0 -0.0616602649 0.5658538291
1502500000.0 -0.0416564374 0.5664395814
1507475000.0 -0.0217574306 0.566013058
1512450000.0 -0.0026710423 0.5646434622
1517425000.0 0.0154135052 0.5628270033
1522400000.0 0.0327194696 0.5600566626
1527375000.0 0.0479930336 0.5566994724
1532350000.0 0.0620266732 0.5533883139
1537325000.0 0.0755912282 0.5497426494
1542300000.0 0.0883606379 0.5465125171
1547275000.0 0.1013786006 0.543404975
1552250000.0 0.1152678191 0.5395505571
1557225000.0 0.1294444944 0.5350815472
1562200000.0 0.1441639518 0.5297752159
1567175000.0 0.1595680139 0.5227576271
1572150000.0 0.1752155814 0.5150944677
1577125000.0 0.1915499762 0.5067494681
1582100000.0 0.2084807713 0.4968825207
1587075000.0 0.2257484069 0.4859982342
1592050000.0 0.2427578571 0.4749556055
1597025000.0 0.2600491793 0.4635508887
1602000000.0 0.2770702827 0.4518274353
1606975000.0 0.2939595635 0.4402011476
1611950000.0 0.3104352113 0.4282492724
1616925000.0 0.3261660873 0.4163726163
1621900000.0 0.3412373377 0.4046181409
1626875000.0 0.3560096559 0.3928686845
1631850000.0 0.3700358214 0.3808161941
1636825000.0 0.3832715045 0.3687163692
1641800000.0 0.3962832626 0.3563667655
1646775000.0 0.408640903 0.3434546816
1651750000.0 0.4201973537 0.3302091848
1656725000.0 0.4311508472 0.3168571809
1661700000.0 0.4417331659 0.3033349903
1666675000.0 0.4513799194 0.2896234708
1671650000.0 0.4596680769 0.276116175
1676625000.0 0.4675230377 0.26301202
1681600000.0 0.474776587 0.250099869
1686575000.0 0.4809983096 0.2371036498
1691550000.0 0.486413668 0.2244358251
1696525000.0 0.4903496926 0.2122526484
1701500000.0 0.4932504311 0.2008102155
1706475000.0 0.4942183693 0.1894198903
1711450000.0 0.493864599 0.1791143006
1716425000.0 0.4926874056 0.1699522232
1721400000.0 0.4910934971 0.1615242693
1726375000.0 0.4902089675 0.1541583377
1731350000.0 0.490267935 0.1472174936
1736325000.0 0.4915978684 0.1402179257
1741300000.0 0.4946049756 0.1331643797
1746275000.0 0.4987754959 0.1260933012
1751250000.0 0.5039263096 0.1186648806
1756225000.0 0.5093785659 0.111248166
1761200000.0 0.5148317379 0.1033409299
1766175000.0 0.5195933623 0.0949206415
1771150000.0 0.5231833672 0.0866414008
1776125000.0 0.5255798093 0.0785465629
1781100000.0 0.5265272922 0.0709790349
1786075000.0 0.525671451 0.0642400832
1791050000.0 0.5229876321 0.0583571914
1796025000.0 0.518550636 0.0538614469
1801000000.0 0.5129978132 0.0509747476
1805975000.0 0.5062208325 0.0493338475
1810950000.0 0.4994197407 0.0497347813
1815925000.0 0.493834658 0.0518004349
1820900000.0 0.4900979962 0.0545186062
1825875000.0 0.4883693458 0.0578896511
1830850000.0 0.4891726399 0.0606374487
1835825000.0 0.491680208 0.0625109777
1840800000.0 0.4954682059 0.063130983
1845775000.0 0.4994221684 0.0623806453
1850750000.0 0.5026812372 0.0604316268
1855725000.0 0.5050898767 0.0562301885
1860700000.0 0.505841517 0.0526201168
1865675000.0 0.504961253 0.0486834926
1870650000.0 0.5020056034 0.0444272335
1875625000.0 0.4969986599 0.0399863958
1880600000.0 0.4897417659 0.0356374795
1885575000.0 0.4800334724 0.0314020221
1890550000.0 0.4680694278 0.027803249
1895525000.0 0.4549269598 0.0251029401
1900500000.0 0.4408880063 0.0238523318
1905475000.0 0.4257752002 0.0237127154
1910450000.0 0.4107636258 0.0256546686
1915425000.0 0.3982681888 0.0295095699
1920400000.0 0.3886084225 0.0340600409
1925375000.0 0.381790712 0.0384891242
1930350000.0 0.3771393777 0.042833329
1935325000.0 0.3739730379 0.045711413
1940300000.0 0.370980813 0.0469215968
1945275000.0 0.3670487624 0.0471204962
1950250000.0 0.3617037204 0.0466067186
1955225000.0 0.3544655303 0.0455829756
1960200000.0 0.3456215598 0.0438769343
1965175000.0 0.3340207439 0.042102011
1970150000.0 0.320174778 0.039993494
1975125000.0 0.3040982727 0.0379992707
1980100000.0 0.2858397145 0.0348917134
1985075000.0 0.2646351864 0.0317048558
1990050000.0 0.2420417663 0.0283433403
1995025000.0 0.2167828051 0.0245188414
2000000000.0 0.1887460412 0.0211636226
