!Created with skrf (http://scikit-rf.org).
# GHz S RI R 50.0 
!freq ReS11 ImS11
10000000.0 -0.8917712097 0.4474994636
19950000.0 -0.6017290096 0.786278307
29900000.0 -0.1928687496 0.9666398058
39850000.0 0.260733291 0.9497170572
49800000.0 0.6678972018 0.7260810384
59750000.0 0.9342434222 0.3278030551
69700000.0 0.9800591651 -0.1657887585
79650000.0 0.7682659234 -0.6342978707
89600000.0 0.3294540468 -0.9387978369
99550000.0 -0.2264254097 -0.9628580807
109500000.0 -0.7235201028 -0.6618881936
119450000.0 -0.9672897056 -0.1050679564
129400000.0 -0.8197168229 0.5159147334
139350000.0 -0.3077211519 0.9204741473
149300000.0 0.3604645885 0.9046511752
159250000.0 0.8560397033 0.4683531318
169200000.0 0.9589177536 -0.1588825362
179150000.0 0.6745575047 -0.6883112392
189100000.0 0.1682595569 -0.9390384265
199050000.0 -0.3612840625 -0.8749804231
209000000.0 -0.7613597621 -0.5568517741
218950000.0 -0.9373363175 -0.1001026949
228900000.0 -0.8674052664 0.373930705
238850000.0 -0.5773810663 0.7496064187
248800000.0 -0.0708072187 0.7463520469
258750000.0 0.2696987659 0.9022871126
268700000.0 0.6563086376 0.6639695684
278650000.0 0.8776254785 0.2792144575
288600000.0 0.8909687012 -0.1594586638
298550000.0 0.6964228068 -0.5495493967
308500000.0 0.338553505 -0.7967245936
318450000.0 -0.094436459 -0.83448387
328400000.0 -0.4838708265 -0.6463593378
338350000.0 -0.7098991964 -0.2844791519
348300000.0 -0.6972451824 0.1286180815
358250000.0 -0.4629573018 0.4412988351
368200000.0 -0.1202344614 0.5463247751
378150000.0 0.1799002402 0.4396278561
388100000.0 0.3327238332 0.2097464057
398050000.0 0.3191042985 -0.0253901355
408000000.0 0.1905526659 -0.1745304069
417950000.0 0.0305873311 -0.2093361635
427900000.0 -0.0930252305 -0.1511888909
437850000.0 -0.1454715624 -0.0504425115
447800000.0 -0.1295162519 0.0439209929
457750000.0 -0.0704031938 0.0989434301
467700000.0 -0.0030741997 0.1055701092
477650000.0 0.0448088317 0.0749657604
487600000.0 0.0571738109 0.0292595146
497550000.0 0.0110166107 0.0357667437
507500000.0 0.0441000621 -0.0224808403
517450000.0 0.0096610479 -0.0223063581
527400000.0 -0.0054609242 -0.0031514853
537350000.0 0.0006629918 0.0182411799
547300000.0 0.0277192343 0.0315344619
557250000.0 0.0628509041 0.0137748307
567200000.0 0.0827377179 -0.0258607266
577150000.0 0.078773924 -0.0771345045
587100000.0 0.0458732237 -0.1260282747
597050000.0 -0.0120193278 -0.1554503919
607000000.0 -0.0820323889 -0.1536184303
616950000.0 -0.1466037466 -0.1164134569
626900000.0 -0.1871715886 -0.0499108918
636850000.0 -0.1915484225 0.0308302885
646800000.0 -0.1559549157 0.1064062707
656750000.0 -0.0871304615 0.1574201014
666700000.0 -0.0012165614 0.1701814362
676650000.0 0.0804542965 0.1409100248
686600000.0 0.137349704 0.077326368
696550000.0 0.1556892422 -0.0031801015
706500000.0 0.1316085087 -0.0779971164
716450000.0 0.0741867941 -0.1259687299
726400000.0 0.0018262791 -0.1329119465
736350000.0 -0.0596686347 -0.0966066649
746300000.0 -0.0886217185 -0.0285060983
756250000.0 -0.0703707605 0.0481518432
766200000.0 -0.007024639 0.1040736353
776150000.0 0.0837961693 0.1157392672
786100000.0 0.1727454679 0.0719628971
796050000.0 0.2279419992 -0.0200454061
806000000.0 0.2258005465 -0.1358592526
815950000.0 0.1565600472 -0.2424869026
825900000.0 0.0322824721 -0.3042568028
835850000.0 -0.1188846132 -0.295305866
845800000.0 -0.2568908041 -0.2073636432
855750000.0 -0.3417009149 -0.0542068447
865700000.0 -0.3436663975 0.1297527818
875650000.0 -0.255115084 0.2994218733
885600000.0 -0.0926604998 0.4092258899
895550000.0 0.1070899545 0.4284196581
905500000.0 0.2947523548 0.3467995114
915450000.0 0.4208831 0.1789227925
925400000.0 0.4461650842 -0.0371420084
935350000.0 0.3514987923 -0.2443785255
945300000.0 0.1495203358 -0.3764006701
955250000.0 -0.1081797593 -0.3728265907
965200000.0 -0.3307588788 -0.2077484915
975150000.0 -0.4107993657 0.0815163723
985100000.0 -0.2752745252 0.3792707557
995050000.0 0.0491860081 0.527173625
1005000000.0 0.4275230801 0.4126898262
1014950000.0 0.6563327776 0.0360831237
1024900000.0 0.5663522013 -0.4416849493
1034850000.0 0.149297204 -0.7602804025
1044800000.0 -0.3956176772 -0.7191733703
1054750000.0 -0.780625568 -0.3280354424
1064700000.0 -0.7965009324 0.1823829912
1074650000.0 -0.5981602934 0.5672772136
1084600000.0 -0.241785369 0.714886323
1094550000.0 0.1666511451 0.799521868
1104500000.0 0.5686115975 0.5580278766
1114450000.0 0.7418461305 0.1292582407
1124400000.0 0.6274951669 -0.310120489
1134350000.0 0.2836655551 -0.5823972483
1144300000.0 -0.1303117479 -0.5906644288
1154250000.0 -0.4409332446 -0.3678614304
1164200000.0 -0.5526693632 -0.037576816
1174150000.0 -0.4709060807 0.2695121264
1184100000.0 -0.2497745189 0.4750919749
1194050000.0 0.0402774174 0.526570161
1204000000.0 0.3086268544 0.4169045597
1213950000.0 0.477962859 0.1846277723
1223900000.0 0.5040489673 -0.0996137192
1233850000.0 0.3867246455 -0.3552037295
1243800000.0 0.1671677531 -0.5192240843
1253750000.0 -0.0946633169 -0.5634879093
1263700000.0 -0.3405719087 -0.4912586753
1273650000.0 -0.5271628296 -0.3284704123
1283600000.0 -0.6286525653 -0.1094320828
1293550000.0 -0.6343081948 0.1300467048
1303500000.0 -0.5442959024 0.3533249526
1313450000.0 -0.3702872744 0.5257485555
1323400000.0 -0.1361267575 0.6172110908
1333350000.0 0.1215781107 0.6070129979
1343300000.0 0.3585047562 0.491945588
1353250000.0 0.5309290021 0.2899779398
1363200000.0 0.6089408911 0.0384685636
1373150000.0 0.5834311617 -0.2181096491
1383100000.0 0.4649240466 -0.4380072459
1393050000.0 0.2793775442 -0.591078024
1403000000.0 0.0574406064 -0.6618812936
1412950000.0 -0.1693289183 -0.645193636
1422900000.0 -0.3710917176 -0.546753132
1432850000.0 -0.520509818 -0.3789953517
1442800000.0 -0.5956759113 -0.1652453777
1452750000.0 -0.5844280022 0.0642993657
1462700000.0 -0.4842024922 0.2778479542
1472650000.0 -0.3037062347 0.4400939647
1482600000.0 -0.0693166374 0.5170209753
1492550000.0 0.1747564925 0.490250195
1502500000.0 0.3800261085 0.3671501144
1512450000.0 0.5097743024 0.176519218
1522400000.0 0.5463955283 -0.0412451711
1532350000.0 0.4895202054 -0.2460514201
1542300000.0 0.3546236466 -0.4030901131
1552250000.0 0.1660976043 -0.4856523809
1562200000.0 -0.0405070097 -0.4773501986
1572150000.0 -0.2253575214 -0.3763550689
1582100000.0 -0.3469333403 -0.199452444
1592050000.0 -0.3742069562 0.0156441553
1602000000.0 -0.3002097299 0.2189381919
1611950000.0 -0.1401430063 0.3613907977
1621900000.0 0.0629043776 0.4111351614
1631850000.0 0.2607417772 0.3621868042
1641800000.0 0.4112383834 0.2296543264
1651750000.0 0.4850104927 0.0442272429
1661700000.0 0.4685820836 -0.1570780671
1671650000.0 0.3629139318 -0.3355189167
1681600000.0 0.1842562728 -0.4544391583
1691550000.0 -0.0371860605 -0.4861153538
1701500000.0 -0.2581103103 -0.4160638769
1711450000.0 -0.4308516935 -0.2528842688
1721400000.0 -0.5174298123 -0.0288242462
1731350000.0 -0.4992975033 0.2093005204
1741300000.0 -0.3848599829 0.4144571804
1751250000.0 -0.2012368872 0.5517188868
1761200000.0 0.0162363528 0.6033973151
1771150000.0 0.2325287035 0.567405924
1781100000.0 0.4147520378 0.4508400114
1791050000.0 0.5290281381 0.2733613417
1801000000.0 0.5534897858 0.0969530144
1810950000.0 0.5713856003 -0.0722405453
1820900000.0 0.5085876204 -0.2834910802
1830850000.0 0.3487699653 -0.4528899259
1840800000.0 0.129901984 -0.5407508831
1850750000.0 -0.1055147657 -0.5328951139
1860700000.0 -0.3135891246 -0.4329954337
1870650000.0 -0.460968288 -0.2656168459
1880600000.0 -0.5299084375 -0.0651279478
1890550000.0 -0.5200951883 0.1341028544
1900500000.0 -0.4435058178 0.3043287913
1910450000.0 -0.3190239418 0.4271725325
1920400000.0 -0.1678296503 0.4923467799
1930350000.0 -0.0112060178 0.4957718401
1940300000.0 0.1278563984 0.4409928182
1950250000.0 0.2285553701 0.3390834232
1960200000.0 0.273947293 0.211476587
1970150000.0 0.2598676375 0.0874392081
1980100000.0 0.1986182895 -0.0039393764
1990050000.0 0.1174215216 -0.0443530184
2000000000.0 0.0518717183 -0.0316040777
