!Created with skrf (http://scikit-rf.org).
# GHz S RI R 50.0 
!freq ReS11 ImS11
10000000.0 -0.8002805445 0.6049749967
19950000.0 -0.2873297483 0.9473918341
29900000.0 0.3251649571 0.9277497056
39850000.0 0.8153952186 0.5511987614
49800000.0 0.9899955311 -0.0535452667
59750000.0 0.7563414578 -0.6551096458
69700000.0 0.1829490478 -0.987427054
79650000.0 -0.4872062936 -0.8706750614
89600000.0 -0.9270919162 -0.3288302687
99550000.0 -0.8900308301 0.3876751173
109500000.0 -0.3533467975 0.900179005
119450000.0 0.4198600629 0.879962895
129400000.0 0.9491431634 0.2616876204
139350000.0 0.8271570818 -0.5411607905
149300000.0 0.1145009165 -0.9675475876
159250000.0 -0.6523232672 -0.6980366576
169200000.0 -0.9458512312 0.0288417366
179150000.0 -0.6293173316 0.7127371473
189100000.0 0.05293882 0.9598392157
199050000.0 0.6921920441 0.6750041419
209000000.0 0.9592440137 0.0523556946
218950000.0 0.7574891259 -0.5665549773
228900000.0 0.2213388338 -0.9044875924
238850000.0 -0.3978223097 -0.8325532804
248800000.0 -0.6525663547 -0.267870933
258750000.0 -0.9158919029 0.1603919534
268700000.0 -0.6282887146 0.692546446
278650000.0 -0.0777051554 0.9262343576
288600000.0 0.4941042962 0.7655343518
298550000.0 0.8358812795 0.2863073841
308500000.0 0.800055031 -0.2958466137
318450000.0 0.406471999 -0.7161590863
328400000.0 -0.1566242294 -0.7794433928
338350000.0 -0.6060812771 -0.459170785
348300000.0 -0.7071112937 0.0590864843
358250000.0 -0.4318583066 0.4683658625
368200000.0 0.0092417326 0.5476255447
378150000.0 0.328981461 0.3140266408
388100000.0 0.3714456912 -0.0246470761
398050000.0 0.1861648808 -0.2450234853
408000000.0 -0.0527606484 -0.2547480998
417950000.0 -0.1901365099 -0.1128142438
427900000.0 -0.1783722405 0.0527552808
437850000.0 -0.0671141133 0.1398231664
447800000.0 0.0532002522 0.1199201516
457750000.0 0.1113198537 0.034530254
467700000.0 0.0938750989 -0.0515125876
477650000.0 0.0326501278 -0.0912693925
487600000.0 -0.0232651368 -0.0748024264
497550000.0 0.004398654 -0.0681705813
507500000.0 -0.0648849191 -0.0059648552
517450000.0 -0.0295028319 0.0135029739
527400000.0 -0.0090680798 0.0009161617
537350000.0 -0.0166616815 -0.0188554233
547300000.0 -0.0472074339 -0.0180647411
557250000.0 -0.0679205868 0.0168264152
567200000.0 -0.0567970738 0.0663775498
577150000.0 -0.0064885361 0.1024996781
587100000.0 0.0662270705 0.0969782886
597050000.0 0.1270926759 0.0403574337
607000000.0 0.1424544903 -0.0511055772
616950000.0 0.0951596979 -0.1397065522
626900000.0 -0.0003540268 -0.1853505544
636850000.0 -0.1064619642 -0.1616035841
646800000.0 -0.1776643822 -0.0773642603
656750000.0 -0.1823652272 0.0351492922
666700000.0 -0.1144241514 0.127493785
676650000.0 -0.0037778452 0.1566321178
686600000.0 0.0998824627 0.1104462647
696550000.0 0.1495582621 0.012223315
706500000.0 0.1258256415 -0.0889737906
716450000.0 0.0445305486 -0.1444844517
726400000.0 -0.0486577231 -0.127618315
736350000.0 -0.0996468024 -0.0482778389
746300000.0 -0.0751478776 0.0470999567
756250000.0 0.0150489643 0.0977211353
766200000.0 0.1216190463 0.0678364563
776150000.0 0.1799221985 -0.0358844554
786100000.0 0.1459872883 -0.1604016903
796050000.0 0.0237906435 -0.2340880999
806000000.0 -0.1341063144 -0.2018778647
815950000.0 -0.2446989004 -0.0583518201
825900000.0 -0.2364139072 0.1404630135
835850000.0 -0.0955705963 0.3001341141
845800000.0 0.1231355836 0.3380024474
855750000.0 0.3225236132 0.229513476
865700000.0 0.4159442366 0.0165052739
875650000.0 0.3573971289 -0.2178781201
885600000.0 0.1563528755 -0.3760352463
895550000.0 -0.1136666888 -0.3737231302
905500000.0 -0.3316214547 -0.1951050147
915450000.0 -0.3871165836 0.0875822469
925400000.0 -0.2440436322 0.3420362596
935350000.0 0.0335846009 0.4372972639
945300000.0 0.3061814066 0.3131285395
955250000.0 0.4154542042 0.0199917893
965200000.0 0.2642119474 -0.2813277304
975150000.0 -0.0947385779 -0.3734136273
985100000.0 -0.4208102013 -0.1262751687
995050000.0 -0.4205778585 0.3246086741
1005000000.0 -0.0219629522 0.620513093
1014950000.0 0.5022758878 0.4672790869
1024900000.0 0.7267989486 -0.0895424431
1034850000.0 0.4079771233 -0.6561375128
1044800000.0 -0.2613724706 -0.7692918385
1054750000.0 -0.7724585413 -0.3276058584
1064700000.0 -0.7499509787 0.2944095095
1074650000.0 -0.4426094633 0.6840749005
1084600000.0 0.1133657547 0.8230885729
1094550000.0 0.6191499108 0.509021212
1104500000.0 0.7545511234 -0.0656928394
1114450000.0 0.4437306685 -0.5588714639
1124400000.0 -0.1036147946 -0.6704407275
1134350000.0 -0.5301301106 -0.3748350407
1144300000.0 -0.6138066597 0.0926923057
1154250000.0 -0.3681756912 0.4558170449
1164200000.0 0.0345665512 0.5434201453
1174150000.0 0.3765673664 0.3394919396
1184100000.0 0.482578147 -0.0451091641
1194050000.0 0.2874691091 -0.3886935026
1204000000.0 -0.0778659112 -0.4971287774
1213950000.0 -0.4066590053 -0.3430343822
1223900000.0 -0.5567842009 -0.0292796765
1233850000.0 -0.486046819 0.3033524749
1243800000.0 -0.2276466958 0.5277300906
1253750000.0 0.1221879567 0.5542459229
1263700000.0 0.4264440581 0.3593503513
1273650000.0 0.5550533172 0.0148433087
1283600000.0 0.4561284967 -0.3380125844
1293550000.0 0.1806456357 -0.5643108444
1303500000.0 -0.1608740628 -0.6005261963
1313450000.0 -0.4604292402 -0.4536176268
1323400000.0 -0.6365981737 -0.1737765445
1333350000.0 -0.6379621752 0.1617608148
1343300000.0 -0.4517802279 0.4562687617
1353250000.0 -0.120423966 0.6051527142
1363200000.0 0.2475850003 0.539691825
1373150000.0 0.5169431755 0.2784312779
1383100000.0 0.5948216624 -0.0793638711
1393050000.0 0.4740664211 -0.4078923151
1403000000.0 0.2110786271 -0.6146556536
1412950000.0 -0.1107215666 -0.6530295102
1422900000.0 -0.4024585771 -0.5197091041
1432850000.0 -0.5808088032 -0.2488462168
1442800000.0 -0.584910747 0.0832464743
1452750000.0 -0.403800871 0.3697899143
1462700000.0 -0.0921640423 0.5133240244
1472650000.0 0.2459290347 0.4631186573
1482600000.0 0.4910971773 0.2408678296
1492550000.0 0.570164292 -0.0644354822
1502500000.0 0.4737541712 -0.3491327912
1512450000.0 0.2438633936 -0.5290978053
1522400000.0 -0.0477769134 -0.5500854311
1532350000.0 -0.3037556298 -0.3971720792
1542300000.0 -0.4254105434 -0.1173553416
1552250000.0 -0.3565803525 0.1822659964
1562200000.0 -0.1266758285 0.3774770015
1572150000.0 0.1633043437 0.3934391317
1582100000.0 0.3904578735 0.2376965185
1592050000.0 0.4712353611 -0.0111738993
1602000000.0 0.3859968888 -0.2515550248
1611950000.0 0.1705612027 -0.3937161872
1621900000.0 -0.096275287 -0.3755426665
1631850000.0 -0.305162014 -0.1898593024
1641800000.0 -0.3537044237 0.0940636628
1651750000.0 -0.2124747315 0.3447664056
1661700000.0 0.0465059897 0.4497654424
1671650000.0 0.3052175068 0.3774790417
1681600000.0 0.4659215376 0.1805903456
1691550000.0 0.5057210741 -0.0785855409
1701500000.0 0.3772374833 -0.3375819202
1711450000.0 0.1065161781 -0.4798176529
1721400000.0 -0.2111223008 -0.4354479989
1731350000.0 -0.4496371046 -0.2084736646
1741300000.0 -0.5112470129 0.1164224987
1751250000.0 -0.3776863091 0.4118172578
1761200000.0 -0.1113844836 0.5765302117
1771150000.0 0.1921466869 0.5726819511
1781100000.0 0.4445435584 0.4145640224
1791050000.0 0.5815227928 0.1474119676
1801000000.0 0.5589642322 -0.1611247112
1810950000.0 0.3674089239 -0.4210869957
1820900000.0 0.0537145888 -0.5363339387
1830850000.0 -0.272824332 -0.454107126
1840800000.0 -0.4924869534 -0.2099046319
1850750000.0 -0.5414238656 0.0986285118
1860700000.0 -0.4287236592 0.3691355879
1870650000.0 -0.2079385553 0.5349016437
1880600000.0 0.0541639924 0.5653074677
1890550000.0 0.2906963459 0.4606543056
1900500000.0 0.4382993181 0.2477888661
1910450000.0 0.4481171894 -0.0135452983
1920400000.0 0.3125388425 -0.2346976223
1930350000.0 0.0840412104 -0.3389281413
1940300000.0 -0.1432107165 -0.301338626
1950250000.0 -0.29345465 -0.1635617288
1960200000.0 -0.3369678499 0.0028695237
1970150000.0 -0.2915507617 0.1346765877
1980100000.0 -0.2011863805 0.1951634358
1990050000.0 -0.1252152935 0.1815143898
2000000000.0 -0.1110621031 0.134177476
