!Created with skrf (http://scikit-rf.org).
# GHz S RI R 50.0 
!freq ReS11 ImS11
10000000.0 -0.9986745258 0.1624441034
19950000.0 -0.9448054519 0.3100448868
29900000.0 -0.8683394214 0.4522024652
39850000.0 -0.7689351378 0.5928909189
49800000.0 -0.6474828341 0.7265580161
59750000.0 -0.49817554 0.8465229499
69700000.0 -0.3135075047 0.9403789523
79650000.0 -0.0892684765 0.988501024
89600000.0 0.1721205919 0.9701096472
99550000.0 0.4544060117 0.8626706544
109500000.0 0.7268013729 0.6498388397
119450000.0 0.9359702067 0.3219999538
129400000.0 1.006539512 -0.0964177894
139350000.0 0.8910739747 -0.5036177388
149300000.0 0.606591413 -0.8134065713
159250000.0 0.2448622705 -0.9643941752
169200000.0 -0.1074347626 -0.9760045269
179150000.0 -0.4053916876 -0.8920563081
189100000.0 -0.6350459528 -0.7527094295
199050000.0 -0.7946383694 -0.5844118228
209000000.0 -0.8890962503 -0.4038093074
218950000.0 -0.9348218068 -0.2242104905
228900000.0 -0.9432059676 -0.0520379896
238850000.0 -0.9259795166 0.1113399941
248800000.0 -0.8762153802 0.2511178449
258750000.0 -0.8413266166 0.4050658129
268700000.0 -0.7711784174 0.5350806871
278650000.0 -0.6777001754 0.6461015051
288600000.0 -0.5593575638 0.7340619173
298550000.0 -0.4185852521 0.7963915677
308500000.0 -0.2586539535 0.8335414902
318450000.0 -0.084085697 0.8407645293
328400000.0 0.0990264021 0.8104642246
338350000.0 0.27310793 0.7307206302
348300000.0 0.4151364959 0.5937475826
358250000.0 0.4944401419 0.4090347073
368200000.0 0.4950765132 0.2075220351
378150000.0 0.4236719273 0.0282286101
388100000.0 0.3063661993 -0.1003835866
398050000.0 0.1753173086 -0.1663864987
408000000.0 0.0588694213 -0.174833883
417950000.0 -0.0298048923 -0.141529967
427900000.0 -0.0884450691 -0.0847906573
437850000.0 -0.1207239104 -0.0202113044
447800000.0 -0.1327679409 0.0394267778
457750000.0 -0.1299626771 0.086650244
467700000.0 -0.1153877069 0.1176147037
477650000.0 -0.0914850775 0.1310601279
487600000.0 -0.0614147354 0.1299263229
497550000.0 -0.0304284217 0.1135918011
507500000.0 -0.0007719067 0.102561694
517450000.0 0.0237832705 0.0821301717
527400000.0 0.0375780457 0.0611699972
537350000.0 0.0376611606 0.0410473711
547300000.0 0.0267110698 0.0218341415
557250000.0 0.0048433133 0.0011505721
567200000.0 -0.0234519084 -0.0179134857
577150000.0 -0.0533280823 -0.0326665142
587100000.0 -0.0803456884 -0.0410768973
597050000.0 -0.1020171247 -0.040047809
607000000.0 -0.1181627424 -0.0281488118
616950000.0 -0.1296842384 -0.0064432444
626900000.0 -0.1373421754 0.0236683415
636850000.0 -0.1414731785 0.0572723616
646800000.0 -0.1405768298 0.0909745618
656750000.0 -0.1289075722 0.1212177351
666700000.0 -0.1072447395 0.12625138
676650000.0 -0.0940563882 0.1325465219
686600000.0 -0.0659455054 0.1372984888
696550000.0 -0.0291723596 0.1362526093
706500000.0 0.0112238378 0.1293952661
716450000.0 0.050371595 0.117401298
726400000.0 0.0830162226 0.0971282509
736350000.0 0.1052774103 0.0674106774
746300000.0 0.1152980959 0.0264786879
756250000.0 0.1128574793 -0.0240427539
766200000.0 0.0985504908 -0.0812658216
776150000.0 0.0748297229 -0.1391654492
786100000.0 0.0409897369 -0.1918487555
796050000.0 -0.0022288454 -0.2326335746
806000000.0 -0.0544239775 -0.2567380706
815950000.0 -0.1155747589 -0.2609334699
825900000.0 -0.1826155987 -0.2466529437
835850000.0 -0.252553734 -0.2168183384
845800000.0 -0.3201341507 -0.1751063234
855750000.0 -0.3790385071 -0.1234268993
865700000.0 -0.4227793199 -0.0639380988
875650000.0 -0.4471896865 0.0036052148
885600000.0 -0.4488155949 0.0787136836
895550000.0 -0.428430488 0.1598900237
905500000.0 -0.3877169256 0.2451779558
915450000.0 -0.3294593418 0.3296353125
925400000.0 -0.2538593735 0.4052704355
935350000.0 -0.1605103212 0.4634492813
945300000.0 -0.0501557277 0.4909585205
955250000.0 0.0709202361 0.4752696339
965200000.0 0.1829653557 0.417151811
975150000.0 0.2896413783 0.341434686
985100000.0 0.4061872939 0.2290507955
995050000.0 0.4991687761 0.0616615799
1005000000.0 0.5310002116 -0.1458398455
1014950000.0 0.4749271285 -0.3715242084
1024900000.0 0.3083946488 -0.5751546859
1034850000.0 0.0432458289 -0.7021422963
1044800000.0 -0.2733563026 -0.7105998329
1054750000.0 -0.5752905684 -0.5816420401
1064700000.0 -0.7715998813 -0.328304939
1074650000.0 -0.8571924856 -0.0882066303
1084600000.0 -0.8487973567 0.2184841299
1094550000.0 -0.705589943 0.4848417857
1104500000.0 -0.4889426121 0.6955015169
1114450000.0 -0.206876309 0.8097213152
1124400000.0 0.0882748882 0.8131293758
1134350000.0 0.3501396751 0.7060976541
1144300000.0 0.5410203722 0.5129681649
1154250000.0 0.6433814786 0.2767755292
1164200000.0 0.6657971419 0.0413662689
1174150000.0 0.6332943882 -0.1725321498
1184100000.0 0.5528696307 -0.3546339094
1194050000.0 0.4378443471 -0.4906895419
1204000000.0 0.3023902121 -0.5783039479
1213950000.0 0.1599497392 -0.6216547771
1223900000.0 0.0211915805 -0.6324637636
1233850000.0 -0.1079222439 -0.6227399592
1243800000.0 -0.2236393715 -0.5997100653
1253750000.0 -0.3253341157 -0.5670918904
1263700000.0 -0.4102710868 -0.5235752651
1273650000.0 -0.4793474377 -0.4708569237
1283600000.0 -0.5312486565 -0.4073378689
1293550000.0 -0.5703781138 -0.3355010026
1303500000.0 -0.6007795567 -0.2593093898
1313450000.0 -0.6263962128 -0.1829588596
1323400000.0 -0.6496881395 -0.1091797112
1333350000.0 -0.6681911653 -0.0395369136
1343300000.0 -0.6794811237 0.0263923808
1353250000.0 -0.6807531876 0.0879368112
1363200000.0 -0.667912984 0.1473560852
1373150000.0 -0.6408490886 0.2064682192
1383100000.0 -0.6044619543 0.2653921795
1393050000.0 -0.5628403668 0.3249223573
1403000000.0 -0.5197631956 0.3828308742
1412950000.0 -0.4758373085 0.4375784045
1422900000.0 -0.4308735314 0.4857439
1432850000.0 -0.3821971381 0.5247296971
1442800000.0 -0.3275710738 0.5530506879
1452750000.0 -0.2641589166 0.5705855407
1462700000.0 -0.1922041744 0.578586369
1472650000.0 -0.1129780968 0.5804012219
1482600000.0 -0.0302174082 0.5779462991
1492550000.0 0.052354391 0.5700104171
1502500000.0 0.1324539543 0.5533850796
1512450000.0 0.2064788355 0.5245033293
1522400000.0 0.2716012267 0.4792324546
1532350000.0 0.3273488274 0.4164208697
1542300000.0 0.3746473036 0.3379356728
1552250000.0 0.4146471276 0.2475051363
1562200000.0 0.4478811083 0.1512477036
1572150000.0 0.4693549876 0.0522151614
1582100000.0 0.4754164463 -0.0457096431
1592050000.0 0.4616698714 -0.1389438014
1602000000.0 0.4256307415 -0.2258210107
1611950000.0 0.3694233059 -0.3034604369
1621900000.0 0.2976723301 -0.3726972868
1631850000.0 0.2163809294 -0.4336707612
1641800000.0 0.1308260083 -0.4859097957
1651750000.0 0.0449846494 -0.5262777672
1661700000.0 -0.0386475029 -0.5516721297
1671650000.0 -0.1186508178 -0.5592602355
1681600000.0 -0.1946843189 -0.5479513419
1691550000.0 -0.2672634913 -0.5213135662
1701500000.0 -0.337885677 -0.4843481511
1711450000.0 -0.4053693862 -0.4422894375
1721400000.0 -0.4682997074 -0.3968941735
1731350000.0 -0.5238869047 -0.3500513362
1741300000.0 -0.5633492572 -0.2976254529
1751250000.0 -0.5668879175 -0.2452413423
1761200000.0 -0.5658291946 -0.2509986816
1771150000.0 -0.6137613915 -0.2122719498
1781100000.0 -0.6348997501 -0.1474911366
1791050000.0 -0.6442293023 -0.0831940541
1801000000.0 -0.6517141519 -0.0224362055
1810950000.0 -0.6594830555 0.0338519755
1820900000.0 -0.6661804303 0.0861113256
1830850000.0 -0.6660605471 0.1317910006
1840800000.0 -0.6556653815 0.1740366925
1850750000.0 -0.6335997259 0.2128907851
1860700000.0 -0.6001465803 0.2492544913
1870650000.0 -0.5613069934 0.2851152177
1880600000.0 -0.5216894619 0.318279663
1890550000.0 -0.4853840002 0.3500700856
1900500000.0 -0.4536609187 0.3764638923
1910450000.0 -0.4256961216 0.3961000079
1920400000.0 -0.39835506 0.4078519411
1930350000.0 -0.3666112988 0.4109758822
1940300000.0 -0.3293268366 0.4040328399
1950250000.0 -0.2873028562 0.3897153451
1960200000.0 -0.2423251758 0.3722087739
1970150000.0 -0.2010158214 0.3520388836
1980100000.0 -0.1662100901 0.3299519239
1990050000.0 -0.1435952715 0.3034353285
2000000000.0 -0.1332724991 0.2704666824
