!Created with skrf (http://scikit-rf.org).
# GHz S RI R 50.0 
!freq ReS11 ImS11
10000000.0 -0.9659057823 0.0662402045
19950000.0 -0.9578792666 0.1296577319
29900000.0 -0.9450442746 0.1968114159
39850000.0 -0.9246676188 0.2692257065
49800000.0 -0.8950271803 0.3490117588
59750000.0 -0.8516963818 0.4378318607
69700000.0 -0.790750159 0.5363422164
79650000.0 -0.7057256802 0.6452936526
89600000.0 -0.5853608559 0.760348335
99550000.0 -0.4171178194 0.8702315567
109500000.0 -0.1909226613 0.9524633779
119450000.0 0.0911924754 0.9713967156
129400000.0 0.3986063758 0.8929124514
139350000.0 0.6729357633 0.7103110753
149300000.0 0.8685636659 0.4476235368
159250000.0 0.9612738499 0.1607665043
169200000.0 0.9635343604 -0.1031598126
179150000.0 0.9065753072 -0.3182110241
189100000.0 0.8207816058 -0.4817922154
199050000.0 0.7275336175 -0.6020374247
209000000.0 0.6361145348 -0.689148521
218950000.0 0.5517837863 -0.7537940169
228900000.0 0.4745991654 -0.801666737
238850000.0 0.4017757164 -0.8369501338
248800000.0 0.3199642303 -0.845181351
258750000.0 0.266542357 -0.8776075798
268700000.0 0.1978974467 -0.8890770466
278650000.0 0.127603159 -0.8942254946
288600000.0 0.0541956694 -0.8932063075
298550000.0 -0.0235600141 -0.8832542076
308500000.0 -0.107938338 -0.8611673918
318450000.0 -0.1980029432 -0.8207549741
328400000.0 -0.289671313 -0.7557646569
338350000.0 -0.3755672308 -0.6618011072
348300000.0 -0.4436636833 -0.5379038444
358250000.0 -0.4785637816 -0.390637509
368200000.0 -0.4692624883 -0.2357384615
378150000.0 -0.4161532082 -0.0952684702
388100000.0 -0.3304086804 0.0146243183
398050000.0 -0.2304811044 0.0863556123
408000000.0 -0.1319989929 0.1243352097
417950000.0 -0.0458359129 0.1362350447
427900000.0 0.0234187592 0.1308718921
437850000.0 0.0750473753 0.114677339
447800000.0 0.1104900857 0.0927633245
457750000.0 0.1322084976 0.068456795
467700000.0 0.1426970585 0.0449791746
477650000.0 0.1433822232 0.0237070813
487600000.0 0.1366484139 0.0064137988
497550000.0 0.1264108957 -0.0026710934
507500000.0 0.1083270517 -0.0151929623
517450000.0 0.0867310298 -0.0182228691
527400000.0 0.0628552765 -0.0174997991
537350000.0 0.0379261485 -0.0129041662
547300000.0 0.0141878713 -0.0045497084
557250000.0 -0.0089292044 0.0064304502
567200000.0 -0.0294946118 0.0209900091
577150000.0 -0.0470692034 0.0381770015
587100000.0 -0.0616344679 0.0574826514
597050000.0 -0.0732113136 0.0772946788
607000000.0 -0.0816168106 0.0973551052
616950000.0 -0.0869824204 0.1158125539
626900000.0 -0.0883837372 0.1323238615
636850000.0 -0.0859782286 0.1467641953
646800000.0 -0.079242457 0.1584380127
656750000.0 -0.0695072442 0.168273112
666700000.0 -0.0565700807 0.1758725205
676650000.0 -0.0421048424 0.1805847438
686600000.0 -0.0257123896 0.182050469
696550000.0 -0.0077379501 0.1793611389
706500000.0 0.0116633852 0.1710182402
716450000.0 0.0328121084 0.1573144584
726400000.0 0.0554255995 0.1381163524
736350000.0 0.0782059926 0.1137423919
746300000.0 0.1002280046 0.0855001193
756250000.0 0.1198563959 0.0525434934
766200000.0 0.1352482088 0.0156922834
776150000.0 0.1450607044 -0.0251222081
786100000.0 0.1489471628 -0.0691579113
796050000.0 0.1462283763 -0.1156824864
806000000.0 0.1376500203 -0.1636290852
815950000.0 0.1238678069 -0.2099522467
825900000.0 0.1046793414 -0.2527577781
835850000.0 0.0802271712 -0.2904639788
845800000.0 0.0503729859 -0.3216882655
855750000.0 0.0146330792 -0.3464576565
865700000.0 -0.0262665137 -0.3654699501
875650000.0 -0.0718798584 -0.3778038436
885600000.0 -0.120831742 -0.3831210515
895550000.0 -0.1724279037 -0.3796745943
905500000.0 -0.2251683581 -0.3654986856
915450000.0 -0.2783602967 -0.3379789037
925400000.0 -0.3309485849 -0.2945187948
935350000.0 -0.3813415171 -0.231954448
945300000.0 -0.4259342139 -0.148063281
955250000.0 -0.4585023927 -0.0390330947
965200000.0 -0.467048843 0.0962813801
975150000.0 -0.4359034049 0.2553585341
985100000.0 -0.3452338257 0.4236724773
995050000.0 -0.1840455242 0.5745891329
1005000000.0 0.0436732785 0.6703168555
1014950000.0 0.3049077982 0.6742217541
1024900000.0 0.5499534879 0.5787382659
1034850000.0 0.7335768089 0.4058136953
1044800000.0 0.8377002915 0.1938512085
1054750000.0 0.8659255165 -0.0228611774
1064700000.0 0.8317077647 -0.2230949704
1074650000.0 0.7311763386 -0.3794738577
1084600000.0 0.6654479209 -0.4787865231
1094550000.0 0.553252913 -0.5988919182
1104500000.0 0.4168382269 -0.6800707529
1114450000.0 0.2628669896 -0.730678893
1124400000.0 0.1014957132 -0.7433772073
1134350000.0 -0.0534106533 -0.7203402398
1144300000.0 -0.1928860283 -0.6674388556
1154250000.0 -0.3101140828 -0.5910363973
1164200000.0 -0.401157958 -0.5016177595
1174150000.0 -0.4725122893 -0.4088957492
1184100000.0 -0.5290904481 -0.3106495247
1194050000.0 -0.568256155 -0.2112050678
1204000000.0 -0.5911619907 -0.1182909795
1213950000.0 -0.6010542995 -0.0348411004
1223900000.0 -0.6018274708 0.0369433455
1233850000.0 -0.5965964518 0.0978035156
1243800000.0 -0.5873634172 0.1494713532
1253750000.0 -0.5758699132 0.1947197341
1263700000.0 -0.563027518 0.235844095
1273650000.0 -0.5512711908 0.2715829185
1283600000.0 -0.5404054356 0.3029952339
1293550000.0 -0.5312086841 0.3286466436
1303500000.0 -0.5235186913 0.3480713876
1313450000.0 -0.5171456212 0.3624308735
1323400000.0 -0.5114909703 0.3724794088
1333350000.0 -0.5054881657 0.3805136507
1343300000.0 -0.4999192652 0.3892103474
1353250000.0 -0.4946578393 0.3989884767
1363200000.0 -0.4892688261 0.4097633189
1373150000.0 -0.4826576057 0.4199327668
1383100000.0 -0.4753610769 0.4287278307
1393050000.0 -0.4674910334 0.4349469448
1403000000.0 -0.4583223677 0.4384071067
1412950000.0 -0.4476202764 0.4391267973
1422900000.0 -0.4358285562 0.4393162236
1432850000.0 -0.4231282583 0.4400724286
1442800000.0 -0.4096332159 0.4432846534
1452750000.0 -0.3955975301 0.4491700523
1462700000.0 -0.3785803656 0.456749299
1472650000.0 -0.3584980587 0.4645849719
1482600000.0 -0.3353116213 0.4716473558
1492550000.0 -0.3086702458 0.4767770178
1502500000.0 -0.2781785656 0.4804734211
1512450000.0 -0.2442694151 0.4833088317
1522400000.0 -0.2073928614 0.485568534
1532350000.0 -0.168054448 0.4870135197
1542300000.0 -0.1254960166 0.487647778
1552250000.0 -0.0805977941 0.486587077
1562200000.0 -0.0333820559 0.4832104959
1572150000.0 0.0150363294 0.4768446189
1582100000.0 0.0640081203 0.4676163228
1592050000.0 0.1130886709 0.4566654167
1602000000.0 0.1607785939 0.4438290869
1611950000.0 0.2075913495 0.429666853
1621900000.0 0.2524414168 0.4135466038
1631850000.0 0.2947630089 0.3945874141
1641800000.0 0.3342982681 0.3730433813
1651750000.0 0.3712359702 0.3491545462
1661700000.0 0.4054853062 0.3248975576
1671650000.0 0.437132922 0.3023685552
1681600000.0 0.4654517101 0.2826121055
1691550000.0 0.4904572927 0.2661591364
1701500000.0 0.5124689105 0.2528671528
1711450000.0 0.5308862688 0.2415643034
1721400000.0 0.5458891682 0.231588131
1731350000.0 0.5580522906 0.2217597674
1741300000.0 0.5687980084 0.2124726734
1751250000.0 0.5782496105 0.2048479158
1761200000.0 0.5861722968 0.1989567761
1771150000.0 0.5919702594 0.1961380633
1781100000.0 0.5953015529 0.1959842607
1791050000.0 0.5957333851 0.1989247668
1801000000.0 0.5940998693 0.2032967422
1810950000.0 0.5906899983 0.2076276864
1820900000.0 0.5865891461 0.2112552839
1830850000.0 0.5830153656 0.2135294182
1840800000.0 0.5795588419 0.2153402494
1850750000.0 0.5746079889 0.2165428557
1860700000.0 0.5669405275 0.2175398726
1870650000.0 0.5552326143 0.2188675126
1880600000.0 0.5390748582 0.2207288649
1890550000.0 0.5180633453 0.2225957984
1900500000.0 0.493816206 0.2232368606
1910450000.0 0.4675586555 0.2216366261
1920400000.0 0.4403430908 0.2175218072
1930350000.0 0.4129084327 0.2111008369
1940300000.0 0.3833328999 0.2024474303
1950250000.0 0.3504471654 0.1911673666
1960200000.0 0.3121531567 0.1775534494
1970150000.0 0.2672768511 0.1611910196
1980100000.0 0.2136954639 0.1426579253
1990050000.0 0.1500933479 0.1209995759
2000000000.0 0.0729401189 0.0972972261
