!Created with skrf (http://scikit-rf.org).
# GHz S RI R 50.0 
!freq ReS11 ImS11
10000000.0 -0.9993894719 0.1593813058
19950000.0 -0.9469792269 0.3048535831
29900000.0 -0.8730848259 0.4447847634
39850000.0 -0.776796058 0.5835375554
49800000.0 -0.6594322822 0.7158208941
59750000.0 -0.5158875346 0.8355907645
69700000.0 -0.3381647566 0.9315522439
79650000.0 -0.1220026538 0.9847227845
89600000.0 0.1321134225 0.9763975976
99550000.0 0.4103410638 0.8843354049
109500000.0 0.6860668674 0.6912703851
119450000.0 0.9106036316 0.3828979314
129400000.0 0.9963226167 -0.0337649421
139350000.0 0.9214872783 -0.4431182691
149300000.0 0.6538078524 -0.7766181048
159250000.0 0.2914450876 -0.9523172757
169200000.0 -0.0713398912 -0.9797012648
179150000.0 -0.3816622743 -0.9021281881
189100000.0 -0.6220914755 -0.7624561902
199050000.0 -0.7892170057 -0.590625933
209000000.0 -0.8879081568 -0.405298563
218950000.0 -0.9352617715 -0.220689028
228900000.0 -0.9433841621 -0.0436574764
238850000.0 -0.9233658225 0.1263079112
248800000.0 -0.8664721159 0.1995819087
258750000.0 -0.8378859232 0.4106221094
268700000.0 -0.7641128586 0.5432811173
278650000.0 -0.6680738732 0.6542558818
288600000.0 -0.5477429066 0.7414285005
298550000.0 -0.4058034836 0.8019779986
308500000.0 -0.2456921154 0.8373148782
318450000.0 -0.0715465936 0.8421606727
328400000.0 0.1099852728 0.8099898029
338350000.0 0.2820579594 0.7292478152
348300000.0 0.4219922039 0.5923765837
358250000.0 0.5002754956 0.4094010177
368200000.0 0.5013493379 0.209150042
378150000.0 0.4306795668 0.0307739782
388100000.0 0.3145816658 -0.0977049528
398050000.0 0.1848162959 -0.164228851
408000000.0 0.0685102841 -0.1732848302
417950000.0 -0.0205669848 -0.1406810074
427900000.0 -0.0785423029 -0.0845573384
437850000.0 -0.1104325985 -0.0216347526
447800000.0 -0.1224268213 0.0364288759
457750000.0 -0.1191235944 0.0818593195
467700000.0 -0.1049130975 0.1113947796
477650000.0 -0.0822806308 0.1232952383
487600000.0 -0.0538241242 0.1202580773
497550000.0 -0.0274657873 0.0994640237
507500000.0 0.0003966283 0.0944054269
517450000.0 0.0232710987 0.0738413715
527400000.0 0.035081872 0.0537021672
537350000.0 0.0336266436 0.0343999167
547300000.0 0.0215902234 0.0155917551
557250000.0 -0.001695241 -0.0036826621
567200000.0 -0.0305281291 -0.0212792505
577150000.0 -0.0605920195 -0.0348617913
587100000.0 -0.0876577948 -0.0421931338
597050000.0 -0.1096302316 -0.040670952
607000000.0 -0.1264213438 -0.028453349
616950000.0 -0.1384635804 -0.0060258703
626900000.0 -0.1466285932 0.0240814617
636850000.0 -0.1510764736 0.0573717229
646800000.0 -0.1514145105 0.0895097948
656750000.0 -0.1464807731 0.1170950841
666700000.0 -0.1331664424 0.1374695229
676650000.0 -0.1103758055 0.149531474
686600000.0 -0.078184108 0.1546481402
696550000.0 -0.0385756577 0.1533930993
706500000.0 0.0033517988 0.1457653138
716450000.0 0.0419480797 0.1296704441
726400000.0 0.0692351232 0.1091710118
736350000.0 0.0918128206 0.087348998
746300000.0 0.1043020046 0.0496799293
756250000.0 0.1043854668 0.0005385496
766200000.0 0.0924464935 -0.0550912019
776150000.0 0.070797156 -0.1119188129
786100000.0 0.038551138 -0.1636536601
796050000.0 -0.0025571269 -0.2035195876
806000000.0 -0.0527754029 -0.2265045934
815950000.0 -0.1120016494 -0.229911343
825900000.0 -0.1771182542 -0.2149949427
835850000.0 -0.244829854 -0.1843691107
845800000.0 -0.3096503279 -0.1411619582
855750000.0 -0.3651689904 -0.0883550047
865700000.0 -0.4052044036 -0.0276400089
875650000.0 -0.4248773584 0.0412632337
885600000.0 -0.4211885827 0.1158554785
895550000.0 -0.3952302176 0.1955236655
905500000.0 -0.3487186588 0.2778234375
915450000.0 -0.2848857538 0.3573898623
925400000.0 -0.2045451929 0.4269961388
935350000.0 -0.1077525776 0.4775914404
945300000.0 0.0050912213 0.4990681556
955250000.0 0.1320850539 0.4816905057
965200000.0 0.2674204067 0.416446079
975150000.0 0.3997409203 0.2993671053
985100000.0 0.5076942125 0.1264110612
995050000.0 0.5614336965 -0.0962060587
1005000000.0 0.524837102 -0.346262647
1014950000.0 0.3679344082 -0.5786047917
1024900000.0 0.0944683596 -0.7270854131
1034850000.0 -0.2437793256 -0.7392404077
1044800000.0 -0.567164003 -0.5985123402
1054750000.0 -0.7938460912 -0.3286658938
1064700000.0 -0.8274150337 -0.0078526513
1074650000.0 -0.8118625314 0.1974944775
1084600000.0 -0.6691483015 0.4369504825
1094550000.0 -0.5431409066 0.6370934682
1104500000.0 -0.2719287407 0.7772659912
1114450000.0 0.0108160176 0.8046613654
1124400000.0 0.2708697878 0.7330198009
1134350000.0 0.4726975284 0.5780531998
1144300000.0 0.5942822711 0.3685722235
1154250000.0 0.631916504 0.151030229
1164200000.0 0.624886818 -0.0419037342
1174150000.0 0.583996946 -0.2300349789
1184100000.0 0.497388456 -0.3910502096
1194050000.0 0.3800792465 -0.5087099178
1204000000.0 0.2462140866 -0.5799965691
1213950000.0 0.1075509204 -0.6107903105
1223900000.0 -0.0266104492 -0.6119541998
1233850000.0 -0.1504307254 -0.5947307328
1243800000.0 -0.2615211639 -0.5651635883
1253750000.0 -0.358343175 -0.5264528294
1263700000.0 -0.4385179621 -0.4780489812
1273650000.0 -0.5024504073 -0.4209056205
1283600000.0 -0.5493824669 -0.3539162446
1293550000.0 -0.5835070781 -0.2792909496
1303500000.0 -0.6090201504 -0.2012881883
1313450000.0 -0.6299932792 -0.1233690426
1323400000.0 -0.6478453134 -0.0482187219
1333350000.0 -0.6612408545 0.0225651545
1343300000.0 -0.6671235687 0.0898169073
1353250000.0 -0.6623627149 0.1521552114
1363200000.0 -0.6437893002 0.2110853169
1373150000.0 -0.6112487425 0.2689447138
1383100000.0 -0.5696543945 0.325800393
1393050000.0 -0.5229942698 0.3825963849
1403000000.0 -0.4755864578 0.4372924229
1412950000.0 -0.4276491715 0.4881067121
1422900000.0 -0.3791828233 0.5325375557
1432850000.0 -0.3274430554 0.5669069484
1442800000.0 -0.2705321907 0.5901011247
1452750000.0 -0.2059228377 0.6023177441
1462700000.0 -0.1339333695 0.6055997868
1472650000.0 -0.0555632093 0.6031639172
1482600000.0 0.025813607 0.5968499395
1492550000.0 0.1066162149 0.5850928668
1502500000.0 0.1843838269 0.5651906099
1512450000.0 0.2558890202 0.5333945058
1522400000.0 0.3186312569 0.4864551382
1532350000.0 0.3717222313 0.4223132346
1542300000.0 0.4160593728 0.3433836213
1552250000.0 0.453192263 0.2539637669
1562200000.0 0.4835288515 0.1589182273
1572150000.0 0.5039398845 0.0619946919
1582100000.0 0.5096657514 -0.0339872415
1592050000.0 0.4971612163 -0.1255637938
1602000000.0 0.4632426398 -0.2113201323
1611950000.0 0.4092988994 -0.2886987135
1621900000.0 0.339883738 -0.3583080345
1631850000.0 0.2612899832 -0.4208262506
1641800000.0 0.1780478023 -0.4751558573
1651750000.0 0.0930098577 -0.5185843657
1661700000.0 0.0077044608 -0.5460609354
1671650000.0 -0.0761540685 -0.5479250576
1681600000.0 -0.1105997337 -0.5526548885
1691550000.0 -0.214412513 -0.5438657926
1701500000.0 -0.2952221916 -0.5082303739
1711450000.0 -0.3697172167 -0.4677104964
1721400000.0 -0.4392428427 -0.4241612746
1731350000.0 -0.5018471668 -0.3807868055
1741300000.0 -0.5535319831 -0.3352881927
1751250000.0 -0.5923726357 -0.2856444545
1761200000.0 -0.6166524012 -0.231025082
1771150000.0 -0.6283350593 -0.1716355033
1781100000.0 -0.6337067464 -0.1088981338
1791050000.0 -0.6364346402 -0.0461115863
1801000000.0 -0.6397636902 0.0148611441
1810950000.0 -0.6445702663 0.0725039998
1820900000.0 -0.6476578115 0.1256401502
1830850000.0 -0.6437516961 0.1735138121
1840800000.0 -0.6295556054 0.2165533954
1850750000.0 -0.6036989371 0.256058614
1860700000.0 -0.5665308068 0.2927594739
1870650000.0 -0.5240772194 0.328501228
1880600000.0 -0.4810412029 0.3617868268
1890550000.0 -0.4411384889 0.3932177888
1900500000.0 -0.4053210791 0.4198434556
1910450000.0 -0.3724939298 0.4386787929
1920400000.0 -0.3382531884 0.4489892623
1930350000.0 -0.3011782839 0.4484089331
1940300000.0 -0.2589351221 0.4372208969
1950250000.0 -0.2129246441 0.4175578461
1960200000.0 -0.1652562615 0.3932121946
1970150000.0 -0.1205078094 0.3649606224
1980100000.0 -0.0848446796 0.3309378553
1990050000.0 -0.0625032536 0.2888923998
2000000000.0 -0.0587410955 0.2322056459
