!Created with skrf (http://scikit-rf.org).
# GHz S RI R 50.0 
!freq ReS11 ImS11
10000000.0 -0.8937871241 0.4435856505
19950000.0 -0.6085277235 0.7817688466
29900000.0 -0.2038660206 0.9655255892
39850000.0 0.2488494839 0.9543951849
49800000.0 0.6594974264 0.7358876053
59750000.0 0.9322456222 0.338298003
69700000.0 0.9823759648 -0.1612615533
79650000.0 0.7658945158 -0.6391439676
89600000.0 0.3095746049 -0.9462870056
99550000.0 -0.2686950087 -0.9516956653
109500000.0 -0.7698609014 -0.6053374794
119450000.0 -0.9712345326 0.0027655493
129400000.0 -0.7340685842 0.6305816773
139350000.0 -0.1368746541 0.9599006547
149300000.0 0.532926232 0.8143768104
159250000.0 0.931684469 0.2864060534
169200000.0 0.9103232401 -0.3366938919
179150000.0 0.5492452562 -0.7908403227
189100000.0 0.0337929657 -0.9541051731
199050000.0 -0.4595520513 -0.830458959
209000000.0 -0.809349173 -0.4918968204
218950000.0 -0.9460921404 -0.0466110671
228900000.0 -0.8608269092 0.4006593099
238850000.0 -0.5832720172 0.7522985205
248800000.0 -0.1716477686 0.919703807
258750000.0 0.2491640132 0.9157995512
268700000.0 0.6246423278 0.7049658583
278650000.0 0.8619348203 0.3514887408
288600000.0 0.9140090655 -0.0685537112
298550000.0 0.770153095 -0.4654660274
308500000.0 0.4574909716 -0.7504964578
318450000.0 0.0453104404 -0.8512192686
328400000.0 -0.3619692194 -0.7331249471
338350000.0 -0.6438488122 -0.4221420277
348300000.0 -0.7051875351 -0.020135026
358250000.0 -0.5333565794 0.3216714502
368200000.0 -0.2234587428 0.4759807081
378150000.0 0.0717654547 0.4164546304
388100000.0 0.2336616527 0.221245226
398050000.0 0.2329131756 0.0136478489
408000000.0 0.1225495446 -0.1122346896
417950000.0 -0.0125715185 -0.1289316229
427900000.0 -0.105946626 -0.0627960849
437850000.0 -0.1280930932 0.0349973971
447800000.0 -0.0856548251 0.1160105167
457750000.0 -0.0078981175 0.1512039526
467700000.0 0.0712136103 0.1349943544
477650000.0 0.1245163877 0.0801361017
487600000.0 0.137986789 0.0100083961
497550000.0 0.1157466685 -0.0486020278
507500000.0 0.0678633192 -0.0871287006
517450000.0 0.0165518519 -0.0907660147
527400000.0 -0.0207668001 -0.068999345
537350000.0 -0.0337071979 -0.0371098062
547300000.0 -0.0237069065 -0.01229906
557250000.0 -0.0002896704 -0.0043632151
567200000.0 0.0220632216 -0.020070571
577150000.0 0.0280883218 -0.0526057857
587100000.0 0.0095242653 -0.0888744816
597050000.0 -0.032222628 -0.112050106
607000000.0 -0.0868731788 -0.1099963732
616950000.0 -0.1381593173 -0.0768240021
626900000.0 -0.1684775688 -0.0178105141
636850000.0 -0.1662878896 0.0540347562
646800000.0 -0.1273658868 0.1199061202
656750000.0 -0.0585056873 0.1616088527
666700000.0 0.0249945732 0.1665674921
676650000.0 0.1025926534 0.1314880125
686600000.0 0.1547178715 0.0644545302
696550000.0 0.1687843863 -0.0178936578
706500000.0 0.1413372016 -0.0937729739
716450000.0 0.0813315159 -0.1427914786
726400000.0 0.0061430752 -0.1510443988
736350000.0 -0.0586634373 -0.1163127451
746300000.0 -0.0922652317 -0.0497704752
756250000.0 -0.0800826418 0.0265712932
766200000.0 -0.0237613585 0.0846758687
776150000.0 0.0607920073 0.1007912698
786100000.0 0.1448813711 0.0640625801
796050000.0 0.1973800616 -0.0196011204
806000000.0 0.1948369161 -0.1264590805
815950000.0 0.1274887307 -0.2234204074
825900000.0 0.0079758594 -0.275381743
835850000.0 -0.1344707588 -0.2567876161
845800000.0 -0.2593372204 -0.1617399849
855750000.0 -0.326979143 -0.0063913328
865700000.0 -0.3099337871 0.1727901935
875650000.0 -0.203948581 0.3293039063
885600000.0 -0.0297213799 0.4177594442
895550000.0 0.1719732044 0.4105487281
905500000.0 0.3492055355 0.3027221158
915450000.0 0.4536730314 0.1151127128
925400000.0 0.4501586883 -0.109260715
935350000.0 0.3256854319 -0.3104866248
945300000.0 0.1015413728 -0.4232969864
955250000.0 -0.1644801949 -0.3945091382
965200000.0 -0.3819831505 -0.2091451177
975150000.0 -0.4543515461 0.0891675341
985100000.0 -0.3191967083 0.3911458111
995050000.0 -0.0009519499 0.5529862127
1005000000.0 0.3798282919 0.4672183079
1014950000.0 0.6392900063 0.1229161376
1024900000.0 0.6067696005 -0.3526691124
1034850000.0 0.235227673 -0.7168224465
1044800000.0 -0.3146341241 -0.7396880291
1054750000.0 -0.7469793021 -0.3846643732
1064700000.0 -0.8338277999 0.1344439868
1074650000.0 -0.6351020198 0.5965525858
1084600000.0 -0.190522449 0.8432247066
1094550000.0 0.2953891326 0.7931766835
1104500000.0 0.6614136311 0.4747621294
1114450000.0 0.7721107303 0.0073290451
1124400000.0 0.5874349368 -0.4271950042
1134350000.0 0.1938586753 -0.6568375681
1144300000.0 -0.2333254685 -0.6095821672
1154250000.0 -0.5282903036 -0.3437765772
1164200000.0 -0.6162083528 0.0081961763
1174150000.0 -0.5130319813 0.3300101135
1184100000.0 -0.2674375297 0.5407527914
1194050000.0 0.0428859254 0.5904254051
1204000000.0 0.3296037 0.4761402124
1213950000.0 0.5169532137 0.2346682745
1223900000.0 0.558745423 -0.0652209562
1233850000.0 0.450805776 -0.3426922096
1243800000.0 0.2309338866 -0.531218626
1253750000.0 -0.0406250233 -0.5974521173
1263700000.0 -0.303266619 -0.541344773
1273650000.0 -0.5104225723 -0.3868607688
1283600000.0 -0.6332980037 -0.1683190036
1293550000.0 -0.6585486419 0.0775879104
1303500000.0 -0.5844369061 0.3133715396
1313450000.0 -0.4208833448 0.5032789033
1323400000.0 -0.1901588852 0.6147544401
1333350000.0 0.0721445004 0.6238909568
1343300000.0 0.3206770331 0.52464502
1353250000.0 0.5093521016 0.3317608352
1363200000.0 0.6044872793 0.0816841278
1373150000.0 0.5935764789 -0.1798801845
1383100000.0 0.4853170002 -0.4091865336
1393050000.0 0.3045675754 -0.573688128
1403000000.0 0.0824733624 -0.6549009792
1412950000.0 -0.1481770983 -0.646274583
1422900000.0 -0.3562895686 -0.5522927868
1432850000.0 -0.512964625 -0.3844372619
1442800000.0 -0.5929910556 -0.1646793662
1452750000.0 -0.5786076742 0.0742058522
1462700000.0 -0.4652176614 0.2920035913
1472650000.0 -0.269004593 0.445968832
1482600000.0 -0.026054398 0.5032148321
1492550000.0 0.2137706731 0.4530257645
1502500000.0 0.4027260256 0.3095221916
1512450000.0 0.5066094195 0.1075409737
1522400000.0 0.5132317541 -0.1101780111
1532350000.0 0.4265703218 -0.3016969382
1542300000.0 0.2672199644 -0.4327736238
1552250000.0 0.0652493576 -0.4777781773
1562200000.0 -0.1380195685 -0.4256673235
1572150000.0 -0.2987135312 -0.281861045
1582100000.0 -0.3754710077 -0.0747111339
1592050000.0 -0.3446872188 0.1472176727
1602000000.0 -0.2137778345 0.3280260537
1611950000.0 -0.0134963415 0.422985095
1621900000.0 0.2026780649 0.4129979651
1631850000.0 0.386347336 0.3070035691
1641800000.0 0.501522222 0.1312895218
1651750000.0 0.5280313315 -0.0776071658
1661700000.0 0.4614816019 -0.2814743094
1671650000.0 0.3111567163 -0.4436726357
1681600000.0 0.0989003135 -0.531577117
1691550000.0 -0.1401227355 -0.5229244924
1701500000.0 -0.3606711886 -0.4112485471
1711450000.0 -0.5167706545 -0.2135435726
1721400000.0 -0.5771505329 0.0327942467
1731350000.0 -0.5310228211 0.2792065695
1741300000.0 -0.3925315102 0.4819052555
1751250000.0 -0.191928662 0.6114831831
1761200000.0 0.0362347616 0.6551608465
1771150000.0 0.2600923029 0.6136239248
1781100000.0 0.4517834489 0.4966795978
1791050000.0 0.5899273996 0.3200434804
1801000000.0 0.6569228947 0.1034805764
1810950000.0 0.6414929861 -0.1270661388
1820900000.0 0.540367623 -0.3406245677
1830850000.0 0.3629085739 -0.5041623302
1840800000.0 0.1331255161 -0.5886350869
1850750000.0 -0.1113928045 -0.578122609
1860700000.0 -0.3291857644 -0.4757408689
1870650000.0 -0.4867540959 -0.3043297425
1880600000.0 -0.5661299174 -0.0967694412
1890550000.0 -0.5649879517 0.1132018728
1900500000.0 -0.4938593661 0.2973262777
1910450000.0 -0.3701598018 0.4352845876
1920400000.0 -0.2154986488 0.515070398
1930350000.0 -0.051901979 0.5327830159
1940300000.0 0.0983441127 0.4909330636
1950250000.0 0.2154690317 0.4003055514
1960200000.0 0.2841374069 0.2782033657
1970150000.0 0.2977964814 0.1492299317
1980100000.0 0.262303117 0.0380491735
1990050000.0 0.1958227193 -0.0355121867
2000000000.0 0.1247623721 -0.0638754899
