!Created with skrf (http://scikit-rf.org).
# GHz S RI R 50.0 
!freq ReS11 ImS11
10000000.0 -0.999705448 0.1602605316
19950000.0 -0.9466670167 0.3059404447
29900000.0 -0.872010214 0.4458994838
39850000.0 -0.7752476158 0.5850802522
49800000.0 -0.6572175281 0.718069726
59750000.0 -0.5122018702 0.8386704252
69700000.0 -0.3325222248 0.9346641262
79650000.0 -0.1133484795 0.9865915718
89600000.0 0.1442946223 0.9751855686
99550000.0 0.4251790208 0.8774160459
109500000.0 0.7012869516 0.6764951442
119450000.0 0.921163882 0.3601767541
129400000.0 1.010836717 -0.0476518551
139350000.0 0.9123303994 -0.465738173
149300000.0 0.640362702 -0.7892625127
159250000.0 0.2817975435 -0.956085893
169200000.0 -0.074003073 -0.9805606057
179150000.0 -0.3785671701 -0.9052904584
189100000.0 -0.6153076417 -0.7708048133
199050000.0 -0.7819574069 -0.6046886382
209000000.0 -0.8820050706 -0.4242206915
218950000.0 -0.9321312684 -0.2436277993
228900000.0 -0.9436825265 -0.0694416869
238850000.0 -0.9289543126 0.0965041942
248800000.0 -0.862338691 0.2567118364
258750000.0 -0.8481593871 0.3934825047
268700000.0 -0.7783456316 0.5263784686
278650000.0 -0.6846712201 0.6400924596
288600000.0 -0.565278733 0.7302596751
298550000.0 -0.4224776259 0.7942423819
308500000.0 -0.2596887341 0.8322714154
318450000.0 -0.0817575363 0.8392731522
328400000.0 0.1047427608 0.8076906856
338350000.0 0.2815472821 0.7245996322
348300000.0 0.4243609389 0.583183733
358250000.0 0.5017050258 0.3937256778
368200000.0 0.4983509723 0.1893993845
378150000.0 0.4231507689 0.0103118798
388100000.0 0.3047485511 -0.1163308647
398050000.0 0.17460983 -0.1810329545
408000000.0 0.0590726574 -0.1889463741
417950000.0 -0.0289184795 -0.1556993042
427900000.0 -0.0867980637 -0.0995504709
437850000.0 -0.1191010392 -0.0366686646
447800000.0 -0.1319091512 0.0215029326
457750000.0 -0.1297124719 0.0675168855
467700000.0 -0.1152277174 0.0972118196
477650000.0 -0.0911926292 0.1094689838
487600000.0 -0.0610115435 0.1067150392
497550000.0 -0.0285960576 0.0915733266
507500000.0 0.0027746797 0.0728738188
517450000.0 0.0224249364 0.0405807211
527400000.0 0.0010261964 0.0256318008
537350000.0 0.0177124086 0.0259090595
547300000.0 0.0102813011 0.0041760519
557250000.0 -0.0112047871 -0.0179197249
567200000.0 -0.0399593731 -0.0378763889
577150000.0 -0.0701900242 -0.0528274126
587100000.0 -0.0974961213 -0.0609783602
597050000.0 -0.1190830976 -0.0596267721
607000000.0 -0.1353608194 -0.0472669805
616950000.0 -0.1471831409 -0.0250983129
626900000.0 -0.1555556178 0.0047997085
636850000.0 -0.160781355 0.0375041379
646800000.0 -0.1618790921 0.0691325716
656750000.0 -0.1575468855 0.0957914431
666700000.0 -0.1450504286 0.1147587986
676650000.0 -0.1228753405 0.1259436318
686600000.0 -0.0910483571 0.1300707801
696550000.0 -0.0520436265 0.1288583121
706500000.0 -0.0103225005 0.1218698985
716450000.0 0.0299632743 0.1097720024
726400000.0 0.0631850453 0.0899216306
736350000.0 0.0859249696 0.0602381151
746300000.0 0.0955113976 0.0203276509
756250000.0 0.0933361222 -0.0306904527
766200000.0 0.0790364314 -0.0873917729
776150000.0 0.0551227225 -0.1449886874
786100000.0 0.0213549392 -0.1967690466
796050000.0 -0.0215188166 -0.2364490812
806000000.0 -0.0729190034 -0.2587202253
815950000.0 -0.1324407413 -0.2611047875
825900000.0 -0.1975586982 -0.2455099143
835850000.0 -0.2650937282 -0.2145279879
845800000.0 -0.329741076 -0.1725080802
855750000.0 -0.3857699963 -0.1217059595
865700000.0 -0.426738688 -0.0628594155
875650000.0 -0.4488022297 0.0030406707
885600000.0 -0.4479796133 0.0762871713
895550000.0 -0.4252556453 0.1555959802
905500000.0 -0.3820005364 0.2390779946
915450000.0 -0.3206658773 0.3214052126
925400000.0 -0.2416750717 0.3950683643
935350000.0 -0.1431281337 0.4508443531
945300000.0 -0.0254902111 0.4751834082
955250000.0 0.1099446608 0.4553147931
965200000.0 0.2515585753 0.3755092319
975150000.0 0.3658680759 0.2283381379
985100000.0 0.4039252823 0.0623123305
995050000.0 0.4531472278 -0.0725310266
1005000000.0 0.4696497571 -0.2803468881
1014950000.0 0.3637890266 -0.5069523679
1024900000.0 0.1411179327 -0.6739970258
1034850000.0 -0.1524315284 -0.7319403599
1044800000.0 -0.4532938138 -0.6647194157
1054750000.0 -0.7031584416 -0.4843015523
1064700000.0 -0.8431629792 -0.2198735614
1074650000.0 -0.865072746 0.0185531325
1084600000.0 -0.8120332609 0.3033156156
1094550000.0 -0.6565472279 0.4590120082
1104500000.0 -0.4790932963 0.6829914514
1114450000.0 -0.2039604037 0.795976396
1124400000.0 0.0874808659 0.796017742
1134350000.0 0.3471413305 0.6837623499
1144300000.0 0.5346162981 0.4822132195
1154250000.0 0.6303432997 0.2364447621
1164200000.0 0.6402962841 -0.0091275125
1174150000.0 0.5889772981 -0.2222747531
1184100000.0 0.4967597121 -0.3974986107
1194050000.0 0.371020986 -0.5254331647
1204000000.0 0.22854176 -0.6007341207
1213950000.0 0.0835618892 -0.6309833461
1223900000.0 -0.0534939805 -0.630201033
1233850000.0 -0.1780276011 -0.6116881617
1243800000.0 -0.2885285501 -0.5825915901
1253750000.0 -0.3836474913 -0.5455212077
1263700000.0 -0.4617652891 -0.4996180909
1273650000.0 -0.5234519254 -0.4461914226
1283600000.0 -0.5685269893 -0.3830212289
1293550000.0 -0.6014341051 -0.312810627
1303500000.0 -0.6270048796 -0.2386751853
1313450000.0 -0.6487598548 -0.165104469
1323400000.0 -0.6689728595 -0.0941777558
1333350000.0 -0.6860182838 -0.0276341367
1343300000.0 -0.6963166137 0.0355199315
1353250000.0 -0.6968553594 0.0938403426
1363200000.0 -0.6841831094 0.150115132
1373150000.0 -0.6576498643 0.2064794023
1383100000.0 -0.6222892105 0.2626947765
1393050000.0 -0.5819803529 0.3200687509
1403000000.0 -0.5404977637 0.3766977814
1412950000.0 -0.4987319037 0.430398367
1422900000.0 -0.4555578055 0.478619291
1432850000.0 -0.4088465718 0.5174182466
1442800000.0 -0.3555951521 0.5461580772
1452750000.0 -0.2934372649 0.5640142804
1462700000.0 -0.2216619698 0.5726845236
1472650000.0 -0.1422205495 0.5751537969
1482600000.0 -0.0592041811 0.5738085845
1492550000.0 0.0238468842 0.5664173314
1502500000.0 0.1042155777 0.5498390061
1512450000.0 0.1792046959 0.5195277606
1522400000.0 0.2454199937 0.4716387376
1532350000.0 0.3026248544 0.404210841
1542300000.0 0.3512805939 0.3200938471
1552250000.0 0.3916681434 0.2231505928
1562200000.0 0.4229001234 0.1204438408
1572150000.0 0.4410133864 0.0159244221
1582100000.0 0.4407043758 -0.0863326082
1592050000.0 0.4188302777 -0.1812307844
1602000000.0 0.3731517405 -0.2671074602
1611950000.0 0.3064380116 -0.3418837866
1621900000.0 0.2245214103 -0.4065255296
1631850000.0 0.1345066085 -0.4618057529
1641800000.0 0.0430975219 -0.5071852854
1651750000.0 -0.0457991969 -0.5389646987
1661700000.0 -0.129809522 -0.5545455575
1671650000.0 -0.2073421042 -0.5518009412
1681600000.0 -0.2791255208 -0.5310139912
1691550000.0 -0.3468937355 -0.4971330247
1701500000.0 -0.4120233111 -0.4542376723
1711450000.0 -0.4746300214 -0.4092844219
1721400000.0 -0.5333147805 -0.3639119266
1731350000.0 -0.5861676156 -0.3212213104
1741300000.0 -0.6292094933 -0.2777832373
1751250000.0 -0.6590365883 -0.2317619042
1761200000.0 -0.6752525878 -0.1823786277
1771150000.0 -0.680483929 -0.128794653
1781100000.0 -0.6804144357 -0.0724406726
1791050000.0 -0.6794175369 -0.0160580374
1801000000.0 -0.680578117 0.0383158069
1810950000.0 -0.6846695347 0.0896600661
1820900000.0 -0.6887373823 0.1365379885
1830850000.0 -0.6871474429 0.1774811919
1840800000.0 -0.675702953 0.2157408174
1850750000.0 -0.6526494348 0.2505945125
1860700000.0 -0.6187746501 0.283329636
1870650000.0 -0.579632457 0.3160014696
1880600000.0 -0.5403151628 0.3472552618
1890550000.0 -0.5050818292 0.3771151155
1900500000.0 -0.4743522159 0.4030070742
1910450000.0 -0.4468126142 0.4218029062
1920400000.0 -0.4190683684 0.4329029318
1930350000.0 -0.3871416093 0.4347116311
1940300000.0 -0.3488039525 0.4272629668
1950250000.0 -0.3051511346 0.4121257831
1960200000.0 -0.2592549009 0.3927106884
1970150000.0 -0.2185015004 0.3700910288
1980100000.0 -0.184546187 0.3472873953
1990050000.0 -0.1611036914 0.3206091043
2000000000.0 -0.1517554736 0.2866528699
