!Created with skrf (http://scikit-rf.org).
# GHz S RI R 50.0 
!freq ReS11 ImS11
10000000.0 -1.000585886 0.1592238367
19950000.0 -0.9471843248 0.3047622107
29900000.0 -0.8723626843 0.4447816962
39850000.0 -0.7753485952 0.5838750603
49800000.0 -0.6578263613 0.7166640546
59750000.0 -0.5141358308 0.83724871
69700000.0 -0.3364123239 0.9335126417
79650000.0 -0.1201699808 0.9865973966
89600000.0 0.1339991045 0.9771072416
99550000.0 0.4119292929 0.8834943644
109500000.0 0.6869157481 0.6897169678
119450000.0 0.9108066463 0.382234429
129400000.0 1.010035457 -0.0229126642
139350000.0 0.9261989149 -0.4382617226
149300000.0 0.6631725795 -0.7711969527
159250000.0 0.3054050607 -0.9489545073
169200000.0 -0.0549749203 -0.9809505105
179150000.0 -0.3659350664 -0.90969469
189100000.0 -0.6084768757 -0.7760291063
199050000.0 -0.7792429208 -0.6084868377
209000000.0 -0.8813013403 -0.4258191919
218950000.0 -0.9317885723 -0.2430661452
228900000.0 -0.9428856057 -0.0676536619
238850000.0 -0.9273862681 0.0990887667
248800000.0 -0.8867758525 0.2405804672
258750000.0 -0.8447795584 0.3985855666
268700000.0 -0.77545472 0.5307288611
278650000.0 -0.6825299781 0.6431745662
288600000.0 -0.5643911197 0.7320689887
298550000.0 -0.4231213124 0.7945154798
308500000.0 -0.2631449925 0.8321168755
318450000.0 -0.088610324 0.8399286537
328400000.0 0.0940863194 0.811258035
338350000.0 0.2682443143 0.7336645039
348300000.0 0.4108321183 0.5998369181
358250000.0 0.4921068581 0.417903335
368200000.0 0.4952568108 0.2176796688
378150000.0 0.4264580793 0.0377323058
388100000.0 0.3117238564 -0.0930755653
398050000.0 0.1826564901 -0.1622433124
408000000.0 0.0661116417 -0.1734644219
417950000.0 -0.0229983609 -0.1419239464
427900000.0 -0.0820348497 -0.0861023014
437850000.0 -0.1151709362 -0.0220745841
447800000.0 -0.1284965912 0.0375329786
457750000.0 -0.1267496322 0.0847281162
467700000.0 -0.1139036858 0.1151369801
477650000.0 -0.0923195193 0.1279574637
487600000.0 -0.064572501 0.126795039
497550000.0 -0.0348461286 0.1171905418
507500000.0 -0.0027972989 0.1004653646
517450000.0 0.0211069427 0.0811505317
527400000.0 0.0352525567 0.0619288052
537350000.0 0.0355643964 0.0429272328
547300000.0 0.0240120257 0.024741635
557250000.0 0.0022354575 0.0051852276
567200000.0 -0.0261329518 -0.0136202869
577150000.0 -0.0563135658 -0.028586887
587100000.0 -0.0834758969 -0.03733155
597050000.0 -0.1050221853 -0.036600432
607000000.0 -0.1208317817 -0.0245548372
616950000.0 -0.1322002081 -0.0022966023
626900000.0 -0.1397808327 0.0282317035
636850000.0 -0.1442142755 0.0620887043
646800000.0 -0.1448054991 0.0951208648
656750000.0 -0.1396719424 0.1238201724
666700000.0 -0.1229160602 0.1408174312
676650000.0 -0.1029203169 0.151421718
686600000.0 -0.0713677331 0.1557289007
696550000.0 -0.0325074779 0.154558103
706500000.0 0.0098149137 0.1478862179
716450000.0 0.0509004418 0.1364126468
726400000.0 0.0850455817 0.1169552216
736350000.0 0.1090643555 0.0882443363
746300000.0 0.1205060675 0.0483461386
756250000.0 0.1198665266 -0.0024668633
766200000.0 0.1075453773 -0.0602591397
776150000.0 0.0852967449 -0.1194446354
786100000.0 0.0530157093 -0.1741447715
796050000.0 0.0112257109 -0.21689842
806000000.0 -0.0400243387 -0.2423826226
815950000.0 -0.1010142871 -0.2476722903
825900000.0 -0.1689614217 -0.2337575523
835850000.0 -0.2400303827 -0.2031299459
845800000.0 -0.3082816251 -0.1597485432
855750000.0 -0.3680916152 -0.1060338403
865700000.0 -0.4119618056 -0.0433795521
875650000.0 -0.434510656 0.0283075679
885600000.0 -0.4320253374 0.1082895901
895550000.0 -0.4042459575 0.1956796582
905500000.0 -0.3506179626 0.2878335497
915450000.0 -0.2694164975 0.3784259879
925400000.0 -0.1492811307 0.4493159729
935350000.0 0.0023695604 0.4423710486
945300000.0 0.0276015255 0.3438824346
955250000.0 0.039572467 0.3699876005
965200000.0 0.1533272627 0.3853829778
975150000.0 0.296489111 0.3249069112
985100000.0 0.4286813515 0.1940805293
995050000.0 0.5162038787 0.0042989244
1005000000.0 0.5276075247 -0.2204734412
1014950000.0 0.4381990441 -0.4535233566
1024900000.0 0.2297674935 -0.6440715273
1034850000.0 -0.0690228603 -0.7326380535
1044800000.0 -0.3951437519 -0.6870271674
1054750000.0 -0.6761493934 -0.5071558091
1064700000.0 -0.8349517583 -0.2303045779
1074650000.0 -0.8800742066 0.0478097992
1084600000.0 -0.7980379896 0.3351141174
1094550000.0 -0.6553485402 0.5434849034
1104500000.0 -0.4185071414 0.7313869484
1114450000.0 -0.1467978573 0.8157356827
1124400000.0 0.1261221584 0.8031541868
1134350000.0 0.3639271488 0.6968959162
1144300000.0 0.5384206397 0.5164645469
1154250000.0 0.6362619405 0.2981601209
1164200000.0 0.6646023285 0.0782124178
1174150000.0 0.6459170331 -0.1258561756
1184100000.0 0.5823237174 -0.3061112937
1194050000.0 0.482278605 -0.4479307985
1204000000.0 0.3573187911 -0.5453987147
1213950000.0 0.2196140021 -0.600151091
1223900000.0 0.0813307933 -0.6219264807
1233850000.0 -0.0502126736 -0.6215348857
1243800000.0 -0.1705388273 -0.6060351838
1253750000.0 -0.2770686186 -0.5797487022
1263700000.0 -0.3671016113 -0.5415447919
1273650000.0 -0.4414557419 -0.4923825633
1283600000.0 -0.4984450882 -0.4309583727
1293550000.0 -0.5419887769 -0.3596399171
1303500000.0 -0.5768979867 -0.2828746845
1313450000.0 -0.6057903681 -0.2047776366
1323400000.0 -0.6322356093 -0.1300741522
1333350000.0 -0.6547200917 -0.058747054
1343300000.0 -0.6691542918 0.0095042483
1353250000.0 -0.6721631969 0.0728862213
1363200000.0 -0.6611604332 0.1340887291
1373150000.0 -0.6352565272 0.1949603796
1383100000.0 -0.5993493401 0.2554959756
1393050000.0 -0.5575484728 0.3165667963
1403000000.0 -0.5144758536 0.3766003388
1412950000.0 -0.4702273117 0.4335245451
1422900000.0 -0.4253197195 0.4836957273
1432850000.0 -0.3762920317 0.5244672482
1442800000.0 -0.3210979794 0.5541499079
1452750000.0 -0.257664301 0.5720344312
1462700000.0 -0.1850519612 0.5807310822
1472650000.0 -0.1051331578 0.5833403146
1482600000.0 -0.0212989123 0.581718951
1492550000.0 0.0617054665 0.5747250965
1502500000.0 0.1417303525 0.5596862059
1512450000.0 0.2151927986 0.5324401038
1522400000.0 0.2807234901 0.4897175229
1532350000.0 0.3379098879 0.4286973558
1542300000.0 0.3866716994 0.3514538846
1552250000.0 0.4283982448 0.2625940965
1562200000.0 0.463545764 0.1686274984
1572150000.0 0.4894456377 0.0724447376
1582100000.0 0.5013062455 -0.0227688127
1592050000.0 0.4952648247 -0.1146276664
1602000000.0 0.4667048225 -0.2018691268
1611950000.0 0.4173653686 -0.2813085401
1621900000.0 0.3509244145 -0.3545747176
1631850000.0 0.2744128967 -0.4210974888
1641800000.0 0.1931400943 -0.4800741735
1651750000.0 0.110215452 -0.5291187432
1661700000.0 0.0282037577 -0.5636131928
1671650000.0 -0.0510648953 -0.5797925331
1681600000.0 -0.1283645914 -0.5766119166
1691550000.0 -0.2033160149 -0.5576705816
1701500000.0 -0.2775924399 -0.5266762887
1711450000.0 -0.3494740668 -0.4905216809
1721400000.0 -0.4179368411 -0.4520898391
1731350000.0 -0.4802575279 -0.4143866714
1741300000.0 -0.5332324112 -0.3752143124
1751250000.0 -0.574040338 -0.3313617583
1761200000.0 -0.6015651922 -0.2817884217
1771150000.0 -0.6173698531 -0.2262156732
1781100000.0 -0.626784282 -0.1661877748
1791050000.0 -0.6331022743 -0.1048658529
1801000000.0 -0.6401361145 -0.0451765995
1810950000.0 -0.6492724907 0.0112511219
1820900000.0 -0.6570387214 0.0633299963
1830850000.0 -0.658072629 0.1097090368
1840800000.0 -0.64878659 0.1530726686
1850750000.0 -0.6269458043 0.1933548183
1860700000.0 -0.5926918206 0.2315670121
1870650000.0 -0.552111151 0.269522502
1880600000.0 -0.5106414704 0.3052458288
1890550000.0 -0.4723876608 0.3387641952
1900500000.0 -0.439134639 0.3678612859
1910450000.0 -0.4090407097 0.3880424893
1920400000.0 -0.3792801054 0.3997334386
1930350000.0 -0.3456799946 0.4025903159
1940300000.0 -0.3045294529 0.3945186146
1950250000.0 -0.2579309181 0.3781568653
1960200000.0 -0.2084282389 0.3576921915
1970150000.0 -0.1618292005 0.3337085055
1980100000.0 -0.1223587011 0.3063472075
1990050000.0 -0.0945628566 0.2725391141
2000000000.0 -0.0805825497 0.2292228476
