!Created with skrf (http://scikit-rf.org).
# GHz S RI R 50.0 
!freq ReS11 ImS11
10000000.0 -0.7937930526 0.598170045
19950000.0 -0.2890355874 0.9401869972
29900000.0 0.3184747657 0.9249796093
39850000.0 0.8080873567 0.5532262218
49800000.0 0.9844767058 -0.0496919497
59750000.0 0.7510090367 -0.6518349265
69700000.0 0.1746718872 -0.9833678002
79650000.0 -0.4989436176 -0.8585787573
89600000.0 -0.9326424342 -0.2991597878
99550000.0 -0.8664287795 0.431902115
109500000.0 -0.281654123 0.9250436799
119450000.0 0.5132727773 0.8301882624
129400000.0 0.9761870956 0.1373856322
139350000.0 0.7235233188 -0.667971767
149300000.0 -0.0601800839 -0.9668892301
159250000.0 -0.7631039088 -0.567398229
169200000.0 -0.9260272797 0.1858517455
179150000.0 -0.5186392878 0.7960912505
189100000.0 0.1660270919 0.9440539193
199050000.0 0.7467133515 0.6044806627
209000000.0 0.9536950813 -0.0126211488
218950000.0 0.7293630753 -0.5960552747
228900000.0 0.2063343159 -0.9072057321
238850000.0 -0.3861870861 -0.8388342745
248800000.0 -0.8028246995 -0.412146699
258750000.0 -0.9191806336 0.134307265
268700000.0 -0.6640819457 0.6572841746
278650000.0 -0.1482452867 0.9200869022
288600000.0 0.418819979 0.8161908398
298550000.0 0.8034253488 0.3898580919
308500000.0 0.8453770901 -0.1814350549
318450000.0 0.5242680027 -0.6499666333
328400000.0 -0.0138289706 -0.8039485133
338350000.0 -0.5078816653 -0.5722619679
348300000.0 -0.7027076707 -0.0888650175
358250000.0 -0.5174672057 0.3582182729
368200000.0 -0.1127427984 0.5164206607
378150000.0 0.2248877896 0.3541029357
388100000.0 0.3114472734 0.0546116688
398050000.0 0.1739949332 -0.1552150695
408000000.0 -0.0231101323 -0.1735847456
417950000.0 -0.129769631 -0.0566427419
427900000.0 -0.1013671301 0.0736929453
437850000.0 0.0072384317 0.1212889491
447800000.0 0.1056477927 0.0695333976
457750000.0 0.1332971687 -0.0341643513
467700000.0 0.0795913581 -0.1227745259
477650000.0 -0.0151338056 -0.1490374203
487600000.0 -0.0978510674 -0.1064853517
497550000.0 -0.1266888842 -0.025526461
507500000.0 -0.1036093159 0.0464668313
517450000.0 -0.0446552533 0.0789768262
527400000.0 0.0099693532 0.0655405841
537350000.0 0.0317118252 0.0272252243
547300000.0 0.0199971823 -0.0037105294
557250000.0 -0.0079721421 -0.0080310721
567200000.0 -0.0224660218 0.0160125492
577150000.0 -0.0047522614 0.0453623229
587100000.0 0.0395819691 0.0505895058
597050000.0 0.0842265257 0.0150806372
607000000.0 0.0972612382 -0.0522145443
616950000.0 0.0600999763 -0.1217799218
626900000.0 -0.0195139303 -0.1564587051
636850000.0 -0.1089153634 -0.1319661487
646800000.0 -0.1673059672 -0.0532081979
656750000.0 -0.1648358411 0.0500377873
666700000.0 -0.0957241954 0.1326580585
676650000.0 0.0126432927 0.155732959
686600000.0 0.1133050306 0.1058697886
696550000.0 0.1624324321 0.0059559609
706500000.0 0.1379307816 -0.0991479309
716450000.0 0.054179998 -0.1622862924
726400000.0 -0.0468108042 -0.151919599
736350000.0 -0.1105775621 -0.0758772327
746300000.0 -0.1018955646 0.0237919308
756250000.0 -0.0229055945 0.0910175165
766200000.0 0.0824994591 0.0831567273
776150000.0 0.1540027195 0.000234098
786100000.0 0.1437095486 -0.1141108476
796050000.0 0.0463229386 -0.1929812515
806000000.0 -0.0925812699 -0.1789637398
815950000.0 -0.1979025171 -0.0611586759
825900000.0 -0.2002713213 0.1142317675
835850000.0 -0.0790418452 0.2616156827
845800000.0 0.119111945 0.2998001745
855750000.0 0.3064342115 0.1981692022
865700000.0 0.3906081326 -0.0105633955
875650000.0 0.3197517697 -0.2376673922
885600000.0 0.107242768 -0.3773299403
895550000.0 -0.1613203872 -0.3474695516
905500000.0 -0.3590247457 -0.1440215437
915450000.0 -0.380434637 0.1497442313
925400000.0 -0.2019682156 0.3913596567
935350000.0 0.0952790258 0.4534831271
945300000.0 0.3600172601 0.2955971027
955250000.0 0.4491832206 -0.0098352597
965200000.0 0.2953090058 -0.3114552274
975150000.0 -0.0565895603 -0.4253319346
985100000.0 -0.4091256282 -0.2247714824
995050000.0 -0.4932229092 0.208769009
1005000000.0 -0.190312353 0.5769605588
1014950000.0 0.3287031573 0.5767362999
1024900000.0 0.6916458865 0.1345789167
1034850000.0 0.5649329983 -0.4841645247
1044800000.0 -0.0429905232 -0.787203615
1054750000.0 -0.6722167692 -0.4855755443
1064700000.0 -0.8270352623 0.1699821759
1074650000.0 -0.4941781307 0.7009904795
1084600000.0 0.1146813382 0.8257355806
1094550000.0 0.624114806 0.52065191
1104500000.0 0.7753948073 -0.0778593371
1114450000.0 0.4457744631 -0.5967839725
1124400000.0 -0.1352510682 -0.7057327491
1134350000.0 -0.582542126 -0.3834028574
1144300000.0 -0.6663439977 0.1161541369
1154250000.0 -0.4066480839 0.5092347073
1164200000.0 0.0276393326 0.6188834957
1174150000.0 0.411853535 0.4154589343
1184100000.0 0.561012359 0.008439859
1194050000.0 0.3923148108 -0.3878761717
1204000000.0 0.011366289 -0.5590563991
1213950000.0 -0.3664029686 -0.4451049844
1223900000.0 -0.5797937784 -0.1355342657
1233850000.0 -0.56428012 0.2249227455
1243800000.0 -0.339747761 0.5042781733
1253750000.0 0.0123720119 0.5980580306
1263700000.0 0.3588990455 0.4593263277
1273650000.0 0.556298958 0.1337372793
1283600000.0 0.5209614935 -0.244241828
1293550000.0 0.279509548 -0.5233796853
1303500000.0 -0.0612648693 -0.6159940587
1313450000.0 -0.385564004 -0.512844732
1323400000.0 -0.6017051059 -0.2582136254
1333350000.0 -0.6498483981 0.0739663418
1343300000.0 -0.507080318 0.3897424499
1353250000.0 -0.2022264743 0.5801659187
1363200000.0 0.1696510347 0.5630009861
1373150000.0 0.4673461527 0.3358465786
1383100000.0 0.5836093651 -0.0135178944
1393050000.0 0.4932789084 -0.3542587519
1403000000.0 0.2469601808 -0.5816398865
1412950000.0 -0.0700621612 -0.6419008583
1422900000.0 -0.3655565119 -0.5268436149
1432850000.0 -0.5560595497 -0.2684998881
1442800000.0 -0.5749654554 0.0628563124
1452750000.0 -0.3992958612 0.3565128358
1462700000.0 -0.0831940937 0.5007517153
1472650000.0 0.2537263572 0.4391268848
1482600000.0 0.4855154508 0.2057583417
1492550000.0 0.5421317788 -0.1008868154
1502500000.0 0.4218635167 -0.3728140829
1512450000.0 0.1760964646 -0.5247166367
1522400000.0 -0.1111695522 -0.5070752709
1532350000.0 -0.3383470922 -0.3207984085
1542300000.0 -0.4118731237 -0.0279772469
1552250000.0 -0.2912595146 0.2518452945
1562200000.0 -0.0280326804 0.3967900197
1572150000.0 0.2559656016 0.350566229
1582100000.0 0.4443666171 0.1494004025
1592050000.0 0.469005529 -0.1164116797
1602000000.0 0.3283222264 -0.3436575821
1611950000.0 0.0700469973 -0.4430243493
1621900000.0 -0.2093144551 -0.3632918081
1631850000.0 -0.3910028784 -0.1197168508
1641800000.0 -0.384984831 0.19358914
1651750000.0 -0.1892438145 0.4376385574
1661700000.0 0.1095453344 0.5138218064
1671650000.0 0.3897605339 0.402318714
1681600000.0 0.5554478255 0.1539906268
1691550000.0 0.5568763737 -0.1494726646
1701500000.0 0.3858618285 -0.4125887228
1711450000.0 0.0845466618 -0.544707319
1721400000.0 -0.2551873725 -0.4806605592
1731350000.0 -0.5044206799 -0.2268478572
1741300000.0 -0.5639826467 0.1242066387
1751250000.0 -0.4192238515 0.4398392972
1761200000.0 -0.1371664118 0.6177963064
1771150000.0 0.1841790893 0.6205324009
1781100000.0 0.4566129447 0.4633359847
1791050000.0 0.6143086386 0.1894920533
1801000000.0 0.6113354584 -0.1352097452
1810950000.0 0.4332133974 -0.4222634279
1820900000.0 0.1175164956 -0.5732428022
1830850000.0 -0.2346202025 -0.523132969
1840800000.0 -0.496125679 -0.2888841552
1850750000.0 -0.5844870332 0.0348252105
1860700000.0 -0.4958682112 0.3367257647
1870650000.0 -0.2817055582 0.5398417688
1880600000.0 -0.0090090442 0.6062454295
1890550000.0 0.2541435294 0.5295016343
1900500000.0 0.4404865613 0.3294193647
1910450000.0 0.4928305416 0.0574259683
1920400000.0 0.3894127607 -0.1954841387
1930350000.0 0.1793647578 -0.3476643118
1940300000.0 -0.0698170456 -0.366551132
1950250000.0 -0.2715503512 -0.2582113935
1960200000.0 -0.3722997769 -0.0839344521
1970150000.0 -0.3685462166 0.0879211737
1980100000.0 -0.2891412054 0.2073305449
1990050000.0 -0.181369963 0.2520011695
2000000000.0 -0.0963841763 0.2287008516
