!Created with skrf (http://scikit-rf.org).
# GHz S RI R 50.0 
!freq ReS11 ImS11
10000000.0 -0.7990093966 0.6041409252
19950000.0 -0.2861051779 0.9443032614
29900000.0 0.3254468601 0.9206772044
39850000.0 0.8127501593 0.5399677469
49800000.0 0.9827485884 -0.0676874792
59750000.0 0.7422630121 -0.6696142517
69700000.0 0.1617303736 -0.9961256191
79650000.0 -0.5094613998 -0.8649032715
89600000.0 -0.9365132986 -0.3069336996
99550000.0 -0.8750863846 0.413638098
109500000.0 -0.3160569815 0.9104833677
119450000.0 0.4611181314 0.8602059161
129400000.0 0.9652552275 0.2200802013
139350000.0 0.8074131818 -0.5864731632
149300000.0 0.0758746069 -0.9774965036
159250000.0 -0.6744288704 -0.6754393612
169200000.0 -0.9402038317 0.0562286439
179150000.0 -0.6098754245 0.7259724008
189100000.0 0.0683718116 0.9601189117
199050000.0 0.6985632524 0.6726526751
209000000.0 0.9614295791 0.0534563143
218950000.0 0.7618744445 -0.5613447416
228900000.0 0.2309924036 -0.8996033107
238850000.0 -0.3844687793 -0.8335453475
248800000.0 -0.6709904195 -0.3050695021
258750000.0 -0.914302408 0.1577970774
268700000.0 -0.632751246 0.6916868372
278650000.0 -0.0860436582 0.9307598969
288600000.0 0.4851158239 0.7753421818
298550000.0 0.8303023517 0.2992839913
308500000.0 0.7999109438 -0.2848552463
318450000.0 0.408528656 -0.7113898222
328400000.0 -0.1573354262 -0.7798500651
338350000.0 -0.6105417976 -0.4593157053
348300000.0 -0.7109500749 0.0617262224
358250000.0 -0.432524304 0.4705454778
368200000.0 0.0103781634 0.545803138
378150000.0 0.3293896083 0.3084165333
388100000.0 0.3695328019 -0.0329533148
398050000.0 0.1804954376 -0.2532490693
408000000.0 -0.0602155972 -0.259582972
417950000.0 -0.1967409649 -0.1140454224
427900000.0 -0.1829441899 0.0528933554
437850000.0 -0.0699479053 0.1400126025
447800000.0 0.052115142 0.1215693586
457750000.0 0.1145244902 0.0353174169
467700000.0 0.098139275 -0.0540891577
477650000.0 0.0361813173 -0.0948337166
487600000.0 -0.0196139379 -0.0772679987
497550000.0 -0.0031165452 -0.097184806
507500000.0 -0.0565231908 -0.0091705657
517450000.0 -0.0245496776 0.0096249362
527400000.0 -0.005605332 -0.0006213603
537350000.0 -0.0133642755 -0.0182541714
547300000.0 -0.0439708249 -0.0180105114
557250000.0 -0.068186059 0.0179718017
567200000.0 -0.0590795088 0.0698099262
577150000.0 -0.0099434511 0.1096996745
587100000.0 0.0634859679 0.1068470521
597050000.0 0.1270938332 0.0515834246
607000000.0 0.1446032741 -0.0408426464
616950000.0 0.0998133117 -0.1314909338
626900000.0 0.0059703815 -0.1791947348
636850000.0 -0.0999802751 -0.1613809427
646800000.0 -0.1738226462 -0.0812345051
656750000.0 -0.1837019796 0.0278655391
666700000.0 -0.1225216546 0.1187696165
676650000.0 -0.0177894015 0.1519679985
686600000.0 0.0828852136 0.1113030633
696550000.0 0.1341130382 0.0182423574
706500000.0 0.1136374835 -0.0800106222
716450000.0 0.0376608051 -0.1348750372
726400000.0 -0.049126138 -0.1196516036
736350000.0 -0.094638468 -0.0460270949
746300000.0 -0.0687952857 0.041142269
756250000.0 0.0205758135 0.0866196359
766200000.0 0.1236452903 0.0530131371
776150000.0 0.1776695508 -0.0515730329
786100000.0 0.1405725128 -0.1753558799
796050000.0 0.0155103844 -0.2456254204
806000000.0 -0.142401091 -0.2086984245
815950000.0 -0.2510505917 -0.0618108491
825900000.0 -0.2426812159 0.1392220701
835850000.0 -0.1026056843 0.304426367
845800000.0 0.1198265765 0.350726007
855750000.0 0.3324455015 0.24647623
865700000.0 0.4400332062 0.0259885118
875650000.0 0.3860083422 -0.2244423637
885600000.0 0.1792765177 -0.3945337958
895550000.0 -0.1012130529 -0.4004352764
905500000.0 -0.3340452579 -0.2245712776
915450000.0 -0.4065749351 0.067280387
925400000.0 -0.273550811 0.3400250861
935350000.0 0.0064243531 0.457214966
945300000.0 0.293711893 0.3499464819
955250000.0 0.422953903 0.0617264501
965200000.0 0.2961575567 -0.2416637165
975150000.0 -0.0237384357 -0.3601269539
985100000.0 -0.3531407624 -0.1860146535
995050000.0 -0.4283135041 0.2176976747
1005000000.0 -0.1291464928 0.5520060505
1014950000.0 0.3721816806 0.5167317651
1024900000.0 0.6869201227 0.0492285366
1034850000.0 0.5000837808 -0.5465379283
1044800000.0 -0.1223305503 -0.7879860593
1054750000.0 -0.7126956459 -0.4475554462
1064700000.0 -0.8142359067 0.1828180906
1074650000.0 -0.520182634 0.6789877323
1084600000.0 0.0515841894 0.8302550046
1094550000.0 0.5748777495 0.5708323671
1104500000.0 0.7721824124 0.005862041
1114450000.0 0.5079607571 -0.5310520358
1124400000.0 -0.0447553231 -0.7009651998
1134350000.0 -0.5119269345 -0.4316063702
1144300000.0 -0.6327214042 0.0475609219
1154250000.0 -0.4019219599 0.4401550617
1164200000.0 0.0090425934 0.5539987868
1174150000.0 0.3707122608 0.3623487874
1184100000.0 0.4964622142 -0.0266399255
1194050000.0 0.3089218224 -0.3838510865
1204000000.0 -0.0604188031 -0.5024980224
1213950000.0 -0.3960260226 -0.3503699496
1223900000.0 -0.5514299924 -0.0351805711
1233850000.0 -0.4847885436 0.3000541349
1243800000.0 -0.230233201 0.5297590021
1253750000.0 0.1199479731 0.5627993349
1263700000.0 0.429109857 0.3706519292
1273650000.0 0.5619878532 0.0242762366
1283600000.0 0.4640776342 -0.3318488939
1293550000.0 0.1870937352 -0.5608944663
1303500000.0 -0.1563376361 -0.598067974
1313450000.0 -0.456775787 -0.4512810857
1323400000.0 -0.6342959108 -0.1726805336
1333350000.0 -0.6401494453 0.1623581174
1343300000.0 -0.4590750239 0.4592745893
1353250000.0 -0.1300076773 0.611733734
1363200000.0 0.2394881372 0.549191305
1373150000.0 0.5119177485 0.2872052688
1383100000.0 0.591122638 -0.0742368116
1393050000.0 0.4692266399 -0.4060930098
1403000000.0 0.2047493334 -0.6143739056
1412950000.0 -0.1169912911 -0.6528930596
1422900000.0 -0.4069093908 -0.5203035589
1432850000.0 -0.584319707 -0.2508280973
1442800000.0 -0.589783297 0.0809161818
1452750000.0 -0.4084898981 0.3703970708
1462700000.0 -0.0913601203 0.5147782677
1472650000.0 0.2503926746 0.4585506454
1482600000.0 0.4950210786 0.2295005447
1492550000.0 0.5683947649 -0.0818890908
1502500000.0 0.4625145157 -0.3681256739
1512450000.0 0.2230919864 -0.5415226142
1522400000.0 -0.0700170042 -0.5493416539
1532350000.0 -0.3175711995 -0.3854335129
1542300000.0 -0.4269405311 -0.1013907693
1552250000.0 -0.3472330708 0.1962672024
1562200000.0 -0.1088030201 0.3836731777
1572150000.0 0.181770457 0.3880625962
1582100000.0 0.4020674317 0.2249298587
1592050000.0 0.473015907 -0.0263034304
1602000000.0 0.3792222479 -0.2634961274
1611950000.0 0.1570411303 -0.3975222882
1621900000.0 -0.1112709564 -0.369688374
1631850000.0 -0.3151093796 -0.1759952958
1641800000.0 -0.3560641747 0.1105188181
1651750000.0 -0.2097136072 0.3593101238
1661700000.0 0.0533535074 0.4599494522
1671650000.0 0.3130100483 0.3831370008
1681600000.0 0.4756292221 0.180648322
1691550000.0 0.5078913186 -0.0860019666
1701500000.0 0.3754558405 -0.3436437036
1711450000.0 0.1033718163 -0.4861958126
1721400000.0 -0.2169995376 -0.4427891886
1731350000.0 -0.4594868728 -0.2136224129
1741300000.0 -0.5234927398 0.1156968301
1751250000.0 -0.3882444946 0.4157017306
1761200000.0 -0.1176955044 0.5824786451
1771150000.0 0.189642774 0.5769213076
1781100000.0 0.4449056406 0.4160539044
1791050000.0 0.5830358469 0.1469835276
1801000000.0 0.5629975646 -0.1629282733
1810950000.0 0.3769949295 -0.4254315454
1820900000.0 0.0680786602 -0.5477494983
1830850000.0 -0.2616341064 -0.4743425874
1840800000.0 -0.4895779197 -0.2314429729
1850750000.0 -0.5446610125 0.0823290109
1860700000.0 -0.4328564393 0.3588751557
1870650000.0 -0.211113084 0.5287228592
1880600000.0 0.0515659577 0.5627945857
1890550000.0 0.2886709248 0.4627661778
1900500000.0 0.4388619097 0.2541845783
1910450000.0 0.4543159497 -0.0035361048
1920400000.0 0.3257352849 -0.2264842421
1930350000.0 0.1032671542 -0.3355640641
1940300000.0 -0.1253591473 -0.302728638
1950250000.0 -0.2797621085 -0.1695525881
1960200000.0 -0.3289820639 -0.0035984051
1970150000.0 -0.2884545683 0.1320875224
1980100000.0 -0.2017715034 0.1992476506
1990050000.0 -0.1234714106 0.1927486517
2000000000.0 -0.1002884059 0.1499399954
