!Created with skrf (http://scikit-rf.org).
# GHz S RI R 50.0 
!freq ReS11 ImS11
10000000.0 -0.9713154766 0.179106218
19950000.0 -0.9380108492 0.3466828066
29900000.0 -0.8789377664 0.5037289635
39850000.0 -0.7796557196 0.6453352409
49800000.0 -0.641796244 0.7643365777
59750000.0 -0.4662539946 0.8582012414
69700000.0 -0.2564110586 0.9247824078
79650000.0 -0.0165763751 0.9568937965
89600000.0 0.2493600547 0.9362321451
99550000.0 0.5251706549 0.8334273054
109500000.0 0.7729037468 0.6183101872
119450000.0 0.9354536287 0.2866982603
129400000.0 0.9571841997 -0.120734002
139350000.0 0.8128612258 -0.5254009106
149300000.0 0.5250307777 -0.8401908552
159250000.0 0.1593947246 -1.001363646
169200000.0 -0.2002706377 -0.9972486673
179150000.0 -0.4959545922 -0.8674731506
189100000.0 -0.7097303512 -0.6707085552
199050000.0 -0.8517959212 -0.4511931784
209000000.0 -0.9360076323 -0.2328161405
218950000.0 -0.9758066875 -0.0279444288
228900000.0 -0.9712383778 0.1570171323
238850000.0 -0.9249842659 0.3188223272
248800000.0 -0.8445881575 0.455956712
258750000.0 -0.7386316035 0.5762532707
268700000.0 -0.61629035 0.6811887655
278650000.0 -0.4822152686 0.7724058814
288600000.0 -0.3385972151 0.8453128567
298550000.0 -0.1862826734 0.891800172
308500000.0 -0.0273778333 0.9000798681
318450000.0 0.1336134714 0.8599428271
328400000.0 0.288605596 0.7696540191
338350000.0 0.4230807987 0.6325415066
348300000.0 0.5228056573 0.4578538648
358250000.0 0.567166147 0.2621735158
368200000.0 0.5395766268 0.0730290785
378150000.0 0.441710128 -0.0723743901
388100000.0 0.2978646315 -0.1508096784
398050000.0 0.147338584 -0.1640159262
408000000.0 0.0196981907 -0.1315652897
417950000.0 -0.0673071535 -0.0747221779
427900000.0 -0.1150961282 -0.0125819584
437850000.0 -0.1219298269 0.0439417543
447800000.0 -0.1040119902 0.0915407276
457750000.0 -0.0687332655 0.1282329338
467700000.0 -0.0273671482 0.1567442879
477650000.0 0.0079587556 0.173095557
487600000.0 0.038486544 0.1749680608
497550000.0 0.0563935178 0.1665270928
507500000.0 0.0652433715 0.1387241569
517450000.0 0.0692301368 0.1032786548
527400000.0 0.0660012415 0.0632698569
537350000.0 0.0539490515 0.0221166419
547300000.0 0.0127185425 0.0157457098
557250000.0 0.0440611775 0.0268654382
567200000.0 0.0311861412 0.0173606352
577150000.0 0.0057482412 0.0235394402
587100000.0 -0.0252640317 0.0377928666
597050000.0 -0.055354045 0.054424665
607000000.0 -0.0785469609 0.0708910713
616950000.0 -0.0900909527 0.0859577418
626900000.0 -0.0858824656 0.1015724609
636850000.0 -0.0687971801 0.1196720514
646800000.0 -0.0410115004 0.1397039417
656750000.0 -0.0088505744 0.1628595088
666700000.0 0.0216211116 0.1828469002
676650000.0 0.050729545 0.1947551458
686600000.0 0.0734835145 0.1958372769
696550000.0 0.0941021027 0.178474942
706500000.0 0.1145158157 0.1476752366
716450000.0 0.135396927 0.1043634263
726400000.0 0.154618262 0.0564172992
736350000.0 0.1684181985 0.0071449591
746300000.0 0.1730351736 -0.0366610446
756250000.0 0.1603812243 -0.0736670448
766200000.0 0.1298925326 -0.1035264863
776150000.0 0.0793948217 -0.1267105415
786100000.0 0.0157168396 -0.1432277092
796050000.0 -0.0551492606 -0.1524871945
806000000.0 -0.1255643704 -0.1515886684
815950000.0 -0.1856455196 -0.1355010097
825900000.0 -0.2323928364 -0.0993155965
835850000.0 -0.2615074597 -0.0447809053
845800000.0 -0.2761994796 0.0291978463
855750000.0 -0.2770500572 0.1143877822
865700000.0 -0.2656681391 0.205348779
875650000.0 -0.2386765842 0.2885873272
885600000.0 -0.1938933933 0.3584539398
895550000.0 -0.1288369343 0.4078757032
905500000.0 -0.0431772493 0.4317363299
915450000.0 0.060326316 0.4333519251
925400000.0 0.1742542263 0.4107019632
935350000.0 0.2941913194 0.3625476197
945300000.0 0.4057588402 0.2860354142
955250000.0 0.4935486662 0.174215413
965200000.0 0.5397131722 0.0249849416
975150000.0 0.5258328992 -0.1569424511
985100000.0 0.4382808705 -0.3559369805
995050000.0 0.2659726219 -0.5443911057
1005000000.0 0.0032928913 -0.669877115
1014950000.0 -0.3206418211 -0.6649164526
1024900000.0 -0.6216641336 -0.4815036663
1034850000.0 -0.7949598815 -0.1530486171
1044800000.0 -0.7965600824 0.221063604
1054750000.0 -0.6440253826 0.547160678
1064700000.0 -0.3804834601 0.758188024
1074650000.0 -0.1406238093 0.7972692749
1084600000.0 0.1199416424 0.8280458282
1094550000.0 0.3692068713 0.725170763
1104500000.0 0.560952765 0.5561476303
1114450000.0 0.6895932968 0.3564262707
1124400000.0 0.7568461957 0.1476736326
1134350000.0 0.7617571012 -0.0550273522
1144300000.0 0.7034322434 -0.2395719709
1154250000.0 0.5924176497 -0.3914457362
1164200000.0 0.4466526939 -0.5068531172
1174150000.0 0.2859587815 -0.5861980248
1184100000.0 0.127688495 -0.6314013511
1194050000.0 -0.0211290035 -0.6464278067
1204000000.0 -0.1548821457 -0.6272598335
1213950000.0 -0.269297594 -0.5784395735
1223900000.0 -0.3670931401 -0.4985755772
1233850000.0 -0.4443715665 -0.399107352
1243800000.0 -0.5080008365 -0.2896185575
1253750000.0 -0.5581754334 -0.1815756629
1263700000.0 -0.5927944334 -0.0807793981
1273650000.0 -0.6116462896 0.0112638238
1283600000.0 -0.6095621432 0.0922816186
1293550000.0 -0.5873988624 0.1677231129
1303500000.0 -0.5465233257 0.2403164709
1313450000.0 -0.4925806135 0.3137361185
1323400000.0 -0.4323467498 0.3875881524
1333350000.0 -0.371730814 0.4582770752
1343300000.0 -0.312056945 0.5206681864
1353250000.0 -0.2528295479 0.5686433467
1363200000.0 -0.1932779482 0.5982706297
1373150000.0 -0.1292135 0.608677432
1383100000.0 -0.0578719123 0.603256139
1393050000.0 0.0194278664 0.5889365508
1403000000.0 0.1027075831 0.5711264343
1412950000.0 0.186793318 0.5525519423
1422900000.0 0.266859946 0.5324506029
1432850000.0 0.3362041597 0.5068400899
1442800000.0 0.3925159899 0.4716687667
1452750000.0 0.4348854315 0.423081275
1462700000.0 0.4662692677 0.359338303
1472650000.0 0.4928122018 0.2839436827
1482600000.0 0.5159357721 0.2009618108
1492550000.0 0.5386457044 0.1157760441
1502500000.0 0.5560864386 0.0311830081
1512450000.0 0.5636206031 -0.048677354
1522400000.0 0.5544861979 -0.1239953935
1532350000.0 0.5239773555 -0.1921821092
1542300000.0 0.4753844571 -0.2534888308
1552250000.0 0.4131335879 -0.31051789
1562200000.0 0.348552375 -0.363931056
1572150000.0 0.2824359631 -0.4203304783
1582100000.0 0.2103140269 -0.4721406275
1592050000.0 0.1331457732 -0.509991563
1602000000.0 0.0525046095 -0.5284855677
1611950000.0 -0.0312077294 -0.5235219272
1621900000.0 -0.1164247714 -0.4997069429
1631850000.0 -0.2008348179 -0.4632278298
1641800000.0 -0.2818827435 -0.4215725355
1651750000.0 -0.3565299778 -0.3757328599
1661700000.0 -0.4222221723 -0.3259526671
1671650000.0 -0.4752049546 -0.2685839457
1681600000.0 -0.5103372332 -0.1989507132
1691550000.0 -0.5284312526 -0.119917128
1701500000.0 -0.5336867393 -0.0334662894
1711450000.0 -0.5303838716 0.0537837311
1721400000.0 -0.5243382109 0.1352600338
1731350000.0 -0.5155380733 0.2095403838
1741300000.0 -0.5024324194 0.2729367065
1751250000.0 -0.4794868666 0.3279006259
1761200000.0 -0.441754126 0.3745478025
1771150000.0 -0.3883663773 0.4152785362
1781100000.0 -0.3225599575 0.4525606316
1791050000.0 -0.2521118799 0.4877171488
1801000000.0 -0.1851666207 0.5213785194
1810950000.0 -0.1258014443 0.5492099567
1820900000.0 -0.075811768 0.5684826264
1830850000.0 -0.0303831529 0.5733381611
1840800000.0 0.0138038996 0.5614014259
1850750000.0 0.0608949109 0.5337254932
1860700000.0 0.1138816578 0.4946536745
1870650000.0 0.1714415649 0.4504696997
1880600000.0 0.2285896162 0.4054565868
1890550000.0 0.2729241694 0.3641130868
1900500000.0 0.2979949956 0.3358226485
1910450000.0 0.3153088901 0.3114403523
1920400000.0 0.3137240902 0.2791624771
1930350000.0 0.297222467 0.237751582
1940300000.0 0.2719665382 0.186837363
1950250000.0 0.2438993689 0.1293201416
1960200000.0 0.2178960157 0.074671009
1970150000.0 0.1912506644 0.0287939565
1980100000.0 0.1636616081 0.0006402458
1990050000.0 0.1254673002 -0.0070736368
2000000000.0 0.0712145245 0.0063759403
