!Created with skrf (http://scikit-rf.org).
# GHz S RI R 50.0 
!freq ReS11 ImS11
10000000.0 -0.8067880682 0.6063568644
19950000.0 -0.2922734262 0.9485864213
29900000.0 0.3210411398 0.9283612174
39850000.0 0.8121071901 0.5523279594
49800000.0 0.989703835 -0.0519669002
59750000.0 0.7599631389 -0.6558398519
69700000.0 0.1880845225 -0.993227455
79650000.0 -0.4849225583 -0.8802188281
89600000.0 -0.9285017794 -0.3384136232
99550000.0 -0.8936752628 0.3804367268
109500000.0 -0.357653224 0.8966705704
119450000.0 0.417902902 0.8810362266
129400000.0 0.9250032436 0.2402074868
139350000.0 0.8345416791 -0.5436419268
149300000.0 0.1201560602 -0.9729235849
159250000.0 -0.6493082701 -0.7032723982
169200000.0 -0.9451349998 0.0247922267
179150000.0 -0.6311509341 0.7116775373
189100000.0 0.0511230418 0.9643158252
199050000.0 0.6946300907 0.6835878439
209000000.0 0.966862233 0.0602613242
218950000.0 0.7677639143 -0.5618355732
228900000.0 0.2312853076 -0.9042272655
238850000.0 -0.3920067825 -0.8356988365
248800000.0 -0.5723360148 -0.3431351443
258750000.0 -0.9209464285 0.1542088249
268700000.0 -0.6375443832 0.6934445781
278650000.0 -0.0853993073 0.933407876
288600000.0 0.4907920443 0.7749626839
298550000.0 0.8362858577 0.2941084996
308500000.0 0.8014571645 -0.2918634514
318450000.0 0.4057412627 -0.7156345927
328400000.0 -0.1614660671 -0.7794229123
338350000.0 -0.6130152589 -0.454798258
348300000.0 -0.7090286252 0.0674612125
358250000.0 -0.4270894352 0.4735521843
368200000.0 0.0153793946 0.5451531208
378150000.0 0.3319056151 0.3066164323
388100000.0 0.3701963184 -0.034309634
398050000.0 0.1807973705 -0.254622449
408000000.0 -0.0607353286 -0.2612637432
417950000.0 -0.1984709101 -0.1154737688
427900000.0 -0.1852419815 0.0522515461
437850000.0 -0.0725367476 0.1404500986
447800000.0 0.049050209 0.1236786843
457750000.0 0.1115881486 0.040601178
467700000.0 0.0986501392 -0.0454792071
477650000.0 0.0419084007 -0.08627449
487600000.0 -0.0091150229 -0.0716095166
497550000.0 -0.0062195082 -0.1270394716
507500000.0 -0.0545088109 -0.0138342117
517450000.0 -0.0246407468 0.0018730693
527400000.0 -0.0106189615 -0.0102850501
537350000.0 -0.0240674495 -0.0262485022
547300000.0 -0.0591683828 -0.0192163223
557250000.0 -0.0803524036 0.0247423026
567200000.0 -0.0648146515 0.0808967821
577150000.0 -0.0077134481 0.1210200832
587100000.0 0.072066653 0.115298316
597050000.0 0.1394598073 0.0539879501
607000000.0 0.1567379033 -0.0450249366
616950000.0 0.1079520704 -0.1413828305
626900000.0 0.0079334986 -0.1919514381
636850000.0 -0.1058459651 -0.1725183974
646800000.0 -0.1852559105 -0.0881480128
656750000.0 -0.1963074496 0.0273995309
666700000.0 -0.1328226438 0.1244470637
676650000.0 -0.0227736839 0.1606518211
686600000.0 0.0836820784 0.120430293
696550000.0 0.1394778356 0.0258227029
706500000.0 0.1220423659 -0.0753281108
716450000.0 0.0474081412 -0.133787105
726400000.0 -0.0405806185 -0.1220421981
736350000.0 -0.0883830864 -0.0504126519
746300000.0 -0.0658700099 0.0356581044
756250000.0 0.019637646 0.0803881592
766200000.0 0.1183437651 0.0479648025
776150000.0 0.1689507268 -0.0532760071
786100000.0 0.1301285255 -0.1716586308
796050000.0 0.0067875854 -0.236558134
806000000.0 -0.1464846722 -0.1963399019
815950000.0 -0.2482718082 -0.048674087
825900000.0 -0.2327658113 0.1487598354
835850000.0 -0.0875712844 0.3054515442
845800000.0 0.1336188127 0.3415696407
855750000.0 0.337984294 0.229473732
865700000.0 0.4322300969 0.0070316365
875650000.0 0.3647619912 -0.2352317544
885600000.0 0.1504234789 -0.3905968429
895550000.0 -0.1268129397 -0.3761062631
905500000.0 -0.3414122483 -0.1843417214
915450000.0 -0.3846802591 0.1075754318
925400000.0 -0.2249032059 0.3588379459
935350000.0 0.0646026973 0.4360768339
945300000.0 0.3314227204 0.2846795179
955250000.0 0.4091239137 -0.029587341
965200000.0 0.2084345142 -0.3192726737
975150000.0 -0.1817896746 -0.3509159413
985100000.0 -0.4712707983 -0.0240714678
995050000.0 -0.3645338486 0.4475936277
1005000000.0 0.1214904236 0.6550583673
1014950000.0 0.6222939169 0.371409958
1024900000.0 0.7251961117 -0.2431625081
1034850000.0 0.2932006063 -0.7475790295
1044800000.0 -0.3899335373 -0.7427927372
1054750000.0 -0.8175984058 -0.2298782481
1064700000.0 -0.7642207838 0.3261785616
1074650000.0 -0.3777202228 0.7670222991
1084600000.0 0.2015931838 0.802749206
1094550000.0 0.6516147862 0.4471945001
1104500000.0 0.7382285092 -0.1206818836
1114450000.0 0.4029633977 -0.5819993725
1124400000.0 -0.140364386 -0.6578811708
1134350000.0 -0.5407367886 -0.3418627349
1144300000.0 -0.5930908003 0.1216743233
1154250000.0 -0.3314463042 0.4626237864
1164200000.0 0.0679637313 0.5272108885
1174150000.0 0.3974697401 0.307951826
1184100000.0 0.4794587658 -0.0820161029
1194050000.0 0.2632239186 -0.411607283
1204000000.0 -0.1094971413 -0.4946510224
1213950000.0 -0.426950973 -0.3181457183
1223900000.0 -0.557148112 0.0053226977
1233850000.0 -0.4671755787 0.334859983
1243800000.0 -0.1957196063 0.5481518441
1253750000.0 0.1589862907 0.5579793465
1263700000.0 0.4580353513 0.3465824692
1273650000.0 0.5720522998 -0.0093704876
1283600000.0 0.453356112 -0.3628217276
1293550000.0 0.1637231971 -0.5788360056
1303500000.0 -0.183844806 -0.6008218105
1313450000.0 -0.4813620366 -0.4402585195
1323400000.0 -0.6495422606 -0.1518718402
1333350000.0 -0.6417130922 0.1862984047
1343300000.0 -0.4467253175 0.4785701543
1353250000.0 -0.1086862322 0.6207692403
1363200000.0 0.2620577752 0.5463596478
1373150000.0 0.5291313663 0.2753393444
1383100000.0 0.6002632093 -0.0893139788
1393050000.0 0.4708531719 -0.4206555675
1403000000.0 0.1993677183 -0.6252461721
1412950000.0 -0.1267929486 -0.6577938674
1422900000.0 -0.4185755681 -0.5181684252
1432850000.0 -0.59322052 -0.2425060116
1442800000.0 -0.5928950609 0.0909817229
1452750000.0 -0.4074373475 0.377899053
1462700000.0 -0.0901380913 0.5204518271
1472650000.0 0.2518208042 0.4655816491
1482600000.0 0.4990515362 0.2371725484
1492550000.0 0.5759826803 -0.0740989787
1502500000.0 0.4740045748 -0.3624467904
1512450000.0 0.2366835501 -0.5410642004
1522400000.0 -0.059156662 -0.5553818129
1532350000.0 -0.3142399933 -0.3942527111
1542300000.0 -0.429791515 -0.107819282
1552250000.0 -0.3527323017 0.1933169696
1562200000.0 -0.1149970159 0.3832628915
1572150000.0 0.1755178077 0.3915111916
1582100000.0 0.3987289947 0.2312347563
1592050000.0 0.4750128398 -0.0209295022
1602000000.0 0.3826465376 -0.2626641747
1611950000.0 0.1583898857 -0.4003486615
1621900000.0 -0.1136590713 -0.372589639
1631850000.0 -0.3190497248 -0.1756827785
1641800000.0 -0.3595668749 0.1131190122
1651750000.0 -0.2116907161 0.3648923905
1661700000.0 0.0564756191 0.4694410762
1671650000.0 0.3268026716 0.3907600658
1681600000.0 0.497103655 0.1690956028
1691550000.0 0.5098392967 -0.1140037116
1701500000.0 0.3551521675 -0.3632461403
1711450000.0 0.0747965352 -0.4885487055
1721400000.0 -0.2427364246 -0.4279203039
1731350000.0 -0.472167091 -0.1871815422
1741300000.0 -0.5172815673 0.1429665568
1751250000.0 -0.3676453378 0.4321931876
1761200000.0 -0.0921770428 0.5831324917
1771150000.0 0.2112929808 0.5630114135
1781100000.0 0.4541939988 0.3912179191
1791050000.0 0.5687290762 0.1243257734
1801000000.0 0.5568045215 -0.1680243551
1810950000.0 0.359578753 -0.433734699
1820900000.0 0.0435815302 -0.5406469203
1830850000.0 -0.2768917362 -0.4539056181
1840800000.0 -0.4912858722 -0.2110661962
1850750000.0 -0.5391390613 0.0963509469
1860700000.0 -0.4253946184 0.3676415744
1870650000.0 -0.2019811279 0.5340446356
1880600000.0 0.0623698508 0.5641170006
1890550000.0 0.3004574354 0.457912215
1900500000.0 0.448893968 0.2429825642
1910450000.0 0.4565136633 -0.0204149422
1920400000.0 0.3158372242 -0.2422174092
1930350000.0 0.0831355964 -0.3409740652
1940300000.0 -0.1458353521 -0.2960731384
1950250000.0 -0.2917878445 -0.1504398333
1960200000.0 -0.3258994376 0.0191042349
1970150000.0 -0.2697526078 0.1466710741
1980100000.0 -0.1743978361 0.1927595482
1990050000.0 -0.1067053053 0.1588712072
2000000000.0 -0.1259867161 0.1004106474
