!Created with skrf (http://scikit-rf.org).
# GHz S RI R 50.0 
!freq ReS11 ImS11
10000000.0 -0.7912993075 0.5981453812
19950000.0 -0.2846407883 0.9388560085
29900000.0 0.3237436826 0.9201397002
39850000.0 0.8111533873 0.5443622912
49800000.0 0.982509018 -0.0597826874
59750000.0 0.7446491325 -0.6585800452
69700000.0 0.1691361681 -0.9844519855
79650000.0 -0.4981768191 -0.8594557481
89600000.0 -0.9291287252 -0.3104074486
99550000.0 -0.8774913845 0.4077152193
109500000.0 -0.3247033545 0.9093510753
119450000.0 0.4524425854 0.8633157565
129400000.0 0.9574510697 0.227400886
139350000.0 0.7984832127 -0.5811061262
149300000.0 0.0671715529 -0.9702107881
159250000.0 -0.6816855428 -0.6655223942
169200000.0 -0.940530512 0.0685287355
179150000.0 -0.5996769517 0.7324762987
189100000.0 0.0816472365 0.9522870709
199050000.0 0.702644996 0.6535385867
209000000.0 0.9526151146 0.0345217088
218950000.0 0.7456379476 -0.5729426499
228900000.0 0.2135578992 -0.9023451771
238850000.0 -0.3977842593 -0.828513924
248800000.0 -0.7110245531 -0.4446830263
258750000.0 -0.9087269284 0.1692437072
268700000.0 -0.6198705719 0.6924734698
278650000.0 -0.0746097461 0.9217745654
288600000.0 0.4909267051 0.7634181951
298550000.0 0.8321207742 0.2899960937
308500000.0 0.801223532 -0.2900400147
318450000.0 0.4115181492 -0.7134396758
328400000.0 -0.1513933741 -0.7806742961
338350000.0 -0.6025726122 -0.4622246065
348300000.0 -0.7048305528 0.0556109783
358250000.0 -0.4316343956 0.4647840088
368200000.0 0.0078249018 0.5441152715
378150000.0 0.3257707943 0.3110902849
388100000.0 0.365143929 -0.0252485931
398050000.0 0.179273968 -0.2401417178
408000000.0 -0.0553314181 -0.2445309095
417950000.0 -0.1859241743 -0.1018239599
427900000.0 -0.1692999626 0.0586676895
437850000.0 -0.0583237541 0.1384362328
447800000.0 0.0573418056 0.1152045796
457750000.0 0.1121813462 0.0287204775
467700000.0 0.0899312207 -0.0570322708
477650000.0 0.0264755254 -0.0921326204
487600000.0 -0.0237142377 -0.0695407814
497550000.0 -0.0829644134 -0.0763980041
507500000.0 -0.0622641212 -0.0003291967
517450000.0 -0.0297993603 0.0156295484
527400000.0 -0.0104579513 0.0035667455
537350000.0 -0.0191204916 -0.0146774151
547300000.0 -0.0474095336 -0.0105558922
557250000.0 -0.0656065701 0.0232231017
567200000.0 -0.0521106417 0.0712870088
577150000.0 0.0002006271 0.1046896708
587100000.0 0.0727883457 0.0944620257
597050000.0 0.1314480694 0.0331037293
607000000.0 0.1408807474 -0.0611274728
616950000.0 0.0878233521 -0.1484334949
626900000.0 -0.0114672715 -0.1887971171
636850000.0 -0.1183715841 -0.1596224408
646800000.0 -0.1859890428 -0.0687100829
656750000.0 -0.1850610879 0.0457624866
666700000.0 -0.1123450423 0.1358658035
676650000.0 0.001453956 0.1630890253
686600000.0 0.1066857869 0.1134078253
696550000.0 0.1566548635 0.0108234347
706500000.0 0.1301875229 -0.0939473492
716450000.0 0.0460294174 -0.151593824
726400000.0 -0.0495908494 -0.1346948792
736350000.0 -0.1018119818 -0.0562499897
746300000.0 -0.0804789731 0.036896309
756250000.0 0.0060588193 0.0890246747
766200000.0 0.1082207449 0.0622508536
776150000.0 0.1642224159 -0.034929696
786100000.0 0.1319832779 -0.1523951175
796050000.0 0.014713157 -0.2187236288
806000000.0 -0.1326889202 -0.1819736658
815950000.0 -0.2298022825 -0.0417679816
825900000.0 -0.2129433388 0.1452105207
835850000.0 -0.0727518948 0.2904939183
845800000.0 0.1381758486 0.3177187751
855750000.0 0.3283620161 0.2027528381
865700000.0 0.4096613807 -0.0144465611
875650000.0 0.3334856616 -0.2463465025
885600000.0 0.1183352549 -0.3854820702
895550000.0 -0.149175186 -0.3588578049
905500000.0 -0.3492616066 -0.1639570298
915450000.0 -0.3814766378 0.1222498955
925400000.0 -0.2192020951 0.3646045942
935350000.0 0.064390067 0.4405335211
945300000.0 0.3293570581 0.3028191467
955250000.0 0.4282242939 0.007775163
965200000.0 0.2766472218 -0.28929897
975150000.0 -0.0685710186 -0.3871184415
985100000.0 -0.3938357667 -0.1706813404
995050000.0 -0.4338863285 0.2516734979
1005000000.0 -0.100428478 0.5722163456
1014950000.0 0.407050936 0.4987192291
1024900000.0 0.6915924755 0.0020888146
1034850000.0 0.4532097351 -0.5840067498
1044800000.0 -0.1983072152 -0.7638065452
1054750000.0 -0.7509045839 -0.3537358496
1064700000.0 -0.7809717847 0.3115805549
1074650000.0 -0.3080991853 0.7009320882
1084600000.0 0.1185047362 0.7923843616
1094550000.0 0.6461163551 0.4681586042
1104500000.0 0.7467135236 -0.1351933325
1114450000.0 0.3808087144 -0.6110411985
1124400000.0 -0.1876888863 -0.6633275164
1134350000.0 -0.5845916597 -0.3154462451
1144300000.0 -0.6171057746 0.167250702
1154250000.0 -0.3292039967 0.5121383799
1164200000.0 0.0935268917 0.5633665302
1174150000.0 0.4290505255 0.321694799
1184100000.0 0.5064854198 -0.084877695
1194050000.0 0.2813967303 -0.423928783
1204000000.0 -0.0982110128 -0.5137049529
1213950000.0 -0.4256972079 -0.3416955686
1223900000.0 -0.5665008854 -0.0184310413
1233850000.0 -0.4855628164 0.3142361633
1243800000.0 -0.2224872596 0.5340636069
1253750000.0 0.1286404058 0.5550308228
1263700000.0 0.4308940686 0.3531514509
1273650000.0 0.5519071133 0.0048285838
1283600000.0 0.4437425127 -0.3451681606
1293550000.0 0.1620098136 -0.5621775682
1303500000.0 -0.1785667593 -0.5855854107
1313450000.0 -0.4682443474 -0.4270121858
1323400000.0 -0.628523992 -0.1431226187
1333350000.0 -0.6140087067 0.1874830263
1343300000.0 -0.4154058071 0.468383254
1353250000.0 -0.079948658 0.5952840347
1363200000.0 0.2787772882 0.5061877622
1373150000.0 0.5249841655 0.2279330768
1383100000.0 0.5711557612 -0.1317529215
1393050000.0 0.4208948932 -0.443819429
1403000000.0 0.1406653051 -0.6191850199
1412950000.0 -0.1788917265 -0.6193852861
1422900000.0 -0.4476961531 -0.4525799679
1432850000.0 -0.5872101685 -0.1619510374
1442800000.0 -0.5436633376 0.1687901037
1452750000.0 -0.3155180025 0.4262006601
1462700000.0 0.0230996262 0.5097307613
1472650000.0 0.3427938789 0.3871031482
1482600000.0 0.5285726372 0.1167076942
1492550000.0 0.5300428918 -0.1952303343
1502500000.0 0.3643072158 -0.4429461079
1512450000.0 0.0932379062 -0.5516699555
1522400000.0 -0.1924050545 -0.4839031986
1532350000.0 -0.3875642757 -0.2567692788
1542300000.0 -0.4082904613 0.0473737281
1552250000.0 -0.2437748593 0.2969447844
1562200000.0 0.0188670053 0.3970689171
1572150000.0 0.2848568112 0.3343744424
1582100000.0 0.4593837737 0.1272885344
1592050000.0 0.4706929644 -0.1394620526
1602000000.0 0.3187891053 -0.3595405993
1611950000.0 0.0578716241 -0.4474916661
1621900000.0 -0.2161743763 -0.3592855758
1631850000.0 -0.3897147554 -0.1134989393
1641800000.0 -0.3765479734 0.1959516757
1651750000.0 -0.1773441072 0.4323434735
1661700000.0 0.117389015 0.498308182
1671650000.0 0.3875784528 0.3813749523
1681600000.0 0.5395625474 0.1339800828
1691550000.0 0.5256228432 -0.158581023
1701500000.0 0.34637345 -0.394727026
1711450000.0 0.0750085523 -0.4927217342
1721400000.0 -0.2301104556 -0.4471934115
1731350000.0 -0.4752441423 -0.2148258971
1741300000.0 -0.5345687534 0.1271787446
1751250000.0 -0.3880827911 0.431629572
1761200000.0 -0.108375474 0.5957891234
1771150000.0 0.2033788811 0.5850136546
1781100000.0 0.4589408154 0.4184517502
1791050000.0 0.5936078573 0.1445267932
1801000000.0 0.5667319557 -0.1670684753
1810950000.0 0.3729201769 -0.4265563059
1820900000.0 0.059211378 -0.5406785421
1830850000.0 -0.2679610685 -0.4589084576
1840800000.0 -0.4883547234 -0.2129975611
1850750000.0 -0.5355049403 0.097935646
1860700000.0 -0.4184067565 0.3671934983
1870650000.0 -0.1954808502 0.5263875477
1880600000.0 0.062703741 0.5488614485
1890550000.0 0.2885478338 0.439522628
1900500000.0 0.4215397696 0.2296346168
1910450000.0 0.4199968237 -0.0174831545
1920400000.0 0.2845345102 -0.2187927463
1930350000.0 0.0709746086 -0.3049261702
1940300000.0 -0.1340318706 -0.2616310275
1950250000.0 -0.2615236124 -0.1333575689
1960200000.0 -0.2919456716 0.0118250848
1970150000.0 -0.2478926635 0.1194948854
1980100000.0 -0.1753045931 0.1622140266
1990050000.0 -0.1239510398 0.1468399868
2000000000.0 -0.1243595636 0.1164774401
