!Created with skrf (http://scikit-rf.org).
# GHz S RI R 50.0 
!freq ReS11 ImS11
10000000.0 -0.8005557738 0.6037781108
19950000.0 -0.2889855941 0.9467229692
29900000.0 0.3233912302 0.9284249536
39850000.0 0.8142400475 0.5529218656
49800000.0 0.9901239548 -0.0514941289
59750000.0 0.7579145909 -0.6534541886
69700000.0 0.1856903118 -0.9872951189
79650000.0 -0.4847744134 -0.8727604827
89600000.0 -0.9266506632 -0.332344063
99550000.0 -0.8920335575 0.3849928637
109500000.0 -0.3562098548 0.8997432431
119450000.0 0.4174651842 0.8815371042
129400000.0 0.9475707248 0.2697026807
139350000.0 0.8287712018 -0.5399287103
149300000.0 0.1192673362 -0.9681533132
159250000.0 -0.6482471897 -0.7040508608
169200000.0 -0.9478166784 0.0200161784
179150000.0 -0.6378766624 0.7068665665
189100000.0 0.0409912741 0.9614710817
199050000.0 0.683487605 0.6856172697
209000000.0 0.9601458458 0.0677356322
218950000.0 0.7693619332 -0.5548847969
228900000.0 0.2385721676 -0.9032860461
238850000.0 -0.3838705264 -0.8423412287
248800000.0 -0.7122837138 -0.2395686216
258750000.0 -0.9208309381 0.1402077425
268700000.0 -0.6435349792 0.6805802835
278650000.0 -0.0969279033 0.9264090617
288600000.0 0.4789201431 0.7781958047
298550000.0 0.8323393961 0.3063406972
308500000.0 0.8102541674 -0.2780888569
318450000.0 0.4254350523 -0.709281928
328400000.0 -0.1385086457 -0.7865114485
338350000.0 -0.5979825797 -0.4754049644
348300000.0 -0.7117857729 0.0430095371
358250000.0 -0.4466123497 0.4613144203
368200000.0 -0.0060992183 0.5540321654
378150000.0 0.3239452936 0.3302675006
388100000.0 0.3800238208 -0.0102616082
398050000.0 0.2013844244 -0.2415853779
408000000.0 -0.0405451616 -0.2616835529
417950000.0 -0.1865895611 -0.1243774785
427900000.0 -0.1833098368 0.0421262457
437850000.0 -0.0778131376 0.1342052178
447800000.0 0.0408378522 0.1226125169
457750000.0 0.1036096007 0.043322104
467700000.0 0.0911115508 -0.0410649531
477650000.0 0.0341123588 -0.0808899042
487600000.0 -0.0193804536 -0.0654087861
497550000.0 -0.0002774676 -0.0225490184
507500000.0 -0.0582159567 -0.0143425024
517450000.0 -0.0240929505 0.0057704548
527400000.0 -0.0065359089 -0.0085782475
537350000.0 -0.0183105683 -0.0295008973
547300000.0 -0.0549106085 -0.0310328466
557250000.0 -0.0848871409 0.0109137144
567200000.0 -0.075796638 0.0696427169
577150000.0 -0.0222600204 0.1159166553
587100000.0 0.0582833664 0.1176032547
597050000.0 0.1313216884 0.0627710283
607000000.0 0.1576980552 -0.0340976158
616950000.0 0.1180083378 -0.1338390551
626900000.0 0.0229219829 -0.1923493796
636850000.0 -0.0909542615 -0.1825711026
646800000.0 -0.1761738536 -0.1042513369
656750000.0 -0.1968244598 0.0099017957
666700000.0 -0.1418126646 0.1123491732
676650000.0 -0.0355169438 0.1588821943
686600000.0 0.0747105295 0.1298623111
696550000.0 0.1407050107 0.0413271083
706500000.0 0.1344804398 -0.0614240752
716450000.0 0.0669902757 -0.1286918879
726400000.0 -0.0217906072 -0.1285294205
736350000.0 -0.0789110817 -0.0654982759
746300000.0 -0.0696202177 0.0200637491
756250000.0 0.0047655021 0.0740360483
766200000.0 0.1012020564 0.0558887843
776150000.0 0.1595835013 -0.0330156306
786100000.0 0.1348549083 -0.1478967895
796050000.0 0.0246043641 -0.2208261894
806000000.0 -0.1243610405 -0.1962611982
815950000.0 -0.2341795376 -0.0641905126
825900000.0 -0.2354474855 0.1266916325
835850000.0 -0.10740808 0.2896103677
845800000.0 0.1051082715 0.3414129934
855750000.0 0.3133604747 0.2472448844
865700000.0 0.423706222 0.0365332234
875650000.0 0.3782482789 -0.2079623961
885600000.0 0.1817203207 -0.3808422293
895550000.0 -0.0931640985 -0.3947615039
905500000.0 -0.3267478297 -0.2290844012
915450000.0 -0.4058486903 0.0548540751
925400000.0 -0.2834890509 0.326496218
935350000.0 -0.0120765109 0.4521947957
945300000.0 0.2769769179 0.3618756811
955250000.0 0.4292623135 0.0879839918
965200000.0 0.3355025171 -0.2318263094
975150000.0 0.0120847709 -0.3930951478
985100000.0 -0.3505863614 -0.2362853785
995050000.0 -0.4636569643 0.1782605477
1005000000.0 -0.18272553 0.5530551663
1014950000.0 0.33151962 0.5616744334
1024900000.0 0.6928505447 0.1240132062
1034850000.0 0.5686397323 -0.4893674823
1044800000.0 -0.0296552658 -0.7970110462
1054750000.0 -0.659002889 -0.5124289354
1064700000.0 -0.8039209563 0.1234113768
1074650000.0 -0.5733187356 0.5980223576
1084600000.0 -0.0268509908 0.8128593663
1094550000.0 0.5035343578 0.6275861377
1104500000.0 0.7634375181 0.0947633908
1114450000.0 0.5606436812 -0.4615848381
1124400000.0 0.0303024366 -0.6866329083
1134350000.0 -0.461715782 -0.4633418671
1144300000.0 -0.6229042497 0.0050388624
1154250000.0 -0.4202242273 0.4114223192
1164200000.0 -0.0192700442 0.5472975029
1174150000.0 0.3486192404 0.3726681051
1184100000.0 0.4848644115 -0.0096581038
1194050000.0 0.3085473207 -0.3690635515
1204000000.0 -0.0569903759 -0.4955284793
1213950000.0 -0.3938025305 -0.3512667683
1223900000.0 -0.5541305956 -0.0390769702
1233850000.0 -0.4907767872 0.297073203
1243800000.0 -0.2367684248 0.5283639307
1253750000.0 0.113649766 0.5636175566
1263700000.0 0.4248498522 0.3753594413
1273650000.0 0.5632809894 0.0310621406
1283600000.0 0.4715626914 -0.3282232437
1293550000.0 0.1986886126 -0.563688968
1303500000.0 -0.1466418874 -0.6090224012
1313450000.0 -0.452935089 -0.4672954144
1323400000.0 -0.6376430127 -0.1897013918
1333350000.0 -0.6489577521 0.14734762
1343300000.0 -0.4717934447 0.4491133093
1353250000.0 -0.1445388761 0.6102373624
1363200000.0 0.228712901 0.5591665888
1373150000.0 0.5116448741 0.3050333464
1383100000.0 0.603641342 -0.0555990122
1393050000.0 0.4914429783 -0.3940109546
1403000000.0 0.2300300457 -0.6118115016
1412950000.0 -0.0942703508 -0.6594011808
1422900000.0 -0.3911441 -0.5342806343
1432850000.0 -0.5784049112 -0.2692435526
1442800000.0 -0.5955442365 0.0616010957
1452750000.0 -0.4275468678 0.3558994952
1462700000.0 -0.1209976201 0.5149988024
1472650000.0 0.2221068415 0.4798299946
1482600000.0 0.4820701148 0.265294051
1492550000.0 0.5749570452 -0.0432438993
1502500000.0 0.4867256752 -0.3374053354
1512450000.0 0.258118815 -0.5278742198
1522400000.0 -0.0361755491 -0.5584146167
1532350000.0 -0.2997728207 -0.4126841089
1542300000.0 -0.4323856123 -0.1343482657
1552250000.0 -0.3739008888 0.1718626446
1562200000.0 -0.1461674852 0.3780665952
1572150000.0 0.1474463829 0.4028283193
1582100000.0 0.3825492948 0.2537282559
1592050000.0 0.4749071545 0.0043403848
1602000000.0 0.3993077136 -0.2448174423
1611950000.0 0.1850165526 -0.3995172981
1621900000.0 -0.0892470912 -0.3926546403
1631850000.0 -0.3106966862 -0.2114700349
1641800000.0 -0.3743903838 0.0765459051
1651750000.0 -0.2440258934 0.3436367187
1661700000.0 0.0199627946 0.4709058846
1671650000.0 0.3008758545 0.4130184511
1681600000.0 0.4917089286 0.2036595593
1691550000.0 0.5288878659 -0.0808299841
1701500000.0 0.3948533868 -0.3447154941
1711450000.0 0.1234223642 -0.4945486784
1721400000.0 -0.2016306718 -0.4611166517
1731350000.0 -0.4551389087 -0.2379432184
1741300000.0 -0.5315813039 0.0933505819
1751250000.0 -0.4061927337 0.402472086
1761200000.0 -0.1394768023 0.5829945193
1771150000.0 0.1718211638 0.5923019575
1781100000.0 0.4376530054 0.4420010477
1791050000.0 0.5904594766 0.1765980952
1801000000.0 0.5844425775 -0.138239585
1810950000.0 0.4062628429 -0.4135859353
1820900000.0 0.0953736825 -0.551153272
1830850000.0 -0.2442329899 -0.4912612555
1840800000.0 -0.4881931245 -0.2559608195
1850750000.0 -0.5593403146 0.0605726804
1860700000.0 -0.4607236539 0.3461966071
1870650000.0 -0.2449793297 0.5312348752
1880600000.0 0.0205965394 0.5813281732
1890550000.0 0.2694333082 0.4938930069
1900500000.0 0.4388124075 0.2910564045
1910450000.0 0.474934205 0.026612951
1920400000.0 0.3605968741 -0.21527999
1930350000.0 0.1379728312 -0.3497608737
1940300000.0 -0.1073563829 -0.3409022431
1950250000.0 -0.2893519715 -0.2166375029
1960200000.0 -0.3668053108 -0.0405465358
1970150000.0 -0.3440561315 0.1226603847
1980100000.0 -0.252544517 0.2257198278
1990050000.0 -0.1427891442 0.2483430237
2000000000.0 -0.0700860897 0.2054163959
