!Created with skrf (http://scikit-rf.org).
# GHz S RI R 50.0 
!freq ReS11 ImS11
10000000.0 -0.998537269 0.1640913537
19950000.0 -0.9436800749 0.3132553116
29900000.0 -0.8665127797 0.455764298
39850000.0 -0.7667031724 0.5955687324
49800000.0 -0.6460694459 0.7276125617
59750000.0 -0.4997575245 0.8450488747
69700000.0 -0.3213681571 0.9370815529
79650000.0 -0.1083004531 0.9859341963
89600000.0 0.1380931478 0.9751899464
99550000.0 0.4041176101 0.8867778986
109500000.0 0.6678297847 0.7083018868
119450000.0 0.8892488029 0.4272299989
129400000.0 0.9985404583 0.0482551242
139350000.0 0.9601855121 -0.3508187342
149300000.0 0.7388325403 -0.6992570997
159250000.0 0.4031565786 -0.9136772475
169200000.0 0.0405971314 -0.9829380185
179150000.0 -0.2889516775 -0.936488393
189100000.0 -0.5555901056 -0.812169698
199050000.0 -0.7486023457 -0.6417225265
209000000.0 -0.8673802355 -0.4472280313
218950000.0 -0.9275984848 -0.2485229838
228900000.0 -0.9410252828 -0.0549410997
238850000.0 -0.9199017392 0.1318615286
248800000.0 -0.7763782 0.1775086026
258750000.0 -0.8194715976 0.4373555951
268700000.0 -0.7303799382 0.5798979644
278650000.0 -0.6160832424 0.6947187711
288600000.0 -0.4758844241 0.7791575625
298550000.0 -0.314398278 0.8312626413
308500000.0 -0.1370131338 0.8511199739
318450000.0 0.0506472171 0.8345675314
328400000.0 0.2386966688 0.7740845968
338350000.0 0.4053934672 0.6628832338
348300000.0 0.5273785373 0.5005240121
358250000.0 0.5803211704 0.3022141456
368200000.0 0.5552116598 0.0985114447
378150000.0 0.4643312134 -0.0747599698
388100000.0 0.3355957373 -0.1945834168
398050000.0 0.1988936037 -0.2536344181
408000000.0 0.0786566581 -0.2575808745
417950000.0 -0.0137499946 -0.2207231112
427900000.0 -0.0749469825 -0.1616299732
437850000.0 -0.1104899886 -0.095422057
447800000.0 -0.1246598406 -0.034490274
457750000.0 -0.1232039624 0.0135442992
467700000.0 -0.1101688514 0.0442734301
477650000.0 -0.0884919118 0.0557111178
487600000.0 -0.0610259829 0.0481512174
497550000.0 -0.1026302387 0.0216221059
507500000.0 -0.0164074293 0.0396844159
517450000.0 0.005249879 0.0153599857
527400000.0 0.0136776067 -0.0055295844
537350000.0 0.0081778427 -0.0239895551
547300000.0 -0.009288948 -0.0419309989
557250000.0 -0.0376986463 -0.0559075291
567200000.0 -0.0692720992 -0.0675854208
577150000.0 -0.1008797791 -0.0752979684
587100000.0 -0.128415928 -0.0769561884
597050000.0 -0.1494494281 -0.0700945079
607000000.0 -0.1638701339 -0.0530765929
616950000.0 -0.1730460658 -0.0267620865
626900000.0 -0.1780320304 0.0059133517
636850000.0 -0.1796124154 0.0407064678
646800000.0 -0.1767646878 0.0736754394
656750000.0 -0.1689855837 0.1015403954
666700000.0 -0.1535784693 0.1216776936
676650000.0 -0.1284810597 0.1334820712
686600000.0 -0.0942031467 0.1374467912
696550000.0 -0.0532388243 0.134841204
706500000.0 -0.01049847 0.1262745388
716450000.0 0.0303663029 0.1118962359
726400000.0 0.0634641808 0.0895475011
736350000.0 0.0857683812 0.0574609444
746300000.0 0.0942492247 0.0152707482
756250000.0 0.0904114773 -0.0365644782
766200000.0 0.0734191062 -0.0937060146
776150000.0 0.0469471053 -0.1506899629
786100000.0 0.0103899303 -0.2011074707
796050000.0 -0.0350277334 -0.2386511065
806000000.0 -0.087830256 -0.2582858076
815950000.0 -0.1483245115 -0.2581748324
825900000.0 -0.2134755679 -0.2401025404
835850000.0 -0.2801651983 -0.2068443675
845800000.0 -0.3432396347 -0.1626734898
855750000.0 -0.397321311 -0.1101995985
865700000.0 -0.436695307 -0.0502268619
875650000.0 -0.4563277346 0.0164570636
885600000.0 -0.4540026984 0.0900535876
895550000.0 -0.4300094835 0.1696313449
905500000.0 -0.3844575281 0.2539823756
915450000.0 -0.3164499578 0.3367729831
925400000.0 -0.2189564108 0.3978337413
935350000.0 -0.1304891128 0.408890836
945300000.0 -0.0652432837 0.4355424964
955250000.0 0.0413755514 0.4413473367
965200000.0 0.1697645077 0.3995548109
975150000.0 0.3028017034 0.304263273
985100000.0 0.4186452785 0.1511256226
995050000.0 0.4856571069 -0.0560608772
1005000000.0 0.4635979912 -0.2973914905
1014950000.0 0.3235840239 -0.5250573913
1024900000.0 0.070850612 -0.6743395096
1034850000.0 -0.243085554 -0.6971639573
1044800000.0 -0.545322328 -0.5837501929
1054750000.0 -0.7716656311 -0.3595648125
1064700000.0 -0.8678941249 -0.0730700389
1074650000.0 -0.8523281357 0.1961515862
1084600000.0 -0.7226892939 0.4322467685
1094550000.0 -0.5687061804 0.6094308394
1104500000.0 -0.3309951444 0.739716392
1114450000.0 -0.066890801 0.7851216799
1124400000.0 0.1919341659 0.7395218722
1134350000.0 0.4062666322 0.6026576614
1144300000.0 0.5464028295 0.3971406749
1154250000.0 0.6030622247 0.1644705525
1164200000.0 0.5851454893 -0.0590674416
1174150000.0 0.5182635852 -0.2480448314
1184100000.0 0.4174285049 -0.4024371771
1194050000.0 0.2864131685 -0.5095617311
1204000000.0 0.1426145199 -0.5657986102
1213950000.0 -3.8048e-05 -0.5788500015
1223900000.0 -0.1325738522 -0.5629999389
1233850000.0 -0.2514945161 -0.5301079662
1243800000.0 -0.3551597733 -0.4868285843
1253750000.0 -0.4425306875 -0.4366224171
1263700000.0 -0.5111848417 -0.3790955935
1273650000.0 -0.5624731827 -0.3148112102
1283600000.0 -0.5961157238 -0.2435745252
1293550000.0 -0.6175433541 -0.167155996
1303500000.0 -0.6316166102 -0.0888378082
1313450000.0 -0.6416222931 -0.0126254064
1323400000.0 -0.649735751 0.0604762895
1333350000.0 -0.6545810858 0.1280689169
1343300000.0 -0.6516667268 0.1918580398
1353250000.0 -0.6388253298 0.2490725475
1363200000.0 -0.6129110885 0.3027904986
1373150000.0 -0.5743499315 0.3539098772
1383100000.0 -0.5275642814 0.4041625743
1393050000.0 -0.477073322 0.453573688
1403000000.0 -0.4262010207 0.5013373292
1412950000.0 -0.3757490673 0.5451302591
1422900000.0 -0.3253943361 0.5820998168
1432850000.0 -0.2736193701 0.6079963584
1442800000.0 -0.2181788742 0.6229203834
1452750000.0 -0.1571833406 0.6284680196
1462700000.0 -0.0893087352 0.6266782477
1472650000.0 -0.0147408069 0.6205331247
1482600000.0 0.0628374967 0.6108270492
1492550000.0 0.1399696964 0.5964464692
1502500000.0 0.2135092621 0.5735008832
1512450000.0 0.2802731767 0.5399175527
1522400000.0 0.3378497168 0.4920832922
1532350000.0 0.3861824287 0.428178887
1542300000.0 0.4258556773 0.3508215928
1552250000.0 0.4578945767 0.2639120749
1562200000.0 0.484371579 0.1734257986
1572150000.0 0.5038047975 0.0832197619
1582100000.0 0.5113636377 -0.0078649026
1592050000.0 0.5009073691 -0.0964658596
1602000000.0 0.4686610304 -0.1807318355
1611950000.0 0.4162818767 -0.2568606417
1621900000.0 0.3484224292 -0.326184068
1631850000.0 0.2696521611 -0.3881047802
1641800000.0 0.1861057619 -0.4415856296
1651750000.0 0.1014825311 -0.481611946
1661700000.0 0.024761895 -0.5040032242
1671650000.0 -0.0408081747 -0.5203288238
1681600000.0 -0.1207280203 -0.5239219895
1691550000.0 -0.2023367581 -0.504931604
1701500000.0 -0.2807365437 -0.4714008071
1711450000.0 -0.3551883055 -0.4303704414
1721400000.0 -0.4242021715 -0.3859404382
1731350000.0 -0.4864247519 -0.3404981633
1741300000.0 -0.5366211983 -0.2932969417
1751250000.0 -0.5732856669 -0.2416542865
1761200000.0 -0.595140967 -0.1855085512
1771150000.0 -0.6043507681 -0.1244852718
1781100000.0 -0.6069726063 -0.0604960804
1791050000.0 -0.6060771549 0.0043297665
1801000000.0 -0.6055675372 0.0669647644
1810950000.0 -0.6057344923 0.1261013904
1820900000.0 -0.603139512 0.1805549427
1830850000.0 -0.5934185736 0.2282757775
1840800000.0 -0.5725498164 0.270294679
1850750000.0 -0.5396453189 0.3075326555
1860700000.0 -0.4961072305 0.3403494386
1870650000.0 -0.4478967979 0.371537248
1880600000.0 -0.3995660747 0.3998831412
1890550000.0 -0.3558056652 0.4252506171
1900500000.0 -0.3161222442 0.4455235189
1910450000.0 -0.2794982334 0.4576162548
1920400000.0 -0.2437236594 0.4597187878
1930350000.0 -0.2053672572 0.4502512999
1940300000.0 -0.1637727766 0.4296701396
1950250000.0 -0.1193470477 0.4002419693
1960200000.0 -0.0757350137 0.3662092907
1970150000.0 -0.039730897 0.329073513
1980100000.0 -0.0143336592 0.2902457117
1990050000.0 -0.0053128855 0.2478253376
2000000000.0 -0.0152755458 0.2001533752
