!Created with skrf (http://scikit-rf.org).
# GHz S RI R 50.0 
!freq ReS11 ImS11
10000000.0 -0.7685359837 0.6734106928
19950000.0 -0.1415111624 0.9872612223
29900000.0 0.5329438181 0.8211426658
39850000.0 0.9420063672 0.2518762049
49800000.0 0.8746594505 -0.4596213342
59750000.0 0.3284972773 -0.9551603748
69700000.0 -0.4350744186 -0.9289591723
79650000.0 -0.9629166654 -0.3399493221
89600000.0 -0.8776155825 0.4713123346
99550000.0 -0.1866109405 0.9501371962
109500000.0 0.6482042639 0.707685377
119450000.0 0.9666684471 -0.1382026474
129400000.0 0.4355000151 -0.9002055354
139350000.0 -0.5108337639 -0.8700724339
149300000.0 -0.9788729077 -0.0784706883
159250000.0 -0.6179922963 0.7220059749
169200000.0 0.1896273213 0.9231895783
179150000.0 0.8381358576 0.4632429961
189100000.0 0.9347017797 -0.2991359812
199050000.0 0.4657653488 -0.8803718699
209000000.0 -0.2557823038 -0.9564540224
218950000.0 -0.8108556152 -0.5266229613
228900000.0 -0.9297630983 0.1472967202
238850000.0 -0.5826963028 0.7212112895
248800000.0 0.046495337 0.9266678212
258750000.0 0.659602804 0.6787521647
268700000.0 0.9602726689 0.0883218997
278650000.0 0.7940562345 -0.5537449847
288600000.0 0.2432518892 -0.9187574225
298550000.0 -0.4008650287 -0.8207172029
308500000.0 -0.8074189086 -0.3165068633
318450000.0 -0.7676685626 0.3237384162
328400000.0 -0.2978576762 0.744091699
338350000.0 0.3195657218 0.6930381622
348300000.0 0.6769856095 0.222721445
358250000.0 0.5537343597 -0.2966035894
368200000.0 0.1213548521 -0.4861372747
378150000.0 -0.2319328805 -0.2938551428
388100000.0 -0.2698970422 0.0232828432
398050000.0 -0.0693752911 0.1848275869
408000000.0 0.1295605293 0.1197645617
417950000.0 0.1633849114 -0.0457169528
427900000.0 0.0471496219 -0.1438076795
437850000.0 -0.095404902 -0.1083002314
447800000.0 -0.1542794859 0.0176626886
457750000.0 -0.0974561794 0.1375627269
467700000.0 0.0250526975 0.1736989084
477650000.0 0.1297920119 0.1144454609
487600000.0 0.1576893106 0.0107290606
497550000.0 0.1276414746 -0.0675661678
507500000.0 0.0407042966 -0.1014699424
517450000.0 -0.0192355189 -0.0725671384
527400000.0 -0.0342790336 -0.0315690435
537350000.0 -0.0226972498 -0.0179787786
547300000.0 -0.033889843 -0.0254704249
557250000.0 -0.0532485464 -0.024749252
567200000.0 -0.0876238897 -0.0017114802
577150000.0 -0.1007827305 0.0586168479
587100000.0 -0.0585868137 0.1276065104
597050000.0 0.0365883566 0.1565684695
607000000.0 0.1421562383 0.1096037575
616950000.0 0.1980081545 -0.0060425303
626900000.0 0.1642664771 -0.1410534223
636850000.0 0.0449116775 -0.2293929656
646800000.0 -0.1082108949 -0.2221100099
656750000.0 -0.2229814022 -0.1180520445
666700000.0 -0.2407811369 0.0355213182
676650000.0 -0.1543594912 0.1611588036
686600000.0 -0.0084684213 0.1975439135
696550000.0 0.1203300169 0.1314176576
706500000.0 0.1699486032 0.0059604981
716450000.0 0.1273162682 -0.1081508656
726400000.0 0.0312185468 -0.1533323261
736350000.0 -0.0503849592 -0.1193741065
746300000.0 -0.0671469648 -0.0492074405
756250000.0 -0.0195049616 -0.0086467584
766200000.0 0.032902473 -0.037784744
776150000.0 0.0156637433 -0.114035399
786100000.0 -0.061978579 -0.1588804648
796050000.0 -0.1584854312 -0.1061342848
806000000.0 -0.2091941377 0.0233994064
815950000.0 -0.1403493415 0.1761742782
825900000.0 0.0482277252 0.2540568637
835850000.0 0.2666466429 0.1804047086
845800000.0 0.3886554406 -0.0363184518
855750000.0 0.3280256023 -0.3015762662
865700000.0 0.0903266077 -0.4771013799
875650000.0 -0.2203997159 -0.4567678344
885600000.0 -0.4500366034 -0.2264527702
895550000.0 -0.4676915882 0.115768038
905500000.0 -0.2412489801 0.3998330967
915450000.0 0.1281827097 0.4682486561
925400000.0 0.4493462785 0.2696859031
935350000.0 0.5466197149 -0.0980156937
945300000.0 0.3596890151 -0.4368744448
955250000.0 -0.0152539462 -0.5544639325
965200000.0 -0.3651019137 -0.3733425656
975150000.0 -0.4622860705 0.0175466113
985100000.0 -0.2013370291 0.3620946633
995050000.0 0.2546023164 0.3638423848
1005000000.0 0.5004337755 -0.0324417093
1014950000.0 0.242449658 -0.4874366782
1024900000.0 -0.3386747299 -0.4936238001
1034850000.0 -0.6095197342 0.0761074471
1044800000.0 -0.1516696416 0.5254354653
1054750000.0 0.228433377 0.588080479
1064700000.0 0.8020892425 0.2016752049
1074650000.0 0.6930271328 -0.5462280595
1084600000.0 0.0603712548 -0.8756857139
1094550000.0 -0.5786588803 -0.6236884539
1104500000.0 -0.8163694379 0.0102194525
1114450000.0 -0.5176924877 0.5913429547
1124400000.0 0.1228395692 0.7382805141
1134350000.0 0.6344035371 0.3683121234
1144300000.0 0.6695957442 -0.2068890363
1154250000.0 0.2850767829 -0.5862720513
1164200000.0 -0.212517704 -0.5643488946
1174150000.0 -0.5173448866 -0.2099039342
1184100000.0 -0.4607693535 0.2455698719
1194050000.0 -0.0726399677 0.4946547513
1204000000.0 0.3517718232 0.3463177359
1213950000.0 0.4980721123 -0.0583737946
1223900000.0 0.3046462451 -0.4206349538
1233850000.0 -0.0747720067 -0.535004387
1243800000.0 -0.4249189708 -0.3578985722
1253750000.0 -0.5615496032 0.0172886873
1263700000.0 -0.3982078158 0.3952988274
1273650000.0 -0.009216407 0.5590586904
1283600000.0 0.3875514963 0.4091849379
1293550000.0 0.5777453301 0.037158312
1303500000.0 0.4859900229 -0.3601841729
1313450000.0 0.1759473228 -0.6111510463
1323400000.0 -0.2200215845 -0.6250825924
1333350000.0 -0.5490268248 -0.3957106054
1343300000.0 -0.6729796871 -0.0009385636
1353250000.0 -0.5152076376 0.3991401677
1363200000.0 -0.1277536988 0.6104040724
1373150000.0 0.3046603282 0.5223231002
1383100000.0 0.573645021 0.1879390376
1393050000.0 0.5791782219 -0.2220207297
1403000000.0 0.3536273665 -0.5390521165
1412950000.0 0.0050825812 -0.6679232526
1422900000.0 -0.3521629376 -0.5852118232
1432850000.0 -0.6075433209 -0.3062187732
1442800000.0 -0.6503324224 0.090196514
1452750000.0 -0.4292403003 0.444037462
1462700000.0 -0.0221061727 0.5817868723
1472650000.0 0.3823217632 0.4260122057
1482600000.0 0.592185394 0.0546540652
1492550000.0 0.5229198928 -0.3541827198
1502500000.0 0.221491095 -0.6220250806
1512450000.0 -0.1699730142 -0.6401183204
1522400000.0 -0.4551050434 -0.4186580682
1532350000.0 -0.5613286526 -0.113343633
1542300000.0 -0.4824488022 0.2243633192
1552250000.0 -0.1868342502 0.4498677374
1562200000.0 0.1922575455 0.4258020119
1572150000.0 0.4575245448 0.15783647
1582100000.0 0.4789152528 -0.2107489705
1592050000.0 0.2606081056 -0.4934664919
1602000000.0 -0.0784590329 -0.5645769461
1611950000.0 -0.3807148142 -0.3994244039
1621900000.0 -0.5068927041 -0.0781161276
1631850000.0 -0.3934053075 0.2522275313
1641800000.0 -0.0835732989 0.4255578517
1651750000.0 0.2679475601 0.3416961629
1661700000.0 0.4687671803 0.0398320645
1671650000.0 0.4102606624 -0.3107539615
1681600000.0 0.1350588099 -0.5250217101
1691550000.0 -0.2087841984 -0.5059720712
1701500000.0 -0.4599597623 -0.2724199631
1711450000.0 -0.5075038645 0.0705231253
1721400000.0 -0.3198946794 0.3744118126
1731350000.0 0.029412983 0.4876091227
1741300000.0 0.3731592614 0.3378230094
1751250000.0 0.527711937 -0.0068283452
1761200000.0 0.418110844 -0.3635851977
1771150000.0 0.1148161942 -0.5610412672
1781100000.0 -0.2340325897 -0.5289825523
1791050000.0 -0.4878696088 -0.2971388873
1801000000.0 -0.5529679658 0.0414970332
1810950000.0 -0.3979510097 0.35780787
1820900000.0 -0.0736165608 0.5126219571
1830850000.0 0.2756113117 0.4205449923
1840800000.0 0.4728080814 0.122758397
1850750000.0 0.4295137075 -0.2219533579
1860700000.0 0.1943480654 -0.4516905376
1870650000.0 -0.1047181623 -0.4902742678
1880600000.0 -0.3506441112 -0.3574134509
1890550000.0 -0.4719963837 -0.1158750373
1900500000.0 -0.4302276086 0.1498332717
1910450000.0 -0.2385586527 0.3385286011
1920400000.0 0.0217506998 0.3612422478
1930350000.0 0.2179514669 0.2086266932
1940300000.0 0.2537186843 -0.0258842324
1950250000.0 0.1393259943 -0.2115567439
1960200000.0 -0.0380127775 -0.2711008489
1970150000.0 -0.1821167486 -0.2067285414
1980100000.0 -0.2325015074 -0.0770620129
1990050000.0 -0.1804236155 0.0335704604
2000000000.0 -0.0758519527 0.0540478348
