!Created with skrf (http://scikit-rf.org).
# GHz S RI R 50.0 
!freq ReS11 ImS11
10000000.0 -0.7633792306 0.6753723703
19950000.0 -0.1336288126 0.9871303594
29900000.0 0.5407707859 0.8164713754
39850000.0 0.9455350115 0.2438968009
49800000.0 0.872133288 -0.4658197654
59750000.0 0.3256621182 -0.9548313813
69700000.0 -0.4296492786 -0.9276811619
79650000.0 -0.9536973112 -0.3542385315
89600000.0 -0.8927300017 0.4385402452
99550000.0 -0.2502091653 0.9363375666
109500000.0 0.5691864897 0.7721774286
119450000.0 0.9735909146 0.0046925703
129400000.0 0.5891252359 -0.8054428085
139350000.0 -0.3205061449 -0.9541189461
149300000.0 -0.9435217242 -0.2844958657
159250000.0 -0.7567711732 0.5820454658
169200000.0 0.0139437051 0.9404250991
179150000.0 0.7514260514 0.5843598257
189100000.0 0.9586462857 -0.1826602309
199050000.0 0.5388313377 -0.8324334303
209000000.0 -0.2021012341 -0.9650608216
218950000.0 -0.7951106173 -0.5423651287
228900000.0 -0.9236956306 0.1547545215
238850000.0 -0.545980127 0.7427283886
248800000.0 0.0330515012 0.9054462189
258750000.0 0.6929558928 0.6290869787
268700000.0 0.9515816434 0.0006168779
278650000.0 0.7168874045 -0.6208541127
288600000.0 0.1232387793 -0.9085264819
298550000.0 -0.5039907193 -0.7319008268
308500000.0 -0.8303841228 -0.18067734
318450000.0 -0.6806798286 0.4448015578
328400000.0 -0.1414352176 0.779499695
338350000.0 0.4537799412 0.6196827857
348300000.0 0.7151481794 0.0905434374
358250000.0 0.4959847179 -0.4116335527
368200000.0 0.0228262947 -0.5430918842
378150000.0 -0.3232332177 -0.2906158753
388100000.0 -0.3347942113 0.0741215076
398050000.0 -0.0993417063 0.2653767883
408000000.0 0.1414302084 0.2013225372
417950000.0 0.2128691334 0.0098875049
427900000.0 0.1164791672 -0.1312604771
437850000.0 -0.029794705 -0.135722794
447800000.0 -0.1101240342 -0.0365917573
457750000.0 -0.0849490022 0.0723362961
467700000.0 0.0032697978 0.1133952314
477650000.0 0.0760954758 0.0745635073
487600000.0 0.0678313812 0.0131725433
497550000.0 0.0868245332 -0.0461143217
507500000.0 0.0186996279 -0.0553195052
517450000.0 -0.0121277027 -0.0244219182
527400000.0 -0.0033835063 0.0032032936
537350000.0 0.0212524462 -0.0007934191
547300000.0 0.0231280115 -0.036887096
557250000.0 -0.0170419804 -0.0626669808
567200000.0 -0.074935594 -0.0463745746
577150000.0 -0.108846199 0.0175144779
587100000.0 -0.0834820964 0.0986293735
597050000.0 0.0013668307 0.1442319826
607000000.0 0.1047979807 0.1156746282
616950000.0 0.1649128272 0.0154056692
626900000.0 0.1414351559 -0.109921866
636850000.0 0.0436271707 -0.1911215469
646800000.0 -0.0760825434 -0.1648956025
656750000.0 -0.163148694 -0.0912877259
666700000.0 -0.174856108 0.0221390029
676650000.0 -0.103088293 0.1166137473
686600000.0 0.0124227329 0.1336690911
696550000.0 0.1031768194 0.066002553
706500000.0 0.1173478756 -0.0400595062
716450000.0 0.0544683909 -0.1166806025
726400000.0 -0.0370178106 -0.1177558792
736350000.0 -0.0888802652 -0.049097661
746300000.0 -0.0605089219 0.0328319706
756250000.0 0.0305511561 0.0574836026
766200000.0 0.1150469027 -0.0081562273
776150000.0 0.1182527909 -0.1301492548
786100000.0 0.0162296404 -0.2256100773
796050000.0 -0.1421326549 -0.2136907805
806000000.0 -0.2566558783 -0.0740794246
815950000.0 -0.2363722691 0.1284665615
825900000.0 -0.064010084 0.2744023596
835850000.0 0.1811914036 0.2615387575
845800000.0 0.3652279644 0.0743021074
855750000.0 0.376334778 -0.2019057868
865700000.0 0.19238867 -0.4240429869
875650000.0 -0.1043335309 -0.4674124693
885600000.0 -0.363216422 -0.2929063205
895550000.0 -0.438751968 0.0221485048
905500000.0 -0.2745095842 0.3143898559
915450000.0 0.0533757762 0.415962863
925400000.0 0.3634517984 0.2575037191
935350000.0 0.4721149016 -0.0762077026
945300000.0 0.306915476 -0.3878896955
955250000.0 -0.039405036 -0.4796950933
965200000.0 -0.3460011475 -0.2729099081
975150000.0 -0.380379852 0.1158739284
985100000.0 -0.0654494209 0.3937624449
995050000.0 0.3756934672 0.2781258065
1005000000.0 0.5259110189 -0.1979916805
1014950000.0 0.1722538481 -0.6149546377
1024900000.0 -0.4250409269 -0.5398280681
1034850000.0 -0.7234384453 0.0555757092
1044800000.0 -0.3541905556 0.6861619262
1054750000.0 0.3777222572 0.6982097187
1064700000.0 0.8487857536 0.1678363831
1074650000.0 0.6883498438 -0.5495747818
1084600000.0 0.086599192 -0.8571323141
1094550000.0 -0.5570043572 -0.6175023457
1104500000.0 -0.7836762042 0.0269742621
1114450000.0 -0.4236429338 0.6054601237
1124400000.0 0.2376664261 0.6595597795
1134350000.0 0.6395881338 0.1875142069
1144300000.0 0.5152633865 -0.3617051696
1154250000.0 0.0586397979 -0.5864196347
1164200000.0 -0.3723643101 -0.4069747617
1174150000.0 -0.5278882433 0.0214090106
1184100000.0 -0.30019988 0.4193880308
1194050000.0 0.1485254834 0.4965781687
1204000000.0 0.4906546758 0.2130709079
1213950000.0 0.5152259585 -0.2137601103
1223900000.0 0.2464852285 -0.52630496
1233850000.0 -0.1525735308 -0.5806916526
1243800000.0 -0.4928820939 -0.3632826727
1253750000.0 -0.6153133627 0.030507766
1263700000.0 -0.4455457474 0.4200258253
1273650000.0 -0.0511398409 0.6032393987
1283600000.0 0.367441967 0.4785709167
1293550000.0 0.6018070723 0.1187200595
1303500000.0 0.5604111778 -0.296490102
1313450000.0 0.2853904482 -0.5949965068
1323400000.0 -0.1072298775 -0.6742443951
1333350000.0 -0.4741960938 -0.507934393
1343300000.0 -0.6760160551 -0.1475646923
1353250000.0 -0.6134987957 0.2745810163
1363200000.0 -0.2911637761 0.5722901826
1373150000.0 0.1508172155 0.5971618367
1383100000.0 0.5035989731 0.3407312049
1393050000.0 0.6192919633 -0.0641016469
1403000000.0 0.4758554226 -0.4418377929
1412950000.0 0.1502903603 -0.6568872753
1422900000.0 -0.2316987556 -0.6443724305
1432850000.0 -0.5331920217 -0.4129836227
1442800000.0 -0.6413872387 -0.0443208928
1452750000.0 -0.4968488541 0.3232686957
1462700000.0 -0.151155899 0.5213157543
1472650000.0 0.2431594842 0.4549292917
1482600000.0 0.4997618594 0.1578072062
1492550000.0 0.5094503415 -0.2215711319
1502500000.0 0.2881782749 -0.511575243
1512450000.0 -0.0526841057 -0.5978477833
1522400000.0 -0.3660733505 -0.4556431587
1532350000.0 -0.5176798148 -0.1498976565
1542300000.0 -0.435538736 0.1823542029
1552250000.0 -0.1532528311 0.3768807147
1562200000.0 0.1824631708 0.3288599539
1572150000.0 0.3889094077 0.0702641168
1582100000.0 0.3620747114 -0.2483622718
1592050000.0 0.1323398572 -0.4553768478
1602000000.0 -0.1714185665 -0.4521818469
1611950000.0 -0.3941277363 -0.2445112809
1621900000.0 -0.4201236887 0.0650714049
1631850000.0 -0.223811786 0.3184086136
1641800000.0 0.1024145894 0.3710241861
1651750000.0 0.3819899812 0.1788637725
1661700000.0 0.4535484944 -0.1557598811
1671650000.0 0.2802221975 -0.4506806303
1681600000.0 -0.0439122761 -0.5588421208
1691550000.0 -0.3642228362 -0.4352032217
1701500000.0 -0.5420900855 -0.1341322243
1711450000.0 -0.4954788533 0.2229501999
1721400000.0 -0.2252596702 0.4838319041
1731350000.0 0.1630099961 0.5153803114
1741300000.0 0.4870480103 0.2837761965
1751250000.0 0.5856315962 -0.1031817818
1761200000.0 0.4190684489 -0.4583969558
1771150000.0 0.0794955922 -0.6318643789
1781100000.0 -0.2872348553 -0.5737279527
1791050000.0 -0.5512018453 -0.3196426017
1801000000.0 -0.6243270355 0.0413634302
1810950000.0 -0.471419363 0.3865017973
1820900000.0 -0.1328346049 0.5770140846
1830850000.0 0.2600103705 0.5142979901
1840800000.0 0.524779396 0.2171829883
1850750000.0 0.541842625 -0.1700422999
1860700000.0 0.3283372285 -0.4699526252
1870650000.0 -0.0003813887 -0.580339191
1880600000.0 -0.3149663118 -0.4905988504
1890550000.0 -0.5178408723 -0.2524703209
1900500000.0 -0.5515409681 0.0501691727
1910450000.0 -0.4074901144 0.3124631943
1920400000.0 -0.1393710033 0.4342931054
1930350000.0 0.1352878896 0.365615342
1940300000.0 0.2935544529 0.1534737305
1950250000.0 0.2848583958 -0.0846030427
1960200000.0 0.1536966419 -0.2427736311
1970150000.0 -0.0110816251 -0.283490197
1980100000.0 -0.1322763015 -0.2348104808
1990050000.0 -0.1805527745 -0.1636832251
2000000000.0 -0.1868712951 -0.1313459192
