!Created with skrf (http://scikit-rf.org).
# GHz S RI R 50.0 
!freq ReS11 ImS11
10000000.0 -0.7499651976 0.6746701245
19950000.0 -0.1153225406 0.9835213973
29900000.0 0.5645865898 0.798495075
39850000.0 0.9566189902 0.2006643771
49800000.0 0.841592536 -0.5180259148
59750000.0 0.2517742448 -0.9715230461
69700000.0 -0.5022131426 -0.8784176351
79650000.0 -0.9700256917 -0.2600484358
89600000.0 -0.8341701282 0.5219814961
99550000.0 -0.1391454256 0.9538469996
109500000.0 0.6693176698 0.6857463177
119450000.0 0.9591207367 -0.1561353029
129400000.0 0.414659818 -0.8988220965
139350000.0 -0.5123500239 -0.8476231568
149300000.0 -0.96680193 -0.0582446223
159250000.0 -0.5908767291 0.7364929391
169200000.0 0.2395618573 0.9057696435
179150000.0 0.8695911755 0.3789489882
189100000.0 0.8714551696 -0.4173591209
199050000.0 0.2950898252 -0.9276803159
209000000.0 -0.4428304814 -0.8559815079
218950000.0 -0.8933812399 -0.3045890173
228900000.0 -0.8419557617 0.3844852692
238850000.0 -0.34766749 0.8497447357
248800000.0 0.3124842331 0.8459902086
258750000.0 0.8343194034 0.4283582318
268700000.0 0.9161774579 -0.2413735825
278650000.0 0.5222577537 -0.784122301
288600000.0 -0.1274647182 -0.9116533782
298550000.0 -0.6827640329 -0.5705533515
308500000.0 -0.8560453519 0.049360559
318450000.0 -0.5576915403 0.6125071884
328400000.0 0.0448081442 0.8000516642
338350000.0 0.5823765288 0.4966312559
348300000.0 0.7025281142 -0.0803221375
358250000.0 0.3639201782 -0.5044285145
368200000.0 -0.115325698 -0.5030930986
378150000.0 -0.3632896643 -0.1794227305
388100000.0 -0.2706933184 0.142206202
398050000.0 -0.0185071866 0.227406442
408000000.0 0.1438325159 0.0936815929
417950000.0 0.1143418749 -0.0709023361
427900000.0 -0.0222112318 -0.1187095226
437850000.0 -0.1230526383 -0.0328255482
447800000.0 -0.110065433 0.0931337443
457750000.0 -0.0021610897 0.1583464541
467700000.0 0.1138230234 0.118527857
477650000.0 0.1597289145 0.0082550979
487600000.0 0.113328571 -0.0952850077
497550000.0 0.0175651481 -0.1356872707
507500000.0 -0.0702438995 -0.0986258344
517450000.0 -0.0997700362 -0.0257935576
527400000.0 -0.0754515516 0.0317461477
537350000.0 -0.0315010123 0.0451121289
547300000.0 -0.0077402821 0.027405021
557250000.0 -0.0146426025 0.0091427383
567200000.0 -0.033925591 0.0182477404
577150000.0 -0.0312483415 0.049056047
587100000.0 0.0111704859 0.07099179
597050000.0 0.0707980956 0.0518500592
607000000.0 0.105532203 -0.0190877108
616950000.0 0.0805030454 -0.1091113514
626900000.0 -0.0066090276 -0.1630571075
636850000.0 -0.1167009177 -0.1424363514
646800000.0 -0.1885820645 -0.0469884508
656750000.0 -0.1750036296 0.076093779
666700000.0 -0.0779382221 0.1604762129
676650000.0 0.0532504959 0.1541406459
686600000.0 0.1468747125 0.0599907724
696550000.0 0.1503200865 -0.0714584536
706500000.0 0.0654870183 -0.1647382563
716450000.0 -0.0561482106 -0.168459381
726400000.0 -0.1382695325 -0.088613065
736350000.0 -0.1294528543 0.0201385492
746300000.0 -0.0408901378 0.0815567168
756250000.0 0.0613804077 0.0501405777
766200000.0 0.0995408308 -0.0521595164
776150000.0 0.0374205564 -0.150805228
786100000.0 -0.0875987144 -0.1615492986
796050000.0 -0.1857535817 -0.0617545179
806000000.0 -0.1697397441 0.0968886761
815950000.0 -0.0277684749 0.204575344
825900000.0 0.1702556086 0.1711561335
835850000.0 0.2955083621 -0.006628993
845800000.0 0.2553770813 -0.2383232003
855750000.0 0.0510317619 -0.382655547
865700000.0 -0.2111844987 -0.3407063646
875650000.0 -0.3794181442 -0.1147536608
885600000.0 -0.3386278179 0.1795172166
895550000.0 -0.0925105033 0.3714064346
905500000.0 0.230608448 0.3307398731
915450000.0 0.4333754237 0.0641659697
925400000.0 0.3767780661 -0.2751822928
935350000.0 0.0833637485 -0.4643808593
945300000.0 -0.2535044022 -0.36123149
955250000.0 -0.3817187888 -0.0550101022
965200000.0 -0.2661667374 0.2425737277
975150000.0 0.0642651736 0.3760803457
985100000.0 0.410265555 0.1633096904
995050000.0 0.4219084995 -0.2917719568
1005000000.0 -0.0007909532 -0.5727553451
1014950000.0 -0.514910376 -0.3405648603
1024900000.0 -0.6071882285 0.2786153778
1034850000.0 -0.086408574 0.7283635969
1044800000.0 0.6126392092 0.5169475466
1054750000.0 0.8215874332 -0.1971133257
1064700000.0 0.3748725404 -0.7527264273
1074650000.0 -0.3126131212 -0.7815557523
1084600000.0 -0.7802316867 -0.268121194
1094550000.0 -0.685597428 0.4170439858
1104500000.0 -0.1017557955 0.7746521413
1114450000.0 0.5260587805 0.5475597631
1124400000.0 0.7297814085 -0.0553350566
1134350000.0 0.4151466373 -0.5609417522
1144300000.0 -0.134759882 -0.6507649827
1154250000.0 -0.5461299704 -0.3176784775
1164200000.0 -0.572881065 0.1903231502
1174150000.0 -0.2166480481 0.5372647654
1184100000.0 0.266469754 0.4945912715
1194050000.0 0.540514321 0.1136091002
1204000000.0 0.4482765655 -0.327008483
1213950000.0 0.0812842635 -0.5584506395
1223900000.0 -0.330167023 -0.473720754
1233850000.0 -0.5710098689 -0.1334029726
1243800000.0 -0.5158531647 0.279146459
1253750000.0 -0.1925837812 0.5487968146
1263700000.0 0.2295701572 0.5251829293
1273650000.0 0.5245066257 0.2263181941
1283600000.0 0.5512347673 -0.1870180104
1293550000.0 0.3120571681 -0.5148363714
1303500000.0 -0.0726476708 -0.6197790462
1313450000.0 -0.4386905969 -0.465225987
1323400000.0 -0.6319161801 -0.1145354434
1333350000.0 -0.5616835371 0.2857474731
1343300000.0 -0.2468478121 0.5549631417
1353250000.0 0.171681868 0.559476927
1363200000.0 0.4947484675 0.2960753448
1373150000.0 0.5782023097 -0.1046383154
1383100000.0 0.3997326541 -0.4616774512
1393050000.0 0.0476483622 -0.6316876287
1403000000.0 -0.3285040568 -0.5539251148
1412950000.0 -0.5793965203 -0.2637364059
1422900000.0 -0.5962830124 0.1223565259
1432850000.0 -0.3642890597 0.4356111113
1442800000.0 0.0159221099 0.5303897628
1452750000.0 0.3660771737 0.3600187893
1462700000.0 0.5229840982 0.0131186746
1472650000.0 0.4254061956 -0.3434171439
1482600000.0 0.1337641238 -0.5508788229
1492550000.0 -0.2154032178 -0.5262661545
1502500000.0 -0.4638823748 -0.2875064687
1512450000.0 -0.4968852989 0.0544195154
1522400000.0 -0.2954368317 0.3328379486
1532350000.0 0.0382114486 0.4039903359
1542300000.0 0.3279103644 0.2328472081
1552250000.0 0.4204057958 -0.0810315748
1562200000.0 0.2792599537 -0.3652555891
1572150000.0 -0.0099989981 -0.4758811175
1582100000.0 -0.2930764464 -0.3625961612
1592050000.0 -0.4257197655 -0.0876269031
1602000000.0 -0.3364039939 0.2103960095
1611950000.0 -0.0615995262 0.3701496669
1621900000.0 0.2544832074 0.2942985997
1631850000.0 0.430709374 0.0171685254
1641800000.0 0.3680374745 -0.3059695536
1651750000.0 0.1024906596 -0.5018856954
1661700000.0 -0.2278558057 -0.4727423006
1671650000.0 -0.4651836974 -0.2327698194
1681600000.0 -0.4948059159 0.1126756263
1691550000.0 -0.2897433421 0.4065842478
1701500000.0 0.0687909938 0.5008169808
1711450000.0 0.4083480444 0.3334499215
1721400000.0 0.5570057818 -0.0193108577
1731350000.0 0.4427789962 -0.3819428693
1741300000.0 0.1282660732 -0.5882375045
1751250000.0 -0.2423064133 -0.5582867086
1761200000.0 -0.5196859601 -0.3137015898
1771150000.0 -0.5991769012 0.0502706565
1781100000.0 -0.4424614942 0.3956343509
1791050000.0 -0.1024373632 0.5778283471
1801000000.0 0.2846049236 0.5085113873
1810950000.0 0.5419136142 0.2086397528
1820900000.0 0.5524838439 -0.1807873874
1830850000.0 0.3246697979 -0.4848008347
1840800000.0 -0.0283791041 -0.5861824456
1850750000.0 -0.3627481042 -0.4640091751
1860700000.0 -0.5589781486 -0.1769267241
1870650000.0 -0.5509831893 0.165861925
1880600000.0 -0.3415956924 0.4349150488
1890550000.0 -0.014274751 0.5200532234
1900500000.0 0.2887742654 0.3855867606
1910450000.0 0.4343562882 0.1017157098
1920400000.0 0.3764702076 -0.1928724311
1930350000.0 0.1692879942 -0.3781405741
1940300000.0 -0.0858002873 -0.4022921265
1950250000.0 -0.2860401546 -0.2816630658
1960200000.0 -0.3649063697 -0.0897657154
1970150000.0 -0.3172667085 0.087282125
1980100000.0 -0.1942571537 0.1757773694
1990050000.0 -0.078436248 0.1632392175
2000000000.0 -0.0337416151 0.1060914627
