!Created with skrf (http://scikit-rf.org).
# GHz S RI R 50.0 
!freq ReS11 ImS11
10000000.0 -0.9955521647 0.0690062034
14975000.0 -0.991966086 0.1033625963
19950000.0 -0.9871824687 0.1383019863
24925000.0 -0.9808436433 0.1744438629
29900000.0 -0.9736326517 0.2108939117
34875000.0 -0.9637596148 0.2490568935
39850000.0 -0.9517601444 0.2888656074
44825000.0 -0.9374328603 0.3304671629
49800000.0 -0.9208014232 0.3743760664
54775000.0 -0.9007993247 0.4201644708
59750000.0 -0.8770712103 0.468222226
64725000.0 -0.849305319 0.5183856638
69700000.0 -0.8159535844 0.5705803277
74675000.0 -0.7760000062 0.6241647581
79650000.0 -0.7282590593 0.679455948
84625000.0 -0.6717664786 0.7351070847
89600000.0 -0.6053603762 0.7903418981
94575000.0 -0.5283519339 0.8437018311
99550000.0 -0.4392865438 0.8933242042
104525000.0 -0.3376757481 0.9363956059
109500000.0 -0.2235153288 0.9699331345
114475000.0 -0.0968117685 0.9899065294
119450000.0 0.0396344448 0.9933101507
124425000.0 0.1829835357 0.9764976234
129400000.0 0.3329547428 0.9329909425
134375000.0 0.4670873836 0.8759533891
139350000.0 0.5993227763 0.7904943614
144325000.0 0.7161906352 0.6849971596
149300000.0 0.8136814408 0.5633274821
154275000.0 0.8893453321 0.4313100761
159250000.0 0.9422811467 0.294394646
164225000.0 0.9734382998 0.1577443993
169200000.0 0.9848404545 0.0255440397
174175000.0 0.9789590797 -0.0994054214
179150000.0 0.9591034922 -0.2143336836
184125000.0 0.9287923224 -0.318614284
189100000.0 0.8908439071 -0.4118745966
194075000.0 0.8476753164 -0.4944623359
199050000.0 0.8011909182 -0.5669084383
204025000.0 0.7521275517 -0.6301439948
209000000.0 0.7022295745 -0.6850787025
213975000.0 0.6515230687 -0.7328334543
218950000.0 0.6008213992 -0.7741392405
223925000.0 0.5503188889 -0.8097714765
228900000.0 0.5000280401 -0.8407047479
233875000.0 0.4493281988 -0.8676227058
238850000.0 0.3959240628 -0.891539553
243825000.0 0.3300076646 -0.9132432556
248800000.0 0.4020953677 -0.7523273769
253775000.0 0.298668025 -0.9222762505
258750000.0 0.2407153544 -0.9392182776
263725000.0 0.1900296771 -0.9491437571
268700000.0 0.1414441264 -0.9551884673
273675000.0 0.0934243197 -0.9583620779
278650000.0 0.0451808513 -0.9578843764
283625000.0 -0.0032636887 -0.9541171976
288600000.0 -0.0517997035 -0.9469383652
293575000.0 -0.1014415892 -0.9361824108
298550000.0 -0.1516299701 -0.9209597667
303525000.0 -0.2020769403 -0.9015674876
308500000.0 -0.2530759771 -0.8771139333
313475000.0 -0.3031399791 -0.8472395769
318450000.0 -0.3528496344 -0.8109571582
323425000.0 -0.4009521002 -0.7683727862
328400000.0 -0.4459644214 -0.7190483558
333375000.0 -0.487407557 -0.6625085892
338350000.0 -0.5235859252 -0.599529376
343325000.0 -0.5525655199 -0.5322424992
348300000.0 -0.5736131725 -0.4588910183
353275000.0 -0.5850429221 -0.3823381825
358250000.0 -0.5855486387 -0.304637872
363225000.0 -0.5748487202 -0.2268126027
368200000.0 -0.5548507241 -0.1516325645
373175000.0 -0.5254391502 -0.0824379858
378150000.0 -0.4869504951 -0.0198513582
383125000.0 -0.4425465989 0.0348168724
388100000.0 -0.3942851296 0.0804020183
393075000.0 -0.3426089206 0.1172325151
398050000.0 -0.2904628722 0.1454760606
403025000.0 -0.2400984054 0.1647517494
408000000.0 -0.1911504946 0.1763763803
412975000.0 -0.1443492007 0.1822621364
417950000.0 -0.1023078079 0.1828170094
422925000.0 -0.0647756915 0.1782485656
427900000.0 -0.0313116381 0.1704505316
432875000.0 -0.0022107201 0.1596991273
437850000.0 0.0228704634 0.146012802
442825000.0 0.0438833917 0.131734998
447800000.0 0.0603508819 0.117712026
452775000.0 0.073053268 0.1025032523
457750000.0 0.0822648751 0.0875659439
462725000.0 0.0875681765 0.0733768034
467700000.0 0.0900752431 0.0594939636
472675000.0 0.0900480155 0.0459606266
477650000.0 0.0860816805 0.0330523574
482625000.0 0.07968305 0.0208917168
487600000.0 0.0683129064 0.0102114805
492575000.0 0.0385338648 0.0054630213
497550000.0 0.0894457478 0.0592145853
502525000.0 0.0775113808 0.0078328905
507500000.0 0.0613643115 -0.0031713329
512475000.0 0.0475546492 -0.0089861061
517450000.0 0.034536402 -0.0126720268
522425000.0 0.0219028898 -0.0143277397
527400000.0 0.0099208411 -0.0146156166
532375000.0 -0.001817664 -0.0138846318
537350000.0 -0.0140530815 -0.012095189
542325000.0 -0.0270268747 -0.0089400866
547300000.0 -0.0402485395 -0.002249647
552275000.0 -0.0505907369 0.0051591203
557250000.0 -0.0601396455 0.0123320413
562225000.0 -0.0696127521 0.0204831462
567200000.0 -0.0788052018 0.028355618
572175000.0 -0.0866898935 0.0361754798
577150000.0 -0.094142721 0.0447408402
582125000.0 -0.1006440609 0.05379512
587100000.0 -0.1059324744 0.0628279221
592075000.0 -0.1109853713 0.0722282363
597050000.0 -0.1147962588 0.080855856
602025000.0 -0.1176943662 0.0897572634
607000000.0 -0.1193185921 0.0983574155
611975000.0 -0.1199386902 0.106767348
616950000.0 -0.1195981981 0.114770355
621925000.0 -0.1181560355 0.1229150334
626900000.0 -0.1157408527 0.1308626334
631875000.0 -0.1128944936 0.1376944371
636850000.0 -0.1089884855 0.1439914908
641825000.0 -0.1042215487 0.1500151839
646800000.0 -0.0986103141 0.1555997803
651775000.0 -0.0927269944 0.1599108901
656750000.0 -0.0856037044 0.1633282472
661725000.0 -0.0775679112 0.1662795465
666700000.0 -0.0693096293 0.1686434109
671675000.0 -0.0610365353 0.1697293434
676650000.0 -0.051891103 0.1696366122
681625000.0 -0.0422699264 0.1681591556
686600000.0 -0.0316886212 0.1655691853
691575000.0 -0.0201976295 0.1619753605
696550000.0 -0.0082417759 0.1576751427
701525000.0 0.0036874394 0.1520172558
706500000.0 0.0158616059 0.1447755693
711475000.0 0.0284308722 0.1362696832
716450000.0 0.0407147727 0.1268334077
721425000.0 0.0529655872 0.1157209102
726400000.0 0.065636905 0.1033232712
731375000.0 0.0779412229 0.0896094133
736350000.0 0.0893736638 0.0754348725
741325000.0 0.0998707844 0.0593445152
746300000.0 0.1095326312 0.0420326668
751275000.0 0.1197985432 0.0240287117
756250000.0 0.1275041187 0.0043922511
761225000.0 0.1339683146 -0.0159934451
766200000.0 0.140045875 -0.0374656974
771175000.0 0.1450632312 -0.0594559867
776150000.0 0.1488144876 -0.0819667873
781125000.0 0.1506356277 -0.1045850009
786100000.0 0.1508892022 -0.1275808887
791075000.0 0.1504188364 -0.1514036903
796050000.0 0.1477808502 -0.1749496255
801025000.0 0.1440459298 -0.1984367051
806000000.0 0.139087777 -0.2214171983
810975000.0 0.1326217663 -0.2436998079
815950000.0 0.1238349058 -0.2648102806
820925000.0 0.1134088291 -0.2856142381
825900000.0 0.1018753523 -0.3060543862
830875000.0 0.0894324118 -0.3252516809
835850000.0 0.0757352191 -0.3427857851
840825000.0 0.0600985243 -0.3591670511
845800000.0 0.0439618969 -0.3747145487
850775000.0 0.0264799314 -0.3886236938
855750000.0 0.007703328 -0.400844337
860725000.0 -0.0117214724 -0.4115836994
865700000.0 -0.0322692219 -0.42083823
870675000.0 -0.0537837436 -0.428833872
875650000.0 -0.0759550048 -0.4343660707
880625000.0 -0.0988768923 -0.4376491794
885600000.0 -0.1222318204 -0.4386610677
890575000.0 -0.1464106956 -0.4373665679
895550000.0 -0.171364867 -0.4335697301
900525000.0 -0.1965835711 -0.4274461397
905500000.0 -0.2222872305 -0.4182563055
910475000.0 -0.2485545172 -0.4060091396
915450000.0 -0.2744590322 -0.3901725993
920425000.0 -0.2999315581 -0.3701320547
925400000.0 -0.3247081944 -0.3465751823
930375000.0 -0.3482495811 -0.3199037543
935350000.0 -0.3708183899 -0.2898799495
940325000.0 -0.3933530215 -0.2550459526
945300000.0 -0.4135139966 -0.2140468365
950275000.0 -0.4303887985 -0.1676859858
955250000.0 -0.4423246797 -0.1155494439
960225000.0 -0.4464490981 -0.0595553756
965200000.0 -0.4445058052 -0.0032531099
970175000.0 -0.4411753563 0.054233901
975150000.0 -0.4349276804 0.117421486
980125000.0 -0.421587101 0.1873520731
985100000.0 -0.3974424011 0.2633998474
990075000.0 -0.3592735212 0.3417385671
995050000.0 -0.3063976281 0.4196674713
1000025000.0 -0.2372468213 0.4935622043
1005000000.0 -0.1528476791 0.559001735
1009975000.0 -0.0535241028 0.6126996006
1014950000.0 0.0584842922 0.6494203673
1019925000.0 0.1789410052 0.6667843275
1024900000.0 0.3044264581 0.6624302203
1029875000.0 0.4296252855 0.6350452017
1034850000.0 0.5493418709 0.5842132692
1039825000.0 0.6581859958 0.5117623685
1044800000.0 0.7518276536 0.4188211985
1049775000.0 0.8251356636 0.3078823912
1054750000.0 0.8704706121 0.1817011075
1059725000.0 0.8698114882 0.0524937605
1064700000.0 0.8311678771 -0.0158438219
1069675000.0 0.8665032274 -0.0637288468
1074650000.0 0.8929641622 -0.1734492433
1079625000.0 0.8800045878 -0.2919790027
1084600000.0 0.8401956887 -0.4040444874
1089575000.0 0.7791754857 -0.5026411603
1094550000.0 0.705163483 -0.5872130336
1099525000.0 0.6201606408 -0.6580206346
1104500000.0 0.5268853173 -0.7137029094
1109475000.0 0.4279972711 -0.7544204512
1114450000.0 0.3258917593 -0.7800461714
1119425000.0 0.2226388995 -0.7912850549
1124400000.0 0.1209152226 -0.788339351
1129375000.0 0.0229185287 -0.7728297761
1134350000.0 -0.0699885519 -0.7446956192
1139325000.0 -0.1561269546 -0.7063460757
1144300000.0 -0.234436411 -0.6582395323
1149275000.0 -0.3033556854 -0.6033226413
1154250000.0 -0.3629348262 -0.542483523
1159225000.0 -0.412431258 -0.4790373377
1164200000.0 -0.4519229538 -0.4152467317
1169175000.0 -0.4841415366 -0.3548435997
1174150000.0 -0.5122275126 -0.2964269435
1179125000.0 -0.5368588432 -0.236875902
1184100000.0 -0.5561323388 -0.1767942371
1189075000.0 -0.569462897 -0.1178462967
1194050000.0 -0.5767097657 -0.0611911074
1199025000.0 -0.5803749852 -0.0083267703
1204000000.0 -0.5797120161 0.0418537737
1208975000.0 -0.5760370837 0.088379643
1213950000.0 -0.5702728626 0.1318897948
1218925000.0 -0.5628329969 0.1719532369
1223900000.0 -0.5545263972 0.2096243917
1228875000.0 -0.5455827274 0.243895637
1233850000.0 -0.5349658494 0.2754681701
1238825000.0 -0.5249634433 0.3043047751
1243800000.0 -0.5155527364 0.3310332949
1248775000.0 -0.5047699094 0.3556273253
1253750000.0 -0.4944050575 0.3779428667
1258725000.0 -0.4857268747 0.3988699004
1263700000.0 -0.4764136037 0.4179765403
1268675000.0 -0.468204412 0.4351763424
1273650000.0 -0.4609134422 0.450768489
1278625000.0 -0.4537492373 0.4654417013
1283600000.0 -0.4472516849 0.4787237742
1288575000.0 -0.4411084176 0.48995954
1293550000.0 -0.4347229864 0.5010040629
1298525000.0 -0.4295371417 0.5117308106
1303500000.0 -0.4238934674 0.5204212641
1308475000.0 -0.4188622129 0.5299304029
1313450000.0 -0.4144404896 0.5381483594
1318425000.0 -0.4104570687 0.5451819591
1323400000.0 -0.4062437062 0.5527748076
1328375000.0 -0.4022763869 0.5594245293
1333350000.0 -0.3979990839 0.5655226319
1338325000.0 -0.394424978 0.5716636231
1343300000.0 -0.390651526 0.5770180851
1348275000.0 -0.3868773343 0.5821609575
1353250000.0 -0.3834173801 0.5868506857
1358225000.0 -0.379694567 0.5907211554
1363200000.0 -0.3759234007 0.5946470107
1368175000.0 -0.3721844168 0.5981435644
1373150000.0 -0.3683917095 0.6005154066
1378125000.0 -0.3640973191 0.6037645963
1383100000.0 -0.3599233379 0.6056031955
1388075000.0 -0.355617796 0.6077310978
1393050000.0 -0.3501301872 0.6087093194
1398025000.0 -0.3460669991 0.6106379786
1403000000.0 -0.3412843951 0.6113501861
1407975000.0 -0.3349305818 0.6122228492
1412950000.0 -0.329669409 0.6127452393
1417925000.0 -0.3241899695 0.612826134
1422900000.0 -0.3182629645 0.6121923465
1427875000.0 -0.3124963004 0.6116584418
1432850000.0 -0.3065907407 0.6105223537
1437825000.0 -0.3016984564 0.6085761837
1442800000.0 -0.2964980891 0.6071245009
1447775000.0 -0.2921641781 0.6050200098
1452750000.0 -0.287219322 0.6036609727
1457725000.0 -0.2819303354 0.6022502753
1462700000.0 -0.2757782876 0.6021401946
1467675000.0 -0.2693990368 0.6023329926
1472650000.0 -0.2604016028 0.6022781189
1477625000.0 -0.2508792704 0.6031681815
1482600000.0 -0.2420112626 0.603384818
1487575000.0 -0.2303055305 0.6028010911
1492550000.0 -0.217027152 0.6020928595
1497525000.0 -0.2039154253 0.6011380484
1502500000.0 -0.1903552896 0.5997931047
1507475000.0 -0.1739973376 0.5991041315
1512450000.0 -0.1581894789 0.5970422847
1517425000.0 -0.1421759733 0.5941036508
1522400000.0 -0.1257750772 0.592495923
1527375000.0 -0.1082664119 0.5889181283
1532350000.0 -0.0900157659 0.5844285382
1537325000.0 -0.0728989135 0.5801685963
1542300000.0 -0.0541164605 0.5740041858
1547275000.0 -0.0338798845 0.5677298272
1552250000.0 -0.0146932634 0.5610057183
1557225000.0 0.0043089818 0.5529328004
1562200000.0 0.0251678596 0.5446335708
1567175000.0 0.0450859892 0.5361501317
1572150000.0 0.0657242554 0.5253908722
1577125000.0 0.0866177951 0.515427697
1582100000.0 0.1068097594 0.5046749235
1587075000.0 0.1281268081 0.4926409733
1592050000.0 0.1491105868 0.48065318
1597025000.0 0.1694930503 0.4686741925
1602000000.0 0.1905518879 0.4564286375
1606975000.0 0.2120187586 0.4438234341
1611950000.0 0.232669603 0.4306855051
1616925000.0 0.2538059114 0.4179550967
1621900000.0 0.2755590416 0.4044094246
1626875000.0 0.297379191 0.3909241315
1631850000.0 0.3177007434 0.3770610113
1636825000.0 0.3376666732 0.3622528279
1641800000.0 0.3582893495 0.3472494888
1646775000.0 0.3779553061 0.332414916
1651750000.0 0.3958990857 0.3169052481
1656725000.0 0.413641082 0.3020950961
1661700000.0 0.4305351235 0.2874907351
1666675000.0 0.4470192837 0.2721247876
1671650000.0 0.4625088609 0.2576490603
1676625000.0 0.4757889529 0.2440452073
1681600000.0 0.4890407069 0.228950111
1686575000.0 0.5023962825 0.2146519412
1691550000.0 0.5129594844 0.2019047016
1696525000.0 0.5237271793 0.1883213471
1701500000.0 0.5347517264 0.1750186828
1706475000.0 0.5436689605 0.1628236191
1711450000.0 0.5521017413 0.1504959327
1716425000.0 0.5610039257 0.1389272101
1721400000.0 0.5687044772 0.1275974069
1726375000.0 0.5754808819 0.1167537939
1731350000.0 0.5822536773 0.1063528438
1736325000.0 0.5894171422 0.0960925754
1741300000.0 0.5958011953 0.0868666119
1746275000.0 0.6013659074 0.0777726005
1751250000.0 0.6069068147 0.0688993108
1756225000.0 0.6129957445 0.0608001855
1761200000.0 0.6170038524 0.0535593133
1766175000.0 0.6212751067 0.0463824414
1771150000.0 0.6251304467 0.0397915646
1776125000.0 0.6286168625 0.0334379279
1781100000.0 0.631341788 0.0274342305
1786075000.0 0.6339292544 0.0221735174
1791050000.0 0.6368235133 0.0166399285
1796025000.0 0.6381805423 0.0122235792
1801000000.0 0.6394378486 0.0078208594
1805975000.0 0.6409271385 0.0034329894
1810950000.0 0.640697482 0.0003564575
1815925000.0 0.6401659783 -0.0036730585
1820900000.0 0.6394241987 -0.007276554
1825875000.0 0.6383577038 -0.0101064346
1830850000.0 0.6346636348 -0.0146761431
1835825000.0 0.6305641912 -0.0190618747
1840800000.0 0.6231450447 -0.0231719948
1845775000.0 0.6115618492 -0.0290760305
1850750000.0 0.5913377024 -0.0331998843
1855725000.0 0.5586228362 -0.0245378418
1860700000.0 0.5348245409 0.0145593921
1865675000.0 0.5513267052 0.0529742917
1870650000.0 0.5730348963 0.0611119449
1875625000.0 0.5830755441 0.0577025128
1880600000.0 0.5851337163 0.0522030291
1885575000.0 0.5823262289 0.0481849726
1890550000.0 0.5774706258 0.0451032629
1895525000.0 0.5704784942 0.0426058771
1900500000.0 0.5624027399 0.0410274914
1905475000.0 0.5542120014 0.0400424594
1910450000.0 0.5448245969 0.0386665496
1915425000.0 0.5340903978 0.0382234955
1920400000.0 0.5235081393 0.0383116852
1925375000.0 0.5119062135 0.0382273538
1930350000.0 0.4987202307 0.0386933217
1935325000.0 0.4853003463 0.0389431314
1940300000.0 0.4700950529 0.0388229994
1945275000.0 0.453598098 0.0400291936
1950250000.0 0.4365005396 0.0398096511
1955225000.0 0.4169701456 0.0404433655
1960200000.0 0.3967337303 0.0420279382
1965175000.0 0.3751316202 0.0425980013
1970150000.0 0.3514320607 0.0443840687
1975125000.0 0.3271160556 0.0464381924
1980100000.0 0.2999110373 0.0479855245
1985075000.0 0.2716794328 0.0513154896
1990050000.0 0.2424705483 0.0539142156
1995025000.0 0.209485833 0.0579753305
2000000000.0 0.1755968872 0.0640779545
