!Created with skrf (http://scikit-rf.org).
# GHz S RI R 50.0 
!freq ReS11 ImS11
10000000.0 -1.001266169 0.1632732274
19950000.0 -0.9451444222 0.3121117333
29900000.0 -0.8662654498 0.455154421
39850000.0 -0.7641511819 0.5969408136
49800000.0 -0.6400278309 0.7322448869
59750000.0 -0.4878204551 0.8537815729
69700000.0 -0.2987355194 0.9479241302
79650000.0 -0.0683176167 0.9926323273
89600000.0 0.1998229689 0.9659996227
99550000.0 0.487063836 0.8442596129
109500000.0 0.7589775403 0.611681961
119450000.0 0.9566929646 0.2621310596
129400000.0 0.9977298402 -0.1756141163
139350000.0 0.8518761981 -0.5722157714
149300000.0 0.5415694911 -0.8573975445
159250000.0 0.1719554247 -0.9767705345
169200000.0 -0.173986048 -0.9623314708
179150000.0 -0.4589647409 -0.8631050087
189100000.0 -0.6747102587 -0.7166227254
199050000.0 -0.8216631925 -0.5465854569
209000000.0 -0.9047433821 -0.3676747713
218950000.0 -0.940978483 -0.1911014983
228900000.0 -0.9422839317 -0.0225580757
238850000.0 -0.9200454095 0.1374638692
248800000.0 -0.8835754121 0.2822472228
258750000.0 -0.8310580856 0.42484047
268700000.0 -0.7610725549 0.5510316713
278650000.0 -0.6685259864 0.657978655
288600000.0 -0.5511557912 0.7417894339
298550000.0 -0.4116577387 0.7994292015
308500000.0 -0.2538072809 0.8330408909
318450000.0 -0.0806470966 0.8393540399
328400000.0 0.1014937377 0.809304176
338350000.0 0.2748370107 0.7300069574
348300000.0 0.415618919 0.5932583574
358250000.0 0.4926633673 0.4076075976
368200000.0 0.4881816379 0.2044977851
378150000.0 0.4097483952 0.0251566044
388100000.0 0.2862919586 -0.1006545708
398050000.0 0.1525933813 -0.1616981695
408000000.0 0.0363211919 -0.16402624
417950000.0 -0.0484400586 -0.1241755826
427900000.0 -0.1013381152 -0.0623218856
437850000.0 -0.1274273499 0.0051572726
447800000.0 -0.1348524679 0.0661062741
457750000.0 -0.1282639665 0.1132719191
467700000.0 -0.1110908659 0.1420381822
477650000.0 -0.0862629276 0.1522778717
487600000.0 -0.0562465677 0.1471170206
497550000.0 -0.0246543786 0.1344854119
507500000.0 0.0059557019 0.1151737062
517450000.0 0.0296411179 0.0938772069
527400000.0 0.0429537727 0.0733972596
537350000.0 0.042110083 0.0550399124
547300000.0 0.0316784604 0.0369366231
557250000.0 0.0081073827 0.0166422705
567200000.0 -0.0214833354 -0.0021369175
577150000.0 -0.0528948615 -0.0177112228
587100000.0 -0.0827972826 -0.0259815574
597050000.0 -0.1151517166 0.0023197295
607000000.0 -0.0941537099 -0.0068857485
616950000.0 -0.1125331199 0.0090657167
626900000.0 -0.1223896768 0.0378592027
636850000.0 -0.1275159511 0.0707824271
646800000.0 -0.1280123804 0.102086806
656750000.0 -0.1227310201 0.1280875898
666700000.0 -0.1085178429 0.1454067691
676650000.0 -0.0834563756 0.1538286027
686600000.0 -0.0462732075 0.1548600284
696550000.0 0.0092058067 0.1497619807
706500000.0 0.0175664697 0.1364852823
716450000.0 0.0529106586 0.079516788
726400000.0 0.0862193392 0.0903423136
736350000.0 0.1073298489 0.0698817546
746300000.0 0.1143543203 0.0310830235
756250000.0 0.1084726336 -0.0180737242
766200000.0 0.0908909778 -0.0737685282
776150000.0 0.0637278621 -0.1302400086
786100000.0 0.0276367746 -0.1804384802
796050000.0 -0.0168034786 -0.217381228
806000000.0 -0.0687022762 -0.2366520935
815950000.0 -0.1287493288 -0.2344376114
825900000.0 -0.1937456569 -0.2136525695
835850000.0 -0.2610500426 -0.1771075851
845800000.0 -0.3246620019 -0.1293321
855750000.0 -0.3787354349 -0.0732846328
865700000.0 -0.4167180227 -0.0105021608
875650000.0 -0.4322604782 0.0580250647
885600000.0 -0.4245358368 0.1321934962
895550000.0 -0.3942479761 0.2108841188
905500000.0 -0.3436288046 0.2917419744
915450000.0 -0.2763759658 0.3697020037
925400000.0 -0.1935859709 0.4376987706
935350000.0 -0.0954736765 0.4861777183
945300000.0 0.0169732027 0.5043028259
955250000.0 0.1425950285 0.4827550236
965200000.0 0.2749420111 0.4134152586
975150000.0 0.4030740187 0.2926215216
985100000.0 0.5063855322 0.1178598182
995050000.0 0.5539373359 -0.1050402501
1005000000.0 0.508582291 -0.3531604141
1014950000.0 0.3402181371 -0.5792905001
1024900000.0 0.0571638922 -0.7158973545
1034850000.0 -0.2848934246 -0.711710392
1044800000.0 -0.6031256891 -0.5546404084
1054750000.0 -0.8099545738 -0.2783851674
1064700000.0 -0.8902927719 0.0287512242
1074650000.0 -0.8232428036 0.3462193656
1084600000.0 -0.6371567157 0.5790994313
1094550000.0 -0.3959934907 0.7441542233
1104500000.0 -0.1195578639 0.8171250038
1114450000.0 0.1536847932 0.799120192
1124400000.0 0.3917246697 0.6939726401
1134350000.0 0.5648521117 0.5191961756
1144300000.0 0.6597548754 0.3029574988
1154250000.0 0.6806468798 0.0825900816
1164200000.0 0.6528138103 -0.1184695572
1174150000.0 0.5893877487 -0.2988746341
1184100000.0 0.4918551646 -0.4470513423
1194050000.0 0.3705564367 -0.5526130614
1204000000.0 0.2358159883 -0.6135402777
1213950000.0 0.0976553343 -0.6355572778
1223900000.0 -0.0356332862 -0.6304037766
1233850000.0 -0.1592630538 -0.6089559325
1243800000.0 -0.2702350986 -0.577376546
1253750000.0 -0.3667146011 -0.538155462
1263700000.0 -0.4462710935 -0.4898992235
1273650000.0 -0.5094043645 -0.4324490018
1283600000.0 -0.5547311621 -0.3646558791
1293550000.0 -0.5868693422 -0.2883034371
1303500000.0 -0.6105798223 -0.2071527378
1313450000.0 -0.6299729994 -0.1260429302
1323400000.0 -0.6472142881 -0.0478023147
1333350000.0 -0.6598592801 0.0257504332
1343300000.0 -0.6646685184 0.0947133766
1353250000.0 -0.6579132024 0.1581962794
1363200000.0 -0.6360706195 0.2178011746
1373150000.0 -0.5994899606 0.2754594207
1383100000.0 -0.5534308707 0.3321523717
1393050000.0 -0.5026620126 0.389053267
1403000000.0 -0.4514511016 0.4439241315
1412950000.0 -0.4007595653 0.4948904148
1422900000.0 -0.3498164074 0.5386847277
1432850000.0 -0.2962944198 0.5705950045
1442800000.0 -0.2371375416 0.59062711
1452750000.0 -0.1701569897 0.597907979
1462700000.0 -0.0950111973 0.5951280797
1472650000.0 -0.0134331021 0.5861522753
1482600000.0 0.0709043468 0.5735961351
1492550000.0 0.1545190542 0.555069495
1502500000.0 0.2334736912 0.5284285309
1512450000.0 0.3043341681 0.4884382589
1522400000.0 0.3628652298 0.4325544893
1532350000.0 0.408121464 0.3585851418
1542300000.0 0.4415172964 0.2694044478
1552250000.0 0.4633592061 0.1714369707
1562200000.0 0.478595486 0.0738552198
1572150000.0 0.4871580647 -0.0233804268
1582100000.0 0.4820419115 -0.1178397955
1592050000.0 0.4597425407 -0.2040987375
1602000000.0 0.4173535229 -0.2810821406
1611950000.0 0.3576768143 -0.3478406107
1621900000.0 0.2841433775 -0.4062128699
1631850000.0 0.2030456274 -0.457967772
1641800000.0 0.1181155628 -0.500940403
1651750000.0 0.0319207189 -0.5270150977
1661700000.0 -0.0384531971 -0.5356568874
1671650000.0 -0.0930944796 -0.5820509296
1681600000.0 -0.1867957714 -0.5661804286
1691550000.0 -0.2644383091 -0.5354987808
1701500000.0 -0.3366887267 -0.4952898444
1711450000.0 -0.4049361658 -0.4506256842
1721400000.0 -0.4684857255 -0.4049938046
1731350000.0 -0.5249128515 -0.36098771
1741300000.0 -0.5713632027 -0.3159713519
1751250000.0 -0.6037816928 -0.2667284134
1761200000.0 -0.6216722953 -0.2131706188
1771150000.0 -0.6274848091 -0.1546196658
1781100000.0 -0.6276655018 -0.0928030919
1791050000.0 -0.6265955799 -0.0312117083
1801000000.0 -0.6277508065 0.0279430227
1810950000.0 -0.6316132555 0.0831753418
1820900000.0 -0.6342534415 0.1333561252
1830850000.0 -0.6304883534 0.1769231037
1840800000.0 -0.6146855777 0.2160998447
1850750000.0 -0.5861938643 0.2517141295
1860700000.0 -0.5453846378 0.2845767736
1870650000.0 -0.4985426942 0.3168488184
1880600000.0 -0.4510189596 0.3471045582
1890550000.0 -0.4070039479 0.3749831725
1900500000.0 -0.3681676556 0.3971959071
1910450000.0 -0.3334418356 0.4097396699
1920400000.0 -0.2988976249 0.409465619
1930350000.0 -0.2631708676 0.3960608927
1940300000.0 -0.2250243091 0.3714644105
1950250000.0 -0.1844972511 0.3383265377
1960200000.0 -0.1444157087 0.3015764509
1970150000.0 -0.1113332528 0.261924795
1980100000.0 -0.0901816585 0.2207084471
1990050000.0 -0.0875737267 0.174621278
2000000000.0 -0.1086761273 0.1200188414
