!Created with skrf (http://scikit-rf.org).
# GHz S RI R 50.0 
!freq ReS11 ImS11
10000000.0 -0.7452852153 0.5696142009
19950000.0 -0.2746406545 0.8998465611
29900000.0 0.3033004641 0.8798541417
39850000.0 0.7692255956 0.510629103
49800000.0 0.9278384434 -0.0838230108
59750000.0 0.6838566889 -0.6718698043
69700000.0 0.1107700559 -0.9816720675
79650000.0 -0.5364163289 -0.8320337796
89600000.0 -0.9268683362 -0.261371718
99550000.0 -0.824988195 0.4574752017
109500000.0 -0.2284675035 0.9246959068
119450000.0 0.5572889852 0.8059985394
129400000.0 1.000185919 0.098303921
139350000.0 0.7262328432 -0.7029550802
149300000.0 -0.0596292927 -0.9766981531
159250000.0 -0.7427640961 -0.5598829248
169200000.0 -0.8895661772 0.1861661436
179150000.0 -0.4905563884 0.7779119475
189100000.0 0.1642328456 0.9164621481
199050000.0 0.7146759972 0.5830908584
209000000.0 0.9086112986 -0.016802418
218950000.0 0.6900585017 -0.5773885993
228900000.0 0.1869854587 -0.8677244944
238850000.0 -0.3777411048 -0.7871232116
248800000.0 -0.7654082483 -0.3946161297
258750000.0 -0.8578190049 0.1742483555
268700000.0 -0.5931578562 0.6736950859
278650000.0 -0.0916719041 0.9065981675
288600000.0 0.4378141398 0.7791020631
298550000.0 0.7787210918 0.3489712427
308500000.0 0.790642548 -0.207461589
318450000.0 0.4597760684 -0.6546773557
328400000.0 -0.0725942351 -0.789172027
338350000.0 -0.550555273 -0.5422726949
348300000.0 -0.7210697821 -0.0505366899
358250000.0 -0.5112898254 0.3891389507
368200000.0 -0.0962772173 0.5282390301
378150000.0 0.2374937904 0.3528714109
388100000.0 0.3204932954 0.0491921801
398050000.0 0.1863328475 -0.1611119949
408000000.0 -0.0077602365 -0.1803484981
417950000.0 -0.1103741958 -0.069187748
427900000.0 -0.0847792285 0.0481243652
437850000.0 0.0088774658 0.0844198113
447800000.0 0.0889120499 0.0299154529
457750000.0 0.0998862804 -0.0655345272
467700000.0 0.0398642581 -0.1376222409
477650000.0 -0.0482041666 -0.1461506019
487600000.0 -0.1132643273 -0.0864327207
497550000.0 -0.1266585934 -0.0005120176
507500000.0 -0.0803937013 0.0731907256
517450000.0 -0.0031828625 0.1013615598
527400000.0 0.0609848583 0.0796154547
537350000.0 0.085387806 0.032393175
547300000.0 0.066846435 -0.0119750683
557250000.0 0.0242400932 -0.02608733
567200000.0 -0.0097738575 -0.0096121702
577150000.0 -0.0140994931 0.0196991051
587100000.0 0.0113289584 0.0307492782
597050000.0 0.0414114292 0.0086780135
607000000.0 0.0475116578 -0.0402896696
616950000.0 0.0157018814 -0.0885123053
626900000.0 -0.046601036 -0.1036759745
636850000.0 -0.1099382772 -0.07033622
646800000.0 -0.1365172196 0.0043586714
656750000.0 -0.1109137623 0.0876213311
666700000.0 -0.0363960519 0.1396338985
676650000.0 0.0584061297 0.1317528943
686600000.0 0.1306415205 0.0600356845
696550000.0 0.1434850141 -0.0513043015
706500000.0 0.0849173259 -0.1497128165
716450000.0 -0.022114656 -0.1890211766
726400000.0 -0.1256367847 -0.1487988831
736350000.0 -0.1740576094 -0.0455036445
746300000.0 -0.1346232925 0.0687666133
756250000.0 -0.0211370658 0.1325806349
766200000.0 0.1079464924 0.1062838086
776150000.0 0.19110669 0.0028460146
786100000.0 0.181220676 -0.1270740943
796050000.0 0.0779875137 -0.2169066587
806000000.0 -0.0671890806 -0.2049467408
815950000.0 -0.1789395408 -0.0864543728
825900000.0 -0.184874428 0.0868165768
835850000.0 -0.073000976 0.2300580427
845800000.0 0.1097847319 0.2636162568
855750000.0 0.2794083242 0.1636371787
865700000.0 0.3485928565 -0.0349676822
875650000.0 0.2689292517 -0.2402244843
885600000.0 0.0626949629 -0.3472483907
895550000.0 -0.1774104872 -0.2845937728
905500000.0 -0.3286104581 -0.0634358129
915450000.0 -0.2989280048 0.2184784062
925400000.0 -0.0864135369 0.4162351479
935350000.0 0.2074517359 0.4163645071
945300000.0 0.4261242312 0.1969825677
955250000.0 0.4267103224 -0.1453370712
965200000.0 0.158975583 -0.4130845713
975150000.0 -0.2591566138 -0.3976302651
985100000.0 -0.5467240934 -0.0339027326
995050000.0 -0.4352263716 0.457117759
1005000000.0 0.0536462288 0.6821817316
1014950000.0 0.5647581357 0.4188530636
1024900000.0 0.6930795457 -0.1915314065
1034850000.0 0.2735912565 -0.7038257998
1044800000.0 -0.4018134434 -0.6686098279
1054750000.0 -0.7507023513 -0.1084481175
1064700000.0 -0.6474248489 0.4109461634
1074650000.0 -0.2177320176 0.7675163925
1084600000.0 0.3719422466 0.6992317198
1094550000.0 0.7172965188 0.2233010469
1104500000.0 0.6301871582 -0.3594001751
1114450000.0 0.1676205836 -0.7064602579
1124400000.0 -0.3742402153 -0.6187477621
1134350000.0 -0.6736857859 -0.1976237855
1144300000.0 -0.6124686736 0.2846734427
1154250000.0 -0.27267546 0.589776012
1164200000.0 0.1644170008 0.6085561202
1174150000.0 0.5127575497 0.3437502672
1184100000.0 0.6006204033 -0.0887816679
1194050000.0 0.3797283918 -0.4629785517
1204000000.0 -0.0188176614 -0.5902326061
1213950000.0 -0.3858219275 -0.4403359266
1223900000.0 -0.5786747506 -0.1167733781
1233850000.0 -0.5504499626 0.2425395547
1243800000.0 -0.3246825309 0.5144695758
1253750000.0 0.0232351047 0.5996803026
1263700000.0 0.3623816171 0.4517784842
1273650000.0 0.5469580707 0.1217763597
1283600000.0 0.4973910013 -0.2474665635
1293550000.0 0.2533818045 -0.5055906875
1303500000.0 -0.0731371391 -0.5765203545
1313450000.0 -0.3687692343 -0.462489343
1323400000.0 -0.5585039349 -0.2135562289
1333350000.0 -0.597213099 0.1028577216
1343300000.0 -0.4579759661 0.4003209228
1353250000.0 -0.1623083119 0.5681524033
1363200000.0 0.1895684315 0.5243148557
1373150000.0 0.4529002823 0.2764292716
1383100000.0 0.5265478013 -0.0711111415
1393050000.0 0.402849168 -0.3875158216
1403000000.0 0.1421277208 -0.5702247583
1412950000.0 -0.1475233972 -0.5888618846
1422900000.0 -0.3918748197 -0.4492953686
1432850000.0 -0.528181195 -0.1884222082
1442800000.0 -0.5056731328 0.1246449797
1452750000.0 -0.3040338394 0.3804847985
1462700000.0 0.0126387065 0.4726458829
1472650000.0 0.3193993206 0.3638803511
1482600000.0 0.5000801927 0.1062851918
1492550000.0 0.5006991789 -0.1972297298
1502500000.0 0.334925286 -0.4404464411
1512450000.0 0.0693986343 -0.5426522438
1522400000.0 -0.2022828984 -0.4698547884
1532350000.0 -0.3802684106 -0.2426614639
1542300000.0 -0.3932297385 0.0593063
1552250000.0 -0.2214096523 0.3167312927
1562200000.0 0.0630178087 0.4181195502
1572150000.0 0.3415376262 0.332168035
1582100000.0 0.502967072 0.1020326856
1592050000.0 0.4913361678 -0.1738822009
1602000000.0 0.3139882162 -0.389750154
1611950000.0 0.0330048022 -0.460612159
1621900000.0 -0.2488255042 -0.3484740041
1631850000.0 -0.4176034175 -0.0827703672
1641800000.0 -0.3940538632 0.2357688168
1651750000.0 -0.1843552292 0.4717848195
1661700000.0 0.1211752735 0.5302591621
1671650000.0 0.3984009139 0.3987641528
1681600000.0 0.549495058 0.1355802852
1691550000.0 0.5294759911 -0.1675164708
1701500000.0 0.3472657363 -0.4120571047
1711450000.0 0.0563917276 -0.5193331298
1721400000.0 -0.2577206072 -0.4418378565
1731350000.0 -0.4846348793 -0.191618242
1741300000.0 -0.5343919022 0.1462079001
1751250000.0 -0.3868973667 0.4424827249
1761200000.0 -0.1074513864 0.5940125769
1771150000.0 0.1988580367 0.5664377921
1781100000.0 0.4395311254 0.3856985039
1791050000.0 0.5546327441 0.1082982746
1801000000.0 0.5171804501 -0.1928264232
1810950000.0 0.3330304176 -0.4362205321
1820900000.0 0.0441713598 -0.541440935
1830850000.0 -0.261995477 -0.4576227021
1840800000.0 -0.4709485406 -0.2113863094
1850750000.0 -0.5109025392 0.0988251417
1860700000.0 -0.3886413258 0.3641710001
1870650000.0 -0.1651960778 0.5159700902
1880600000.0 0.0842921157 0.5296693192
1890550000.0 0.290828643 0.4153967788
1900500000.0 0.403721023 0.2101354147
1910450000.0 0.3970745083 -0.0270867571
1920400000.0 0.2698128803 -0.2221097487
1930350000.0 0.0644430558 -0.3044570059
1940300000.0 -0.1355750274 -0.2560156161
1950250000.0 -0.2577820119 -0.1178274801
1960200000.0 -0.2764614395 0.0385874874
1970150000.0 -0.2125382583 0.1489923256
1980100000.0 -0.1192384419 0.1760823386
1990050000.0 -0.0685723215 0.1229575291
2000000000.0 -0.1229128456 0.0519327219
