!Created with skrf (http://scikit-rf.org).
# GHz S RI R 50.0 
!freq ReS11 ImS11
10000000.0 -0.7371850287 0.5667868155
19950000.0 -0.2679139911 0.8982006434
29900000.0 0.3093983521 0.8886395827
39850000.0 0.7788062089 0.5282960415
49800000.0 0.9409040926 -0.0600060234
59750000.0 0.702058293 -0.6416237392
69700000.0 0.139018116 -0.9515245036
79650000.0 -0.5035869159 -0.8187447738
89600000.0 -0.9100343382 -0.2713930912
99550000.0 -0.8385388065 0.4409225565
109500000.0 -0.2645916795 0.9230227564
119450000.0 0.5147866866 0.8268705537
129400000.0 0.9683922957 0.144043404
139350000.0 0.727340038 -0.6506983772
149300000.0 -0.0336634593 -0.9573556602
159250000.0 -0.7310551565 -0.5801501925
169200000.0 -0.9081434967 0.1547808285
179150000.0 -0.5272980608 0.7558025102
189100000.0 0.1224574834 0.9091604756
199050000.0 0.6786304154 0.5951175386
209000000.0 0.8924914837 0.0102744488
218950000.0 0.701355118 -0.5580865489
228900000.0 0.2098700791 -0.8709693152
238850000.0 -0.3593704053 -0.8136915376
248800000.0 -0.770407245 -0.4138403331
258750000.0 -0.8675228526 0.127857616
268700000.0 -0.6178085914 0.6291060948
278650000.0 -0.1264430908 0.8771379171
288600000.0 0.4087237862 0.7754372754
298550000.0 0.77179389 0.36461832
308500000.0 0.808212161 -0.1888224485
318450000.0 0.492021787 -0.6435410966
328400000.0 -0.0350822331 -0.7868230764
338350000.0 -0.5119703937 -0.549398356
348300000.0 -0.6899926978 -0.0688586641
358250000.0 -0.4962201573 0.3692517029
368200000.0 -0.0921208149 0.5202891068
378150000.0 0.2423066072 0.355893613
388100000.0 0.3287522196 0.0560447198
398050000.0 0.1933839634 -0.1556353149
408000000.0 -0.0043722708 -0.1792943284
417950000.0 -0.1183607711 -0.0685496691
427900000.0 -0.1031383099 0.0594710498
437850000.0 -0.0085453876 0.1110655459
447800000.0 0.0796764842 0.0675965279
457750000.0 0.1042245177 -0.0246100137
467700000.0 0.0562457194 -0.1041425422
477650000.0 -0.0265395616 -0.1263368246
487600000.0 -0.0959175093 -0.0864608719
497550000.0 -0.1164936952 -0.0121122666
507500000.0 -0.0883091529 0.0517889
517450000.0 -0.0293122914 0.0770647216
527400000.0 0.0224860971 0.0588341922
537350000.0 0.0394457488 0.0172231884
547300000.0 0.0220163168 -0.0149916542
557250000.0 -0.0126975778 -0.0202450207
567200000.0 -0.0347792234 0.0050343663
577150000.0 -0.0228122025 0.0374269228
587100000.0 0.0188406772 0.0471905069
597050000.0 0.0648088224 0.0162570467
607000000.0 0.0828119874 -0.0474490084
616950000.0 0.0526482304 -0.1142190219
626900000.0 -0.0179890395 -0.1475151452
636850000.0 -0.0972015537 -0.1243651697
646800000.0 -0.1466646029 -0.0498418279
656750000.0 -0.1409889083 0.0463695056
666700000.0 -0.0753051532 0.1228857812
676650000.0 0.0247138737 0.1431927593
686600000.0 0.116822141 0.0942146546
696550000.0 0.1590625698 -0.0030416036
706500000.0 0.1292952025 -0.1049434423
716450000.0 0.0423413472 -0.1646080259
726400000.0 -0.059545772 -0.1503721533
736350000.0 -0.122320423 -0.0705064694
746300000.0 -0.1100199661 0.0334415817
756250000.0 -0.0258273098 0.1039881045
766200000.0 0.0858290371 0.09771508
776150000.0 0.1636331624 0.015181365
786100000.0 0.1587645166 -0.1015700566
796050000.0 0.0653101344 -0.1855665787
806000000.0 -0.0725506313 -0.1788624474
815950000.0 -0.1819317382 -0.0699485246
825900000.0 -0.194301932 0.0971336155
835850000.0 -0.0890655874 0.2410872922
845800000.0 0.0917398862 0.28311367
855750000.0 0.2671669347 0.1929200574
865700000.0 0.3516207742 -0.0005946146
875650000.0 0.2929806182 -0.2162400568
885600000.0 0.0994223915 -0.351561975
895550000.0 -0.150483819 -0.3258060177
905500000.0 -0.3338403363 -0.1329396413
915450000.0 -0.34858716 0.1466646994
925400000.0 -0.173711011 0.374134361
935350000.0 0.1109244678 0.4282603086
945300000.0 0.3634062774 0.2676372228
955250000.0 0.4400542885 -0.0447092092
965200000.0 0.2594230904 -0.3477872134
975150000.0 -0.1192574054 -0.4314680153
985100000.0 -0.4602526035 -0.1753456795
995050000.0 -0.4812544794 0.2892518663
1005000000.0 -0.106607975 0.6216885014
1014950000.0 0.4269802988 0.5300502656
1024900000.0 0.7136394978 0.013536119
1034850000.0 0.4738262756 -0.5754928174
1044800000.0 -0.1584279569 -0.7545676013
1054750000.0 -0.6920340728 -0.3689183251
1064700000.0 -0.7427859511 0.2561042683
1074650000.0 -0.4007989359 0.700857985
1084600000.0 0.17183117 0.7891188691
1094550000.0 0.6326826445 0.4487860815
1104500000.0 0.7230811268 -0.1236459342
1114450000.0 0.3833504558 -0.5909187311
1124400000.0 -0.1634541373 -0.6696313747
1134350000.0 -0.5754252689 -0.3545263016
1144300000.0 -0.6505338755 0.1245119507
1154250000.0 -0.4003238975 0.5060218562
1164200000.0 0.0211780154 0.6178076033
1174150000.0 0.4014470817 0.4245579432
1184100000.0 0.5548061428 0.0251810115
1194050000.0 0.3973515759 -0.3676401433
1204000000.0 0.0301320269 -0.545114793
1213950000.0 -0.3412772822 -0.4453460016
1223900000.0 -0.5588487869 -0.1521439535
1233850000.0 -0.5579545304 0.1973721463
1243800000.0 -0.3535189191 0.4735510597
1253750000.0 -0.0205298712 0.5743821959
1263700000.0 0.316259002 0.4504240664
1273650000.0 0.5158043204 0.1412358816
1283600000.0 0.4925294023 -0.2237714064
1293550000.0 0.2694353098 -0.4962047432
1303500000.0 -0.0502373485 -0.5882606599
1313450000.0 -0.3514860475 -0.4929663518
1323400000.0 -0.5519770341 -0.256859193
1333350000.0 -0.6036887461 0.0521175557
1343300000.0 -0.4826033147 0.3526300441
1353250000.0 -0.2045269747 0.5424824023
1363200000.0 0.1476167504 0.5368194931
1373150000.0 0.4371271367 0.3239143558
1383100000.0 0.5521395106 -0.0128773444
1393050000.0 0.4636592793 -0.3427840175
1403000000.0 0.225638676 -0.5588903503
1412950000.0 -0.0718347949 -0.6107212838
1422900000.0 -0.3404364292 -0.4994024471
1432850000.0 -0.5136954405 -0.2596518795
1442800000.0 -0.538470875 0.052303135
1452750000.0 -0.3815882958 0.338854252
1462700000.0 -0.0827331677 0.4881331891
1472650000.0 0.2456239196 0.4359433914
1482600000.0 0.4739918402 0.2095858339
1492550000.0 0.5288780208 -0.0927576098
1502500000.0 0.4092971773 -0.3621431017
1512450000.0 0.168483579 -0.5134307492
1522400000.0 -0.1102303024 -0.5012428238
1532350000.0 -0.3329595436 -0.3275594406
1542300000.0 -0.4145728711 -0.0446348488
1552250000.0 -0.3086492169 0.2373332577
1562200000.0 -0.054584182 0.3960133804
1572150000.0 0.2318944492 0.3666261469
1582100000.0 0.4328124935 0.1779453644
1592050000.0 0.4760763815 -0.0863676946
1602000000.0 0.3540351631 -0.3226108391
1611950000.0 0.1076208849 -0.4426800147
1621900000.0 -0.1741578182 -0.3892991942
1631850000.0 -0.375192262 -0.1664296891
1641800000.0 -0.3989122317 0.1421178558
1651750000.0 -0.2282289069 0.3987796529
1661700000.0 0.0585875386 0.4983815425
1671650000.0 0.342359279 0.4114171871
1681600000.0 0.5232156478 0.1815708444
1691550000.0 0.546531589 -0.1116040478
1701500000.0 0.400389746 -0.3734017236
1711450000.0 0.1247603625 -0.5151786577
1721400000.0 -0.1963451468 -0.4724756355
1731350000.0 -0.4454266194 -0.2452526867
1741300000.0 -0.5236568341 0.086246927
1751250000.0 -0.4063120487 0.3959082356
1761200000.0 -0.1494438451 0.5809175047
1771150000.0 0.1567955808 0.5964153946
1781100000.0 0.4189147294 0.453455651
1791050000.0 0.570442508 0.1962941152
1801000000.0 0.5717379161 -0.1086925382
1810950000.0 0.4135125777 -0.3800595714
1820900000.0 0.1282881187 -0.5277125417
1830850000.0 -0.1980644555 -0.490276057
1840800000.0 -0.4497131796 -0.2753922117
1850750000.0 -0.5403993155 0.0303364797
1860700000.0 -0.4643727078 0.3204860648
1870650000.0 -0.2624019617 0.5163412057
1880600000.0 -0.0050773151 0.577034723
1890550000.0 0.2360208297 0.4990606137
1900500000.0 0.4000354024 0.3079810111
1910450000.0 0.4433199458 0.05483567
1920400000.0 0.3496785917 -0.1861930831
1930350000.0 0.1444873121 -0.3333154444
1940300000.0 -0.0947095505 -0.3379768864
1950250000.0 -0.2770894211 -0.2197871111
1960200000.0 -0.3509982176 -0.0439334055
1970150000.0 -0.318176606 0.1068921799
1980100000.0 -0.2347170922 0.1975461122
1990050000.0 -0.1349896891 0.2192236068
2000000000.0 -0.0715041587 0.1740848687
