!Created with skrf (http://scikit-rf.org).
# GHz S RI R 50.0 
!freq ReS11 ImS11
10000000.0 -0.7435001536 0.6702973087
19950000.0 -0.114534283 0.9803317713
29900000.0 0.5631552448 0.80056101
39850000.0 0.9572965498 0.2078383148
49800000.0 0.8471578417 -0.5081908822
59750000.0 0.2642929499 -0.9627565184
69700000.0 -0.4841242237 -0.8780184414
79650000.0 -0.9570257487 -0.2733976468
89600000.0 -0.8399724407 0.5035454604
99550000.0 -0.1638189093 0.9505182426
109500000.0 0.6461105723 0.7106264443
119450000.0 0.9632495605 -0.1142036702
129400000.0 0.4524440722 -0.8718560308
139350000.0 -0.4703232752 -0.8615305099
149300000.0 -0.9592872442 -0.0965198777
159250000.0 -0.6189918993 0.7143467566
169200000.0 0.2062033667 0.9158828701
179150000.0 0.8542919201 0.4080314302
189100000.0 0.8763538066 -0.3891449125
199050000.0 0.3113934383 -0.9119610645
209000000.0 -0.427696638 -0.8546886767
218950000.0 -0.8875801023 -0.3106099736
228900000.0 -0.8449116125 0.3800214782
238850000.0 -0.3534796159 0.849566065
248800000.0 0.3247018518 0.845916739
258750000.0 0.8269539731 0.4300778853
268700000.0 0.9070225494 -0.2376874521
278650000.0 0.5134296364 -0.7778133752
288600000.0 -0.1350425857 -0.9031617225
298550000.0 -0.6881286365 -0.5590941803
308500000.0 -0.8551330441 0.06224929
318450000.0 -0.5481868444 0.6201945259
328400000.0 0.0557863447 0.7950965151
338350000.0 0.5838588806 0.4814741584
348300000.0 0.6910316017 -0.0942613163
358250000.0 0.3463045613 -0.5095365426
368200000.0 -0.1325342943 -0.4997549247
378150000.0 -0.3752575042 -0.169768871
388100000.0 -0.2755267424 0.1539018917
398050000.0 -0.0161638515 0.2362830227
408000000.0 0.1504634914 0.0977535001
417950000.0 0.1221199837 -0.0737701272
427900000.0 -0.0161479655 -0.127691802
437850000.0 -0.1216505671 -0.0467916198
447800000.0 -0.1159015376 0.0782685534
457750000.0 -0.0148929578 0.1480398287
467700000.0 0.0984624715 0.1157714174
477650000.0 0.1471003355 0.0133931426
487600000.0 0.1078711423 -0.0844019919
497550000.0 0.0231038172 -0.1214017482
507500000.0 -0.0568206144 -0.0947061206
517450000.0 -0.0842459301 -0.0317138896
527400000.0 -0.0636990959 0.0168535916
537350000.0 -0.0291925225 0.0263851914
547300000.0 -0.0145770019 0.0112809792
557250000.0 -0.02746457 0.0023887853
567200000.0 -0.0448587662 0.0215542052
577150000.0 -0.0337509438 0.0586358176
587100000.0 0.0177374449 0.0805996414
597050000.0 0.0839339264 0.0564313433
607000000.0 0.1203740204 -0.0218349469
616950000.0 0.092394 -0.1173113736
626900000.0 -4.017e-06 -0.1730810095
636850000.0 -0.1148298843 -0.1500074875
646800000.0 -0.1889595666 -0.0507419669
656750000.0 -0.1745027581 0.0765279831
666700000.0 -0.0753568069 0.1635044729
676650000.0 0.0586159969 0.1574064925
686600000.0 0.1542401602 0.0627233212
696550000.0 0.1575405716 -0.0702425528
706500000.0 0.0723012937 -0.1640471566
716450000.0 -0.0505908257 -0.1671075357
726400000.0 -0.1329777293 -0.0860070193
736350000.0 -0.1230097144 0.0238382657
746300000.0 -0.0333424845 0.0844315647
756250000.0 0.0691124946 0.0519617985
766200000.0 0.10607551 -0.051947712
776150000.0 0.0406822078 -0.1504282148
786100000.0 -0.0859383644 -0.1586824671
796050000.0 -0.1837486464 -0.0564606886
806000000.0 -0.165762613 0.1035808661
815950000.0 -0.0230981402 0.2088821015
825900000.0 0.1723497518 0.1738844814
835850000.0 0.2936528397 -0.0012605691
845800000.0 0.2544189229 -0.2271259496
855750000.0 0.0562215178 -0.3685172194
865700000.0 -0.1983369125 -0.3302067992
875650000.0 -0.3652911267 -0.1132763003
885600000.0 -0.3287020904 0.17274107
895550000.0 -0.092435934 0.3599394119
905500000.0 0.2187504408 0.3229247152
915450000.0 0.4145831626 0.0674887075
925400000.0 0.3635320545 -0.2584110208
935350000.0 0.0842798526 -0.4470066283
945300000.0 -0.2557101335 -0.3612781609
955250000.0 -0.4153483521 -0.0312111152
965200000.0 -0.2439368136 0.3223987744
975150000.0 0.1747643122 0.3918346869
985100000.0 0.4899626007 0.0540797187
995050000.0 0.3591371413 -0.4363381782
1005000000.0 -0.1736846734 -0.6019117601
1014950000.0 -0.6414897182 -0.2050969316
1024900000.0 -0.5581233463 0.4594125499
1034850000.0 0.0861684215 0.7725126386
1044800000.0 0.7224318566 0.4017441297
1054750000.0 0.7889051235 -0.32714749
1064700000.0 0.2644613158 -0.8062848298
1074650000.0 -0.4059874784 -0.6955758444
1084600000.0 -0.7266789681 -0.2343999948
1094550000.0 -0.6600163199 0.4212123292
1104500000.0 -0.0791525863 0.757319324
1114450000.0 0.5250334945 0.5182237211
1124400000.0 0.7084696774 -0.0710470112
1134350000.0 0.394721161 -0.5566451649
1144300000.0 -0.1420706425 -0.6356969871
1154250000.0 -0.5386113892 -0.3026234593
1164200000.0 -0.5516289625 0.1961166135
1174150000.0 -0.191291434 0.5248589186
1184100000.0 0.2789875233 0.4654887443
1194050000.0 0.5336303124 0.0835341143
1204000000.0 0.4288615366 -0.3435068028
1213950000.0 0.0617990044 -0.5592828098
1223900000.0 -0.3416168448 -0.4619823088
1233850000.0 -0.5675410047 -0.117739577
1243800000.0 -0.4986130138 0.2903691287
1253750000.0 -0.1689274205 0.5462754519
1263700000.0 0.2492580597 0.5103503482
1273650000.0 0.5342062222 0.2057181668
1283600000.0 0.5517867947 -0.20394798
1293550000.0 0.3085826043 -0.525577628
1303500000.0 -0.075294987 -0.6240285617
1313450000.0 -0.4386918624 -0.4659035016
1323400000.0 -0.6278984811 -0.1131938744
1333350000.0 -0.5542227502 0.2865687076
1343300000.0 -0.237720103 0.5541721597
1353250000.0 0.1802948483 0.5570945215
1363200000.0 0.5023451794 0.2935170117
1373150000.0 0.5854540845 -0.1053161713
1383100000.0 0.4090636342 -0.4609775877
1393050000.0 0.060053952 -0.632122933
1403000000.0 -0.3148417279 -0.558077258
1412950000.0 -0.5685329176 -0.2720748184
1422900000.0 -0.5918570519 0.1121656278
1432850000.0 -0.3665647244 0.4289686244
1442800000.0 0.0110717501 0.5308710649
1452750000.0 0.3631654563 0.3674537843
1462700000.0 0.5250644828 0.0253056362
1472650000.0 0.4343201488 -0.3300485185
1482600000.0 0.1502110354 -0.5409637144
1492550000.0 -0.1954458134 -0.5245546672
1502500000.0 -0.4470324794 -0.2953167426
1512450000.0 -0.4893860021 0.04170346
1522400000.0 -0.2968072909 0.322524934
1532350000.0 0.0316840129 0.3989093184
1542300000.0 0.3194772217 0.2334416336
1552250000.0 0.4119819174 -0.0744396546
1562200000.0 0.2742270168 -0.3535629635
1572150000.0 -0.00870905 -0.4613891203
1582100000.0 -0.2852822365 -0.3499411424
1592050000.0 -0.4136650976 -0.0796068291
1602000000.0 -0.3215697185 0.2117495948
1611950000.0 -0.0477463005 0.361961022
1621900000.0 0.2602754877 0.2769594022
1631850000.0 0.4223162309 -0.0022772489
1641800000.0 0.3474657339 -0.3170542327
1651750000.0 0.0792150313 -0.4988352108
1661700000.0 -0.2453930537 -0.458391014
1671650000.0 -0.4724744434 -0.212500944
1681600000.0 -0.489125673 0.1327027506
1691550000.0 -0.2719746822 0.4179955298
1701500000.0 0.0913394945 0.4952257913
1711450000.0 0.4227342503 0.3107007401
1721400000.0 0.5530432889 -0.0475260559
1731350000.0 0.4239241083 -0.4024662274
1741300000.0 0.1051304929 -0.5956751093
1751250000.0 -0.2618506345 -0.5554020914
1761200000.0 -0.5324840803 -0.3046779291
1771150000.0 -0.602985038 0.0618912232
1781100000.0 -0.4363671488 0.4045934538
1791050000.0 -0.0876309792 0.5772585782
1801000000.0 0.2986880031 0.4942453567
1810950000.0 0.5453271681 0.1855312948
1820900000.0 0.5440924306 -0.2005106588
1830850000.0 0.3144794906 -0.4971682825
1840800000.0 -0.0370537576 -0.5951140157
1850750000.0 -0.3697683493 -0.4706388645
1860700000.0 -0.5645600262 -0.1818239108
1870650000.0 -0.5539597847 0.1636170361
1880600000.0 -0.3396008791 0.4326334592
1890550000.0 -0.0083982225 0.5153435011
1900500000.0 0.2962233185 0.3764857597
1910450000.0 0.44059704 0.0879705806
1920400000.0 0.3789094801 -0.2089755008
1930350000.0 0.1670325754 -0.3926460737
1940300000.0 -0.0877722183 -0.4114529148
1950250000.0 -0.2856861756 -0.2888939059
1960200000.0 -0.362180502 -0.0962412063
1970150000.0 -0.3133774728 0.0791636999
1980100000.0 -0.1896012968 0.1650467866
1990050000.0 -0.0760178454 0.1545292098
2000000000.0 -0.0344284215 0.0985603317
