!Created with skrf (http://scikit-rf.org).
# GHz S RI R 50.0 
!freq ReS11 ImS11
10000000.0 -0.997930777 0.1644434127
19950000.0 -0.9433450247 0.3138378224
29900000.0 -0.8663449824 0.4563934103
39850000.0 -0.7664095614 0.5966237545
49800000.0 -0.6454876687 0.7287105234
59750000.0 -0.4989569052 0.8460382647
69700000.0 -0.3211187502 0.9378163585
79650000.0 -0.1083717762 0.9861952766
89600000.0 0.136651293 0.9756989171
99550000.0 0.4009648097 0.8883424322
109500000.0 0.6631017306 0.712357661
119450000.0 0.8849650853 0.4353031416
129400000.0 0.9638807763 0.0691502542
139350000.0 0.9670475697 -0.3322173007
149300000.0 0.7546064326 -0.6834582775
159250000.0 0.425273557 -0.903817257
169200000.0 0.0642992919 -0.9825867919
179150000.0 -0.2677895089 -0.9436588204
189100000.0 -0.5396443548 -0.8238401969
199050000.0 -0.7380513932 -0.6548456011
209000000.0 -0.8618809675 -0.4594578891
218950000.0 -0.9252276045 -0.2586280404
228900000.0 -0.9404717693 -0.061824264
238850000.0 -0.9194233247 0.1290181998
248800000.0 -0.6644038977 0.3481829701
258750000.0 -0.8221895117 0.4301793995
268700000.0 -0.7308442403 0.5779643616
278650000.0 -0.6143394498 0.6951321283
288600000.0 -0.4721271994 0.780497612
298550000.0 -0.3082905314 0.832782212
308500000.0 -0.1279747436 0.851529168
318450000.0 0.0616061266 0.8321449801
328400000.0 0.2505842442 0.7679169182
338350000.0 0.4170844402 0.6521881525
348300000.0 0.5364608105 0.4839618708
358250000.0 0.5837294799 0.2821471734
368200000.0 0.5524393806 0.0801372375
378150000.0 0.4579498038 -0.0880583059
388100000.0 0.3284050169 -0.2026129004
398050000.0 0.192392622 -0.2574542264
408000000.0 0.0738835753 -0.2587886567
417950000.0 -0.0164711762 -0.220836492
427900000.0 -0.0764737406 -0.1615690166
437850000.0 -0.1114317796 -0.0957898066
447800000.0 -0.125495154 -0.035637484
457750000.0 -0.1240196427 0.0117920027
467700000.0 -0.1111865014 0.0422953114
477650000.0 -0.0899351595 0.0532235557
487600000.0 -0.0627265074 0.0452645367
497550000.0 -0.0854210283 -0.0167495399
507500000.0 -0.0225012096 0.0450847684
517450000.0 0.0018373325 0.0199190826
527400000.0 0.0118454189 -3.0959e-06
537350000.0 0.0077704096 -0.0170344413
547300000.0 -0.0082926778 -0.0340345441
557250000.0 -0.0340206974 -0.0466733833
567200000.0 -0.0630522701 -0.0578811622
577150000.0 -0.0925674753 -0.0656902662
587100000.0 -0.1184435202 -0.067664844
597050000.0 -0.1376348838 -0.0619491102
607000000.0 -0.1507393289 -0.0461359171
616950000.0 -0.1588873933 -0.0212507534
626900000.0 -0.163175188 0.0104769689
636850000.0 -0.1635117466 0.0441060182
646800000.0 -0.159772163 0.0758370211
656750000.0 -0.1502831425 0.1023504902
666700000.0 -0.1330557305 0.1209990058
676650000.0 -0.1065013582 0.1305739411
686600000.0 -0.0713947442 0.1317052787
696550000.0 -0.0295485237 0.126888334
706500000.0 0.0137653452 0.1158740778
716450000.0 0.0549490796 0.0982441906
726400000.0 0.0874159192 0.0723129866
736350000.0 0.1079272002 0.0379603041
746300000.0 0.1136153825 -0.0064856302
756250000.0 0.1039708373 -0.0605421648
766200000.0 0.0782572484 -0.119049197
776150000.0 0.0458291377 -0.1750682812
786100000.0 0.0141644678 -0.2252455179
796050000.0 -0.025009016 -0.2625174134
806000000.0 -0.0740007434 -0.2778315628
815950000.0 -0.1330922606 -0.2738875298
825900000.0 -0.1976845849 -0.2575684883
835850000.0 -0.2644574904 -0.2254690521
845800000.0 -0.3279963291 -0.1822913572
855750000.0 -0.3829554781 -0.13179194
865700000.0 -0.4233641698 -0.0754440177
875650000.0 -0.4449163413 -0.0092650773
885600000.0 -0.4445212056 0.0639610341
895550000.0 -0.4227933162 0.1389140845
905500000.0 -0.3807404752 0.220374332
915450000.0 -0.3206380871 0.3012057786
925400000.0 -0.2423699112 0.3726695634
935350000.0 -0.1449363636 0.4243464169
945300000.0 -0.0288003148 0.4469196219
955250000.0 0.1045889537 0.4233901186
965200000.0 0.2457667605 0.3420461109
975150000.0 0.3774651258 0.1930702362
985100000.0 0.4666463124 -0.0261687453
995050000.0 0.4715145395 -0.2926639658
1005000000.0 0.3491229553 -0.5373424021
1014950000.0 0.0984153204 -0.6379890345
1024900000.0 -0.2217555725 -0.6877059011
1034850000.0 -0.5296389748 -0.6213547199
1044800000.0 -0.7594394707 -0.419922018
1054750000.0 -0.877187108 -0.1464214849
1064700000.0 -0.8597962069 0.1378395888
1074650000.0 -0.7745290127 0.3403461231
1084600000.0 -0.6604120841 0.5346054247
1094550000.0 -0.4511691229 0.6919640999
1104500000.0 -0.2117222219 0.7715374804
1114450000.0 0.0343456479 0.7748642213
1124400000.0 0.2622949365 0.6970260224
1134350000.0 0.4422612673 0.5471686065
1144300000.0 0.5529228601 0.3476560367
1154250000.0 0.5894390329 0.1342350461
1164200000.0 0.5711648892 -0.062320395
1174150000.0 0.5188041804 -0.2399760006
1184100000.0 0.4273473157 -0.3915185244
1194050000.0 0.3064419575 -0.4990516133
1204000000.0 0.1719866253 -0.5600729155
1213950000.0 0.0355991473 -0.5811487905
1223900000.0 -0.0942375213 -0.5744963611
1233850000.0 -0.21220409 -0.5496634347
1243800000.0 -0.3167125635 -0.5148750768
1253750000.0 -0.4065407715 -0.4723038531
1263700000.0 -0.4791222805 -0.4215869558
1273650000.0 -0.535050228 -0.3637072124
1283600000.0 -0.5746054162 -0.2970964546
1293550000.0 -0.6024961352 -0.2240320659
1303500000.0 -0.6226384172 -0.1486862546
1313450000.0 -0.6384072169 -0.0735875945
1323400000.0 -0.6524697967 -0.0018642347
1333350000.0 -0.6626565464 0.0656300769
1343300000.0 -0.6655084913 0.1285007709
1353250000.0 -0.6585168653 0.1861491152
1363200000.0 -0.6385018352 0.2405249968
1373150000.0 -0.6056629995 0.293496745
1383100000.0 -0.5649923023 0.345806773
1393050000.0 -0.519644242 0.3978849674
1403000000.0 -0.4740209621 0.448511598
1412950000.0 -0.428445371 0.4958837183
1422900000.0 -0.3829676414 0.536567643
1432850000.0 -0.3352129278 0.5668003878
1442800000.0 -0.2835502583 0.585913175
1452750000.0 -0.2272797471 0.5960025182
1462700000.0 -0.1649544898 0.5991583066
1472650000.0 -0.0960144952 0.6000947074
1482600000.0 -0.0224299873 0.5994834327
1492550000.0 0.0522747044 0.5956922945
1502500000.0 0.1250337952 0.5843741131
1512450000.0 0.1933716639 0.5624139971
1522400000.0 0.2548964215 0.5264021358
1532350000.0 0.3093695268 0.4740782309
1542300000.0 0.3576158215 0.4071011237
1552250000.0 0.4004799227 0.3282783432
1562200000.0 0.4395266216 0.2425858387
1572150000.0 0.4700072209 0.1540314651
1582100000.0 0.4881225235 0.0645209417
1592050000.0 0.4889637441 -0.0234352603
1602000000.0 0.4692625254 -0.1089092233
1611950000.0 0.4289230712 -0.1892482143
1621900000.0 0.3712088691 -0.2650236062
1631850000.0 0.3013222782 -0.3356510617
1641800000.0 0.2240123239 -0.3991348697
1651750000.0 0.1438222227 -0.4515569481
1661700000.0 0.0621647817 -0.4884751215
1671650000.0 -0.0188955418 -0.5053872379
1681600000.0 -0.0983364915 -0.4988837898
1691550000.0 -0.167010639 -0.4623230095
1701500000.0 -0.2099169631 -0.4705622068
1711450000.0 -0.3078108705 -0.4451903783
1721400000.0 -0.3865672545 -0.4017578452
1731350000.0 -0.4528528883 -0.3585512784
1741300000.0 -0.5067523881 -0.3131805501
1751250000.0 -0.5466514566 -0.2641338433
1761200000.0 -0.57215464 -0.2098975724
1771150000.0 -0.5850492459 -0.1509308703
1781100000.0 -0.590135874 -0.0883419775
1791050000.0 -0.5926817797 -0.0252464735
1801000000.0 -0.5950287785 0.0364331075
1810950000.0 -0.597487677 0.0945420805
1820900000.0 -0.5971224599 0.1477389633
1830850000.0 -0.5896866031 0.1953271637
1840800000.0 -0.5711419524 0.2368880737
1850750000.0 -0.5402515853 0.2740876328
1860700000.0 -0.498626661 0.3073390192
1870650000.0 -0.4519018899 0.3388684304
1880600000.0 -0.4049696402 0.3674798455
1890550000.0 -0.3616042893 0.393276792
1900500000.0 -0.3224588796 0.4131501083
1910450000.0 -0.2859808615 0.4251332212
1920400000.0 -0.2503464105 0.4256891128
1930350000.0 -0.2121266422 0.4142027347
1940300000.0 -0.1709190012 0.3909696775
1950250000.0 -0.1271572577 0.3577116678
1960200000.0 -0.0847547155 0.3198317686
1970150000.0 -0.0514326311 0.2768094301
1980100000.0 -0.0311124041 0.2287846299
1990050000.0 -0.0312306795 0.1747709139
2000000000.0 -0.0586323388 0.1124969923
