!Created with skrf (http://scikit-rf.org).
# GHz S RI R 50.0 
!freq ReS11 ImS11
10000000.0 -0.7407865247 0.6712712556
19950000.0 -0.1093891975 0.9802939937
29900000.0 0.5687553076 0.7971479276
39850000.0 0.9594692333 0.2012184178
49800000.0 0.8441084382 -0.5136199793
59750000.0 0.2605366965 -0.96319537
69700000.0 -0.4822474747 -0.8774263867
79650000.0 -0.9530282633 -0.2824487741
89600000.0 -0.8512758041 0.4833524079
99550000.0 -0.205949451 0.9428078468
109500000.0 0.5935385384 0.7555212579
119450000.0 0.9686553504 -0.01377427
129400000.0 0.5641377643 -0.8019786465
139350000.0 -0.3279947451 -0.9254673154
149300000.0 -0.9305198255 -0.2624284976
159250000.0 -0.7387437851 0.5940446687
169200000.0 0.0467502087 0.938283094
179150000.0 0.7804044294 0.5323916657
189100000.0 0.9163152606 -0.2739917505
199050000.0 0.3992229896 -0.8754193889
209000000.0 -0.3654872103 -0.8825014704
218950000.0 -0.8723565429 -0.3497604852
228900000.0 -0.851139729 0.3640748022
238850000.0 -0.3449108057 0.8516384587
248800000.0 0.4005502767 0.7439860232
258750000.0 0.8349251077 0.4037892857
268700000.0 0.8862676429 -0.2866800953
278650000.0 0.4468870261 -0.8082294572
288600000.0 -0.2215235264 -0.8758766982
298550000.0 -0.7413096667 -0.4670172093
308500000.0 -0.8281394832 0.1788317469
318450000.0 -0.4382085521 0.6914897783
328400000.0 0.1922586238 0.7664563412
338350000.0 0.6602899685 0.3615841222
348300000.0 0.6611810205 -0.2295218518
358250000.0 0.239011508 -0.5796571742
368200000.0 -0.2471467382 -0.4830570516
378150000.0 -0.4466839001 -0.0972094813
388100000.0 -0.288805114 0.2415184408
398050000.0 0.0214848529 0.3096342308
408000000.0 0.2177824775 0.1372979494
417950000.0 0.1944346519 -0.0786204947
427900000.0 0.0377367746 -0.17243371
437850000.0 -0.1012600801 -0.1127911946
447800000.0 -0.131897803 0.0152054255
457750000.0 -0.0638437025 0.1047059489
467700000.0 0.0320310694 0.1039816776
477650000.0 0.0843454593 0.0411529004
487600000.0 0.0709290846 -0.0238112634
497550000.0 0.0599887736 -0.0041123599
507500000.0 -0.0071063852 -0.0609728072
517450000.0 -0.024187142 -0.0280747729
527400000.0 -0.0143862285 -0.0160437121
537350000.0 -0.0080648256 -0.0279645118
547300000.0 -0.0265595279 -0.0466075549
557250000.0 -0.0687008719 -0.0333248078
567200000.0 -0.0958870258 0.0200510582
577150000.0 -0.0764103698 0.0860870674
587100000.0 0.0015798224 0.1219882677
597050000.0 0.0975356864 0.0977655786
607000000.0 0.1540238325 0.0042363407
616950000.0 0.132077797 -0.113861488
626900000.0 0.0311175072 -0.1911876495
636850000.0 -0.1004142661 -0.1790503531
646800000.0 -0.1932966774 -0.0795395445
656750000.0 -0.1907465045 0.0551511334
666700000.0 -0.0950252455 0.155376978
676650000.0 0.0399949693 0.163347994
686600000.0 0.1392153592 0.0761225253
696550000.0 0.1506347529 -0.0528838245
706500000.0 0.072498817 -0.1459930349
716450000.0 -0.0406840059 -0.1500956992
726400000.0 -0.1138510445 -0.0735155147
736350000.0 -0.0982317657 0.0257201211
746300000.0 -0.0105857326 0.0727661538
756250000.0 0.0813116177 0.0277076714
766200000.0 0.0995454518 -0.0793734409
776150000.0 0.0188875226 -0.1695534318
786100000.0 -0.1142282241 -0.1612496324
796050000.0 -0.2065134357 -0.0409897115
806000000.0 -0.1758199514 0.1292333328
815950000.0 -0.0171178266 0.2378189925
825900000.0 0.1919503115 0.1949304446
835850000.0 0.3203035759 0.0047492387
845800000.0 0.2780174715 -0.236274708
855750000.0 0.0707158272 -0.3877908615
865700000.0 -0.1963027221 -0.3527598603
875650000.0 -0.3739830391 -0.1329214835
885600000.0 -0.3469986379 0.1595924163
895550000.0 -0.1166254542 0.3574970136
905500000.0 0.1960392433 0.3334924142
915450000.0 0.4001429954 0.0876626147
925400000.0 0.3606167174 -0.2340986115
935350000.0 0.0890381353 -0.4218015851
945300000.0 -0.2409801551 -0.3302654672
955250000.0 -0.3727015536 0.0033635043
965200000.0 -0.1488411228 0.3099047563
975150000.0 0.2130440656 0.2683321907
985100000.0 0.4185892561 -0.0335495366
995050000.0 0.2556152124 -0.4567295295
1005000000.0 -0.2745650009 -0.5430093321
1014950000.0 -0.6683561038 -0.0799572038
1024900000.0 -0.4726395026 0.5587018844
1034850000.0 0.2070470183 0.7602667567
1044800000.0 0.7709429135 0.3104929578
1054750000.0 0.741119876 -0.3983969938
1064700000.0 0.2166769159 -0.7464135833
1074650000.0 -0.3580923527 -0.7335885709
1084600000.0 -0.7696071372 -0.2280298159
1094550000.0 -0.6577469074 0.4129934572
1104500000.0 -0.1009042432 0.7394179209
1114450000.0 0.4864229867 0.5236247303
1124400000.0 0.6800644989 -0.0375917976
1134350000.0 0.3947785476 -0.5102428284
1144300000.0 -0.1126683283 -0.5950781182
1154250000.0 -0.487243987 -0.2826142006
1164200000.0 -0.4915353974 0.1845569177
1174150000.0 -0.1427150697 0.4714334868
1184100000.0 0.2861800692 0.3827878128
1194050000.0 0.484045127 0.0084155808
1204000000.0 0.3373679 -0.3698043935
1213950000.0 -0.029159285 -0.5192772703
1223900000.0 -0.3892185237 -0.3691204109
1233850000.0 -0.544632129 -0.0110927634
1243800000.0 -0.4088782342 0.3595763771
1253750000.0 -0.0507447577 0.5405006895
1263700000.0 0.3384753566 0.4311634195
1273650000.0 0.5538233303 0.0916634057
1283600000.0 0.4973537103 -0.3006117097
1293550000.0 0.21014192 -0.5689242147
1303500000.0 -0.1776459937 -0.6004619104
1313450000.0 -0.5031563662 -0.3878577185
1323400000.0 -0.6314998194 -0.0116611584
1333350000.0 -0.4935602507 0.3704442898
1343300000.0 -0.1396325429 0.5836310684
1353250000.0 0.2723434568 0.520998297
1363200000.0 0.5502142708 0.2127886863
1373150000.0 0.5757058314 -0.1936916172
1383100000.0 0.3543119249 -0.5216158113
1393050000.0 -0.0128018428 -0.6465068971
1403000000.0 -0.3786201294 -0.5264319092
1412950000.0 -0.5993777094 -0.2101116663
1422900000.0 -0.5803433435 0.1761684728
1432850000.0 -0.3217492466 0.4665942037
1442800000.0 0.0633011162 0.5303006206
1452750000.0 0.3973169319 0.3441933693
1462700000.0 0.5396793665 0.0003854446
1472650000.0 0.43901376 -0.3504404222
1482600000.0 0.1492248745 -0.5595480014
1492550000.0 -0.2015706243 -0.5461356936
1502500000.0 -0.4631989474 -0.3173610012
1512450000.0 -0.5178899968 0.0257901011
1522400000.0 -0.3354882848 0.326066265
1532350000.0 -0.0030433687 0.4319287104
1542300000.0 0.306661734 0.289236962
1552250000.0 0.4358503385 -0.0177164686
1562200000.0 0.3306402963 -0.3225695118
1572150000.0 0.0615852271 -0.4726665681
1582100000.0 -0.2292199627 -0.4041175117
1592050000.0 -0.4009384155 -0.1570700664
1602000000.0 -0.3631911433 0.1435635073
1611950000.0 -0.1283132132 0.3331896433
1621900000.0 0.1776309181 0.3001188151
1631850000.0 0.3762889993 0.0619449898
1641800000.0 0.3528250948 -0.2398198326
1651750000.0 0.1280305663 -0.4393396563
1661700000.0 -0.1781940691 -0.4365142479
1671650000.0 -0.4112026828 -0.2314366564
1681600000.0 -0.4515685048 0.0828126527
1691550000.0 -0.265052346 0.3554386577
1701500000.0 0.0692609313 0.4392515481
1711450000.0 0.3769822792 0.2761241777
1721400000.0 0.4939379225 -0.0524018001
1731350000.0 0.3600139255 -0.3729509946
1741300000.0 0.0740040189 -0.5182895863
1751250000.0 -0.2304720723 -0.5021101147
1761200000.0 -0.4930873098 -0.2807508682
1771150000.0 -0.557220542 0.0714081503
1781100000.0 -0.3865990448 0.3950242103
1791050000.0 -0.0466057847 0.5425353963
1801000000.0 0.314561378 0.4364136237
1810950000.0 0.5253583383 0.1216884265
1820900000.0 0.4921972623 -0.2483214257
1830850000.0 0.2442340988 -0.5070595485
1840800000.0 -0.0999665746 -0.559293033
1850750000.0 -0.4031202772 -0.4018623527
1860700000.0 -0.5537430558 -0.103573366
1870650000.0 -0.4978488897 0.2209826373
1880600000.0 -0.254996306 0.4440910303
1890550000.0 0.0734052843 0.4712401823
1900500000.0 0.3374394098 0.2923691999
1910450000.0 0.4246572549 -0.0003876863
1920400000.0 0.3134110674 -0.2699902194
1930350000.0 0.07963783 -0.4059601501
1940300000.0 -0.1647687911 -0.3754671102
1950250000.0 -0.32329626 -0.2159166776
1960200000.0 -0.3464581919 -0.01478931
1970150000.0 -0.2495135594 0.1329438847
1980100000.0 -0.1099125373 0.1681100355
1990050000.0 -0.0218386008 0.1061323503
2000000000.0 -0.0294394832 0.0377849205
