!Created with skrf (http://scikit-rf.org).
# GHz S RI R 50.0 
!freq ReS11 ImS11
10000000.0 -1.001151265 0.164200031
19950000.0 -0.9447599344 0.3135597475
29900000.0 -0.8657356414 0.456114057
39850000.0 -0.7644308075 0.5969321293
49800000.0 -0.642949407 0.7299074532
59750000.0 -0.4964574786 0.8488121042
69700000.0 -0.3180161853 0.9415999288
79650000.0 -0.1045627919 0.9897052978
89600000.0 0.1417269274 0.9766862463
99550000.0 0.4071432695 0.8856026859
109500000.0 0.6696153893 0.7055370791
119450000.0 0.8908396202 0.4250751727
129400000.0 1.007093745 0.0632246419
139350000.0 0.9663170696 -0.3465178541
149300000.0 0.748911597 -0.6935992472
159250000.0 0.416666996 -0.9090106562
169200000.0 0.0559010151 -0.9820892643
179150000.0 -0.2738922493 -0.9414477436
189100000.0 -0.5431943109 -0.8229751766
199050000.0 -0.7399581487 -0.6571483997
209000000.0 -0.8624190842 -0.4654002159
218950000.0 -0.9250080959 -0.2671976865
228900000.0 -0.9403528132 -0.0732214465
238850000.0 -0.9213698167 0.1153262063
248800000.0 -0.7660316011 0.1503675396
258750000.0 -0.8279502866 0.4225712938
268700000.0 -0.7429769259 0.5677021654
278650000.0 -0.6320123571 0.6848537055
288600000.0 -0.4947720649 0.7716542545
298550000.0 -0.3347977254 0.8257436406
308500000.0 -0.1576760428 0.8486196575
318450000.0 0.0301628723 0.8364762642
328400000.0 0.2194047897 0.7821874076
338350000.0 0.3897892305 0.6774455433
348300000.0 0.5168220678 0.5204549051
358250000.0 0.575587824 0.3250297263
368200000.0 0.556012174 0.121877664
378150000.0 0.4701767419 -0.0535268382
388100000.0 0.3454694665 -0.1777800596
398050000.0 0.2112435112 -0.242848984
408000000.0 0.0914900472 -0.2524542388
417950000.0 -0.0008974677 -0.219937245
427900000.0 -0.0632022097 -0.1631213378
437850000.0 -0.1002935334 -0.0972963157
447800000.0 -0.1168145937 -0.0355831699
457750000.0 -0.117630606 0.0134279774
467700000.0 -0.1066020684 0.0451229909
477650000.0 -0.0857632265 0.0572900225
487600000.0 -0.0557873887 0.0510082999
497550000.0 -0.042409253 -0.0226064136
507500000.0 -0.0231204693 0.0396834479
517450000.0 0.0053975042 0.0178352855
527400000.0 0.0177938715 -0.0009115132
537350000.0 0.0154762805 -0.017661031
547300000.0 0.0008342695 -0.0379356939
557250000.0 -0.0304706472 -0.0526915211
567200000.0 -0.062491985 -0.0647716136
577150000.0 -0.0945574051 -0.0744205493
587100000.0 -0.122318266 -0.078212
597050000.0 -0.143353455 -0.0734610554
607000000.0 -0.1577522163 -0.0578992793
616950000.0 -0.1673660176 -0.0322822037
626900000.0 -0.1729431002 0.0008347423
636850000.0 -0.1741659042 0.0363945507
646800000.0 -0.169075846 0.0701345617
656750000.0 -0.1622690813 0.0991549021
666700000.0 -0.1531771967 0.1201761358
676650000.0 -0.132571098 0.1321619577
686600000.0 -0.1002508315 0.1368636275
696550000.0 -0.0593866474 0.1359110655
706500000.0 -0.0145432781 0.1298662967
716450000.0 0.0289563706 0.1181337156
726400000.0 0.0645364889 0.0990621773
736350000.0 0.0896471542 0.0700052049
746300000.0 0.1016157463 0.0297897705
756250000.0 0.1011158004 -0.0214728609
766200000.0 0.0877960673 -0.0804625043
776150000.0 0.0653150063 -0.1408372544
786100000.0 0.033099752 -0.1962337702
796050000.0 -0.0084759155 -0.2393592389
806000000.0 -0.0587884593 -0.2652287468
815950000.0 -0.1183787523 -0.2708206242
825900000.0 -0.1847769286 -0.2582035358
835850000.0 -0.2551712107 -0.2303124372
845800000.0 -0.3239608604 -0.1910854846
855750000.0 -0.3856609216 -0.1431255505
865700000.0 -0.4334730897 -0.0865434132
875650000.0 -0.4630075745 -0.0206431796
885600000.0 -0.46844336 0.0558298136
895550000.0 -0.4421289321 0.1362997803
905500000.0 -0.3859030694 0.207788016
915450000.0 -0.3487808747 0.2802805612
925400000.0 -0.2983233661 0.3542115979
935350000.0 -0.2277515358 0.4185173463
945300000.0 -0.138084847 0.4620560445
955250000.0 -0.0289915831 0.4757537456
965200000.0 0.0967138193 0.4507251665
975150000.0 0.2327202257 0.3822691079
985100000.0 0.3648561623 0.2657513921
995050000.0 0.4715968562 0.0966965024
1005000000.0 0.5159978902 -0.1190676887
1014950000.0 0.4644823486 -0.3538470333
1024900000.0 0.2962974597 -0.5641138643
1034850000.0 0.0244724672 -0.6923919973
1044800000.0 -0.2969340275 -0.6965331533
1054750000.0 -0.598222127 -0.5670657369
1064700000.0 -0.7984098433 -0.3222107456
1074650000.0 -0.8803839149 -0.0623678677
1084600000.0 -0.8513682561 0.226925232
1094550000.0 -0.6958461425 0.4456633406
1104500000.0 -0.5253401099 0.6429401491
1114450000.0 -0.2764515364 0.7661094132
1124400000.0 -0.0074769448 0.7939638173
1134350000.0 0.2431578186 0.7205175632
1144300000.0 0.4391002071 0.5587940245
1154250000.0 0.5577521659 0.3427441898
1164200000.0 0.5975335506 0.1102834745
1174150000.0 0.5732506645 -0.101234999
1184100000.0 0.5083126191 -0.2819867306
1194050000.0 0.4018897243 -0.4255704439
1204000000.0 0.2668171581 -0.5169363432
1213950000.0 0.1212449957 -0.5598538733
1223900000.0 -0.0207566402 -0.5676191214
1233850000.0 -0.1519093469 -0.5525294099
1243800000.0 -0.2681309224 -0.5239597043
1253750000.0 -0.3674791371 -0.4856163312
1263700000.0 -0.44785595 -0.4380542727
1273650000.0 -0.5104369964 -0.3806881581
1283600000.0 -0.5543375886 -0.313620869
1293550000.0 -0.585234457 -0.2383183444
1303500000.0 -0.6079470847 -0.1595553829
1313450000.0 -0.6260434846 -0.0807794635
1323400000.0 -0.6424773401 -0.0056895262
1333350000.0 -0.6552828579 0.0646576615
1343300000.0 -0.6600903841 0.1300900321
1353250000.0 -0.6545176842 0.1892265199
1363200000.0 -0.6346036117 0.2449457509
1373150000.0 -0.600280619 0.2985560413
1383100000.0 -0.5571110769 0.3519348642
1393050000.0 -0.5094829974 0.4052609057
1403000000.0 -0.4616558875 0.4574263977
1412950000.0 -0.4149419689 0.5058661546
1422900000.0 -0.3686749197 0.546778379
1432850000.0 -0.3216636024 0.5759898651
1442800000.0 -0.2722443574 0.5928365961
1452750000.0 -0.2188939857 0.6013429783
1462700000.0 -0.1587807473 0.6055607149
1472650000.0 -0.0898661568 0.6084353262
1482600000.0 -0.0146113019 0.610228941
1492550000.0 0.0621767975 0.6089412252
1502500000.0 0.1370791353 0.599809268
1512450000.0 0.206706726 0.5799471125
1522400000.0 0.26991352 0.5447964944
1532350000.0 0.3257736792 0.4927726034
1542300000.0 0.3746236116 0.4244879291
1552250000.0 0.4186732965 0.344633306
1562200000.0 0.4593157388 0.2589427071
1572150000.0 0.4932359533 0.1715303215
1582100000.0 0.5156195338 0.0831510384
1592050000.0 0.521749636 -0.0046759972
1602000000.0 0.5066050957 -0.0910464554
1611950000.0 0.4700721988 -0.1728137649
1621900000.0 0.4159016253 -0.2508429957
1631850000.0 0.3493541353 -0.3251950267
1641800000.0 0.2764380798 -0.3945765338
1651750000.0 0.1995057361 -0.455097757
1661700000.0 0.1214431958 -0.5016166106
1671650000.0 0.0420848197 -0.528872171
1681600000.0 -0.0381315422 -0.5355974366
1691550000.0 -0.118763764 -0.5244764684
1701500000.0 -0.2006323565 -0.4998614031
1711450000.0 -0.2808127703 -0.4668299718
1721400000.0 -0.357287765 -0.429835733
1731350000.0 -0.4269986285 -0.3919054542
1741300000.0 -0.4858070546 -0.3515589053
1751250000.0 -0.5308873124 -0.3041413238
1761200000.0 -0.560699573 -0.2501404402
1771150000.0 -0.5770634759 -0.1892878493
1781100000.0 -0.5858289659 -0.1225264528
1791050000.0 -0.5904776696 -0.0543481107
1801000000.0 -0.5949834627 0.0129401143
1810950000.0 -0.5991009253 0.0775952411
1820900000.0 -0.5966370378 0.1389682748
1830850000.0 -0.5709223807 0.1959893389
1840800000.0 -0.5008350423 0.21910927
1850750000.0 -0.5484390334 0.1823563268
1860700000.0 -0.5301313661 0.2449371587
1870650000.0 -0.4875419305 0.295480461
1880600000.0 -0.4414417275 0.3368919352
1890550000.0 -0.399283846 0.3728788004
1900500000.0 -0.3625132744 0.4008624394
1910450000.0 -0.3292821208 0.4217896967
1920400000.0 -0.2971881183 0.430894125
1930350000.0 -0.2611482071 0.4287847076
1940300000.0 -0.2194742139 0.4162208414
1950250000.0 -0.1717820246 0.3950102063
1960200000.0 -0.1216760575 0.3695116283
1970150000.0 -0.0767555886 0.3405010327
1980100000.0 -0.0423835372 0.3097718327
1990050000.0 -0.0214847761 0.2748203702
2000000000.0 -0.0173877339 0.2323944771
