!Created with skrf (http://scikit-rf.org).
# GHz S RI R 50.0 
!freq ReS11 ImS11
10000000.0 -0.7548513914 0.0546901099
14975000.0 -0.7603485169 0.0850545754
19950000.0 -0.7665022805 0.1183956665
24925000.0 -0.7713871708 0.1551759078
29900000.0 -0.8312813544 0.1978467867
34875000.0 -0.8291545536 0.2392400814
39850000.0 -0.8213854873 0.2826600554
44825000.0 -0.8091903981 0.328236934
49800000.0 -0.7928211404 0.3756387039
54775000.0 -0.7717785024 0.4245601673
59750000.0 -0.7459207867 0.4750572485
64725000.0 -0.7153897111 0.5266482527
69700000.0 -0.6796828345 0.5793870773
74675000.0 -0.638261242 0.6329753749
79650000.0 -0.5905452012 0.6875854331
84625000.0 -0.5356709171 0.7426646415
89600000.0 -0.4719484941 0.7977027838
94575000.0 -0.3978659491 0.8512594525
99550000.0 -0.3111310872 0.9007901615
104525000.0 -0.2103696033 0.9426767594
109500000.0 -0.0954508109 0.9719325866
114475000.0 0.0321886778 0.9838829551
119450000.0 0.1684364182 0.9744591269
124425000.0 0.308000504 0.9407623581
129400000.0 0.4428396316 0.8816340648
134375000.0 0.5672258226 0.8025429092
139350000.0 0.6820563621 0.69787686
144325000.0 0.7755861745 0.5778398248
149300000.0 0.8467887119 0.447377549
154275000.0 0.8946912907 0.31227496
159250000.0 0.9198124382 0.1782983392
164225000.0 0.9240214147 0.0504997171
169200000.0 0.9104847546 -0.0677680024
174175000.0 0.8828206202 -0.1742533023
179150000.0 0.8459064059 -0.2675226476
184125000.0 0.8036529942 -0.34819642
189100000.0 0.7594878686 -0.4176842484
194075000.0 0.7158309727 -0.4778082578
199050000.0 0.6733573599 -0.5304793889
204025000.0 0.6321979319 -0.5774065805
209000000.0 0.5920525434 -0.6195721623
213975000.0 0.5520545231 -0.6579376611
218950000.0 0.5119870705 -0.6926241573
223925000.0 0.4712357379 -0.7237720315
228900000.0 0.4296920977 -0.7513860869
233875000.0 0.3874037601 -0.7753743161
238850000.0 0.3443375203 -0.7957975543
243825000.0 0.2997727152 -0.8127130439
248800000.0 0.2407565739 -0.800991538
253775000.0 0.2231559136 -0.8337195005
258750000.0 0.1802476314 -0.8420800954
263725000.0 0.1397390513 -0.8473838544
268700000.0 0.1007958227 -0.8506732901
273675000.0 0.0630623087 -0.8522460921
278650000.0 0.0264806092 -0.8525248063
283625000.0 -0.0097440522 -0.8518725682
288600000.0 -0.0463894059 -0.8503791116
293575000.0 -0.0842143822 -0.8476229115
298550000.0 -0.1239141856 -0.8428022525
303525000.0 -0.1657157927 -0.8353671783
308500000.0 -0.2096514776 -0.8237340924
313475000.0 -0.2552810928 -0.8069407642
318450000.0 -0.3017249898 -0.7838767333
323425000.0 -0.348198864 -0.7538590441
328400000.0 -0.3933581538 -0.7167184788
333375000.0 -0.4356439098 -0.6724192708
338350000.0 -0.4738467427 -0.6206525912
343325000.0 -0.5067623382 -0.5622312125
348300000.0 -0.5323778296 -0.4978886029
353275000.0 -0.5489210025 -0.4289401241
358250000.0 -0.5559883857 -0.3566365096
363225000.0 -0.5524546183 -0.2837247388
368200000.0 -0.5378430006 -0.2125357255
373175000.0 -0.5133660222 -0.1455308416
378150000.0 -0.4802993732 -0.0849344986
383125000.0 -0.4398574217 -0.0320080159
388100000.0 -0.3938731642 0.0123121995
393075000.0 -0.3451258546 0.0473986836
398050000.0 -0.2950881444 0.0736860766
403025000.0 -0.2452304611 0.0920836779
408000000.0 -0.1972236691 0.1033467686
412975000.0 -0.1526809638 0.1079861588
417950000.0 -0.1112741114 0.1073122951
422925000.0 -0.073547437 0.102398706
427900000.0 -0.0404122737 0.0939470567
432875000.0 -0.0112498773 0.0829665116
437850000.0 0.013145621 0.0702555058
442825000.0 0.0333583675 0.0562581794
447800000.0 0.0497292074 0.0417588989
452775000.0 0.0626230113 0.0268065147
457750000.0 0.0725523684 0.0120567329
462725000.0 0.0799478992 -0.0022348178
467700000.0 0.0847279576 -0.0156699759
472675000.0 0.0870758091 -0.0281741907
477650000.0 0.0876030409 -0.0393840057
482625000.0 0.0867931142 -0.0493110689
487600000.0 0.0843899374 -0.0577077965
492575000.0 0.0801851189 -0.0641626059
497550000.0 0.0758402116 -0.0619905858
502525000.0 0.078516923 -0.0740009615
507500000.0 0.0712641408 -0.0781345911
512475000.0 0.0639776228 -0.0805216842
517450000.0 0.0564246323 -0.0816898019
522425000.0 0.0482950394 -0.0817946328
527400000.0 0.0399437307 -0.0809221252
532375000.0 0.0311881296 -0.0788761896
537350000.0 0.0225979828 -0.0758536078
542325000.0 0.0142034188 -0.0720667698
547300000.0 0.0061993626 -0.0673016814
552275000.0 -0.0015652088 -0.0618672846
557250000.0 -0.0087373572 -0.0555482403
562225000.0 -0.0154797156 -0.0485152014
567200000.0 -0.0216294659 -0.0403998449
572175000.0 -0.0269500224 -0.0312397393
577150000.0 -0.0313592186 -0.0212147466
582125000.0 -0.0352370513 -0.010625757
587100000.0 -0.0385055357 0.0007943491
592075000.0 -0.0409660787 0.0123206476
597050000.0 -0.0425855722 0.024095275
602025000.0 -0.0433860243 0.0357681111
607000000.0 -0.0430925972 0.0473234926
611975000.0 -0.0418040139 0.0585460082
616950000.0 -0.0398213561 0.0691837931
621925000.0 -0.0372656564 0.0793240838
626900000.0 -0.033448724 0.0884648138
631875000.0 -0.0287657074 0.0966918295
636850000.0 -0.0234684682 0.1042666531
641825000.0 -0.0174217293 0.1109456808
646800000.0 -0.0110628694 0.1170803724
651775000.0 -0.0041599287 0.1222947211
656750000.0 0.0035739396 0.1274361274
661725000.0 0.0112691938 0.1320071736
666700000.0 0.0188946363 0.135880201
671675000.0 0.0271025227 0.1393183989
676650000.0 0.0357012725 0.1421867848
681625000.0 0.0446618596 0.1441701339
686600000.0 0.0538628209 0.1454549197
691575000.0 0.0631894861 0.1461320722
696550000.0 0.072916179 0.1456354319
701525000.0 0.0829844536 0.1438630282
706500000.0 0.0942589791 0.1411085722
711475000.0 0.1049794691 0.136507547
716450000.0 0.1158421247 0.1305630558
721425000.0 0.1266966669 0.1233752768
726400000.0 0.1375662783 0.1145622267
731375000.0 0.1481004916 0.1047831652
736350000.0 0.1578931514 0.0931244113
741325000.0 0.1671280903 0.0804466543
746300000.0 0.1754794182 0.0667055309
751275000.0 0.18316209 0.0517883708
756250000.0 0.1895998678 0.0359933772
761225000.0 0.1946292162 0.0194864693
766200000.0 0.1980562442 0.00193112
771175000.0 0.1996644353 -0.0164152936
776150000.0 0.1995699751 -0.0352328874
781125000.0 0.1977451121 -0.0549318203
786100000.0 0.1943021481 -0.0748449765
791075000.0 0.1890632299 -0.0953357024
796050000.0 0.1822335607 -0.1159602528
801025000.0 0.1737419155 -0.1365772444
806000000.0 0.1634060229 -0.1565865268
810975000.0 0.151055837 -0.176028256
815950000.0 0.137011553 -0.1945415234
820925000.0 0.1216505044 -0.2120558845
825900000.0 0.1057462278 -0.2277090857
830875000.0 0.0896108967 -0.2412432507
835850000.0 0.0729694489 -0.2527429044
840825000.0 0.0567658006 -0.2636806628
845800000.0 0.0407002742 -0.2743980971
850775000.0 0.0235848348 -0.2845173586
855750000.0 0.005146325 -0.2943969707
860725000.0 -0.0146939583 -0.3037095432
865700000.0 -0.0356398716 -0.3120527413
870675000.0 -0.0581048683 -0.3197143798
875650000.0 -0.0823220445 -0.32530682
880625000.0 -0.1080171752 -0.3292753492
885600000.0 -0.1348952135 -0.330991199
890575000.0 -0.1631837552 -0.3302618584
895550000.0 -0.1918949484 -0.3269227165
900525000.0 -0.2206293404 -0.3205212751
905500000.0 -0.2488307423 -0.3108143626
910475000.0 -0.2773402489 -0.2973668654
915450000.0 -0.3049375006 -0.2806903479
920425000.0 -0.3314171262 -0.2600757827
925400000.0 -0.3569701631 -0.2362126426
930375000.0 -0.3809588594 -0.2085581377
935350000.0 -0.4033825025 -0.1776248801
940325000.0 -0.4241240198 -0.1433978056
945300000.0 -0.4428867561 -0.1052578664
950275000.0 -0.4595908303 -0.0630517815
955250000.0 -0.4737191046 -0.0170015436
960225000.0 -0.4839598565 0.0339554046
965200000.0 -0.4894349021 0.089508969
970175000.0 -0.4888146217 0.1496810619
975150000.0 -0.4804789207 0.2137537456
980125000.0 -0.4625702854 0.2811361406
985100000.0 -0.433420613 0.350621341
990075000.0 -0.3920688858 0.4199941972
995050000.0 -0.3368647073 0.4868904274
1000025000.0 -0.2680043382 0.5486265804
1005000000.0 -0.1853134852 0.6024191228
1009975000.0 -0.0902251028 0.644186847
1014950000.0 0.0158146173 0.6696354771
1019925000.0 0.1294833077 0.6765161755
1024900000.0 0.2466325722 0.6619370619
1029875000.0 0.3616376228 0.6243013491
1034850000.0 0.4691788454 0.5646077741
1039825000.0 0.5645994381 0.4844595116
1044800000.0 0.6442569294 0.3871254309
1049775000.0 0.7058967558 0.2768169429
1054750000.0 0.7478678667 0.1575552581
1059725000.0 0.7686760025 0.0332837842
1064700000.0 0.7674442338 -0.0888787634
1069675000.0 0.7541163849 -0.206237378
1074650000.0 0.7209217016 -0.3236330159
1079625000.0 0.6590148524 -0.4301093383
1084600000.0 0.5697396744 -0.4873036758
1089575000.0 0.5535771442 -0.5229620451
1094550000.0 0.4997331863 -0.6211720329
1099525000.0 0.4141456818 -0.6928579948
1104500000.0 0.3207431644 -0.7402479818
1109475000.0 0.2257787268 -0.7705584087
1114450000.0 0.1315417129 -0.7855351271
1119425000.0 0.0400476642 -0.7881003576
1124400000.0 -0.0469144754 -0.7793259767
1129375000.0 -0.1294098005 -0.7608705253
1134350000.0 -0.2067304852 -0.7344474178
1139325000.0 -0.2781768946 -0.700536663
1144300000.0 -0.3429237204 -0.6598362333
1149275000.0 -0.4011720475 -0.6140219727
1154250000.0 -0.4521377172 -0.5641066284
1159225000.0 -0.4948136621 -0.5106600294
1164200000.0 -0.5295299755 -0.4557512247
1169175000.0 -0.5569457099 -0.4018478364
1174150000.0 -0.5791522622 -0.3485004023
1179125000.0 -0.5966652615 -0.2956907894
1184100000.0 -0.6099791853 -0.2432536849
1189075000.0 -0.6184406707 -0.1919111563
1194050000.0 -0.6224830886 -0.1426629753
1199025000.0 -0.6230370717 -0.0955512624
1204000000.0 -0.6200596392 -0.0509394531
1208975000.0 -0.6142084214 -0.0095339296
1213950000.0 -0.6063343795 0.0295677707
1218925000.0 -0.5970211998 0.0655182862
1223900000.0 -0.5867718901 0.0978628056
1228875000.0 -0.5758072548 0.127704592
1233850000.0 -0.5652655158 0.1554403065
1238825000.0 -0.5546748484 0.1812129716
1243800000.0 -0.543691739 0.2054842154
1248775000.0 -0.5332938826 0.2294512986
1253750000.0 -0.5224425631 0.2523164978
1258725000.0 -0.5108664162 0.2743363027
1263700000.0 -0.498877282 0.2958663073
1268675000.0 -0.4869173957 0.3163671899
1273650000.0 -0.4742184857 0.3357262774
1278625000.0 -0.4606548546 0.3538573826
1283600000.0 -0.4474617559 0.3700190239
1288575000.0 -0.4340378071 0.3844609082
1293550000.0 -0.4201891217 0.3976035706
1298525000.0 -0.4061597748 0.4083122272
1303500000.0 -0.3895626372 0.4186580738
1308475000.0 -0.3765261117 0.4260152458
1313450000.0 -0.3645918115 0.4307378072
1318425000.0 -0.3542678539 0.4337446078
1323400000.0 -0.3461519393 0.4356641111
1328375000.0 -0.3408184305 0.4371464615
1333350000.0 -0.3373949496 0.4397803707
1338325000.0 -0.335848772 0.4440403529
1343300000.0 -0.3351145674 0.4505585978
1348275000.0 -0.3336253289 0.459387657
1353250000.0 -0.3302872145 0.4698302549
1358225000.0 -0.3255625024 0.4813822966
1363200000.0 -0.3189669661 0.4932469912
1368175000.0 -0.3105140217 0.5048149741
1373150000.0 -0.3004609749 0.5156487909
1378125000.0 -0.2891430066 0.5256345135
1383100000.0 -0.2768942227 0.5344545564
1388075000.0 -0.2640967504 0.5416438408
1393050000.0 -0.2506881568 0.5471660126
1398025000.0 -0.2364510034 0.5509810182
1403000000.0 -0.2240182603 0.5526247748
1407975000.0 -0.2108466129 0.552954798
1412950000.0 -0.1982219933 0.5510515672
1417925000.0 -0.1873694627 0.5480672319
1422900000.0 -0.1796194718 0.5440053647
1427875000.0 -0.1744708164 0.5399920994
1432850000.0 -0.1719355894 0.536777698
1437825000.0 -0.171869041 0.5357224773
1442800000.0 -0.1723523517 0.5375008361
1447775000.0 -0.1720604052 0.5418872568
1452750000.0 -0.169324236 0.5477634785
1457725000.0 -0.1639804453 0.5543164366
1462700000.0 -0.1557804276 0.5617831475
1467675000.0 -0.1452895811 0.5686303256
1472650000.0 -0.1322580567 0.5740275057
1477625000.0 -0.1181545449 0.5787992571
1482600000.0 -0.1025465844 0.5824954979
1487575000.0 -0.0861472417 0.5842175314
1492550000.0 -0.0683722326 0.5849160089
1497525000.0 -0.05018827 0.5842694138
1502500000.0 -0.0316941597 0.5830063599
1507475000.0 -0.0132694033 0.5812039378
1512450000.0 0.0049206293 0.5786166556
1517425000.0 0.0219373354 0.5752402092
1522400000.0 0.0379709601 0.5714990361
1527375000.0 0.0532144168 0.5675790442
1532350000.0 0.0674625725 0.5629938899
1537325000.0 0.0808128503 0.5584499199
1542300000.0 0.0942138318 0.5537716434
1547275000.0 0.10822022 0.5489206575
1552250000.0 0.1225104684 0.5436187193
1557225000.0 0.1370196226 0.5372612923
1562200000.0 0.1526926996 0.5301180443
1567175000.0 0.1681978952 0.521891561
1572150000.0 0.1843208164 0.512768057
1577125000.0 0.2009716404 0.5025202179
1582100000.0 0.2179783816 0.4914695921
1587075000.0 0.2351901965 0.4796112816
1592050000.0 0.252896799 0.4674290571
1597025000.0 0.2697942956 0.4550228509
1602000000.0 0.2868060253 0.4430856893
1606975000.0 0.3039526885 0.430202487
1611950000.0 0.3206590748 0.4171231324
1616925000.0 0.3367297628 0.4039394939
1621900000.0 0.3523284168 0.3908366669
1626875000.0 0.3673103645 0.3779149482
1631850000.0 0.3817180278 0.364169925
1636825000.0 0.3948192979 0.3508594551
1641800000.0 0.4082654314 0.3372862464
1646775000.0 0.4208886457 0.3232062664
1651750000.0 0.4329381982 0.3089994567
1656725000.0 0.4442676286 0.2948187057
1661700000.0 0.4553344638 0.2805973339
1666675000.0 0.4651907257 0.2662058729
1671650000.0 0.4743413534 0.2517046705
1676625000.0 0.4828200297 0.2375780397
1681600000.0 0.4900731567 0.2233134664
1686575000.0 0.496047685 0.2090624903
1691550000.0 0.5012073499 0.1955465421
1696525000.0 0.5049917861 0.1822311718
1701500000.0 0.5073131292 0.1695107313
1706475000.0 0.5086631188 0.1571547919
1711450000.0 0.5091522225 0.1455448013
1716425000.0 0.5086520819 0.1350319707
1721400000.0 0.5081188652 0.1251137818
1726375000.0 0.5083016646 0.1160065284
1731350000.0 0.5087867489 0.1073744387
1736325000.0 0.5108426705 0.0987575867
1741300000.0 0.5138647836 0.0902488644
1746275000.0 0.5179484973 0.0820539267
1751250000.0 0.522581374 0.0735099992
1756225000.0 0.5276500036 0.0655371452
1761200000.0 0.5332663229 0.0577285339
1766175000.0 0.5388527982 0.0494462912
1771150000.0 0.5433863397 0.04089458
1776125000.0 0.5464170652 0.0328613265
1781100000.0 0.5479166649 0.025477972
1786075000.0 0.5473338242 0.0187913517
1791050000.0 0.5451361773 0.0133984129
1796025000.0 0.5415434687 0.0090026418
1801000000.0 0.5363898103 0.0057858297
1805975000.0 0.5307225376 0.0048592769
1810950000.0 0.5252756746 0.0047582554
1815925000.0 0.5204769154 0.005889669
1820900000.0 0.5170940532 0.0076280192
1825875000.0 0.515679564 0.0094332341
1830850000.0 0.5160951544 0.0107776096
1835825000.0 0.5183516573 0.0109796289
1840800000.0 0.5210578241 0.0102874835
1845775000.0 0.5240131365 0.0083223672
1850750000.0 0.5258701558 0.0053043174
1855725000.0 0.5269620678 0.0017168818
1860700000.0 0.5263319272 -0.0025389257
1865675000.0 0.5241092429 -0.006965484
1870650000.0 0.5195363867 -0.0114782911
1875625000.0 0.5132714705 -0.0151598857
1880600000.0 0.5059057522 -0.0184731155
1885575000.0 0.4957132094 -0.0221728691
1890550000.0 0.4832094516 -0.0253222558
1895525000.0 0.4689194445 -0.0275786375
1900500000.0 0.4511852297 -0.0307451426
1905475000.0 0.4338243716 -0.0287317527
1910450000.0 0.4182206493 -0.0229356513
1915425000.0 0.405855022 -0.0144133157
1920400000.0 0.3646542357 -0.0074465091
1925375000.0 0.3604385191 -0.0019422398
1930350000.0 0.3571041441 0.0021912633
1935325000.0 0.3550125349 0.0045262982
1940300000.0 0.3521828097 0.0051207087
1945275000.0 0.3477523778 0.0051797574
1950250000.0 0.3423891809 0.004743417
1955225000.0 0.3349360752 0.0037199019
1960200000.0 0.3252925346 0.0026240008
1965175000.0 0.3133723021 0.0018344335
1970150000.0 0.2988369869 0.0006046788
1975125000.0 0.2825489705 -0.0004440257
1980100000.0 0.2633395509 -0.0014063025
1985075000.0 0.2410005737 -0.0022481155
1990050000.0 0.2177654522 -0.0035318492
1995025000.0 0.1910834635 -0.0038743814
2000000000.0 0.1615258275 -0.0036429536
