!Created with skrf (http://scikit-rf.org).
# GHz S RI R 50.0 
!freq ReS11 ImS11
10000000.0 -0.9985755133 0.1647226479
19950000.0 -0.9435984411 0.3142275234
29900000.0 -0.8659870259 0.4570869055
39850000.0 -0.7655434776 0.5974330903
49800000.0 -0.6440607452 0.7295674397
59750000.0 -0.4972255697 0.8473665355
69700000.0 -0.3180463117 0.9388909659
79650000.0 -0.104210455 0.9868007133
89600000.0 0.1423133721 0.9745418105
99550000.0 0.4080988357 0.8848856241
109500000.0 0.6705653616 0.7052990434
119450000.0 0.890653998 0.4244871129
129400000.0 1.00668243 0.0584874121
139350000.0 0.9623756345 -0.347259263
149300000.0 0.7455209954 -0.6936241027
159250000.0 0.4149537043 -0.908954692
169200000.0 0.056268497 -0.9824346181
179150000.0 -0.2720862186 -0.9418256492
189100000.0 -0.5404509673 -0.8227011183
199050000.0 -0.7364836617 -0.6562012533
209000000.0 -0.8594326184 -0.464337323
218950000.0 -0.9236629702 -0.2663403117
228900000.0 -0.9403360927 -0.0724943576
238850000.0 -0.9220362176 0.1164451933
248800000.0 -0.7775345816 0.1352323746
258750000.0 -0.8282986501 0.4206546373
268700000.0 -0.7412773532 0.5664025641
278650000.0 -0.6284037898 0.6841736517
288600000.0 -0.4888425454 0.7719131032
298550000.0 -0.32750242 0.8264576612
308500000.0 -0.1492655609 0.8491225635
318450000.0 0.0398271082 0.8350545914
328400000.0 0.2297513245 0.7770716832
338350000.0 0.3995081814 0.6670428362
348300000.0 0.5245570383 0.5050973272
358250000.0 0.5801221616 0.3064017603
368200000.0 0.5571403217 0.102324755
378150000.0 0.4684049212 -0.071546325
388100000.0 0.3418408275 -0.1931808752
398050000.0 0.2063127939 -0.2548139709
408000000.0 0.0863415901 -0.2616138493
417950000.0 -0.0065294381 -0.2275113767
427900000.0 -0.0692999755 -0.1702453484
437850000.0 -0.1060774085 -0.1048274977
447800000.0 -0.1220115248 -0.044391911
457750000.0 -0.1217351373 0.0035344005
467700000.0 -0.1094867655 0.0346981246
477650000.0 -0.0877479737 0.0468882242
487600000.0 -0.0584474039 0.0408002779
497550000.0 -0.047764616 -0.0294380531
507500000.0 -0.0258464374 0.0322788466
517450000.0 0.0007624099 0.008747121
527400000.0 0.0112005548 -0.011499849
537350000.0 0.0074140352 -0.0299209314
547300000.0 -0.0085671679 -0.0500160903
557250000.0 -0.0383835377 -0.0643583362
567200000.0 -0.0699436972 -0.0756737857
577150000.0 -0.1013282509 -0.0838282328
587100000.0 -0.1287480994 -0.0860332088
597050000.0 -0.1495744523 -0.0795784946
607000000.0 -0.1643773559 -0.0627638045
616950000.0 -0.1735604028 -0.0367887545
626900000.0 -0.1783061101 -0.0043911237
636850000.0 -0.1783177333 0.0296818249
646800000.0 -0.1738950916 0.061303051
656750000.0 -0.1658252145 0.0865593797
666700000.0 -0.155261429 0.1035981013
676650000.0 -0.1364658344 0.1141661236
686600000.0 -0.1061066617 0.1197996435
696550000.0 -0.0667563069 0.1203739998
706500000.0 -0.0234015923 0.1155639165
716450000.0 0.0188636264 0.1044085178
726400000.0 0.0540519444 0.0848565204
736350000.0 0.0790135461 0.0549969946
746300000.0 0.0910366439 0.0141913961
756250000.0 0.0899961716 -0.0373005013
766200000.0 0.0768972534 -0.0951181057
776150000.0 0.0534980666 -0.1540274938
786100000.0 0.0200452794 -0.2074480983
796050000.0 -0.0226636823 -0.2479699096
806000000.0 -0.0737099447 -0.2722360716
815950000.0 -0.1330740087 -0.2771514006
825900000.0 -0.1983273362 -0.2639986787
835850000.0 -0.2665265051 -0.2367140755
845800000.0 -0.3324115509 -0.1980703895
855750000.0 -0.3906046246 -0.1514754995
865700000.0 -0.4352833652 -0.0974454192
875650000.0 -0.4624576248 -0.0359279003
885600000.0 -0.4693677226 0.0328337822
895550000.0 -0.4565641077 0.1085203379
905500000.0 -0.4253262136 0.1901300646
915450000.0 -0.3787201843 0.2726009444
925400000.0 -0.3172428051 0.3499938422
935350000.0 -0.2392220684 0.4152204079
945300000.0 -0.1440255408 0.4583206723
955250000.0 -0.0301752236 0.4711520469
965200000.0 0.1002312669 0.444099835
975150000.0 0.2397076227 0.3711926857
985100000.0 0.3720613229 0.245395841
995050000.0 0.4720252272 0.0652343579
1005000000.0 0.5028370114 -0.1581554708
1014950000.0 0.4280690911 -0.3947403996
1024900000.0 0.2382219815 -0.5930688283
1034850000.0 -0.0383998431 -0.701658145
1044800000.0 -0.3436047183 -0.6896071714
1054750000.0 -0.6159540795 -0.5548236585
1064700000.0 -0.7961084659 -0.3185667614
1074650000.0 -0.8664573655 -0.0646662677
1084600000.0 -0.8431867918 0.2128272968
1094550000.0 -0.6830945009 0.431722537
1104500000.0 -0.5497297737 0.6203359372
1114450000.0 -0.3144362906 0.75390539
1124400000.0 -0.0441182838 0.7897916738
1134350000.0 0.2184931312 0.719427195
1144300000.0 0.4281513543 0.5517657806
1154250000.0 0.5522777152 0.3251779319
1164200000.0 0.5865394384 0.0874016318
1174150000.0 0.5604281447 -0.125098058
1184100000.0 0.4847079876 -0.3110972655
1194050000.0 0.3656578508 -0.4504691189
1204000000.0 0.2239915999 -0.5339778518
1213950000.0 0.0771320394 -0.5695188547
1223900000.0 -0.0630748498 -0.5712094962
1233850000.0 -0.1901705577 -0.5510649763
1243800000.0 -0.3016675137 -0.5181833557
1253750000.0 -0.3968185917 -0.4764962407
1263700000.0 -0.4733798568 -0.4259241787
1273650000.0 -0.5326581922 -0.3673248133
1283600000.0 -0.5740457313 -0.300366535
1293550000.0 -0.6028510611 -0.2266792721
1303500000.0 -0.623703447 -0.150574604
1313450000.0 -0.6401623513 -0.0750833424
1323400000.0 -0.654508883 -0.0029217719
1333350000.0 -0.6653064303 0.0644424047
1343300000.0 -0.6690663088 0.1277201097
1353250000.0 -0.662248914 0.1853574864
1363200000.0 -0.6427393432 0.2399842346
1373150000.0 -0.6099795872 0.2928022871
1383100000.0 -0.568795776 0.3454619815
1393050000.0 -0.5228230593 0.3977039314
1403000000.0 -0.4764221676 0.4484474051
1412950000.0 -0.4304535176 0.4954977801
1422900000.0 -0.3839741847 0.535411488
1432850000.0 -0.3366925491 0.5640007762
1442800000.0 -0.2867095037 0.5818918746
1452750000.0 -0.2326680134 0.5907138531
1462700000.0 -0.1732219169 0.5949410326
1472650000.0 -0.105701862 0.598159966
1482600000.0 -0.0319487651 0.6008132514
1492550000.0 0.0442303484 0.5990691692
1502500000.0 0.1198216933 0.5890648236
1512450000.0 0.1903531134 0.5670326469
1522400000.0 0.2545143927 0.5300400655
1532350000.0 0.3110313282 0.4763760339
1542300000.0 0.3613152411 0.4068277799
1552250000.0 0.4052766003 0.32483459
1562200000.0 0.4439925343 0.2354490275
1572150000.0 0.4728387899 0.1441241286
1582100000.0 0.4893095656 0.0536127581
1592050000.0 0.4893821527 -0.0357968466
1602000000.0 0.4692941521 -0.123139793
1611950000.0 0.4276947136 -0.2061549015
1621900000.0 0.367433495 -0.2840371983
1631850000.0 0.2949923049 -0.3551783689
1641800000.0 0.2166302875 -0.4184827415
1651750000.0 0.135785828 -0.4708408269
1661700000.0 0.0540898205 -0.50932125
1671650000.0 -0.0275670545 -0.5280930079
1681600000.0 -0.1076623551 -0.5269638543
1691550000.0 -0.1859553966 -0.5099783454
1701500000.0 -0.2629915086 -0.4800016087
1711450000.0 -0.3374236005 -0.4428948578
1721400000.0 -0.4079149949 -0.4031370589
1731350000.0 -0.4719586435 -0.3626732451
1741300000.0 -0.5253250541 -0.3192825458
1751250000.0 -0.5653630684 -0.2711479692
1761200000.0 -0.5908665043 -0.217826901
1771150000.0 -0.6037237015 -0.15900602
1781100000.0 -0.6100453363 -0.0963688493
1791050000.0 -0.6131591489 -0.0328962052
1801000000.0 -0.6168278717 0.0287225574
1810950000.0 -0.6213475637 0.0863694623
1820900000.0 -0.62328552 0.139492129
1830850000.0 -0.6188312421 0.1867869492
1840800000.0 -0.6030396366 0.2288779599
1850750000.0 -0.5753744177 0.2669740258
1860700000.0 -0.5362548877 0.3015598731
1870650000.0 -0.491766894 0.3353873726
1880600000.0 -0.4470523886 0.3665226487
1890550000.0 -0.4062460352 0.3949551267
1900500000.0 -0.3695426396 0.4187535837
1910450000.0 -0.3365159379 0.4354935075
1920400000.0 -0.3031689999 0.4419651186
1930350000.0 -0.2666200104 0.4381568947
1940300000.0 -0.2254637324 0.4240805995
1950250000.0 -0.1796020829 0.4018644414
1960200000.0 -0.1318443222 0.3745841153
1970150000.0 -0.089785236 0.3438726712
1980100000.0 -0.0562612413 0.3098162587
1990050000.0 -0.0367214142 0.2714886705
2000000000.0 -0.0342533525 0.2238749387
