!Created with skrf (http://scikit-rf.org).
# GHz S RI R 50.0 
!freq ReS11 ImS11
10000000.0 -0.7474700258 0.6736085955
19950000.0 -0.1139630146 0.982599094
29900000.0 0.5658250267 0.7982645279
39850000.0 0.9574417366 0.2008529381
49800000.0 0.8417628861 -0.5176671549
59750000.0 0.2518106965 -0.9699261009
69700000.0 -0.5007232933 -0.8754970193
79650000.0 -0.9674481999 -0.2578498026
89600000.0 -0.8315957585 0.5229038272
99550000.0 -0.1371502381 0.9544189695
109500000.0 0.6707542965 0.6855991365
119450000.0 0.9587183993 -0.1567483618
129400000.0 0.4125038914 -0.8972135498
139350000.0 -0.5135102126 -0.843296238
149300000.0 -0.9653851364 -0.0530695972
159250000.0 -0.586759159 0.7402744312
169200000.0 0.2449319406 0.9050742454
179150000.0 0.8710253497 0.3742436284
189100000.0 0.8669576775 -0.4214084742
199050000.0 0.2879534194 -0.9261383035
209000000.0 -0.4479968344 -0.849982225
218950000.0 -0.8944603377 -0.2972054415
228900000.0 -0.8394951504 0.3909129423
238850000.0 -0.3430467473 0.8528507311
248800000.0 0.3255895137 0.8444139816
258750000.0 0.8348240982 0.4239773893
268700000.0 0.912402584 -0.2442549274
278650000.0 0.5175079873 -0.7839290194
288600000.0 -0.1309761407 -0.9099962197
298550000.0 -0.684575771 -0.5691991432
308500000.0 -0.8582291095 0.0493815411
318450000.0 -0.5619636643 0.6123564617
328400000.0 0.0380099768 0.8029981417
338350000.0 0.5777798152 0.5052888254
348300000.0 0.7073420673 -0.069216707
358250000.0 0.378493815 -0.5018787888
368200000.0 -0.1031495147 -0.5153221943
378150000.0 -0.3656326529 -0.1983557023
388100000.0 -0.2868278061 0.1302759546
398050000.0 -0.0368741804 0.2291776013
408000000.0 0.1329283494 0.1058698304
417950000.0 0.1140527652 -0.0576749739
427900000.0 -0.0149197693 -0.1103588234
437850000.0 -0.112998606 -0.0319185593
447800000.0 -0.101719786 0.0879224781
457750000.0 0.0018843994 0.1493557569
467700000.0 0.1127622816 0.1085203273
477650000.0 0.1539075296 -0.0002634705
487600000.0 0.1044162107 -0.0991905679
497550000.0 0.0084582985 -0.1309124302
507500000.0 -0.0750492031 -0.0942401921
517450000.0 -0.0996775265 -0.0195644219
527400000.0 -0.0705318965 0.0360748333
537350000.0 -0.0243507628 0.0458785332
547300000.0 -0.0009373962 0.0234291539
557250000.0 -0.0116057833 0.0024860701
567200000.0 -0.0348954308 0.0107430122
577150000.0 -0.0346753231 0.0436020353
587100000.0 0.0067277317 0.0697696222
597050000.0 0.0676255834 0.0541311544
607000000.0 0.1057967389 -0.0156088155
616950000.0 0.084933316 -0.1057635483
626900000.0 -0.0003059781 -0.1623163248
636850000.0 -0.1112454965 -0.144922872
646800000.0 -0.1862433641 -0.0515944706
656750000.0 -0.1758798997 0.0726566788
666700000.0 -0.080736063 0.1599879363
676650000.0 0.0521113357 0.1573910517
686600000.0 0.1498990894 0.0652660719
696550000.0 0.1570277245 -0.0682775039
706500000.0 0.0734447379 -0.1656747569
716450000.0 -0.0512758982 -0.1743308226
726400000.0 -0.1382245201 -0.095751665
736350000.0 -0.1343315694 0.0165033605
746300000.0 -0.0472863238 0.0842910241
756250000.0 0.0579914286 0.0586996693
766200000.0 0.1027337573 -0.0429776739
776150000.0 0.0460693609 -0.1439736191
786100000.0 -0.0774901082 -0.1618466151
796050000.0 -0.1792554066 -0.0676090947
806000000.0 -0.1701304534 0.0904520309
815950000.0 -0.0330032747 0.2014346506
825900000.0 0.1650579999 0.1745139873
835850000.0 0.2936481658 0.0007546089
845800000.0 0.2585582692 -0.2314172779
855750000.0 0.0564935536 -0.3802174561
865700000.0 -0.2085749424 -0.344599635
875650000.0 -0.3810756426 -0.1161481667
885600000.0 -0.3380099485 0.1825571296
895550000.0 -0.0883005271 0.356824573
905500000.0 0.1973771569 0.3253763386
915450000.0 0.4075031629 0.1074919941
925400000.0 0.4056724662 -0.2201753308
935350000.0 0.1618230723 -0.4547682172
945300000.0 -0.1886732842 -0.4396954088
955250000.0 -0.4247796622 -0.1633416692
965200000.0 -0.3762355149 0.2161040396
975150000.0 -0.036366056 0.4317747695
985100000.0 0.3653889902 0.2886480341
995050000.0 0.4937807798 -0.1486509174
1005000000.0 0.1887890366 -0.5292389118
1014950000.0 -0.3388137147 -0.4868090067
1024900000.0 -0.6282389661 0.01641326
1034850000.0 -0.3403961836 0.5894334333
1044800000.0 0.3508778355 0.6626242528
1054750000.0 0.8079920486 0.0922586991
1064700000.0 0.5842048328 -0.6095614898
1074650000.0 -0.0968443089 -0.8411327098
1084600000.0 -0.6969284717 -0.4412206064
1094550000.0 -0.7596286474 0.2041466753
1104500000.0 -0.3013182163 0.7361648624
1114450000.0 0.3976787866 0.6681555118
1124400000.0 0.7457678474 0.0937282667
1134350000.0 0.5219434002 -0.4932432109
1144300000.0 -0.0307167319 -0.6819438129
1154250000.0 -0.5055317802 -0.4034923818
1164200000.0 -0.6025478613 0.113156958
1174150000.0 -0.2825029537 0.5114535981
1184100000.0 0.2121454407 0.5201952851
1194050000.0 0.5264617929 0.1609186693
1204000000.0 0.4690431653 -0.2915905376
1213950000.0 0.1159792057 -0.5502651763
1223900000.0 -0.3031145211 -0.4876420922
1233850000.0 -0.5599425274 -0.1581034325
1243800000.0 -0.5211587074 0.2585983472
1253750000.0 -0.2062955703 0.5386130193
1263700000.0 0.216960779 0.5256848314
1273650000.0 0.5195513314 0.2324236798
1283600000.0 0.552898336 -0.1808798563
1293550000.0 0.317589862 -0.5115445911
1303500000.0 -0.0667253072 -0.6195467816
1313450000.0 -0.4341557042 -0.467056526
1323400000.0 -0.6290242184 -0.1165365981
1333350000.0 -0.5586481901 0.2836785003
1343300000.0 -0.2435839021 0.5532865901
1353250000.0 0.175273969 0.5574475108
1363200000.0 0.4981704148 0.2934977293
1373150000.0 0.5799641682 -0.1078168454
1383100000.0 0.3999387642 -0.4641854305
1393050000.0 0.0473060924 -0.6334424148
1403000000.0 -0.3295792506 -0.5544279247
1412950000.0 -0.5800578436 -0.2627353878
1422900000.0 -0.5964763344 0.1255974633
1432850000.0 -0.3632904792 0.4406654914
1442800000.0 0.0198664987 0.5366720708
1452750000.0 0.3734843099 0.3646838322
1462700000.0 0.5321565602 0.0133805103
1472650000.0 0.4340232752 -0.3479058788
1482600000.0 0.1393972564 -0.5589475099
1492550000.0 -0.2151975088 -0.5365086487
1502500000.0 -0.4708014118 -0.2956013541
1512450000.0 -0.5105169602 0.0533271306
1522400000.0 -0.3087351038 0.3422882669
1532350000.0 0.0330992696 0.4205643788
1542300000.0 0.3345221011 0.2501524503
1552250000.0 0.4362891968 -0.0695860537
1562200000.0 0.2988044916 -0.3640260038
1572150000.0 0.0075263104 -0.4856142604
1582100000.0 -0.2854611201 -0.3827116283
1592050000.0 -0.4335884913 -0.1104143034
1602000000.0 -0.3581068469 0.1963584255
1611950000.0 -0.0881172889 0.3727727613
1621900000.0 0.2346357604 0.3142069582
1631850000.0 0.4274294935 0.0454647889
1641800000.0 0.3820874597 -0.2823461992
1651750000.0 0.1272656948 -0.4937970862
1661700000.0 -0.2042738604 -0.4832336376
1671650000.0 -0.4538704851 -0.257073394
1681600000.0 -0.5011491422 0.086397579
1691550000.0 -0.3114453924 0.39059837
1701500000.0 0.0417663656 0.5019276229
1711450000.0 0.3885442891 0.3494162106
1721400000.0 0.5525349016 0.0021038532
1731350000.0 0.4522501453 -0.3657579283
1741300000.0 0.1448895096 -0.5836698193
1751250000.0 -0.2276145087 -0.5651962226
1761200000.0 -0.513004813 -0.3277736705
1771150000.0 -0.6027853859 0.0358352984
1781100000.0 -0.4537711317 0.3857790423
1791050000.0 -0.1149599463 0.5761318378
1801000000.0 0.2757453552 0.5122913482
1810950000.0 0.5402006056 0.2149727594
1820900000.0 0.5564521945 -0.1765871791
1830850000.0 0.3311632359 -0.4849886048
1840800000.0 -0.0231578636 -0.5921261359
1850750000.0 -0.3617728859 -0.4734303206
1860700000.0 -0.5634450557 -0.1874930317
1870650000.0 -0.560266208 0.1599267908
1880600000.0 -0.3522760482 0.4357840481
1890550000.0 -0.0200290651 0.529724128
1900500000.0 0.2932371386 0.3998679395
1910450000.0 0.4510350475 0.1107275994
1920400000.0 0.3989212148 -0.1980153497
1930350000.0 0.1887429356 -0.3998251478
1940300000.0 -0.0800582856 -0.4374335703
1950250000.0 -0.3029611699 -0.3186363955
1960200000.0 -0.40617115 -0.1085969307
1970150000.0 -0.3710379256 0.1032759715
1980100000.0 -0.2299094217 0.233109431
1990050000.0 -0.0617755496 0.2462831708
2000000000.0 0.0541417749 0.1660631758
