!Created with skrf (http://scikit-rf.org).
# GHz S RI R 50.0 
!freq ReS11 ImS11
10000000.0 -0.7967797858 0.6058872555
19950000.0 -0.2811635842 0.9486153125
29900000.0 0.3348517829 0.9251772442
39850000.0 0.8241499665 0.5403537092
49800000.0 0.9893855183 -0.0724958274
59750000.0 0.7385845987 -0.67369038
69700000.0 0.1489078515 -0.9908757769
79650000.0 -0.5242880713 -0.84576927
89600000.0 -0.9428882323 -0.2741972841
99550000.0 -0.8595247278 0.4515258898
109500000.0 -0.2720474 0.929409964
119450000.0 0.5104064531 0.8317631951
129400000.0 0.9627583456 0.1674450697
139350000.0 0.7471810847 -0.6408722078
149300000.0 -0.0106454008 -0.970147752
159250000.0 -0.730397625 -0.6140769515
169200000.0 -0.9391918754 0.1284271905
179150000.0 -0.565074969 0.766914277
189100000.0 0.1215893119 0.9537833605
199050000.0 0.7286332406 0.6337028165
209000000.0 0.9596398175 0.0099816767
218950000.0 0.7394305622 -0.59166496
228900000.0 0.2018293109 -0.9125463454
238850000.0 -0.4111377947 -0.8308959833
248800000.0 -0.7083805048 -0.4699464137
258750000.0 -0.9172616941 0.1651257425
268700000.0 -0.6286531768 0.6928643116
278650000.0 -0.0798293194 0.9262109635
288600000.0 0.4916268793 0.7685653104
298550000.0 0.8370611384 0.2919602887
308500000.0 0.8053879048 -0.2917972936
318450000.0 0.412179574 -0.7156967935
328400000.0 -0.1539968856 -0.7794441367
338350000.0 -0.6039682112 -0.4543797648
348300000.0 -0.6976624925 0.067465078
358250000.0 -0.4135246277 0.4705667688
368200000.0 0.0275549607 0.5355442621
378150000.0 0.3348034382 0.2918077406
388100000.0 0.3598355508 -0.0451624841
398050000.0 0.162888727 -0.2514631015
408000000.0 -0.0748564836 -0.2428866191
417950000.0 -0.2002070678 -0.0895198965
427900000.0 -0.174052761 0.0756068277
437850000.0 -0.0537914591 0.1540881906
447800000.0 0.0679148124 0.1251441148
457750000.0 0.1241616363 0.0320150734
467700000.0 0.1002542617 -0.0590276407
477650000.0 0.0316676766 -0.0984878968
487600000.0 -0.0284240115 -0.0740497407
497550000.0 -0.0601519801 -0.0954135005
507500000.0 -0.0662272802 -0.0104503351
517450000.0 -0.036798192 0.0106519406
527400000.0 -0.0171727158 0.0018554071
537350000.0 -0.0221307493 -0.0153301535
547300000.0 -0.0530170479 -0.0167015587
557250000.0 -0.0739708697 0.0218067982
567200000.0 -0.0594691166 0.072326842
577150000.0 -0.0057889945 0.1082381331
587100000.0 0.0688548281 0.1005481054
597050000.0 0.1309595046 0.0412093924
607000000.0 0.1452417238 -0.052242354
616950000.0 0.0978140882 -0.1418847249
626900000.0 0.0023322668 -0.1868450155
636850000.0 -0.1039107114 -0.165382463
646800000.0 -0.1749789394 -0.0821054001
656750000.0 -0.1810224694 0.0278390156
666700000.0 -0.1167505813 0.1174033693
676650000.0 -0.0108589982 0.1472366799
686600000.0 0.0876535712 0.1050898841
696550000.0 0.1348661276 0.013585197
706500000.0 0.1117991044 -0.0789441619
716450000.0 0.0367202978 -0.1262299789
726400000.0 -0.0447343088 -0.1049991835
736350000.0 -0.0821534349 -0.0298884387
746300000.0 -0.0489486149 0.0524348252
756250000.0 0.0424673447 0.0870906502
766200000.0 0.1391043664 0.0423679697
776150000.0 0.1799902788 -0.0680543154
786100000.0 0.1277524833 -0.1884894516
796050000.0 -0.0077474297 -0.248078234
806000000.0 -0.1679291174 -0.1973641543
815950000.0 -0.2697355976 -0.0380566718
825900000.0 -0.2475610327 0.168376117
835850000.0 -0.0922570653 0.3281882433
845800000.0 0.1387065835 0.3610645157
855750000.0 0.3495668897 0.2418817075
865700000.0 0.4475881245 0.0111569711
875650000.0 0.3819771043 -0.2411640629
885600000.0 0.1660305014 -0.4082860424
895550000.0 -0.1193445253 -0.407304596
905500000.0 -0.3517759101 -0.2245323226
915450000.0 -0.4193667585 0.0702669977
925400000.0 -0.2826313846 0.3418364563
935350000.0 -0.0025892377 0.4586088055
945300000.0 0.2859038384 0.356950065
955250000.0 0.4288565242 0.0769956748
965200000.0 0.3229327555 -0.2378952345
975150000.0 -0.0048316115 -0.382011743
985100000.0 -0.3529419333 -0.2055949704
995050000.0 -0.432219902 0.2134996172
1005000000.0 -0.1148631059 0.5556350796
1014950000.0 0.3964985006 0.4997832553
1024900000.0 0.6913537683 0.0105419601
1034850000.0 0.4593484504 -0.5778035982
1044800000.0 -0.1944595507 -0.7513912192
1054750000.0 -0.6950957238 -0.3122290752
1064700000.0 -0.7055484219 0.1598199566
1074650000.0 -0.471961159 0.6177112507
1084600000.0 0.0396177115 0.7984767461
1094550000.0 0.5726476588 0.5594792403
1104500000.0 0.7709869369 -0.0169328155
1114450000.0 0.4747811983 -0.5543008983
1124400000.0 -0.1031822882 -0.6826454567
1134350000.0 -0.548009178 -0.3626384817
1144300000.0 -0.6121363348 0.1321458347
1154250000.0 -0.329091705 0.4918393211
1164200000.0 0.0962939086 0.5420059408
1174150000.0 0.4232836688 0.2933900716
1184100000.0 0.4838044827 -0.112926002
1194050000.0 0.2413651896 -0.4383120018
1204000000.0 -0.1449330341 -0.5019933671
1213950000.0 -0.4592661433 -0.3057270874
1223900000.0 -0.5759671637 0.0297009162
1233850000.0 -0.468826266 0.3599351544
1243800000.0 -0.183762899 0.563689679
1253750000.0 0.1756473487 0.5585006995
1263700000.0 0.469740419 0.3339205719
1273650000.0 0.5738208344 -0.0274197749
1283600000.0 0.4470673571 -0.3792033762
1293550000.0 0.1528680706 -0.590447563
1303500000.0 -0.1959461636 -0.606323088
1313450000.0 -0.4909014481 -0.4394590737
1323400000.0 -0.6536193527 -0.1463179053
1333350000.0 -0.6376332955 0.1928415673
1343300000.0 -0.4353446933 0.4812547851
1353250000.0 -0.0946965696 0.6160435204
1363200000.0 0.2736528816 0.5353522513
1373150000.0 0.5346365166 0.2608883922
1383100000.0 0.597929818 -0.1028613981
1393050000.0 0.4617210388 -0.4281549934
1403000000.0 0.1872865659 -0.6230178725
1412950000.0 -0.1365470554 -0.6449279998
1422900000.0 -0.420360559 -0.4977578225
1432850000.0 -0.5846742826 -0.2200270596
1442800000.0 -0.5742464557 0.1103874878
1452750000.0 -0.3801014888 0.3887028451
1462700000.0 -0.0585375435 0.5154219753
1472650000.0 0.2748927426 0.440519568
1482600000.0 0.5002251079 0.1999728756
1492550000.0 0.5498030443 -0.1081932946
1502500000.0 0.426323797 -0.3778071211
1512450000.0 0.1810979738 -0.5275417106
1522400000.0 -0.1050207198 -0.5117980981
1532350000.0 -0.3322338323 -0.3296589671
1542300000.0 -0.4087087462 -0.0429613702
1552250000.0 -0.2966579515 0.2327543324
1562200000.0 -0.0447205793 0.3787570955
1572150000.0 0.2307473643 0.3405865782
1582100000.0 0.4141726905 0.1517318982
1592050000.0 0.4416485787 -0.1001104468
1602000000.0 0.3100643707 -0.3146784219
1611950000.0 0.0688993043 -0.4062017806
1621900000.0 -0.1894190761 -0.3285763675
1631850000.0 -0.3514727178 -0.0986023052
1641800000.0 -0.3360762748 0.1896760305
1651750000.0 -0.1457658886 0.4069289913
1661700000.0 0.1323069492 0.4618428708
1671650000.0 0.3834097898 0.3441265791
1681600000.0 0.521385038 0.1065891355
1691550000.0 0.5041839847 -0.1745867862
1701500000.0 0.3265646153 -0.4104967276
1711450000.0 0.0310529531 -0.5120171405
1721400000.0 -0.2859778891 -0.4222947496
1731350000.0 -0.499050642 -0.1586599785
1741300000.0 -0.5209554225 0.1794732278
1751250000.0 -0.3519061171 0.4634601072
1761200000.0 -0.0661535551 0.6036278589
1771150000.0 0.2406249758 0.5732885312
1781100000.0 0.4846076538 0.3931576263
1791050000.0 0.6043698563 0.1125113272
1801000000.0 0.5614899052 -0.1989182187
1810950000.0 0.3521657357 -0.4501704083
1820900000.0 0.0299326726 -0.5491873571
1830850000.0 -0.2950624166 -0.4516820282
1840800000.0 -0.5060310022 -0.1967097298
1850750000.0 -0.542756523 0.1156903123
1860700000.0 -0.4195263731 0.3809130274
1870650000.0 -0.1945506801 0.5373145522
1880600000.0 0.0645760947 0.5586756019
1890550000.0 0.2926437796 0.4489088737
1900500000.0 0.4303159867 0.2382235028
1910450000.0 0.4328663198 -0.0127079469
1920400000.0 0.2991460355 -0.219411565
1930350000.0 0.084764642 -0.310937673
1940300000.0 -0.1216639733 -0.2732604976
1950250000.0 -0.2524952947 -0.1504866214
1960200000.0 -0.2880333773 -0.0122547616
1970150000.0 -0.2548406899 0.0887992051
1980100000.0 -0.1996580024 0.1286629024
1990050000.0 -0.1716695103 0.1238290664
2000000000.0 -0.1918084896 0.124714413
