!Created with skrf (http://scikit-rf.org).
# GHz S RI R 50.0 
!freq ReS11 ImS11
10000000.0 -1.000634894 0.1601226654
19950000.0 -0.9469844213 0.3064559526
29900000.0 -0.8710613546 0.4472656925
39850000.0 -0.772943649 0.5869588045
49800000.0 -0.6542708043 0.7202422629
59750000.0 -0.509193309 0.8409028016
69700000.0 -0.3299682121 0.9365915418
79650000.0 -0.1119120501 0.9879691732
89600000.0 0.1433132263 0.9760303871
99550000.0 0.421478837 0.8791017482
109500000.0 0.6955075202 0.681104932
119450000.0 0.9166245854 0.3695669926
129400000.0 1.011498242 -0.0355256087
139350000.0 0.9195894775 -0.4532785681
149300000.0 0.6500754147 -0.7820756642
159250000.0 0.2883869492 -0.9534565448
169200000.0 -0.0729583751 -0.9791078076
179150000.0 -0.382788 -0.9022200113
189100000.0 -0.6228322944 -0.7641471374
199050000.0 -0.7899812306 -0.5936651757
209000000.0 -0.888413029 -0.4092773372
218950000.0 -0.9353561357 -0.2256340351
228900000.0 -0.9428843119 -0.0499037672
238850000.0 -0.9243626829 0.1165211971
248800000.0 -0.8866146828 0.2587553454
258750000.0 -0.8373113996 0.4133719917
268700000.0 -0.7662768905 0.5434643207
278650000.0 -0.6722171121 0.6533067814
288600000.0 -0.5535319715 0.739124217
298550000.0 -0.4132484531 0.7985286931
308500000.0 -0.2549191524 0.8328704438
318450000.0 -0.0830874185 0.8379859089
328400000.0 0.095990262 0.8075435094
338350000.0 0.2657060603 0.7313974816
348300000.0 0.4042136416 0.6032696924
358250000.0 0.4838247579 0.4298754902
368200000.0 0.488982113 0.2350272948
378150000.0 0.4243807416 0.0556228565
388100000.0 0.3135772399 -0.077250516
398050000.0 0.187599975 -0.148771329
408000000.0 0.0725000049 -0.162491111
417950000.0 -0.0165763382 -0.1324994192
427900000.0 -0.0758598267 -0.0777031222
437850000.0 -0.1096580579 -0.0142571752
447800000.0 -0.1241404083 0.0452700606
457750000.0 -0.1242258389 0.0927876536
467700000.0 -0.1127782424 0.1246196916
477650000.0 -0.0918734024 0.1390282827
487600000.0 -0.0640455985 0.1387307275
497550000.0 -0.0351044076 0.1319147441
507500000.0 -0.0019860256 0.1150404047
517450000.0 0.0226896053 0.0961524358
527400000.0 0.0373930274 0.0772096324
537350000.0 0.0382390876 0.0584686951
547300000.0 0.0272818718 0.0403517069
557250000.0 0.0050390597 0.0213146405
567200000.0 -0.0231921225 0.0036436595
577150000.0 -0.0529922335 -0.0103469588
587100000.0 -0.079374956 -0.0178987374
597050000.0 -0.0997139302 -0.0161388174
607000000.0 -0.1141211923 -0.0037795965
616950000.0 -0.124017818 0.018533829
626900000.0 -0.1304103766 0.0490145356
636850000.0 -0.1338528764 0.0824241179
646800000.0 -0.1336139519 0.1146848552
656750000.0 -0.1278785925 0.141505513
666700000.0 -0.1145237329 0.1605995579
676650000.0 -0.0913657804 0.1712244309
686600000.0 -0.0587664638 0.1751502033
696550000.0 -0.019466162 0.1732110801
706500000.0 0.0233812317 0.1664658715
716450000.0 0.0644323205 0.1548116455
726400000.0 0.0991349285 0.1356811964
736350000.0 0.1234386154 0.1069832152
746300000.0 0.1349417095 0.0671416639
756250000.0 0.1350487292 0.0164838214
766200000.0 0.1228769714 -0.0415009393
776150000.0 0.1017394528 -0.1013282328
786100000.0 0.0702420547 -0.1564245589
796050000.0 0.029265368 -0.1999563875
806000000.0 -0.0214670872 -0.2262394053
815950000.0 -0.0823460103 -0.2323390308
825900000.0 -0.1504376378 -0.2188304793
835850000.0 -0.2219524367 -0.1886314984
845800000.0 -0.2911245931 -0.1458006011
855750000.0 -0.350837947 -0.0923683327
865700000.0 -0.394213914 -0.030416225
875650000.0 -0.4165104677 0.0400196126
885600000.0 -0.4138324009 0.117051048
895550000.0 -0.3870351076 0.1994498068
905500000.0 -0.3384735826 0.2851086136
915450000.0 -0.2714727429 0.3677460508
925400000.0 -0.1865972707 0.4400229295
935350000.0 -0.0841390745 0.4914327271
945300000.0 0.0341113601 0.510498973
955250000.0 0.1656060179 0.4855856256
965200000.0 0.2969661497 0.4037061589
975150000.0 0.3915854836 0.2641427459
985100000.0 0.4653886607 0.1247674311
995050000.0 0.5434637905 -0.0493851168
1005000000.0 0.5372972642 -0.2827720294
1014950000.0 0.4109230625 -0.5157556205
1024900000.0 0.1566105749 -0.6932817879
1034850000.0 -0.181849674 -0.7433278281
1044800000.0 -0.520833062 -0.6350991126
1054750000.0 -0.7757206235 -0.3892294172
1064700000.0 -0.8767347287 -0.0807492764
1074650000.0 -0.8649253701 0.2202499834
1084600000.0 -0.7291394783 0.485973288
1094550000.0 -0.5160293915 0.6771823842
1104500000.0 -0.2673748252 0.7891000376
1114450000.0 -0.0093876869 0.8222798205
1124400000.0 0.2334725453 0.7748164246
1134350000.0 0.4340417753 0.6543098599
1144300000.0 0.5753713833 0.4785142965
1154250000.0 0.6519924615 0.2770553635
1164200000.0 0.6718104548 0.0763234605
1174150000.0 0.6554350536 -0.1090866208
1184100000.0 0.6018074995 -0.2778890073
1194050000.0 0.5134782131 -0.4161462432
1204000000.0 0.3986489289 -0.5157131504
1213950000.0 0.2676061673 -0.5761854351
1223900000.0 0.1323456766 -0.604563729
1233850000.0 0.0002679399 -0.6111441762
1243800000.0 -0.122013937 -0.6013446305
1253750000.0 -0.2321697249 -0.5794509645
1263700000.0 -0.3269426694 -0.544340205
1273650000.0 -0.4062952697 -0.4966876772
1283600000.0 -0.4681449811 -0.435519377
1293550000.0 -0.5156574207 -0.3626971361
1303500000.0 -0.5532882987 -0.2830464562
1313450000.0 -0.5843589886 -0.2020756609
1323400000.0 -0.6122239539 -0.1225121946
1333350000.0 -0.6354666943 -0.0471713326
1343300000.0 -0.6496736133 0.0243456554
1353250000.0 -0.6526770411 0.0910022006
1363200000.0 -0.6399821916 0.1548371522
1373150000.0 -0.6119837856 0.2176402698
1383100000.0 -0.5732339814 0.279521772
1393050000.0 -0.5286808776 0.3415552165
1403000000.0 -0.4821305174 0.4016016323
1412950000.0 -0.4351201507 0.4582178885
1422900000.0 -0.3870870202 0.5079851755
1432850000.0 -0.336316257 0.5464025772
1442800000.0 -0.2798228969 0.5733886537
1452750000.0 -0.2159687967 0.5885294496
1462700000.0 -0.1443295149 0.5952376514
1472650000.0 -0.0656868093 0.5959817624
1482600000.0 0.0159098118 0.5931555922
1492550000.0 0.0971281622 0.5855593004
1502500000.0 0.1750383908 0.5706594126
1512450000.0 0.2472365585 0.5444070924
1522400000.0 0.3112013722 0.5031233111
1532350000.0 0.3665441027 0.4448600481
1542300000.0 0.4139317455 0.3718406205
1552250000.0 0.4548288509 0.2883625747
1562200000.0 0.4911076026 0.2004386648
1572150000.0 0.5195076933 0.1106412425
1582100000.0 0.5360884036 0.0208764543
1592050000.0 0.5360688637 -0.0669994815
1602000000.0 0.5149618629 -0.1516637966
1611950000.0 0.4746226235 -0.231179299
1621900000.0 0.4183230223 -0.3070274372
1631850000.0 0.3509387787 -0.3789397533
1641800000.0 0.2779031133 -0.4454252676
1651750000.0 0.2014415999 -0.5025448033
1661700000.0 0.1240001659 -0.5463668354
1671650000.0 0.0457424541 -0.5722542348
1681600000.0 -0.0328522129 -0.5781768129
1691550000.0 -0.1116061294 -0.5672982653
1701500000.0 -0.1912646247 -0.5436386699
1711450000.0 -0.2693739973 -0.513006343
1721400000.0 -0.3445748829 -0.4790232032
1731350000.0 -0.4133120259 -0.4441782236
1741300000.0 -0.4722651631 -0.4071068805
1751250000.0 -0.5185052047 -0.3640210601
1761200000.0 -0.5508748796 -0.3141142599
1771150000.0 -0.5709710237 -0.2565731516
1781100000.0 -0.5838955879 -0.1933480248
1791050000.0 -0.592972422 -0.1279467792
1801000000.0 -0.6023851492 -0.0641873403
1810950000.0 -0.6126539024 -0.0035656578
1820900000.0 -0.6208223034 0.0521827789
1830850000.0 -0.6219201449 0.1022551576
1840800000.0 -0.6114303392 0.1489806555
1850750000.0 -0.5877843972 0.1915122944
1860700000.0 -0.5513292577 0.2316465859
1870650000.0 -0.5078531879 0.2709140091
1880600000.0 -0.4631056893 0.3073219294
1890550000.0 -0.4216054248 0.3413950917
1900500000.0 -0.3841202691 0.3691550075
1910450000.0 -0.3506646044 0.3890214375
1920400000.0 -0.3166925815 0.398091049
1930350000.0 -0.2797899107 0.3958171542
1940300000.0 -0.2372724124 0.3831846867
1950250000.0 -0.1902080052 0.3616329608
1960200000.0 -0.1407028265 0.3355241218
1970150000.0 -0.0952725486 0.3053841524
1980100000.0 -0.0576687021 0.2716310615
1990050000.0 -0.0335218437 0.2305475927
2000000000.0 -0.0260343147 0.1777758237
