!Created with skrf (http://scikit-rf.org).
# GHz S RI R 50.0 
!freq ReS11 ImS11
10000000.0 -0.7892061798 0.6006424697
19950000.0 -0.2808425446 0.9448300895
29900000.0 0.3311366152 0.9281894763
39850000.0 0.8210611772 0.5512237714
49800000.0 0.9909546212 -0.0554365625
59750000.0 0.7494423953 -0.6534945537
69700000.0 0.1724563232 -0.9766064376
79650000.0 -0.4943870252 -0.8514131802
89600000.0 -0.9273971723 -0.3049744934
99550000.0 -0.8792926886 0.4124033488
109500000.0 -0.3280185331 0.9142180533
119450000.0 0.446977387 0.8663135989
129400000.0 0.9482356671 0.2314853086
139350000.0 0.7901162579 -0.5687745
149300000.0 0.0676508774 -0.9610955431
159250000.0 -0.6816008003 -0.6678715371
169200000.0 -0.9490264647 0.061292223
179150000.0 -0.6136421143 0.7286027092
189100000.0 0.0678862143 0.9528193182
199050000.0 0.6925827442 0.6577435939
209000000.0 0.94931091 0.0404762353
218950000.0 0.7487477538 -0.5716257687
228900000.0 0.2180499956 -0.9090352701
238850000.0 -0.3976264686 -0.8404832844
248800000.0 -0.6753841409 -0.3101056678
258750000.0 -0.9141903819 0.1548378576
268700000.0 -0.6255963416 0.6822763361
278650000.0 -0.0778947359 0.914878674
288600000.0 0.4924017906 0.7578792392
298550000.0 0.8369284761 0.2819519854
308500000.0 0.8030368252 -0.3008024801
318450000.0 0.4062877192 -0.7198588429
328400000.0 -0.1584365696 -0.774880829
338350000.0 -0.6004739796 -0.4447085822
348300000.0 -0.6872892709 0.0744678071
358250000.0 -0.4016387449 0.4732201835
368200000.0 0.0381563956 0.5362417148
378150000.0 0.3437195971 0.2916430348
388100000.0 0.3670675276 -0.0449416633
398050000.0 0.1684202021 -0.2511349099
408000000.0 -0.0714080319 -0.2435451535
417950000.0 -0.2006148257 -0.0905521309
427900000.0 -0.1788499741 0.0775694331
437850000.0 -0.0605544114 0.1614128637
447800000.0 0.0632690995 0.136143204
457750000.0 0.1221561084 0.0444368619
467700000.0 0.1025676797 -0.0472430994
477650000.0 0.0386969416 -0.0915758257
487600000.0 -0.0180575705 -0.0807930139
497550000.0 -0.0910212599 -0.0871831242
507500000.0 -0.0683415691 -0.0059599458
517450000.0 -0.0397625859 0.0088885514
527400000.0 -0.0241208276 -0.0022485938
537350000.0 -0.0342383063 -0.0176589158
547300000.0 -0.0609249268 -0.0112698531
557250000.0 -0.0764332824 0.0243688607
567200000.0 -0.0588945086 0.0728886399
577150000.0 -0.0032037002 0.1048526998
587100000.0 0.0723014092 0.0931090545
597050000.0 0.1329039866 0.0308591747
607000000.0 0.1453752376 -0.0643153
616950000.0 0.0945424521 -0.1533266842
626900000.0 -0.0033627212 -0.1960065123
636850000.0 -0.1096888126 -0.1693374132
646800000.0 -0.1791606015 -0.0810775577
656750000.0 -0.1802025884 0.0328287877
666700000.0 -0.1098920702 0.1242389071
676650000.0 0.0010138045 0.152701363
686600000.0 0.1030386885 0.1069331093
696550000.0 0.1504215525 0.0110468944
706500000.0 0.1252824236 -0.0854284954
716450000.0 0.0455766799 -0.1348234241
726400000.0 -0.0424259744 -0.1139613684
736350000.0 -0.086350741 -0.0347786149
746300000.0 -0.0564037573 0.0547377451
756250000.0 0.0337907765 0.0960382194
766200000.0 0.1328923935 0.0569895346
776150000.0 0.1785617685 -0.0502084639
786100000.0 0.1317463383 -0.169868153
796050000.0 0.0015547266 -0.232903011
806000000.0 -0.1564508132 -0.1878213786
815950000.0 -0.2589573049 -0.035349447
825900000.0 -0.2396426022 0.1641781392
835850000.0 -0.0905843968 0.3181455562
845800000.0 0.1324015295 0.3478385387
855750000.0 0.3345303098 0.2295958318
865700000.0 0.4243608955 0.0032144405
875650000.0 0.352874657 -0.2398379415
885600000.0 0.1367069136 -0.3946052166
895550000.0 -0.1402071243 -0.380084616
905500000.0 -0.3531974231 -0.1870121146
915450000.0 -0.3933292246 0.1027161253
925400000.0 -0.2322487469 0.3508444372
935350000.0 0.0552884152 0.4272809535
945300000.0 0.3205382893 0.2802410859
955250000.0 0.4040066063 -0.0256355418
965200000.0 0.217186287 -0.3115217912
975150000.0 -0.1562601093 -0.3517183959
985100000.0 -0.4400070888 -0.0465534923
995050000.0 -0.3513998638 0.4028938528
1005000000.0 0.1029431629 0.619946532
1014950000.0 0.5984178472 0.367207617
1024900000.0 0.7185613997 -0.2320419823
1034850000.0 0.2964372245 -0.7370126694
1044800000.0 -0.3826545128 -0.7313798964
1054750000.0 -0.8159569282 -0.2239507261
1064700000.0 -0.7464714482 0.3909096323
1074650000.0 -0.318252648 0.7720964388
1084600000.0 0.2486414106 0.7951379721
1094550000.0 0.6848058071 0.410511135
1104500000.0 0.7294665944 -0.1687100624
1114450000.0 0.3539161087 -0.602117548
1124400000.0 -0.1929848913 -0.6319547643
1134350000.0 -0.5665385908 -0.2885830181
1144300000.0 -0.5894710978 0.1758069735
1154250000.0 -0.3059276247 0.5009193339
1164200000.0 0.1014308668 0.538268836
1174150000.0 0.4164198258 0.2925157707
1184100000.0 0.4716769494 -0.1048683945
1194050000.0 0.2368000821 -0.4224217198
1204000000.0 -0.137378678 -0.491554863
1213950000.0 -0.4493272588 -0.3079713291
1223900000.0 -0.5712526683 0.016429966
1233850000.0 -0.4737453353 0.3415913369
1243800000.0 -0.1982961434 0.5457038612
1253750000.0 0.1543054456 0.5465375058
1263700000.0 0.4459867945 0.3313515638
1273650000.0 0.5554621035 -0.0204286076
1283600000.0 0.4399253256 -0.3686336464
1293550000.0 0.1546539176 -0.5827081316
1303500000.0 -0.1881491332 -0.6040582861
1313450000.0 -0.4805579824 -0.4431356984
1323400000.0 -0.6430720567 -0.1551792213
1333350000.0 -0.6288288203 0.1801793628
1343300000.0 -0.4302173972 0.4665243913
1353250000.0 -0.0938689143 0.6035804777
1363200000.0 0.2718603512 0.5270563457
1373150000.0 0.5339571859 0.2579301002
1383100000.0 0.6003643446 -0.1025397492
1393050000.0 0.4668395522 -0.4268550846
1403000000.0 0.1946448705 -0.621815455
1412950000.0 -0.1288336092 -0.644981325
1422900000.0 -0.4147607901 -0.4986323981
1432850000.0 -0.5828643046 -0.2190934975
1442800000.0 -0.5741749968 0.1164398536
1452750000.0 -0.3770317556 0.3993972363
1462700000.0 -0.0515879709 0.5255549554
1472650000.0 0.2833083454 0.4479133145
1482600000.0 0.5068560807 0.2057471022
1492550000.0 0.5554184953 -0.1035738236
1502500000.0 0.4306067057 -0.374431669
1512450000.0 0.1844508261 -0.5256711625
1522400000.0 -0.101951207 -0.5126083651
1532350000.0 -0.3327967929 -0.3354432762
1542300000.0 -0.4172605848 -0.050275696
1552250000.0 -0.3109039927 0.229098046
1562200000.0 -0.0630016435 0.3794992716
1572150000.0 0.2100384893 0.3502284755
1582100000.0 0.4007256749 0.1722017438
1592050000.0 0.4431877449 -0.0756176177
1602000000.0 0.3276903467 -0.2959251567
1611950000.0 0.0973152813 -0.4037787084
1621900000.0 -0.159942175 -0.3449401014
1631850000.0 -0.3302170106 -0.1344875194
1641800000.0 -0.3430390839 0.1410117728
1651750000.0 -0.1770986991 0.3769179853
1661700000.0 0.0980974332 0.4564576537
1671650000.0 0.3595408784 0.3573938032
1681600000.0 0.5139755827 0.1272903133
1691550000.0 0.5108926519 -0.1541481397
1701500000.0 0.3439611353 -0.3939111125
1711450000.0 0.0560948016 -0.5032366868
1721400000.0 -0.2583730741 -0.4230568118
1731350000.0 -0.4739343081 -0.1681722163
1741300000.0 -0.5022244707 0.1641226332
1751250000.0 -0.3423389943 0.4462916071
1761200000.0 -0.065689864 0.589910206
1771150000.0 0.2354412142 0.5668095963
1781100000.0 0.4776581539 0.393910503
1791050000.0 0.5976655466 0.1184623577
1801000000.0 0.5549127178 -0.1886798317
1810950000.0 0.3463674266 -0.4351703781
1820900000.0 0.0270345623 -0.5307082949
1830850000.0 -0.2933952346 -0.4313647028
1840800000.0 -0.4993674431 -0.1781033673
1850750000.0 -0.5334253566 0.1284914526
1860700000.0 -0.4105789378 0.3893295142
1870650000.0 -0.1862347969 0.5408882024
1880600000.0 0.0719104429 0.5559514427
1890550000.0 0.2958079828 0.4385053385
1900500000.0 0.4241163525 0.2219069488
1910450000.0 0.414392352 -0.0296728546
1920400000.0 0.2705001116 -0.2288358592
1930350000.0 0.0529850936 -0.3086890903
1940300000.0 -0.1489388953 -0.2606880238
1950250000.0 -0.2711416994 -0.1322030611
1960200000.0 -0.2957011034 0.0095688601
1970150000.0 -0.2490315694 0.1083840385
1980100000.0 -0.1796348003 0.1395995549
1990050000.0 -0.142042207 0.1170514215
2000000000.0 -0.1662539598 0.0923005946
