!Created with skrf (http://scikit-rf.org).
# GHz S RI R 50.0 
!freq ReS11 ImS11
10000000.0 -0.7661419382 0.6772899917
19950000.0 -0.1337271083 0.9883188191
29900000.0 0.5412929313 0.8149054819
39850000.0 0.9447314039 0.2403355767
49800000.0 0.8694646893 -0.4703515368
59750000.0 0.3197707035 -0.9589802444
69700000.0 -0.4379741301 -0.927840372
79650000.0 -0.9595807309 -0.3480108016
89600000.0 -0.8906597991 0.4461320995
99550000.0 -0.2418050177 0.9371301501
109500000.0 0.5766504292 0.764361717
119450000.0 0.9741256721 -0.0078642813
129400000.0 0.5801878556 -0.8161196356
139350000.0 -0.3328311288 -0.953578174
149300000.0 -0.947585772 -0.2753666255
159250000.0 -0.7511176183 0.5869838618
169200000.0 0.0205356058 0.9384623739
179150000.0 0.7555980816 0.5796974788
189100000.0 0.9611418203 -0.1876451265
199050000.0 0.5399130891 -0.8377339279
209000000.0 -0.2022156057 -0.9696773883
218950000.0 -0.7952584036 -0.5463244765
228900000.0 -0.9237639162 0.1506206875
238850000.0 -0.5477530713 0.7393176165
248800000.0 0.0056717227 0.898488813
258750000.0 0.6925644266 0.6419106137
268700000.0 0.9632505961 0.01421873
278650000.0 0.7341788947 -0.625160016
288600000.0 0.1340381851 -0.9315051274
298550000.0 -0.5040029536 -0.7464785434
308500000.0 -0.8368327869 -0.1823768838
318450000.0 -0.6887382216 0.4465182587
328400000.0 -0.1491205637 0.7831830046
338350000.0 0.4525296474 0.6288625357
348300000.0 0.724670218 0.102425671
358250000.0 0.5132194881 -0.4055248887
368200000.0 0.038274758 -0.5476870039
378150000.0 -0.3160715766 -0.3027240212
388100000.0 -0.336535061 0.0628154672
398050000.0 -0.1050891971 0.2614246839
408000000.0 0.1367781877 0.2049101814
417950000.0 0.2116468909 0.016682634
427900000.0 0.1174639831 -0.1250061625
437850000.0 -0.0275180436 -0.1306205383
447800000.0 -0.1063623292 -0.0317067067
457750000.0 -0.0790217195 0.0774921193
467700000.0 0.0116255299 0.117636126
477650000.0 0.0865001129 0.0749184085
487600000.0 0.0815532238 -0.0018475855
497550000.0 0.0998013613 -0.0387745702
507500000.0 0.0211490388 -0.0604611935
517450000.0 -0.0163629869 -0.0286279387
527400000.0 -0.0110395763 0.0048902447
537350000.0 0.0150825125 0.0092724287
547300000.0 0.0264149887 -0.0263649552
557250000.0 -0.0125637381 -0.0553385257
567200000.0 -0.068816495 -0.0424571603
577150000.0 -0.1031230049 0.0164719948
587100000.0 -0.0806561839 0.0934118119
597050000.0 -0.0001539713 0.138402276
607000000.0 0.1001661441 0.1129655851
616950000.0 0.1617782274 0.018476249
626900000.0 0.1426087935 -0.1010390431
636850000.0 0.0445789174 -0.1832178859
646800000.0 -0.0853521752 -0.1820300597
656750000.0 -0.1761221094 -0.0955752785
666700000.0 -0.1751792861 0.0304642923
676650000.0 -0.0936816686 0.1266276799
686600000.0 0.0130243187 0.1399929277
696550000.0 0.0992465046 0.0668641244
706500000.0 0.1171481996 -0.0445272241
716450000.0 0.0589364157 -0.125069595
726400000.0 -0.0329194623 -0.1272783862
736350000.0 -0.0899070809 -0.0560178982
746300000.0 -0.0689922027 0.0308443257
756250000.0 0.0173887073 0.0597810563
766200000.0 0.102979681 -0.0058412516
776150000.0 0.1135441227 -0.1313708255
786100000.0 0.0209734622 -0.2205322652
796050000.0 -0.1311714411 -0.1992279685
806000000.0 -0.2448431179 -0.0754119357
815950000.0 -0.2282820876 0.1119015919
825900000.0 -0.0636437617 0.254613615
835850000.0 0.1718000556 0.2488581937
845800000.0 0.3524004911 0.0718420115
855750000.0 0.3687835508 -0.1970013
865700000.0 0.1929490169 -0.417975242
875650000.0 -0.0982762518 -0.4655565409
885600000.0 -0.3559898626 -0.2968180383
895550000.0 -0.4347183563 0.013770942
905500000.0 -0.2762515399 0.3055837413
915450000.0 0.0470369146 0.4132522874
925400000.0 0.3585432002 0.2639196506
935350000.0 0.4776319599 -0.0642605422
945300000.0 0.3270379958 -0.3813588793
955250000.0 -0.0111845281 -0.491123895
965200000.0 -0.3273057173 -0.3083449087
975150000.0 -0.395117876 0.0679766603
985100000.0 -0.1227723339 0.3699375772
995050000.0 0.3103639296 0.3176540405
1005000000.0 0.5203711447 -0.1060419141
1014950000.0 0.2547920028 -0.5500934448
1024900000.0 -0.3162769246 -0.571006174
1034850000.0 -0.6863316932 -0.0520079869
1044800000.0 -0.4187998888 0.6050481938
1054750000.0 0.2984180558 0.6908677359
1064700000.0 0.7917295044 0.2551798254
1074650000.0 0.7267174783 -0.4906346079
1084600000.0 0.1319571708 -0.7364800113
1094550000.0 -0.469173678 -0.6854068081
1104500000.0 -0.794788938 -0.0617807629
1114450000.0 -0.4975984155 0.5717262699
1124400000.0 0.1738159973 0.7028381131
1134350000.0 0.6394151257 0.2595297369
1144300000.0 0.5672570831 -0.3201411206
1154250000.0 0.1174671682 -0.5958380991
1164200000.0 -0.3417851713 -0.4486690165
1174150000.0 -0.5357874173 -0.0286588685
1184100000.0 -0.3427115273 0.3939066774
1194050000.0 0.1036713399 0.5108049967
1204000000.0 0.4710687677 0.2505303589
1213950000.0 0.5239609333 -0.1779187263
1223900000.0 0.2704889245 -0.5071049207
1233850000.0 -0.1278236454 -0.5802831644
1243800000.0 -0.4771436311 -0.3765073187
1253750000.0 -0.612324903 0.0128386262
1263700000.0 -0.4528611651 0.4072475083
1273650000.0 -0.0631379615 0.598935744
1283600000.0 0.35601565 0.4808643464
1293550000.0 0.5926768374 0.1233188314
1303500000.0 0.5539127944 -0.292017209
1313450000.0 0.2806100005 -0.5907600688
1323400000.0 -0.1105415754 -0.6694507504
1333350000.0 -0.476264702 -0.5020090041
1343300000.0 -0.67603752 -0.1404749572
1353250000.0 -0.6099943881 0.2804047413
1363200000.0 -0.2840128608 0.5726686986
1373150000.0 0.1572764425 0.5901050495
1383100000.0 0.5042366448 0.3282934465
1393050000.0 0.6128477503 -0.0767763623
1403000000.0 0.4632114319 -0.4514170395
1412950000.0 0.1335944021 -0.6596761776
1422900000.0 -0.2480017954 -0.6390588809
1432850000.0 -0.5435346263 -0.4007994117
1442800000.0 -0.6409541139 -0.0298904482
1452750000.0 -0.4897065635 0.3322296606
1462700000.0 -0.1390005715 0.5234788896
1472650000.0 0.2541022331 0.4476864326
1482600000.0 0.5052496788 0.1438647301
1492550000.0 0.5079197579 -0.2376291715
1502500000.0 0.2806210201 -0.525266629
1512450000.0 -0.0648014653 -0.6059430735
1522400000.0 -0.3801253071 -0.4573514396
1532350000.0 -0.5295202117 -0.1449192038
1542300000.0 -0.4408635042 0.1912522695
1552250000.0 -0.1513573085 0.3854194625
1562200000.0 0.1892761643 0.3350584459
1572150000.0 0.3991619052 0.0731862423
1582100000.0 0.3749863785 -0.2510197014
1592050000.0 0.1451314806 -0.46557778
1602000000.0 -0.163798597 -0.4698262844
1611950000.0 -0.3956818573 -0.2655838507
1621900000.0 -0.4321871629 0.0470880793
1631850000.0 -0.244130248 0.311323515
1641800000.0 0.0820411128 0.3792348873
1651750000.0 0.3721110094 0.1995607391
1661700000.0 0.4606175252 -0.1338109051
1671650000.0 0.3009210591 -0.4386644622
1681600000.0 -0.0191101708 -0.5614418587
1691550000.0 -0.3453379601 -0.4504138394
1701500000.0 -0.5343258453 -0.1556508516
1711450000.0 -0.5009584886 0.2021725812
1721400000.0 -0.2418250828 0.4712319593
1731350000.0 0.1431897387 0.516314515
1741300000.0 0.473860405 0.2974674813
1751250000.0 0.5846546256 -0.0849256352
1761200000.0 0.4279537694 -0.4440072551
1771150000.0 0.0925103577 -0.6249669176
1781100000.0 -0.2751144683 -0.5734834032
1791050000.0 -0.5419175295 -0.3239626057
1801000000.0 -0.6191116254 0.0352870324
1810950000.0 -0.4708030521 0.380302163
1820900000.0 -0.1358134444 0.5736734584
1830850000.0 0.2548192916 0.5149737494
1840800000.0 0.5196451776 0.2204970567
1850750000.0 0.5377023765 -0.1651735869
1860700000.0 0.3258650172 -0.4638576206
1870650000.0 -0.0004936526 -0.5731944904
1880600000.0 -0.3128948509 -0.4827287555
1890550000.0 -0.513568762 -0.2455496001
1900500000.0 -0.5462192026 0.0542855721
1910450000.0 -0.4041545787 0.3134559568
1920400000.0 -0.1375534151 0.4342459172
1930350000.0 0.1379525597 0.3661274998
1940300000.0 0.2973604627 0.1528335589
1950250000.0 0.2862640128 -0.0889138447
1960200000.0 0.1490523942 -0.2511791984
1970150000.0 -0.0232893508 -0.2921780018
1980100000.0 -0.1513097421 -0.2374129791
1990050000.0 -0.2026177135 -0.1530009248
2000000000.0 -0.2029423545 -0.1024906802
