!Created with skrf (http://scikit-rf.org).
# GHz S RI R 50.0 
!freq ReS11 ImS11
10000000.0 -0.7691984777 0.6786118856
19950000.0 -0.1358496311 0.9895997149
29900000.0 0.5397444094 0.8154313898
39850000.0 0.9434344985 0.2404230212
49800000.0 0.8691938509 -0.4700680752
59750000.0 0.3224896126 -0.9605693387
69700000.0 -0.4348183176 -0.9349009215
79650000.0 -0.9608759492 -0.3605254477
89600000.0 -0.9012885457 0.4334814367
99550000.0 -0.2619712635 0.9339761844
109500000.0 0.5560047324 0.7794706138
119450000.0 0.9736638461 0.0242342417
129400000.0 0.6143578421 -0.7570178112
139350000.0 -0.2857510659 -0.97636091
149300000.0 -0.9374002932 -0.3332291608
159250000.0 -0.7885494447 0.5439169569
169200000.0 -0.0319027473 0.9397874933
179150000.0 0.7256246823 0.6164506625
189100000.0 0.9691766336 -0.1460776779
199050000.0 0.5738003824 -0.8192573218
209000000.0 -0.1683638956 -0.9816534443
218950000.0 -0.7803613243 -0.5753033952
228900000.0 -0.9305701859 0.1234284115
238850000.0 -0.568974136 0.7251207519
248800000.0 -0.0047489446 0.7372283034
258750000.0 0.6876021682 0.6482761157
268700000.0 0.9647812089 0.0178739112
278650000.0 0.7360191603 -0.6260233728
288600000.0 0.1324041388 -0.933182876
298550000.0 -0.5075304754 -0.7435897722
308500000.0 -0.8360283846 -0.1734332727
318450000.0 -0.6775742876 0.4560375142
328400000.0 -0.1286293464 0.7830481608
338350000.0 0.4657487175 0.6131151836
348300000.0 0.7153007615 0.0813665059
358250000.0 0.5017361676 -0.4160830422
368200000.0 0.02777794 -0.5461138359
378150000.0 -0.3275794356 -0.2944435191
388100000.0 -0.3444749609 0.0766977964
398050000.0 -0.1038823129 0.2784383122
408000000.0 0.1487307135 0.2185326395
417950000.0 0.2304439712 0.0205371804
427900000.0 0.1351317975 -0.1331033972
437850000.0 -0.0195956117 -0.1475412387
447800000.0 -0.112666913 -0.0496044706
457750000.0 -0.0977998431 0.0678306803
467700000.0 -0.0108360507 0.1222411393
477650000.0 0.0715468627 0.0935663449
487600000.0 0.0914073399 0.0236048882
497550000.0 0.1218239614 0.0103440636
507500000.0 0.0357086488 -0.0513613843
517450000.0 -0.0017687745 -0.0294651609
527400000.0 -0.0023243296 -0.0052268008
537350000.0 0.0133214162 -0.0054619185
547300000.0 0.0148045851 -0.0346972196
557250000.0 -0.0265596392 -0.0566210089
567200000.0 -0.0816251947 -0.036151369
577150000.0 -0.111431231 0.0284539911
587100000.0 -0.0829937215 0.1067329752
597050000.0 0.0027325059 0.1483430733
607000000.0 0.1055315358 0.1167365506
616950000.0 0.1657275491 0.0160373256
626900000.0 0.1443941954 -0.1069055752
636850000.0 0.0438642179 -0.1895248638
646800000.0 -0.0878958277 -0.1857084842
656750000.0 -0.1836853611 -0.094951735
666700000.0 -0.1913871872 0.0347854974
676650000.0 -0.1090313833 0.1327312038
686600000.0 0.0162935774 0.1450447281
696550000.0 0.1116454052 0.0682875129
706500000.0 0.1236796008 -0.0477398636
716450000.0 0.0532305969 -0.1305986525
726400000.0 -0.0482804435 -0.1314746745
736350000.0 -0.106834465 -0.0549879268
746300000.0 -0.0767309266 0.0376418261
756250000.0 0.0249142863 0.0678975721
766200000.0 0.1186909367 -0.0084857759
776150000.0 0.1125464111 -0.1278508037
786100000.0 0.019187559 -0.2211356104
796050000.0 -0.1335050776 -0.2204314021
806000000.0 -0.2540378706 -0.0898135561
815950000.0 -0.2443557336 0.1120983254
825900000.0 -0.0795807903 0.2656218897
835850000.0 0.1664634452 0.2639042173
845800000.0 0.3588939658 0.0836617433
855750000.0 0.380873683 -0.1931935176
865700000.0 0.2040083157 -0.4226978684
875650000.0 -0.092512122 -0.4755589931
885600000.0 -0.3568400462 -0.3075516685
895550000.0 -0.440564271 0.0067682391
905500000.0 -0.2820613778 0.3042195021
915450000.0 0.0456336575 0.4133549988
925400000.0 0.3604055166 0.2591624724
935350000.0 0.4733875114 -0.0761619306
945300000.0 0.3062711301 -0.3909462269
955250000.0 -0.0459543794 -0.4781538214
965200000.0 -0.3507717149 -0.2567346487
975150000.0 -0.3630153125 0.1446780346
985100000.0 -0.011287862 0.4057826461
995050000.0 0.4381969491 0.2299120439
1005000000.0 0.5231129419 -0.2983405719
1014950000.0 0.0735729581 -0.675622135
1024900000.0 -0.5402173119 -0.4785655593
1034850000.0 -0.7349069724 0.1989618626
1044800000.0 -0.2447227994 0.7756283798
1054750000.0 0.5300477602 0.6672104821
1064700000.0 0.8238566596 0.0606670096
1074650000.0 0.656294748 -0.5880248843
1084600000.0 0.0529183064 -0.8367664093
1094550000.0 -0.5503079609 -0.6046163551
1104500000.0 -0.7748905977 0.0065052731
1114450000.0 -0.4599129318 0.5743588712
1124400000.0 0.1628837206 0.6875433058
1134350000.0 0.6082743164 0.2886734334
1144300000.0 0.5823173497 -0.266563736
1154250000.0 0.1755757882 -0.5708578982
1164200000.0 -0.2841665057 -0.4743164263
1174150000.0 -0.5137664922 -0.092232701
1184100000.0 -0.3807751094 0.3341616165
1194050000.0 0.0335180958 0.502503244
1204000000.0 0.4190961905 0.2949476522
1213950000.0 0.5155874447 -0.116464056
1223900000.0 0.2993548569 -0.4608477928
1233850000.0 -0.0814825201 -0.565090157
1243800000.0 -0.43623636 -0.3932574526
1253750000.0 -0.5962700824 -0.0245925619
1263700000.0 -0.4698850725 0.3703361674
1273650000.0 -0.1017494786 0.5841154234
1283600000.0 0.3181817235 0.4955651292
1293550000.0 0.5740959063 0.1569426702
1303500000.0 0.5585662376 -0.2564779541
1313450000.0 0.3034102801 -0.5667595562
1323400000.0 -0.0813733921 -0.6655236118
1333350000.0 -0.4528550323 -0.5187669358
1343300000.0 -0.6701928154 -0.1713147769
1353250000.0 -0.6278561981 0.2502381177
1363200000.0 -0.320377439 0.5612069267
1373150000.0 0.119622357 0.6055034802
1383100000.0 0.4835637242 0.3641640068
1393050000.0 0.6169375371 -0.0376199886
1403000000.0 0.4891621651 -0.4238191585
1412950000.0 0.1707802692 -0.6547232722
1422900000.0 -0.2144524654 -0.6583277545
1432850000.0 -0.5275525075 -0.4377736059
1442800000.0 -0.6501556454 -0.0724043811
1452750000.0 -0.5258706022 0.2977296223
1462700000.0 -0.1951164071 0.5171326224
1472650000.0 0.2030379886 0.4815337849
1482600000.0 0.4867748992 0.2056986982
1492550000.0 0.5339083079 -0.1763882666
1502500000.0 0.3406790313 -0.493411114
1512450000.0 0.0046049998 -0.619322108
1522400000.0 -0.330480739 -0.5137532218
1532350000.0 -0.5244281227 -0.2243776137
1542300000.0 -0.4893782386 0.1225265087
1552250000.0 -0.2363846462 0.3633801106
1562200000.0 0.1088187041 0.3754266824
1572150000.0 0.36532008 0.1579422038
1582100000.0 0.405178754 -0.1650610519
1592050000.0 0.2224108028 -0.4197135836
1602000000.0 -0.0747480956 -0.4830135777
1611950000.0 -0.334078505 -0.3304413962
1621900000.0 -0.4258174596 -0.0409127376
1631850000.0 -0.2953362568 0.2414329877
1641800000.0 -0.0004166837 0.3612535645
1651750000.0 0.3020640106 0.2404421444
1661700000.0 0.4372766513 -0.0598759416
1671650000.0 0.3288009817 -0.3710963847
1681600000.0 0.0393344472 -0.5280696883
1691550000.0 -0.2840606099 -0.4570968907
1701500000.0 -0.4929470644 -0.1934699561
1711450000.0 -0.4918941759 0.1520268788
1721400000.0 -0.2646954558 0.4312437471
1731350000.0 0.1024922121 0.5042154932
1741300000.0 0.4381382316 0.3157173507
1751250000.0 0.5698276542 -0.0495122647
1761200000.0 0.43663192 -0.4102488649
1771150000.0 0.1151165915 -0.6039045343
1781100000.0 -0.2490075826 -0.5672195425
1791050000.0 -0.5197714244 -0.3298298447
1801000000.0 -0.6061829435 0.0213341597
1810950000.0 -0.4702268025 0.3649411786
1820900000.0 -0.1456904053 0.5649879471
1830850000.0 0.2414487194 0.5175837984
1840800000.0 0.5109434325 0.2330177338
1850750000.0 0.5379629991 -0.1496209088
1860700000.0 0.3329565656 -0.4516617398
1870650000.0 0.0087414021 -0.5662825168
1880600000.0 -0.3048961997 -0.4809676138
1890550000.0 -0.5096438335 -0.246184004
1900500000.0 -0.5465850777 0.0540444771
1910450000.0 -0.4052895609 0.3166576816
1920400000.0 -0.1361334184 0.4387820236
1930350000.0 0.1421839681 0.3667485019
1940300000.0 0.2998463668 0.1494974725
1950250000.0 0.282288804 -0.0884072528
1960200000.0 0.1384123964 -0.2451182476
1970150000.0 -0.0329548688 -0.2840460058
1980100000.0 -0.1565055845 -0.2245211364
1990050000.0 -0.1979719943 -0.1321517784
2000000000.0 -0.1781470431 -0.0842691316
