!Created with skrf (http://scikit-rf.org).
# GHz S RI R 50.0 
!freq ReS11 ImS11
10000000.0 -0.7864827186 0.5940301001
19950000.0 -0.2866425202 0.9347787752
29900000.0 0.3165883771 0.9207628581
39850000.0 0.8038267338 0.5512000475
49800000.0 0.9793221298 -0.0493693282
59750000.0 0.7462051276 -0.6493065953
69700000.0 0.1720631804 -0.9791000054
79650000.0 -0.4977794619 -0.8544097525
89600000.0 -0.9287309039 -0.2975536999
99550000.0 -0.8634179284 0.4307275438
109500000.0 -0.2819749763 0.9235044382
119450000.0 0.5106845339 0.8309466398
129400000.0 0.9744067258 0.1406006376
139350000.0 0.7242615082 -0.664451685
149300000.0 -0.0578552519 -0.9645262024
159250000.0 -0.7597338981 -0.5658150241
169200000.0 -0.9216368515 0.1857027924
179150000.0 -0.5153774439 0.792753652
189100000.0 0.1655898034 0.9382367967
199050000.0 0.7413671219 0.5981475878
209000000.0 0.9449023931 -0.0165987022
218950000.0 0.7197247173 -0.5960645874
228900000.0 0.1984107562 -0.9027183534
238850000.0 -0.3897359804 -0.8306567735
248800000.0 -0.7971194683 -0.4026987693
258750000.0 -0.9100922347 0.1415682977
268700000.0 -0.6513555405 0.6590585337
278650000.0 -0.1363594213 0.9148574485
288600000.0 0.425399294 0.8050739089
298550000.0 0.8018381129 0.3756745246
308500000.0 0.8348631774 -0.1932929217
318450000.0 0.5076727859 -0.6549534831
328400000.0 -0.0311634864 -0.7981203068
338350000.0 -0.516693928 -0.5563582412
348300000.0 -0.6984461748 -0.0706014141
358250000.0 -0.4995531955 0.3685254743
368200000.0 -0.092845258 0.5122973005
378150000.0 0.2350779311 0.3386252641
388100000.0 0.3087020915 0.0383759582
398050000.0 0.1625581335 -0.1634149988
408000000.0 -0.0357241552 -0.1727562721
417950000.0 -0.1363802903 -0.0484572799
427900000.0 -0.1017095794 0.0821745891
437850000.0 0.0097940105 0.127373529
447800000.0 0.1111104633 0.0729658254
457750000.0 0.1369250465 -0.0343240463
467700000.0 0.0827109189 -0.1256275126
477650000.0 -0.0134904284 -0.1534868455
487600000.0 -0.097751161 -0.1115688657
497550000.0 -0.1310666085 -0.0364046646
507500000.0 -0.1082455828 0.0421421528
517450000.0 -0.0500534213 0.0784774533
527400000.0 0.0041761439 0.0696128651
537350000.0 0.0286285344 0.0350895715
547300000.0 0.0204965627 0.0055465424
557250000.0 -0.0019381349 5.59876e-05
567200000.0 -0.0115479768 0.0191451953
577150000.0 0.0077642612 0.0410419608
587100000.0 0.0486761089 0.0379768921
597050000.0 0.0852770686 -0.0014511327
607000000.0 0.0892409095 -0.0679430578
616950000.0 0.0442159568 -0.1308710199
626900000.0 -0.0372334138 -0.1543419518
636850000.0 -0.1224870976 -0.119809197
646800000.0 -0.1708838435 -0.0338833406
656750000.0 -0.1550515567 0.0697276608
666700000.0 -0.0757343296 0.1448775425
676650000.0 0.0361005324 0.1561929247
686600000.0 0.1328026303 0.0953700065
696550000.0 0.1712510795 -0.0138346555
706500000.0 0.1342466811 -0.1205266992
716450000.0 0.0390563503 -0.1757541396
726400000.0 -0.066472024 -0.1540307097
736350000.0 -0.127095693 -0.0655459658
746300000.0 -0.1093087751 0.041924873
756250000.0 -0.0190650719 0.1087037316
766200000.0 0.0947064419 0.0951525454
776150000.0 0.1680566185 0.0028314708
786100000.0 0.1544079254 -0.1180100155
796050000.0 0.051501606 -0.1987781407
806000000.0 -0.0924782364 -0.1832975506
815950000.0 -0.1987532919 -0.061216472
825900000.0 -0.1990249668 0.1158543062
835850000.0 -0.0758408502 0.2610657805
845800000.0 0.1219881673 0.2942152005
855750000.0 0.3037771282 0.1877212198
865700000.0 0.3791182875 -0.0216164869
875650000.0 0.2980984124 -0.2424013215
885600000.0 0.0816654308 -0.366678054
895550000.0 -0.1786039335 -0.3183989788
905500000.0 -0.3540055285 -0.1022828487
915450000.0 -0.3446086498 0.1844719725
925400000.0 -0.1445581557 0.3986938163
935350000.0 0.1541623499 0.4216155216
945300000.0 0.3953270828 0.2214024809
955250000.0 0.4251540724 -0.114960133
965200000.0 0.1769069305 -0.3929671382
975150000.0 -0.2374015643 -0.3887224783
985100000.0 -0.5223121002 -0.0281984675
995050000.0 -0.4010380969 0.4600340476
1005000000.0 0.0977265206 0.6772005874
1014950000.0 0.6160100573 0.3953838891
1024900000.0 0.7260811658 -0.2350961144
1034850000.0 0.2736319378 -0.7432783122
1044800000.0 -0.4182871257 -0.7038971376
1054750000.0 -0.8189111174 -0.1588177468
1064700000.0 -0.6838555596 0.4599241196
1074650000.0 -0.1855825285 0.7340691701
1084600000.0 0.2336707526 0.7286700991
1094550000.0 0.6908931395 0.3619853643
1104500000.0 0.7096366562 -0.2339483847
1114450000.0 0.3013264869 -0.6525300673
1124400000.0 -0.2544710824 -0.6521141338
1134350000.0 -0.6218430893 -0.2870868573
1144300000.0 -0.6402568845 0.1924350461
1154250000.0 -0.3535134082 0.5405938666
1164200000.0 0.0742453884 0.611606228
1174150000.0 0.4378564587 0.3873648619
1184100000.0 0.5595839265 -0.0241491705
1194050000.0 0.373267181 -0.4058563846
1204000000.0 -0.0057315193 -0.559777378
1213950000.0 -0.3745817211 -0.4394464513
1223900000.0 -0.5801307217 -0.1334804771
1233850000.0 -0.5639322222 0.221902418
1243800000.0 -0.3433409147 0.4980540554
1253750000.0 0.0035010813 0.5922283855
1263700000.0 0.3472226736 0.4568480723
1273650000.0 0.544173046 0.1364295654
1283600000.0 0.5129718614 -0.2368826032
1293550000.0 0.2786722467 -0.514340172
1303500000.0 -0.0562250307 -0.6081185702
1313450000.0 -0.3751675861 -0.5093738241
1323400000.0 -0.5883390172 -0.2606034354
1333350000.0 -0.6384064491 0.0662574753
1343300000.0 -0.5013179619 0.3778405762
1353250000.0 -0.2016587375 0.5673431401
1363200000.0 0.1638634137 0.5529124883
1373150000.0 0.4583940868 0.3284591413
1383100000.0 0.5711816402 -0.0153224944
1393050000.0 0.4817963804 -0.350177852
1403000000.0 0.2395238933 -0.5732347444
1412950000.0 -0.0698604666 -0.6302054798
1422900000.0 -0.3586121246 -0.5180951817
1432850000.0 -0.5432321537 -0.2637221359
1442800000.0 -0.5600063998 0.0616374273
1452750000.0 -0.3870274041 0.3502575683
1462700000.0 -0.0757092872 0.4894122253
1472650000.0 0.2533923108 0.4271776394
1482600000.0 0.478960849 0.1975186799
1492550000.0 0.5316632885 -0.103683125
1502500000.0 0.411890438 -0.3692081464
1512450000.0 0.1696765083 -0.5152886982
1522400000.0 -0.1118537298 -0.4961681012
1532350000.0 -0.3322640809 -0.3106098675
1542300000.0 -0.3992973923 -0.021866979
1552250000.0 -0.2760715384 0.2515693274
1562200000.0 -0.016036674 0.3881245543
1572150000.0 0.2616245083 0.3387671324
1582100000.0 0.4415288754 0.1380148358
1592050000.0 0.4617794463 -0.1232527221
1602000000.0 0.3187904337 -0.3429429163
1611950000.0 0.0634328814 -0.4359302217
1621900000.0 -0.2084566953 -0.352366582
1631850000.0 -0.3820763449 -0.109183024
1641800000.0 -0.3707575122 0.1961622242
1651750000.0 -0.1760339523 0.4322466849
1661700000.0 0.1165800482 0.5023459042
1671650000.0 0.3890995823 0.3895249319
1681600000.0 0.5483457178 0.1440819854
1691550000.0 0.5449294275 -0.152707646
1701500000.0 0.374686935 -0.4081477847
1711450000.0 0.0781010355 -0.5325212914
1721400000.0 -0.2526204132 -0.464721348
1731350000.0 -0.4924381921 -0.2129997492
1741300000.0 -0.5459244033 0.1312362786
1751250000.0 -0.4009430153 0.4371688983
1761200000.0 -0.1238291576 0.6076831204
1771150000.0 0.1894316727 0.6061456878
1781100000.0 0.4532843966 0.4475808358
1791050000.0 0.6012986371 0.1762738892
1801000000.0 0.5901697917 -0.1411137248
1810950000.0 0.4089030503 -0.4160630219
1820900000.0 0.0988257193 -0.5535525978
1830850000.0 -0.2399038275 -0.4951227635
1840800000.0 -0.4850385021 -0.2615754641
1850750000.0 -0.5611869565 0.053009835
1860700000.0 -0.467279964 0.3408446675
1870650000.0 -0.2550433186 0.5284998944
1880600000.0 0.007981794 0.5816942233
1890550000.0 0.2542034952 0.4968482927
1900500000.0 0.4202844791 0.2965773849
1910450000.0 0.4535422808 0.037732761
1920400000.0 0.341239031 -0.1928662266
1930350000.0 0.1330952937 -0.315534512
1940300000.0 -0.08553994 -0.3110162821
1950250000.0 -0.2502086143 -0.2048099266
1960200000.0 -0.3215875788 -0.0522313472
1970150000.0 -0.3027366194 0.0839393931
1980100000.0 -0.2310761989 0.1601285992
1990050000.0 -0.1591525698 0.1664435678
2000000000.0 -0.1387330041 0.1312967763
