!Created with skrf (http://scikit-rf.org).
# GHz S RI R 50.0 
!freq ReS11 ImS11
10000000.0 -0.7490063472 0.6739384501
19950000.0 -0.1154784664 0.9831056638
29900000.0 0.5644238761 0.7990708457
39850000.0 0.9570688931 0.2022482636
49800000.0 0.8428259472 -0.5165016761
59750000.0 0.2537456862 -0.9705579324
69700000.0 -0.499866708 -0.8782330249
79650000.0 -0.968473951 -0.2611549766
89600000.0 -0.8345657785 0.5203766814
99550000.0 -0.1410189502 0.9540769805
109500000.0 0.6680952904 0.6878221914
119450000.0 0.9592917245 -0.1538939729
129400000.0 0.4153446587 -0.8967928204
139350000.0 -0.511769545 -0.8458134182
149300000.0 -0.9659729208 -0.0560362211
159250000.0 -0.5882222414 0.7384946688
169200000.0 0.2429373994 0.9045565081
179150000.0 0.8702402115 0.3756830103
189100000.0 0.8685102922 -0.4208271946
199050000.0 0.2893466927 -0.9278194956
209000000.0 -0.4480629095 -0.8517546673
218950000.0 -0.8954247603 -0.2977199611
228900000.0 -0.8395727723 0.3916978721
238850000.0 -0.3411180315 0.8537317143
248800000.0 0.3310321602 0.8369162256
258750000.0 0.8375336451 0.4215601433
268700000.0 0.9126602198 -0.2493588212
278650000.0 0.5130391659 -0.7882622332
288600000.0 -0.1382569579 -0.9081830881
298550000.0 -0.6898708538 -0.5611508976
308500000.0 -0.8550080532 0.0614418828
318450000.0 -0.5482342856 0.6203098723
328400000.0 0.056397899 0.797806207
338350000.0 0.5874300296 0.4856803588
348300000.0 0.6974310162 -0.0914141344
358250000.0 0.3537903455 -0.5076268904
368200000.0 -0.1231610246 -0.4991241052
378150000.0 -0.3661899906 -0.1733301476
388100000.0 -0.2705743475 0.1464339269
398050000.0 -0.0167620395 0.2295752196
408000000.0 0.1458030322 0.0955086577
417950000.0 0.1171566967 -0.0702441881
427900000.0 -0.018603331 -0.1203259448
437850000.0 -0.1206775724 -0.0380265099
447800000.0 -0.1112187176 0.0867408958
457750000.0 -0.0073399115 0.1535735442
467700000.0 0.1063826799 0.1179045118
477650000.0 0.1535273777 0.0124657023
487600000.0 0.1115646518 -0.0879418882
497550000.0 0.0243512732 -0.1300943112
507500000.0 -0.0622538437 -0.0974946133
517450000.0 -0.0921512997 -0.0304809017
527400000.0 -0.0720035305 0.0226646486
537350000.0 -0.0347404865 0.0364528991
547300000.0 -0.0155647695 0.023021551
557250000.0 -0.0234820147 0.0118007588
567200000.0 -0.0386798193 0.0259441752
577150000.0 -0.0288403007 0.0577932681
587100000.0 0.0196072977 0.0762034792
597050000.0 0.0811991495 0.0504148144
607000000.0 0.112764426 -0.0271179845
616950000.0 0.0817837775 -0.1192040365
626900000.0 -0.0118676087 -0.1704847119
636850000.0 -0.1254492661 -0.1435823544
646800000.0 -0.1957180952 -0.0412321213
656750000.0 -0.1760907753 0.0858525025
666700000.0 -0.0720808693 0.1692061605
676650000.0 0.0637355147 0.1569618638
686600000.0 0.1569014942 0.0561509746
696550000.0 0.1549756738 -0.0802979374
706500000.0 0.0636961151 -0.1735481374
716450000.0 -0.0635159073 -0.1728436387
726400000.0 -0.1460253043 -0.085855602
736350000.0 -0.1330898554 0.0283056163
746300000.0 -0.0379644047 0.0903064842
756250000.0 0.0686272429 0.0552828868
766200000.0 0.1071423053 -0.0524433641
776150000.0 0.0423875554 -0.1542963153
786100000.0 -0.0869894991 -0.1660585718
796050000.0 -0.1881597788 -0.0641835154
806000000.0 -0.1726190782 0.0985746976
815950000.0 -0.0274165712 0.2081082107
825900000.0 0.1749629511 0.1727687584
835850000.0 0.2992153697 -0.0110657988
845800000.0 0.2492686641 -0.2469386796
855750000.0 0.0287079624 -0.3792072131
865700000.0 -0.2180547457 -0.3029148467
875650000.0 -0.3391041863 -0.1040314424
885600000.0 -0.3168382755 0.1580496621
895550000.0 -0.0949125467 0.3472445114
905500000.0 0.2136430256 0.3176432436
915450000.0 0.4132581414 0.0659897404
925400000.0 0.3662199276 -0.2616384647
935350000.0 0.0867827241 -0.453364312
945300000.0 -0.255207873 -0.3684190203
955250000.0 -0.4184377649 -0.0375687538
965200000.0 -0.2507465504 0.3204201235
975150000.0 0.1711927481 0.3967080159
985100000.0 0.4958653844 0.0570455376
995050000.0 0.3640552781 -0.4436963921
1005000000.0 -0.1841671975 -0.6065210649
1014950000.0 -0.6537985135 -0.1867233745
1024900000.0 -0.5411196343 0.4915183615
1034850000.0 0.1358448725 0.7790024653
1044800000.0 0.7629949196 0.3573076521
1054750000.0 0.7742605516 -0.389490043
1064700000.0 0.211888668 -0.8291625998
1074650000.0 -0.4578419869 -0.6893594209
1084600000.0 -0.7948549952 -0.1267813447
1094550000.0 -0.5947117407 0.5082020647
1104500000.0 0.0130790631 0.7593020705
1114450000.0 0.5762629518 0.4597938644
1124400000.0 0.6977243786 -0.134788997
1134350000.0 0.3482720659 -0.5826798331
1144300000.0 -0.1844606649 -0.6214275145
1154250000.0 -0.5553472387 -0.2708803694
1164200000.0 -0.5472923888 0.2217060097
1174150000.0 -0.1813804837 0.53804877
1184100000.0 0.2862864992 0.4723440421
1194050000.0 0.5381889184 0.0895228276
1204000000.0 0.4335251093 -0.3384697126
1213950000.0 0.0672931886 -0.5567279787
1223900000.0 -0.3365341616 -0.4642223261
1233850000.0 -0.5680158072 -0.1246360378
1243800000.0 -0.5069471814 0.2834231238
1253750000.0 -0.1840856301 0.5458455237
1263700000.0 0.2335640905 0.5180905438
1273650000.0 0.5236390872 0.2194413206
1283600000.0 0.5476374944 -0.1905123104
1293550000.0 0.3094523408 -0.5149158128
1303500000.0 -0.0731853882 -0.6175868001
1313450000.0 -0.4368858291 -0.463071137
1323400000.0 -0.6288575811 -0.1133566426
1333350000.0 -0.55812904 0.2850393884
1343300000.0 -0.2441616928 0.5528196117
1353250000.0 0.1732167643 0.5569723861
1363200000.0 0.4952192704 0.2943578516
1373150000.0 0.5781099923 -0.1050199287
1383100000.0 0.400180099 -0.4608137435
1393050000.0 0.0494373775 -0.6304634737
1403000000.0 -0.3255684115 -0.5533256489
1412950000.0 -0.5766253655 -0.2648278192
1422900000.0 -0.5943505396 0.1203062121
1432850000.0 -0.3639826184 0.4336801781
1442800000.0 0.0151120033 0.5298016598
1452750000.0 0.3651965193 0.3612815984
1462700000.0 0.5227657734 0.015595973
1472650000.0 0.4269105835 -0.3402068213
1482600000.0 0.1378635786 -0.5489964455
1492550000.0 -0.2097764965 -0.5269555666
1502500000.0 -0.4594051605 -0.2913742863
1512450000.0 -0.4966653929 0.0492179778
1522400000.0 -0.2996336438 0.3291524166
1532350000.0 0.0313619306 0.4037990688
1542300000.0 0.3223471354 0.2379004355
1552250000.0 0.4196548119 -0.0721782138
1562200000.0 0.2849117012 -0.3569620599
1572150000.0 0.0004935102 -0.4722576059
1582100000.0 -0.2828354018 -0.366793739
1592050000.0 -0.4211669957 -0.0978998626
1602000000.0 -0.3400268341 0.1991529301
1611950000.0 -0.0718339675 0.3635957268
1621900000.0 0.2425212518 0.2963773389
1631850000.0 0.4232573208 0.0267112377
1641800000.0 0.3681007773 -0.294160755
1651750000.0 0.1091710587 -0.4936741272
1661700000.0 -0.2188196935 -0.4715982208
1671650000.0 -0.4580261456 -0.2378423062
1681600000.0 -0.4917949331 0.1046033149
1691550000.0 -0.2918928413 0.3991960119
1701500000.0 0.0629803731 0.4960352784
1711450000.0 0.401556847 0.3318297981
1721400000.0 0.550616914 -0.0175455799
1731350000.0 0.4388353924 -0.3778653771
1741300000.0 0.127748277 -0.5836511861
1751250000.0 -0.2397437105 -0.5546851029
1761200000.0 -0.5151144893 -0.3121902343
1771150000.0 -0.594373455 0.0492368051
1781100000.0 -0.4383500842 0.3915463445
1791050000.0 -0.1002006179 0.5712452296
1801000000.0 0.2835621341 0.499952081
1810950000.0 0.536757311 0.2007586348
1820900000.0 0.5441684169 -0.184710793
1830850000.0 0.3165757419 -0.4831582393
1840800000.0 -0.0336798953 -0.5804126297
1850750000.0 -0.3631943201 -0.4562473834
1860700000.0 -0.554020501 -0.1709524324
1870650000.0 -0.5410675153 0.1681575504
1880600000.0 -0.3301820314 0.4298484045
1890550000.0 -0.0058855386 0.5078992805
1900500000.0 0.2883867784 0.3698777133
1910450000.0 0.4250935899 0.0895305629
1920400000.0 0.3627299474 -0.1984342014
1930350000.0 0.1533476943 -0.3752032672
1940300000.0 -0.0958034337 -0.3891952786
1950250000.0 -0.283314766 -0.2631847847
1960200000.0 -0.3471837676 -0.0736009791
1970150000.0 -0.2878024018 0.0894090381
1980100000.0 -0.166015289 0.1525839497
1990050000.0 -0.0738029093 0.1198470585
2000000000.0 -0.0690907357 0.0630576332
