!Created with skrf (http://scikit-rf.org).
# GHz S RI R 50.0 
!freq ReS11 ImS11
10000000.0 -0.782009848 0.4034536023
19950000.0 -0.5308237582 0.7154927242
29900000.0 -0.1656245086 0.888220738
39850000.0 0.2514796214 0.8771363835
49800000.0 0.6326140786 0.664834346
59750000.0 0.8795229808 0.2780648244
69700000.0 0.9076255575 -0.2036081217
79650000.0 0.6797541919 -0.6552889784
89600000.0 0.2312857396 -0.9330816596
99550000.0 -0.3195276028 -0.9178677326
109500000.0 -0.7868903993 -0.5699359995
119450000.0 -0.9679591565 0.0226709165
129400000.0 -0.7348890196 0.6308532433
139350000.0 -0.1623288298 0.9524844337
149300000.0 0.481369162 0.8216085695
159250000.0 0.8751948479 0.3245257582
169200000.0 0.8799785793 -0.2719108163
179150000.0 0.5603167912 -0.7186913327
189100000.0 0.0822901734 -0.891637722
199050000.0 -0.3849513338 -0.7859273838
209000000.0 -0.7179746293 -0.4683987897
218950000.0 -0.8453547671 -0.0467374383
228900000.0 -0.7607765948 0.3731194522
238850000.0 -0.4994613632 0.696013411
248800000.0 -0.1230705127 0.8498859223
258750000.0 0.2534354019 0.8288010966
268700000.0 0.5846218651 0.6269517425
278650000.0 0.7904561452 0.2949164807
288600000.0 0.8278751044 -0.0986793462
298550000.0 0.6836682733 -0.4705518391
308500000.0 0.380919831 -0.7346200001
318450000.0 -0.0139798713 -0.8200939394
328400000.0 -0.3993681167 -0.6936754015
338350000.0 -0.6597786181 -0.383345275
348300000.0 -0.7073373917 0.0114543545
358250000.0 -0.53225061 0.3458023473
368200000.0 -0.2257983971 0.4994351898
378150000.0 0.0688359224 0.4462209124
388100000.0 0.2405640277 0.2593522427
398050000.0 0.2590502219 0.0538126264
408000000.0 0.1732179651 -0.077810716
417950000.0 0.050772408 -0.1124372461
427900000.0 -0.0367533364 -0.0655588789
437850000.0 -0.062542479 0.0137920114
447800000.0 -0.033618912 0.0813038864
457750000.0 0.0286009235 0.1069614967
467700000.0 0.0894378907 0.085780418
477650000.0 0.1240081766 0.0307761188
487600000.0 0.1200176405 -0.0359408478
497550000.0 0.0828037194 -0.0869074151
507500000.0 0.026939937 -0.1150013848
517450000.0 -0.0361897065 -0.1104672435
527400000.0 -0.073419571 -0.0774432588
537350000.0 -0.0937322022 -0.0336788701
547300000.0 -0.0766103223 0.0022314126
557250000.0 -0.0449274776 0.0200299567
567200000.0 -0.0110304825 0.0117898622
577150000.0 0.0074467498 -0.0152013173
587100000.0 0.0026052956 -0.0460882711
597050000.0 -0.0235738185 -0.0688904265
607000000.0 -0.0624981078 -0.0704856342
616950000.0 -0.0989250274 -0.0443473453
626900000.0 -0.1170885594 0.0036452388
636850000.0 -0.1089363312 0.0614649214
646800000.0 -0.0702454413 0.1122549385
656750000.0 -0.0080877354 0.1401273027
666700000.0 0.0622184884 0.1354799847
676650000.0 0.1249910911 0.0946836506
686600000.0 0.162463451 0.025829587
696550000.0 0.1630962648 -0.0555448767
706500000.0 0.1238896635 -0.1282654429
716450000.0 0.0541030857 -0.1726723543
726400000.0 -0.0288970267 -0.1754665286
736350000.0 -0.1008904471 -0.1338033411
746300000.0 -0.1392657852 -0.0586208695
756250000.0 -0.132361365 0.0288414538
766200000.0 -0.0755276251 0.0995745521
776150000.0 0.0144290593 0.1290497887
786100000.0 0.1083337021 0.1056489729
796050000.0 0.1780347342 0.0300793632
806000000.0 0.1961821627 -0.0736062691
815950000.0 0.1506753131 -0.1745584401
825900000.0 0.0507636304 -0.2365583182
835850000.0 -0.0785790238 -0.2340538658
845800000.0 -0.1978238346 -0.1563640967
855750000.0 -0.2658455127 -0.0173376363
865700000.0 -0.254126965 0.1475058186
875650000.0 -0.1605451387 0.2929816105
885600000.0 -0.0035031062 0.3745919449
895550000.0 0.1767783953 0.3652961261
905500000.0 0.3336065107 0.2644624115
915450000.0 0.4216963469 0.0874145496
925400000.0 0.4103802187 -0.1240723136
935350000.0 0.2876068415 -0.3140250942
945300000.0 0.0687731821 -0.42104769
955250000.0 -0.1926605723 -0.3900924094
965200000.0 -0.4085803111 -0.2029082098
975150000.0 -0.4770603948 0.0975405952
985100000.0 -0.3399560372 0.4013329948
995050000.0 -0.020689288 0.5641774028
1005000000.0 0.3577858017 0.4757126603
1014950000.0 0.6064881807 0.1296429453
1024900000.0 0.5604029902 -0.333106972
1034850000.0 0.1973757678 -0.6649432774
1044800000.0 -0.3044949563 -0.660268158
1054750000.0 -0.6766380668 -0.314770033
1064700000.0 -0.7351505912 0.1807846672
1074650000.0 -0.5258916284 0.5808703657
1084600000.0 -0.1157266914 0.7997830194
1094550000.0 0.3317525205 0.7320773755
1104500000.0 0.6580684192 0.420803271
1114450000.0 0.7467871715 -0.0237578082
1124400000.0 0.5655862398 -0.4354606096
1134350000.0 0.1921748974 -0.6596710094
1144300000.0 -0.2189670331 -0.6266816294
1154250000.0 -0.5158855274 -0.383026866
1164200000.0 -0.622706021 -0.0460991623
1174150000.0 -0.5491867023 0.2716082539
1184100000.0 -0.3365932468 0.496638634
1194050000.0 -0.0496743277 0.5764012913
1204000000.0 0.2309625172 0.4998669981
1213950000.0 0.4333316953 0.2939960394
1223900000.0 0.5064397775 0.0172835325
1233850000.0 0.4365902089 -0.2533591573
1243800000.0 0.2522601628 -0.4492975523
1253750000.0 0.0094326755 -0.5313550206
1263700000.0 -0.2310480883 -0.4947518922
1273650000.0 -0.4205682224 -0.3620823981
1283600000.0 -0.53131884 -0.1688805599
1293550000.0 -0.5546502638 0.0478700709
1303500000.0 -0.4952347039 0.2530774549
1313450000.0 -0.3671839294 0.4217654033
1323400000.0 -0.1807778301 0.528863568
1333350000.0 0.0408754672 0.5511456319
1343300000.0 0.2625615167 0.4755916588
1353250000.0 0.4398778897 0.3077565186
1363200000.0 0.5347333744 0.078100702
1373150000.0 0.5290010912 -0.1689695571
1383100000.0 0.4281398608 -0.3885073948
1393050000.0 0.255991242 -0.5459304908
1403000000.0 0.0532624851 -0.6267477977
1412950000.0 -0.1655924222 -0.6165193373
1422900000.0 -0.3594674014 -0.5235265999
1432850000.0 -0.5005158512 -0.3615951753
1442800000.0 -0.5686089289 -0.1532376733
1452750000.0 -0.5515528427 0.0724495764
1462700000.0 -0.4454294175 0.2814498972
1472650000.0 -0.2614829298 0.4352596185
1482600000.0 -0.0286452348 0.5010568236
1492550000.0 0.2079688758 0.4633609073
1502500000.0 0.4017633705 0.3319150254
1512450000.0 0.5166534116 0.1369222275
1522400000.0 0.537802377 -0.0803832967
1532350000.0 0.4658001604 -0.2794456783
1542300000.0 0.318451378 -0.4254279571
1552250000.0 0.1223824735 -0.4912323351
1562200000.0 -0.0840669523 -0.4637100259
1572150000.0 -0.2604850548 -0.3439593579
1582100000.0 -0.365666708 -0.1536621166
1592050000.0 -0.3727712204 0.0654449193
1602000000.0 -0.2804061187 0.2604900314
1611950000.0 -0.1074835455 0.3863040714
1621900000.0 0.0996806309 0.4132223232
1631850000.0 0.2898431682 0.3417964849
1641800000.0 0.4249664581 0.1923316641
1651750000.0 0.4781183464 -0.0001937843
1661700000.0 0.4411597906 -0.1985900826
1671650000.0 0.3190034519 -0.3619468804
1681600000.0 0.1353705191 -0.4577206518
1691550000.0 -0.0764705491 -0.464959891
1701500000.0 -0.2731181555 -0.3766351576
1711450000.0 -0.4147844689 -0.2088557167
1721400000.0 -0.4763278825 0.0051036604
1731350000.0 -0.4493877618 0.2250512543
1741300000.0 -0.3412263084 0.4136194512
1751250000.0 -0.1723582841 0.5419686551
1761200000.0 0.0296519532 0.5929490813
1771150000.0 0.2339126972 0.562502493
1781100000.0 0.4111486243 0.4571902558
1791050000.0 0.5375525163 0.2923939839
1801000000.0 0.5945376562 0.0881143992
1810950000.0 0.5711893515 -0.1281532713
1820900000.0 0.4675970228 -0.3247093334
1830850000.0 0.2973377024 -0.4703181275
1840800000.0 0.0872781603 -0.5407854106
1850750000.0 -0.1295419866 -0.5258004976
1860700000.0 -0.3210373912 -0.429878789
1870650000.0 -0.460849595 -0.2706308193
1880600000.0 -0.5320324476 -0.0754789777
1890550000.0 -0.528814297 0.1253107208
1900500000.0 -0.458207016 0.3033335098
1910450000.0 -0.3354269183 0.4377732016
1920400000.0 -0.1810895979 0.5155586518
1930350000.0 -0.0171492638 0.5308659909
1940300000.0 0.1338705891 0.4855543083
1950250000.0 0.2506511555 0.3896260994
1960200000.0 0.3164145331 0.2596808703
1970150000.0 0.3226436785 0.1215881539
1980100000.0 0.2754514657 0.0018766782
1990050000.0 0.1933731507 -0.0779245491
2000000000.0 0.1042280246 -0.1087158643
