!Created with skrf (http://scikit-rf.org).
# GHz S RI R 50.0 
!freq ReS11 ImS11
10000000.0 -1.000908064 0.1585898843
19950000.0 -0.9478539056 0.3037579525
29900000.0 -0.8732930235 0.4432927955
39850000.0 -0.7769877581 0.5822070197
49800000.0 -0.6599865463 0.7150868419
59750000.0 -0.5174356297 0.8356998053
69700000.0 -0.341062525 0.9324454716
79650000.0 -0.126117884 0.9862020308
89600000.0 0.1267634241 0.9784089044
99550000.0 0.4037270235 0.8873127062
109500000.0 0.6792952504 0.6966337081
119450000.0 0.9059505778 0.3926213291
129400000.0 1.010849117 -0.0076973669
139350000.0 0.9303418793 -0.4291863491
149300000.0 0.6688606288 -0.7660245653
159250000.0 0.3096595679 -0.9472682974
169200000.0 -0.0540353379 -0.9806228792
179150000.0 -0.367202387 -0.9087176558
189100000.0 -0.6115924468 -0.7732589588
199050000.0 -0.7826443448 -0.6038414474
209000000.0 -0.8841686643 -0.4191651022
218950000.0 -0.9334819812 -0.2351842007
228900000.0 -0.9429676233 -0.0586234983
238850000.0 -0.9258087736 0.1088240259
248800000.0 -0.8840528352 0.2510453638
258750000.0 -0.8400931855 0.4085217098
268700000.0 -0.7688203874 0.54010243
278650000.0 -0.6741882358 0.6514876913
288600000.0 -0.5545716573 0.7387966824
298550000.0 -0.4121926621 0.799578256
308500000.0 -0.2513975793 0.8348829494
318450000.0 -0.0761877114 0.8401786885
328400000.0 0.106624714 0.8084042096
338350000.0 0.2798976179 0.7274206649
348300000.0 0.419857658 0.5900913676
358250000.0 0.4971412409 0.4053995633
368200000.0 0.4946525236 0.2040851248
378150000.0 0.4201785079 0.0260261074
388100000.0 0.3011908924 -0.1004857739
398050000.0 0.1702638362 -0.164658531
408000000.0 0.0545462884 -0.1721022634
417950000.0 -0.0330369885 -0.1382466429
427900000.0 -0.0902305623 -0.0812192732
437850000.0 -0.122061043 -0.0166980588
447800000.0 -0.1342367722 0.0432403932
457750000.0 -0.132367147 0.091092864
467700000.0 -0.1192074364 0.12256537
477650000.0 -0.0973066876 0.1368833574
487600000.0 -0.0688877469 0.1362363162
497550000.0 -0.0385068358 0.1284706743
507500000.0 -0.0062024167 0.1110070973
517450000.0 0.0184161408 0.0915541638
527400000.0 0.0328505882 0.0721581077
537350000.0 0.0333968884 0.0528950559
547300000.0 0.0221765585 0.0348319724
557250000.0 -0.0003342625 0.0161589409
567200000.0 -0.0289439093 -0.0011979551
577150000.0 -0.0586669867 -0.0145759702
587100000.0 -0.084936229 -0.0216971744
597050000.0 -0.105333473 -0.0195965933
607000000.0 -0.1194499413 -0.0067027369
616950000.0 -0.1289223074 0.0158545362
626900000.0 -0.1345906593 0.0464499231
636850000.0 -0.1371002641 0.0797480488
646800000.0 -0.1359110705 0.1114604922
656750000.0 -0.1294080075 0.1379079693
666700000.0 -0.115479116 0.1560364172
676650000.0 -0.0917035115 0.1657648962
686600000.0 -0.0589736155 0.1684416633
696550000.0 -0.0194315356 0.1656646143
706500000.0 0.0228409793 0.1570672981
716450000.0 0.0634167438 0.1446205401
726400000.0 0.0971036039 0.1240420729
736350000.0 0.1198436836 0.094099238
746300000.0 0.1298753586 0.0536119122
756250000.0 0.1276889707 0.0021919766
766200000.0 0.1132086092 -0.0554976278
776150000.0 0.0893623304 -0.1146478588
786100000.0 0.05541008 -0.1681918377
796050000.0 0.0117799992 -0.2091967325
806000000.0 -0.040452945 -0.2320902389
815950000.0 -0.102042814 -0.2342596938
825900000.0 -0.1699090623 -0.2164605164
835850000.0 -0.2402456413 -0.1814960282
845800000.0 -0.3066215562 -0.1333147221
855750000.0 -0.3629969365 -0.0744732613
865700000.0 -0.4019985895 -0.0060783129
875650000.0 -0.4152826683 0.0719282248
885600000.0 -0.3962513482 0.1586653959
895550000.0 -0.3337830598 0.2461080224
905500000.0 -0.2383682823 0.2889201236
915450000.0 -0.2089739612 0.3071902248
925400000.0 -0.1602277198 0.3788310434
935350000.0 -0.070328643 0.43925923
945300000.0 0.0445963579 0.4629607889
955250000.0 0.176094063 0.439362974
965200000.0 0.3136289777 0.3593568558
975150000.0 0.440770191 0.2188068131
985100000.0 0.5291113375 0.0182316773
995050000.0 0.5431142563 -0.2263759347
1005000000.0 0.4476026449 -0.4812242292
1014950000.0 0.2219412474 -0.6829375814
1024900000.0 -0.0978353075 -0.7606138801
1034850000.0 -0.4355499728 -0.6864015086
1044800000.0 -0.7114732956 -0.4781724575
1054750000.0 -0.8714846588 -0.1863225326
1064700000.0 -0.8896500493 0.1293120254
1074650000.0 -0.750850811 0.3997261026
1084600000.0 -0.6411227245 0.5127595155
1094550000.0 -0.4429965994 0.7104106388
1104500000.0 -0.1911393552 0.8008594375
1114450000.0 0.0632262085 0.8097812881
1124400000.0 0.295821672 0.7406361268
1134350000.0 0.4813317721 0.6036970272
1144300000.0 0.6049710622 0.4182615578
1154250000.0 0.6641291941 0.2124334836
1164200000.0 0.6688965754 0.0099623611
1174150000.0 0.6355087459 -0.1736239426
1184100000.0 0.5671213751 -0.3352047834
1194050000.0 0.4682442466 -0.4630976183
1204000000.0 0.3469027497 -0.5506337865
1213950000.0 0.21378587 -0.599746972
1223900000.0 0.0793710902 -0.6182510511
1233850000.0 -0.0492233303 -0.6162796526
1243800000.0 -0.1677661306 -0.600063848
1253750000.0 -0.2731665123 -0.5729538454
1263700000.0 -0.362937497 -0.5340135073
1273650000.0 -0.4369951688 -0.4836023621
1283600000.0 -0.494114132 -0.4209739726
1293550000.0 -0.5377087457 -0.3479468505
1303500000.0 -0.5723069381 -0.2693365268
1313450000.0 -0.601248333 -0.1892166509
1323400000.0 -0.6270544867 -0.1116771857
1333350000.0 -0.6477161706 -0.0382836528
1343300000.0 -0.6604333307 0.0312861563
1353250000.0 -0.6613952701 0.0955555086
1363200000.0 -0.6474110103 0.1572284279
1373150000.0 -0.6183772696 0.2180516694
1383100000.0 -0.5792599592 0.278610909
1393050000.0 -0.5344322857 0.3394442828
1403000000.0 -0.4884903249 0.3990194283
1412950000.0 -0.4421917817 0.4549238137
1422900000.0 -0.3949875365 0.5041599678
1432850000.0 -0.3442630197 0.5431575609
1442800000.0 -0.2875549391 0.5702782789
1452750000.0 -0.2229356151 0.5852634288
1462700000.0 -0.1495855538 0.5901367176
1472650000.0 -0.0697992976 0.588676787
1482600000.0 0.013065648 0.5827975055
1492550000.0 0.0952565203 0.5723948615
1502500000.0 0.1736814596 0.5543583228
1512450000.0 0.2459052499 0.5248141565
1522400000.0 0.308912269 0.4804738882
1532350000.0 0.3626977691 0.4195718672
1542300000.0 0.4080771344 0.3441374262
1552250000.0 0.4466837469 0.2578160229
1562200000.0 0.4791809621 0.1657360947
1572150000.0 0.5022307442 0.0717759894
1582100000.0 0.5118276207 -0.0219945593
1592050000.0 0.5043285127 -0.1122524255
1602000000.0 0.4760789475 -0.1979174707
1611950000.0 0.4279832745 -0.2763390375
1621900000.0 0.3638916325 -0.3487743143
1631850000.0 0.2899251897 -0.4145629133
1641800000.0 0.2109286709 -0.472951439
1651750000.0 0.1299987989 -0.5210613947
1661700000.0 0.0492754934 -0.5549190291
1671650000.0 -0.0301510574 -0.5711861649
1681600000.0 -0.1079496755 -0.5683247504
1691550000.0 -0.1842186112 -0.5500121375
1701500000.0 -0.2597190152 -0.5202014395
1711450000.0 -0.3327375928 -0.4846772245
1721400000.0 -0.4021455384 -0.4468804569
1731350000.0 -0.4654676866 -0.4092341757
1741300000.0 -0.5189417879 -0.3695706698
1751250000.0 -0.5597519972 -0.3244820992
1761200000.0 -0.5864527477 -0.2734307966
1771150000.0 -0.6010721873 -0.215518847
1781100000.0 -0.6091644343 -0.1529404421
1791050000.0 -0.6144662592 -0.088919197
1801000000.0 -0.6203137404 -0.0268422329
1810950000.0 -0.6273692268 0.0322695132
1820900000.0 -0.6328550523 0.0863379532
1830850000.0 -0.631605458 0.1343156357
1840800000.0 -0.618507445 0.1780045468
1850750000.0 -0.5924817569 0.217741314
1860700000.0 -0.5539502812 0.2546143999
1870650000.0 -0.5090619757 0.2908643047
1880600000.0 -0.4629573439 0.3242973252
1890550000.0 -0.4199482896 0.3551828595
1900500000.0 -0.3817263589 0.380897357
1910450000.0 -0.3472125626 0.397040963
1920400000.0 -0.3124985392 0.4028256361
1930350000.0 -0.2763779498 0.3967007798
1940300000.0 -0.2356789737 0.3803433308
1950250000.0 -0.1886745091 0.3557725671
1960200000.0 -0.1395703193 0.3255665136
1970150000.0 -0.095441563 0.2891743839
1980100000.0 -0.0619998651 0.2476911811
1990050000.0 -0.0441281077 0.1972839906
2000000000.0 -0.0474962679 0.1348319317
