!Created with skrf (http://scikit-rf.org).
# GHz S RI R 50.0 
!freq ReS11 ImS11
10000000.0 -0.9999440227 0.160603913
19950000.0 -0.9460747541 0.3066634767
29900000.0 -0.8704087595 0.4469963293
39850000.0 -0.7726278222 0.5863725101
49800000.0 -0.6540176893 0.7193754446
59750000.0 -0.5093163054 0.8396374468
69700000.0 -0.3301888959 0.9352854152
79650000.0 -0.1124498034 0.9868192592
89600000.0 0.1429358127 0.9752595001
99550000.0 0.4213914888 0.8786842778
109500000.0 0.6958345622 0.6807542613
119450000.0 0.9168821627 0.3686203619
129400000.0 1.010753053 -0.0389709294
139350000.0 0.9180951051 -0.4548599876
149300000.0 0.6478130501 -0.7832198808
159250000.0 0.2866915855 -0.9529130504
169200000.0 -0.0738400679 -0.9781300634
179150000.0 -0.3822198939 -0.9012040279
189100000.0 -0.6210118874 -0.7633686664
199050000.0 -0.7875100382 -0.5935632417
209000000.0 -0.8857763777 -0.4101107117
218950000.0 -0.9328730696 -0.227400285
228900000.0 -0.9410610013 -0.0527042344
238850000.0 -0.9233341067 0.1127823101
248800000.0 -0.8717607948 0.2542166287
258750000.0 -0.8376954387 0.4085744925
268700000.0 -0.7672036713 0.5380899782
278650000.0 -0.6738301064 0.6483677733
288600000.0 -0.5557990896 0.7357895303
298550000.0 -0.4155276405 0.7968065348
308500000.0 -0.2568199957 0.8328392371
318450000.0 -0.083920516 0.8399947174
328400000.0 0.0971465306 0.8108922885
338350000.0 0.2698563679 0.7336196133
348300000.0 0.4112504846 0.6001871462
358250000.0 0.4915117218 0.4186944476
368200000.0 0.4941411982 0.2190106355
378150000.0 0.4248223806 0.0402642364
388100000.0 0.3101885356 -0.0894704189
398050000.0 0.1812875524 -0.1574516182
408000000.0 0.0656606262 -0.1679133994
417950000.0 -0.0225227219 -0.1360067689
427900000.0 -0.080554814 -0.0806625761
437850000.0 -0.1134925371 -0.0179316689
447800000.0 -0.1272458584 0.0405658573
457750000.0 -0.1261816309 0.087004422
467700000.0 -0.1138313273 0.1170714414
477650000.0 -0.0929152979 0.1299880963
487600000.0 -0.0656791953 0.1288527701
497550000.0 -0.0384374271 0.1162162845
507500000.0 -0.0055167175 0.1048409357
517450000.0 0.0180092719 0.085298708
527400000.0 0.0313472026 0.0659906489
537350000.0 0.031099682 0.0468700385
547300000.0 0.0186139807 0.0278620225
557250000.0 -0.0050393735 0.0086284807
567200000.0 -0.0346880668 -0.0089799711
577150000.0 -0.0654906588 -0.0223723172
587100000.0 -0.0930116119 -0.0292625527
597050000.0 -0.1147013676 -0.0267204904
607000000.0 -0.1301490681 -0.0132974177
616950000.0 -0.1407584367 0.0102980957
626900000.0 -0.147959707 0.0417180675
636850000.0 -0.1517115322 0.0758651864
646800000.0 -0.1517045626 0.1089335416
656750000.0 -0.1463368607 0.1366896571
666700000.0 -0.1329240973 0.1567131975
676650000.0 -0.1101194705 0.1686254474
686600000.0 -0.0784937305 0.1718110531
696550000.0 -0.0397345779 0.1662911761
706500000.0 0.0017664317 0.1622502824
716450000.0 0.0421080218 0.153092416
726400000.0 0.075894165 0.1360082517
736350000.0 0.0995497603 0.1091214184
746300000.0 0.1108913589 0.071167326
756250000.0 0.1108040001 0.0221551448
766200000.0 0.0988945626 -0.0338421622
776150000.0 0.0776551441 -0.091717156
786100000.0 0.0467201131 -0.1448241255
796050000.0 0.0060855371 -0.1864024402
806000000.0 -0.0426508567 -0.2110091374
815950000.0 -0.1017852222 -0.2153960046
825900000.0 -0.1675902984 -0.200849309
835850000.0 -0.2363260858 -0.1701953031
845800000.0 -0.3022142241 -0.127479151
855750000.0 -0.3592642883 -0.0752272328
865700000.0 -0.4004387829 -0.0145636612
875650000.0 -0.4215216044 0.0528005175
885600000.0 -0.4188250491 0.1269691411
895550000.0 -0.3938984046 0.2062988545
905500000.0 -0.3488041123 0.2886518573
915450000.0 -0.2877107488 0.368982514
925400000.0 -0.2112565515 0.4403080097
935350000.0 -0.1199635891 0.4943209092
945300000.0 -0.0144423737 0.5219866913
955250000.0 0.1044363768 0.5149939116
965200000.0 0.232958225 0.4666745694
975150000.0 0.3637797236 0.3741449626
985100000.0 0.4820519874 0.2340114102
995050000.0 0.5656371619 0.0466591568
1005000000.0 0.5820822396 -0.1782346579
1014950000.0 0.5017258447 -0.4129146148
1024900000.0 0.3085128202 -0.6152681639
1034850000.0 0.0175073766 -0.7291630027
1044800000.0 -0.3162203778 -0.7134214644
1054750000.0 -0.6207773293 -0.5580209407
1064700000.0 -0.8235904752 -0.2914267865
1074650000.0 -0.8890587375 0.0198174556
1084600000.0 -0.8206081955 0.3184347956
1094550000.0 -0.654483102 0.5623036099
1104500000.0 -0.4208480845 0.7354508186
1114450000.0 -0.1565438431 0.8226529129
1124400000.0 0.1109805803 0.8178380623
1134350000.0 0.3472604641 0.7221591207
1144300000.0 0.5257517232 0.5527600613
1154250000.0 0.6324070537 0.3419065775
1164200000.0 0.670837383 0.1213222145
1174150000.0 0.6549545493 -0.0821418954
1184100000.0 0.6000517246 -0.261047021
1194050000.0 0.5073311334 -0.4077451695
1204000000.0 0.3856893178 -0.5113891455
1213950000.0 0.2475924575 -0.5722767392
1223900000.0 0.1061341378 -0.5985700544
1233850000.0 -0.0303021376 -0.6007590962
1243800000.0 -0.1546141945 -0.5853719773
1253750000.0 -0.2645025986 -0.5569398124
1263700000.0 -0.3574379875 -0.5158788765
1273650000.0 -0.4332105836 -0.4625281012
1283600000.0 -0.4905488475 -0.3971011819
1293550000.0 -0.5335094805 -0.3218405677
1303500000.0 -0.5672293624 -0.2408108415
1313450000.0 -0.5942450478 -0.1590841596
1323400000.0 -0.6180835082 -0.0799611512
1333350000.0 -0.6366732484 -0.0046930639
1343300000.0 -0.646181769 0.066841136
1353250000.0 -0.6438728652 0.1328632845
1363200000.0 -0.6264701138 0.1959402994
1373150000.0 -0.593631945 0.257270339
1383100000.0 -0.5507116705 0.3174750916
1393050000.0 -0.5019169771 0.3771805232
1403000000.0 -0.4517521895 0.4346483695
1412950000.0 -0.4010857404 0.4877338734
1422900000.0 -0.3494716206 0.5329265563
1432850000.0 -0.2954676096 0.5669363945
1442800000.0 -0.2363103446 0.5886046907
1452750000.0 -0.1699606841 0.5977640254
1462700000.0 -0.0966270173 0.5980423508
1472650000.0 -0.0169193252 0.5924999102
1482600000.0 0.0653343434 0.5831883903
1492550000.0 0.1467383659 0.5686046215
1502500000.0 0.2242105809 0.5467344713
1512450000.0 0.2948465302 0.5125930073
1522400000.0 0.3563646936 0.4631635299
1532350000.0 0.4073655957 0.395527956
1542300000.0 0.448456219 0.3126909998
1552250000.0 0.4799485188 0.2201729672
1562200000.0 0.5035233973 0.1252356569
1572150000.0 0.5199145942 0.0332223544
1582100000.0 0.5264242764 -0.0586120672
1592050000.0 0.5145963742 -0.1479334078
1602000000.0 0.4813962282 -0.231155175
1611950000.0 0.4286904698 -0.3058551561
1621900000.0 0.3607660153 -0.3738040264
1631850000.0 0.2843891096 -0.4362890464
1641800000.0 0.2034288729 -0.4923785478
1651750000.0 0.1205911228 -0.5390132398
1661700000.0 0.0386319348 -0.5721383069
1671650000.0 -0.0422973949 -0.5871106381
1681600000.0 -0.1216308337 -0.5826376334
1691550000.0 -0.1991551307 -0.5615329085
1701500000.0 -0.2753105064 -0.5288502634
1711450000.0 -0.3489006304 -0.4900758503
1721400000.0 -0.4187677958 -0.4487641253
1731350000.0 -0.4813137005 -0.4075609783
1741300000.0 -0.5341899721 -0.3643271757
1751250000.0 -0.5739473866 -0.317029644
1761200000.0 -0.5995749721 -0.2640203333
1771150000.0 -0.6130922331 -0.2054092328
1781100000.0 -0.6204958229 -0.1425685277
1791050000.0 -0.6245434107 -0.0790700261
1801000000.0 -0.6295117585 -0.0176226825
1810950000.0 -0.6364142587 0.0402093528
1820900000.0 -0.6416277258 0.0940805612
1830850000.0 -0.6407432241 0.1419156233
1840800000.0 -0.6278939542 0.1856476693
1850750000.0 -0.6029479522 0.2259503141
1860700000.0 -0.5659414674 0.2637925847
1870650000.0 -0.5225987252 0.3007849614
1880600000.0 -0.4785011522 0.3343636204
1890550000.0 -0.4402881437 0.3688989962
1900500000.0 -0.4048598994 0.3971533517
1910450000.0 -0.372009416 0.4174265605
1920400000.0 -0.3395119473 0.4280146687
1930350000.0 -0.3030421271 0.4274651359
1940300000.0 -0.2619503948 0.4167744357
1950250000.0 -0.2159057122 0.398221412
1960200000.0 -0.1673523909 0.3758330071
1970150000.0 -0.1224499145 0.3505109393
1980100000.0 -0.0851818843 0.323198692
1990050000.0 -0.0596561424 0.2914098279
2000000000.0 -0.0484342574 0.25110824
