!Created with skrf (http://scikit-rf.org).
# GHz S RI R 50.0 
!freq ReS11 ImS11
10000000.0 -0.7417246542 0.0553063621
14975000.0 -0.7477544514 0.0859961193
19950000.0 -0.7545735151 0.1195758274
24925000.0 -0.7600647151 0.156511938
29900000.0 -0.7635782357 0.1959959657
34875000.0 -0.7626771735 0.2382009429
39850000.0 -0.7569973864 0.28275996
44825000.0 -0.7461603421 0.3288998402
49800000.0 -0.7305390796 0.3764541294
54775000.0 -0.7099444191 0.4246465629
59750000.0 -0.684835304 0.4732916209
64725000.0 -0.6556082125 0.5222156229
69700000.0 -0.6222690626 0.5711459696
74675000.0 -0.5850845816 0.6203178139
79650000.0 -0.5438664897 0.669815526
84625000.0 -0.4981360773 0.7198790586
89600000.0 -0.4464989701 0.7703445149
94575000.0 -0.3873896143 0.8207300765
99550000.0 -0.3186021808 0.8693584709
104525000.0 -0.2378980786 0.9137704652
109500000.0 -0.1441504336 0.9493087282
114475000.0 -0.0378408933 0.9728151293
119450000.0 0.0784475429 0.9801019111
124425000.0 0.2020855754 0.9686030333
129400000.0 0.3375144762 0.9121994537
134375000.0 0.4446847783 0.882784249
139350000.0 0.5591102769 0.8077622237
144325000.0 0.6606641068 0.7143177504
149300000.0 0.7465968464 0.6052529811
154275000.0 0.8140874319 0.4853107192
159250000.0 0.8599846398 0.3592084978
164225000.0 0.8842604233 0.2324148959
169200000.0 0.8869129219 0.1098698249
174175000.0 0.8701817454 -0.0033639415
179150000.0 0.8417593603 -0.1068808194
184125000.0 0.8048461352 -0.1957850505
189100000.0 0.7636261012 -0.2765846636
194075000.0 0.7217553663 -0.3449969183
199050000.0 0.6804789713 -0.4073507292
204025000.0 0.6398990097 -0.4608249949
209000000.0 0.5991506281 -0.5223201515
213975000.0 0.5565681068 -0.5703170038
218950000.0 0.5122303756 -0.6144035284
223925000.0 0.4658446182 -0.6544791345
228900000.0 0.4168943211 -0.6904302866
233875000.0 0.3653529166 -0.7216081266
238850000.0 0.3101843649 -0.7482515559
243825000.0 0.2460012595 -0.7703585717
248800000.0 0.084823424 -0.630027957
253775000.0 0.194793649 -0.7791934973
258750000.0 0.1323390601 -0.7933483962
263725000.0 0.0804799836 -0.7990512854
268700000.0 0.0328485306 -0.8012746116
273675000.0 -0.0118909525 -0.8009919461
278650000.0 -0.054364948 -0.7990892294
283625000.0 -0.0957923766 -0.7961079499
288600000.0 -0.1369045713 -0.7926260757
293575000.0 -0.1788153731 -0.7876164209
298550000.0 -0.2226456448 -0.7805819143
303525000.0 -0.2683123017 -0.7702440832
308500000.0 -0.3156169974 -0.7549188221
313475000.0 -0.3638769109 -0.7335288859
318450000.0 -0.4115409169 -0.7052779355
323425000.0 -0.4577377366 -0.6697464432
328400000.0 -0.5012451633 -0.6276176416
333375000.0 -0.5399592147 -0.5787328995
338350000.0 -0.573415573 -0.5230838044
343325000.0 -0.6009981067 -0.4626935401
348300000.0 -0.6204613386 -0.3979161118
353275000.0 -0.6306626376 -0.3296847787
358250000.0 -0.6324036225 -0.2605262599
363225000.0 -0.6239278798 -0.1931568416
368200000.0 -0.6049321365 -0.1277986589
373175000.0 -0.5780225044 -0.0669539793
378150000.0 -0.5443289723 -0.0140496384
383125000.0 -0.5038412864 0.0312905552
388100000.0 -0.4588307336 0.069637556
393075000.0 -0.4120889735 0.0985703165
398050000.0 -0.3639403053 0.1192545933
403025000.0 -0.3159451724 0.1342930826
408000000.0 -0.27026201 0.1425553811
412975000.0 -0.2272228968 0.1427558051
417950000.0 -0.1863912135 0.1388755259
422925000.0 -0.1494388536 0.1323413738
427900000.0 -0.1168382578 0.1213122657
432875000.0 -0.0880277071 0.1075212135
437850000.0 -0.0641731204 0.0930675095
442825000.0 -0.0448722133 0.0766643491
447800000.0 -0.0284794637 0.0587749122
452775000.0 -0.0161200158 0.0410597995
457750000.0 -0.0071616547 0.0237062298
462725000.0 0.0001980459 0.0068033396
467700000.0 0.0047938071 -0.0090106785
472675000.0 0.0065238572 -0.0236008335
477650000.0 0.0069108488 -0.0366094206
482625000.0 0.0052933734 -0.0487431844
487600000.0 -0.000293316 -0.0602964813
492575000.0 -0.0195805592 -0.0674410989
497550000.0 0.0172712501 -0.0077467633
502525000.0 0.0203690406 -0.0602864001
507500000.0 0.0126473763 -0.0724339124
512475000.0 0.0061325865 -0.0775869448
517450000.0 -0.0001227065 -0.0808319459
522425000.0 -0.0058021946 -0.0829447182
527400000.0 -0.0121506972 -0.0836183927
532375000.0 -0.0188375936 -0.0834039106
537350000.0 -0.0249588926 -0.0826416796
542325000.0 -0.0324251522 -0.081987284
547300000.0 -0.0407990256 -0.0782582585
552275000.0 -0.0462180758 -0.0722275778
557250000.0 -0.0500365872 -0.0663732307
562225000.0 -0.0535672639 -0.0606989212
567200000.0 -0.0563895633 -0.0535903443
572175000.0 -0.0587701672 -0.0449551312
577150000.0 -0.0607118011 -0.0358602734
582125000.0 -0.0618054797 -0.0262819568
587100000.0 -0.0623541371 -0.0153649382
592075000.0 -0.0620642862 -0.0045309351
597050000.0 -0.0604554861 0.0069225679
602025000.0 -0.0583561967 0.0186329689
607000000.0 -0.0557676411 0.0299647614
611975000.0 -0.0517279873 0.0409531779
616950000.0 -0.0472584878 0.0512759104
621925000.0 -0.0423229032 0.0602345282
626900000.0 -0.035879555 0.06840525
631875000.0 -0.0288349742 0.0759267871
636850000.0 -0.0209510534 0.0823789204
641825000.0 -0.0125889421 0.0875392536
646800000.0 -0.0041187751 0.0925645974
651775000.0 0.0048403632 0.0967414273
656750000.0 0.0142911991 0.1009116317
661725000.0 0.0231517861 0.1051598684
666700000.0 0.0316412465 0.1090447371
671675000.0 0.0408982173 0.1125377544
676650000.0 0.0504369492 0.1161364556
681625000.0 0.0604075476 0.1192833549
686600000.0 0.0708704885 0.122402138
691575000.0 0.0815882528 0.1250346168
696550000.0 0.0921794474 0.1259727247
701525000.0 0.1031400611 0.1252273973
706500000.0 0.1147479092 0.1233885352
711475000.0 0.126355751 0.1197127485
716450000.0 0.1381617815 0.1142993432
721425000.0 0.1501830405 0.1078294228
726400000.0 0.1616771774 0.0997063247
731375000.0 0.173141858 0.0900971204
736350000.0 0.1844710354 0.0792677766
741325000.0 0.1947320494 0.0674598805
746300000.0 0.2041386112 0.0547803645
751275000.0 0.2126684708 0.0407159367
756250000.0 0.2197414763 0.0258366326
761225000.0 0.2254181338 0.0101492727
766200000.0 0.2299752346 -0.0057883586
771175000.0 0.2319523477 -0.0221548003
776150000.0 0.2321317567 -0.0392158564
781125000.0 0.2304929805 -0.0570989124
786100000.0 0.2269486993 -0.0752337848
791075000.0 0.2219168906 -0.0935949957
796050000.0 0.2151252185 -0.1118819592
801025000.0 0.206660269 -0.1302057686
806000000.0 0.1966319473 -0.1482642133
810975000.0 0.1852640666 -0.165730265
815950000.0 0.1726121023 -0.1821587022
820925000.0 0.1587819887 -0.1978350378
825900000.0 0.1445103425 -0.2122518595
830875000.0 0.1295799208 -0.2248501528
835850000.0 0.1138374668 -0.2361038311
840825000.0 0.0979844332 -0.2463602378
845800000.0 0.0818266778 -0.2550867566
850775000.0 0.0652843519 -0.2629990164
855750000.0 0.0481041323 -0.2707835041
860725000.0 0.0299397822 -0.2779446205
865700000.0 0.0103921342 -0.2846215443
870675000.0 -0.0103464992 -0.291160807
875650000.0 -0.0331364898 -0.2967241706
880625000.0 -0.0576231378 -0.3005320118
885600000.0 -0.0838187666 -0.3028446516
890575000.0 -0.1112361058 -0.3026226264
895550000.0 -0.1395510298 -0.2999901749
900525000.0 -0.1679189235 -0.2945127253
905500000.0 -0.1961907219 -0.2854086351
910475000.0 -0.2244251193 -0.2724721737
915450000.0 -0.2516578305 -0.256571578
920425000.0 -0.2779099811 -0.2362676162
925400000.0 -0.3031195981 -0.2128136678
930375000.0 -0.32655833 -0.1857988811
935350000.0 -0.3486061369 -0.1553584063
940325000.0 -0.3690156625 -0.1215520195
945300000.0 -0.3875862858 -0.0840513864
950275000.0 -0.4043657696 -0.0426598481
955250000.0 -0.4187016183 0.0027533853
960225000.0 -0.4292471408 0.0528432591
965200000.0 -0.4348981896 0.1075142922
970175000.0 -0.433972977 0.166921591
975150000.0 -0.4248125402 0.2299150946
980125000.0 -0.4054852322 0.2954911758
985100000.0 -0.3744028567 0.3617787696
990075000.0 -0.3308978769 0.4263158286
995050000.0 -0.2744285314 0.4867200533
1000025000.0 -0.2051338817 0.5402885714
1005000000.0 -0.1236438133 0.5837435464
1009975000.0 -0.0321406852 0.6126368227
1014950000.0 0.0667349382 0.6239614579
1019925000.0 0.1685085085 0.6161054334
1024900000.0 0.2682908824 0.5883674097
1029875000.0 0.3616196105 0.5414212985
1034850000.0 0.4440968736 0.4774689722
1039825000.0 0.5134164382 0.3992544971
1044800000.0 0.5680277609 0.3094130469
1049775000.0 0.606181635 0.2093346979
1054750000.0 0.621115867 0.1012294855
1059725000.0 0.597562228 0.0047749283
1064700000.0 0.5810552303 -0.0273195359
1069675000.0 0.6181170061 -0.0900304197
1074650000.0 0.6288370807 -0.1892798995
1079625000.0 0.6119289848 -0.2882593331
1084600000.0 0.5813460076 -0.3786023013
1089575000.0 0.5332915103 -0.4688301729
1094550000.0 0.4685136429 -0.5440644409
1099525000.0 0.3953135912 -0.6047060764
1104500000.0 0.3169611191 -0.651050978
1109475000.0 0.2349869579 -0.6842505707
1114450000.0 0.1520870189 -0.7047609714
1119425000.0 0.0704393304 -0.7140652128
1124400000.0 -0.0092551937 -0.7131098473
1129375000.0 -0.0860719841 -0.7032092507
1134350000.0 -0.1594828233 -0.6846469786
1139325000.0 -0.228897479 -0.6582189823
1144300000.0 -0.2936097371 -0.6238969745
1149275000.0 -0.352288839 -0.5828982401
1154250000.0 -0.403530214 -0.5357906941
1159225000.0 -0.4464131673 -0.4842476737
1164200000.0 -0.4802689617 -0.4308533685
1169175000.0 -0.5064772681 -0.3782082147
1174150000.0 -0.5279760174 -0.3271764833
1179125000.0 -0.5466731584 -0.2758539351
1184100000.0 -0.5605202669 -0.222992046
1189075000.0 -0.5689858455 -0.1701004307
1194050000.0 -0.5723413966 -0.1194197665
1199025000.0 -0.571379764 -0.070935588
1204000000.0 -0.5669320476 -0.0253353725
1208975000.0 -0.5592221758 0.016973205
1213950000.0 -0.5488884238 0.0559950882
1218925000.0 -0.5374822355 0.0906477127
1223900000.0 -0.525153506 0.1219941123
1228875000.0 -0.5126559807 0.1506273106
1233850000.0 -0.5011665649 0.1762016752
1238825000.0 -0.4897309984 0.2000321116
1243800000.0 -0.4785662846 0.2236213514
1248775000.0 -0.467567754 0.2462080416
1253750000.0 -0.4556115717 0.2683117395
1258725000.0 -0.4431672901 0.2905252385
1263700000.0 -0.4300307731 0.3120916244
1268675000.0 -0.4157098723 0.3328145953
1273650000.0 -0.4010643222 0.3521529456
1278625000.0 -0.3854940458 0.3698376937
1283600000.0 -0.3690651656 0.3863036776
1288575000.0 -0.352658696 0.4001252049
1293550000.0 -0.3356553349 0.4116930935
1298525000.0 -0.3185279611 0.4212466886
1303500000.0 -0.3026144462 0.4278447023
1308475000.0 -0.2873031688 0.4313791682
1313450000.0 -0.2736018288 0.4325915306
1318425000.0 -0.2629686198 0.4318499824
1323400000.0 -0.2554118276 0.4297527564
1328375000.0 -0.2511791212 0.427913661
1333350000.0 -0.2505648311 0.4280013192
1338325000.0 -0.2518501643 0.4312062177
1343300000.0 -0.2538339039 0.4377836359
1348275000.0 -0.2543110172 0.4475022555
1353250000.0 -0.2526652796 0.4599360375
1358225000.0 -0.2486104178 0.4739810735
1363200000.0 -0.2414958424 0.4882494032
1368175000.0 -0.2317534271 0.502110845
1373150000.0 -0.2202353395 0.5151574927
1378125000.0 -0.2073373854 0.5267361774
1383100000.0 -0.1929693433 0.5361147976
1388075000.0 -0.1776658264 0.5432589458
1393050000.0 -0.1619212996 0.5480435828
1398025000.0 -0.1464692049 0.5503225221
1403000000.0 -0.1311011571 0.5500376789
1407975000.0 -0.1167145109 0.5470947823
1412950000.0 -0.104001381 0.5414755398
1417925000.0 -0.0938913104 0.5342240658
1422900000.0 -0.0872152128 0.5259770596
1427875000.0 -0.0851864327 0.5176625178
1432850000.0 -0.0872065603 0.5107100046
1437825000.0 -0.0924340489 0.5071507653
1442800000.0 -0.0988633847 0.5074286763
1447775000.0 -0.1050318558 0.5108816602
1452750000.0 -0.1094272371 0.5181281474
1457725000.0 -0.1108072195 0.5283554996
1462700000.0 -0.1083583457 0.5386209309
1467675000.0 -0.1024211187 0.5490551429
1472650000.0 -0.0940286568 0.5598458335
1477625000.0 -0.0832155786 0.5684094499
1482600000.0 -0.069376669 0.5750209916
1487575000.0 -0.0551097105 0.5807675525
1492550000.0 -0.0403637674 0.5837553355
1497525000.0 -0.0233990058 0.5846920794
1502500000.0 -0.0065809333 0.5855069146
1507475000.0 0.0092608848 0.5847716333
1512450000.0 0.0249978462 0.5830562755
1517425000.0 0.0396997078 0.580718424
1522400000.0 0.0526942954 0.5773851957
1527375000.0 0.0643142624 0.574062744
1532350000.0 0.0739172022 0.5711376232
1537325000.0 0.0827662059 0.5675651775
1542300000.0 0.0917434788 0.5648956165
1547275000.0 0.100223856 0.5622072277
1552250000.0 0.1100297998 0.5590654852
1557225000.0 0.120675024 0.5557752545
1562200000.0 0.1313662983 0.5509921684
1567175000.0 0.1431796725 0.5448684095
1572150000.0 0.1554925888 0.5383161041
1577125000.0 0.1682903983 0.5305444167
1582100000.0 0.1828857106 0.5213746299
1587075000.0 0.1969993066 0.5122068486
1592050000.0 0.210981337 0.5018362558
1597025000.0 0.2264525711 0.4912758034
1602000000.0 0.2417829023 0.480444557
1606975000.0 0.256252635 0.4691855531
1611950000.0 0.2707121009 0.4582240312
1616925000.0 0.2853092403 0.4467985672
1621900000.0 0.2994916099 0.4347659873
1626875000.0 0.3124457919 0.4233066612
1631850000.0 0.3252790615 0.4107355119
1636825000.0 0.3384156232 0.3977815593
1641800000.0 0.3500789228 0.3843543742
1646775000.0 0.3608980996 0.3700797593
1651750000.0 0.3727844153 0.3552052426
1656725000.0 0.383540912 0.3404108747
1661700000.0 0.3930044499 0.3242068336
1666675000.0 0.4030282992 0.3083317942
1671650000.0 0.4114868434 0.2923633981
1676625000.0 0.4191673178 0.2753919901
1681600000.0 0.4260749448 0.2591267576
1686575000.0 0.4310745034 0.2428596528
1691550000.0 0.434909231 0.226268615
1696525000.0 0.4376105553 0.2106296747
1701500000.0 0.4383493878 0.1952749229
1706475000.0 0.4373954157 0.1801602792
1711450000.0 0.435361288 0.1664298167
1716425000.0 0.4328166922 0.1536895069
1721400000.0 0.4297903322 0.1415590207
1726375000.0 0.4276656904 0.1306061486
1731350000.0 0.4277969262 0.119961913
1736325000.0 0.4296021089 0.1094405904
1741300000.0 0.4326243672 0.098000093
1746275000.0 0.4378586966 0.085650088
1751250000.0 0.4437880207 0.0730325534
1756225000.0 0.4494485193 0.0591434302
1761200000.0 0.4546103202 0.0448287655
1766175000.0 0.4583615215 0.0308556502
1771150000.0 0.4609423753 0.0167955959
1776125000.0 0.4614809445 0.0031836506
1781100000.0 0.4591382693 -0.0097102
1786075000.0 0.4543466731 -0.0217008678
1791050000.0 0.4470706022 -0.0322940148
1796025000.0 0.43583263 -0.041639921
1801000000.0 0.4212264519 -0.0488796435
1805975000.0 0.4033909278 -0.051237111
1810950000.0 0.3833543396 -0.0464265097
1815925000.0 0.3679582387 -0.0306958255
1820900000.0 0.367739218 -0.0080851995
1825875000.0 0.3810316214 0.0049935671
1830850000.0 0.3960846515 0.0065384957
1835825000.0 0.4087494006 0.0022782709
1840800000.0 0.4188963781 -0.0046838666
1845775000.0 0.4280907394 -0.0125907042
1850750000.0 0.4353361839 -0.0216300103
1855725000.0 0.4399796682 -0.0314485524
1860700000.0 0.4425274348 -0.0405168486
1865675000.0 0.4426529508 -0.0494890364
1870650000.0 0.4398719623 -0.0583124314
1875625000.0 0.4347821874 -0.0660988317
1880600000.0 0.4267118671 -0.0734524918
1885575000.0 0.416160484 -0.0794572045
1890550000.0 0.4035788317 -0.0843877584
1895525000.0 0.3888347955 -0.0882421872
1900500000.0 0.373420351 -0.0900990193
1905475000.0 0.3583082571 -0.0898791553
1910450000.0 0.3445899494 -0.0877922274
1915425000.0 0.3334861637 -0.084117681
1920400000.0 0.3254863454 -0.0801127771
1925375000.0 0.3210514984 -0.0760653097
1930350000.0 0.3192675567 -0.0731641016
1935325000.0 0.3181303352 -0.0725842984
1940300000.0 0.3167986747 -0.0731826973
1945275000.0 0.314258413 -0.0745924744
1950250000.0 0.3104906646 -0.0764026148
1955225000.0 0.3043341467 -0.078354131
1960200000.0 0.2950478447 -0.0803566627
1965175000.0 0.2844412158 -0.0814739566
1970150000.0 0.2706864483 -0.0824271838
1975125000.0 0.253125649 -0.082938638
1980100000.0 0.2344872861 -0.0828762477
1985075000.0 0.2129055247 -0.0823944245
1990050000.0 0.188798208 -0.0816204068
1995025000.0 0.1624005262 -0.079754951
2000000000.0 0.1335478501 -0.0764865016
