!Created with skrf (http://scikit-rf.org).
# GHz S RI R 50.0 
!freq ReS11 ImS11
10000000.0 -0.7692829011 0.6779471235
19950000.0 -0.1362847073 0.989148144
29900000.0 0.5398324981 0.8151215261
39850000.0 0.9437299549 0.2391978149
49800000.0 0.8670174534 -0.473922025
59750000.0 0.3121296539 -0.9633248001
69700000.0 -0.453495776 -0.9248536239
79650000.0 -0.9718640802 -0.3255403404
89600000.0 -0.8731046657 0.4835945758
99550000.0 -0.1785041047 0.9510239293
109500000.0 0.6494091138 0.7035739184
119450000.0 0.9676835146 -0.1370732648
129400000.0 0.4394123496 -0.9055325985
139350000.0 -0.4996030761 -0.880489927
149300000.0 -0.9799007944 -0.091821873
159250000.0 -0.6252769066 0.7154809673
169200000.0 0.1863637949 0.920718695
179150000.0 0.8402024191 0.4562475654
189100000.0 0.9321025088 -0.313870483
199050000.0 0.449289678 -0.8925996895
209000000.0 -0.2811814655 -0.9508949487
218950000.0 -0.8261285093 -0.4990547849
228900000.0 -0.9192909546 0.1829901729
238850000.0 -0.5457052658 0.7438236868
248800000.0 0.0929291015 0.9225981561
258750000.0 0.6966020387 0.6423227037
268700000.0 0.9670709989 0.0347673249
278650000.0 0.764526804 -0.5987712634
288600000.0 0.1928686941 -0.931489567
298550000.0 -0.447559679 -0.7957847325
308500000.0 -0.8260137419 -0.2702092429
318450000.0 -0.7472823184 0.3648349085
328400000.0 -0.2563321763 0.7625692772
338350000.0 0.3563354433 0.6905547487
348300000.0 0.6968019732 0.2115763723
358250000.0 0.5621887909 -0.3111805426
368200000.0 0.1288286152 -0.5069616107
378150000.0 -0.2255336698 -0.3196898328
388100000.0 -0.2749069941 0.0019042115
398050000.0 -0.0897401371 0.1771531655
408000000.0 0.1001214954 0.1255413085
417950000.0 0.1353496131 -0.0266542234
427900000.0 0.0321470886 -0.1148195267
437850000.0 -0.0896666706 -0.0732436491
447800000.0 -0.1257182367 0.0484480731
457750000.0 -0.0539904312 0.1518451864
467700000.0 0.0696439431 0.1661505499
477650000.0 0.162359701 0.0870801374
487600000.0 0.1727519021 -0.0309076111
497550000.0 0.0937020593 -0.1152698904
507500000.0 -0.005175724 -0.123535559
517450000.0 -0.0732256067 -0.0697497086
527400000.0 -0.0822601155 0.0009286163
537350000.0 -0.0473370003 0.0417681375
547300000.0 -0.0113898554 0.0393067817
557250000.0 -0.0031788736 0.0167289122
567200000.0 -0.0224899469 0.0081191364
577150000.0 -0.0401659231 0.0309106249
587100000.0 -0.0250733207 0.069962696
597050000.0 0.0289840262 0.0881234664
607000000.0 0.093933923 0.0551788915
616950000.0 0.1242977646 -0.0266383
626900000.0 0.0892547761 -0.1190850413
636850000.0 -0.0061790927 -0.1701962448
646800000.0 -0.1178009044 -0.1439230585
656750000.0 -0.1851498737 -0.046020312
666700000.0 -0.1669665722 0.0741890112
676650000.0 -0.069512343 0.1503734664
686600000.0 0.0554262076 0.1385860186
696550000.0 0.1380060148 0.0447874216
706500000.0 0.1334918055 -0.0769455308
716450000.0 0.048856877 -0.1570149281
726400000.0 -0.0612990297 -0.1508469192
736350000.0 -0.1250236143 -0.0674610118
746300000.0 -0.0996042649 0.0318172056
756250000.0 -0.0033222073 0.0721562156
766200000.0 0.0931557383 0.0181658882
776150000.0 0.1122454032 -0.0995815631
786100000.0 0.0261308537 -0.1977921814
796050000.0 -0.1197012351 -0.1951290844
806000000.0 -0.2254874769 -0.0688761703
815950000.0 -0.2017311399 0.1164262709
825900000.0 -0.0338568094 0.2420393703
835850000.0 0.1944920475 0.2104547556
845800000.0 0.3491772489 0.0149058607
855750000.0 0.325712557 -0.2495984975
865700000.0 0.115332357 -0.4359133985
875650000.0 -0.180943963 -0.4258753128
885600000.0 -0.399833903 -0.2016036923
895550000.0 -0.3988606774 0.1296147375
905500000.0 -0.1490699604 0.3660657851
915450000.0 0.1637598629 0.3460528837
925400000.0 0.4010652559 0.1613427491
935350000.0 0.4539073026 -0.1743483064
945300000.0 0.2316175747 -0.4550034841
955250000.0 -0.1406774391 -0.4782014653
965200000.0 -0.4160997455 -0.1970472102
975150000.0 -0.3654491268 0.2225934799
985100000.0 0.0356338503 0.4451901901
995050000.0 0.4749014688 0.2160441592
1005000000.0 0.5205178334 -0.319058676
1014950000.0 0.0456526348 -0.6733723814
1024900000.0 -0.5633736908 -0.4338150216
1034850000.0 -0.6941545854 0.2759465774
1044800000.0 -0.1096430256 0.7930698695
1054750000.0 0.6318537 0.5527183069
1064700000.0 0.8686814818 -0.1668856655
1074650000.0 0.4147853061 -0.7326132541
1084600000.0 -0.1996508301 -0.8062905621
1094550000.0 -0.7129874383 -0.368129805
1104500000.0 -0.7066143598 0.3019081837
1114450000.0 -0.1888310428 0.7216589026
1124400000.0 0.4429014796 0.5791284686
1134350000.0 0.7071991762 0.0317542499
1144300000.0 0.4794970035 -0.4788437473
1154250000.0 -0.0092189837 -0.6430371594
1164200000.0 -0.44248358 -0.4237447703
1174150000.0 -0.5934417085 0.0312371043
1184100000.0 -0.3621745012 0.4573401881
1194050000.0 0.1088080034 0.5691312236
1204000000.0 0.4978891398 0.3012607208
1213950000.0 0.5707170086 -0.1457356951
1223900000.0 0.3268607189 -0.5032078766
1233850000.0 -0.0779519841 -0.6075377194
1243800000.0 -0.4512008201 -0.4285292621
1253750000.0 -0.6243935926 -0.045895439
1263700000.0 -0.5018700582 0.3670319613
1273650000.0 -0.1269641256 0.5971908644
1283600000.0 0.3072695707 0.516504728
1293550000.0 0.5757523121 0.1757093414
1303500000.0 0.5672690705 -0.2438983797
1313450000.0 0.3121914446 -0.5605423697
1323400000.0 -0.0736900157 -0.6621011583
1333350000.0 -0.4459994839 -0.5159499459
1343300000.0 -0.6615367342 -0.1682634421
1353250000.0 -0.614796493 0.2513306672
1363200000.0 -0.3036785051 0.5545726869
1373150000.0 0.1337218857 0.5869817746
1383100000.0 0.4862310674 0.336312147
1393050000.0 0.6026780799 -0.0660596105
1403000000.0 0.4578079294 -0.4419919105
1412950000.0 0.1288028055 -0.6530353733
1422900000.0 -0.2554831629 -0.630589737
1432850000.0 -0.5515314565 -0.3833593226
1442800000.0 -0.6363646138 -0.0010687394
1452750000.0 -0.4594533589 0.3558146227
1462700000.0 -0.0921591265 0.5181277472
1472650000.0 0.289727241 0.4068446019
1482600000.0 0.5049351128 0.0852816194
1492550000.0 0.4678122959 -0.2845578211
1502500000.0 0.216629943 -0.5379991264
1512450000.0 -0.1273892314 -0.5772863146
1522400000.0 -0.4147264071 -0.3927722908
1532350000.0 -0.5153591982 -0.0665613089
1542300000.0 -0.3755508105 0.2476615375
1552250000.0 -0.0592812194 0.3869363554
1562200000.0 0.2638697971 0.2740484597
1572150000.0 0.417054598 -0.0251097348
1582100000.0 0.3245569523 -0.3384692185
1592050000.0 0.049597408 -0.4993558292
1602000000.0 -0.258617082 -0.4328719759
1611950000.0 -0.444661052 -0.1743931355
1621900000.0 -0.4099254591 0.1497427632
1631850000.0 -0.1595066697 0.3736311418
1641800000.0 0.1851763796 0.3663576942
1651750000.0 0.4133914069 0.1397974924
1661700000.0 0.4817546223 -0.2140766072
1671650000.0 0.26321055 -0.5094254211
1681600000.0 -0.0892258751 -0.5887130499
1691550000.0 -0.413215956 -0.4285466175
1701500000.0 -0.5731400919 -0.0992576713
1711450000.0 -0.4985647515 0.2686917781
1721400000.0 -0.20129997 0.5227519644
1731350000.0 0.203941711 0.5333983269
1741300000.0 0.5282761244 0.2770016409
1751250000.0 0.6105801608 -0.1284911863
1761200000.0 0.4221509618 -0.4867676415
1771150000.0 0.0658014856 -0.6499810016
1781100000.0 -0.3069915962 -0.575967632
1791050000.0 -0.5673855236 -0.3082177479
1801000000.0 -0.6319738913 0.060919172
1810950000.0 -0.4700731507 0.4078766235
1820900000.0 -0.123628801 0.5966863988
1830850000.0 0.2746324543 0.5295250526
1840800000.0 0.5415455829 0.2251178769
1850750000.0 0.5564220911 -0.1689237023
1860700000.0 0.3377991675 -0.4727941164
1870650000.0 0.0038026067 -0.5832188465
1880600000.0 -0.3140264521 -0.4918610701
1890550000.0 -0.5183643052 -0.2524112977
1900500000.0 -0.5533775519 0.0495800821
1910450000.0 -0.4128066908 0.31075528
1920400000.0 -0.1531807567 0.4345027665
1930350000.0 0.1154189721 0.37622325
1940300000.0 0.277760924 0.1794155497
1950250000.0 0.2849484843 -0.0498798407
1960200000.0 0.1722776545 -0.2115381219
1970150000.0 0.0210044382 -0.2670382073
1980100000.0 -0.0962497474 -0.2395727234
1990050000.0 -0.149897512 -0.1907693965
2000000000.0 -0.1730443169 -0.1801667351
