!Created with skrf (http://scikit-rf.org).
# GHz S RI R 50.0 
!freq ReS11 ImS11
10000000.0 -0.9633045451 0.1798218859
19950000.0 -0.9338675296 0.3480040516
29900000.0 -0.8792038797 0.5046127572
39850000.0 -0.7833949145 0.6436038459
49800000.0 -0.6487002467 0.7578647056
59750000.0 -0.4776021087 0.846204278
69700000.0 -0.2757366584 0.9103041259
79650000.0 -0.0489566418 0.9470122645
89600000.0 0.1998729667 0.9422736191
99550000.0 0.4591707325 0.8706956995
109500000.0 0.700853019 0.7022380971
119450000.0 0.8813166241 0.4261173552
129400000.0 0.9565719702 0.0654797157
139350000.0 0.897392166 -0.3267727776
149300000.0 0.7001417773 -0.6827039955
159250000.0 0.3911276788 -0.9302475685
169200000.0 0.0327716697 -1.020295088
179150000.0 -0.3025848742 -0.9565388563
189100000.0 -0.5706401671 -0.7901940452
199050000.0 -0.7641088099 -0.5741924549
209000000.0 -0.8914197763 -0.3434509991
218950000.0 -0.9639923523 -0.1173094663
228900000.0 -0.9778649941 0.0946698943
238850000.0 -0.9324401403 0.2871744898
248800000.0 -0.7368516663 0.2776798209
258750000.0 -0.7348778034 0.5578537954
268700000.0 -0.5881600942 0.6812838049
278650000.0 -0.4276804239 0.7817721874
288600000.0 -0.2561036268 0.8564559886
298550000.0 -0.0765365551 0.8909077523
308500000.0 0.1042519115 0.8728120327
318450000.0 0.2756075305 0.7935013807
328400000.0 0.4261994971 0.656995361
338350000.0 0.5408651662 0.4752587152
348300000.0 0.6041626046 0.2656485127
358250000.0 0.6011553536 0.0536471827
368200000.0 0.5288643305 -0.1247890047
378150000.0 0.4006062643 -0.2389567825
388100000.0 0.2468662859 -0.2848265723
398050000.0 0.0980153736 -0.2729564381
408000000.0 -0.0256441898 -0.2268606605
417950000.0 -0.114460016 -0.1662360136
427900000.0 -0.1613170467 -0.1066084833
437850000.0 -0.16729462 -0.052417613
447800000.0 -0.1444961163 -0.0064549605
457750000.0 -0.1054574831 0.0309842711
467700000.0 -0.0646058521 0.0572115924
477650000.0 -0.0308116259 0.0701994127
487600000.0 -0.0063626042 0.0674713241
497550000.0 -0.0054469498 0.0263539855
507500000.0 -0.0234534887 0.0644598218
517450000.0 -0.0211157441 0.0234875937
527400000.0 -0.0274378114 -0.013251951
537350000.0 -0.0341664998 -0.0449558182
547300000.0 -0.0490404913 -0.0639259843
557250000.0 -0.0633446596 -0.0639294672
567200000.0 -0.0819874208 -0.0485023318
577150000.0 -0.1070847303 -0.0232306094
587100000.0 -0.1375011229 0.006201107
597050000.0 -0.1654935873 0.0339632575
607000000.0 -0.1846093166 0.0569188828
616950000.0 -0.1879546538 0.0786817936
626900000.0 -0.1709419588 0.0949863696
636850000.0 -0.1467046982 0.1011668844
646800000.0 -0.1189356728 0.1238002489
656750000.0 -0.0826593373 0.1530972255
666700000.0 -0.0472918027 0.177149366
676650000.0 -0.012569818 0.1909531042
686600000.0 0.0150225332 0.1923897985
696550000.0 0.0385513106 0.1731879502
706500000.0 0.0599361881 0.1352781876
716450000.0 0.0819970627 0.0838249213
726400000.0 0.1023835352 0.0266004321
736350000.0 0.1158865083 -0.0297913917
746300000.0 0.1169122264 -0.0796500104
756250000.0 0.0991850884 -0.1201295501
766200000.0 0.0608561295 -0.1495598954
776150000.0 0.0024670248 -0.1694045829
786100000.0 -0.0708949209 -0.1818722936
796050000.0 -0.1494583888 -0.1869283261
806000000.0 -0.2270554789 -0.1833686712
815950000.0 -0.2890545236 -0.1650677363
825900000.0 -0.3343509439 -0.1269336696
835850000.0 -0.3613542601 -0.0698385813
845800000.0 -0.37313871 0.0064531217
855750000.0 -0.3737962408 0.0938976675
865700000.0 -0.3669597591 0.1866256986
875650000.0 -0.3473112495 0.2733009284
885600000.0 -0.3128912277 0.3467674598
895550000.0 -0.2576587078 0.4009723571
905500000.0 -0.1782652578 0.4317921627
915450000.0 -0.0780658509 0.443261558
925400000.0 0.0396816675 0.4325431352
935350000.0 0.1687162841 0.4010031122
945300000.0 0.2951519292 0.3395166216
955250000.0 0.4026662178 0.2362293422
965200000.0 0.4674382446 0.0847522318
975150000.0 0.4624916128 -0.1109883893
985100000.0 0.3705367261 -0.3292375327
995050000.0 0.1834968325 -0.5258323411
1005000000.0 -0.0901973465 -0.6450935281
1014950000.0 -0.3979106452 -0.6234286387
1024900000.0 -0.6579895372 -0.4473727166
1034850000.0 -0.8005929998 -0.1682713706
1044800000.0 -0.8204773234 0.1389745158
1054750000.0 -0.7333492844 0.4223991074
1064700000.0 -0.5450846253 0.6142181793
1074650000.0 -0.4366368585 0.7268822003
1084600000.0 -0.2088682681 0.8388568121
1094550000.0 0.0406534959 0.8248954686
1104500000.0 0.2686782148 0.7287520962
1114450000.0 0.4570563153 0.5782860582
1124400000.0 0.5927435425 0.3922072046
1134350000.0 0.6616204836 0.1885093296
1144300000.0 0.6526917939 -0.0177700384
1154250000.0 0.5674078707 -0.1998587721
1164200000.0 0.427438519 -0.3450107362
1174150000.0 0.2610414984 -0.445155483
1184100000.0 0.0919856335 -0.5017006757
1194050000.0 -0.0627741407 -0.5205810362
1204000000.0 -0.197646427 -0.5001227064
1213950000.0 -0.3045617823 -0.446461699
1223900000.0 -0.3900194391 -0.3631543395
1233850000.0 -0.4535474054 -0.2641269295
1243800000.0 -0.5040540619 -0.1563240971
1253750000.0 -0.5442334912 -0.0559573418
1263700000.0 -0.5746349109 0.0364421919
1273650000.0 -0.5899225202 0.1150136414
1283600000.0 -0.5882620616 0.1821560096
1293550000.0 -0.5664908924 0.2427822682
1303500000.0 -0.5260531527 0.3010760105
1313450000.0 -0.4746167513 0.3632470938
1323400000.0 -0.4181633289 0.427921696
1333350000.0 -0.3646405513 0.4925002715
1343300000.0 -0.3150055413 0.5525588552
1353250000.0 -0.2689243403 0.5977990386
1363200000.0 -0.2219673858 0.6264191043
1373150000.0 -0.1722998001 0.6365580795
1383100000.0 -0.1135088475 0.6305639022
1393050000.0 -0.0471850116 0.6190747594
1403000000.0 0.0270607756 0.6075215719
1412950000.0 0.1033250729 0.5992262201
1422900000.0 0.1767698141 0.5944912628
1432850000.0 0.2407209999 0.5864067327
1442800000.0 0.2930018249 0.569382954
1452750000.0 0.3318584546 0.5399273962
1462700000.0 0.3647736735 0.4953774743
1472650000.0 0.3968501405 0.4381226764
1482600000.0 0.4312473065 0.3709498852
1492550000.0 0.4709213685 0.3005127343
1502500000.0 0.5104733912 0.2295233857
1512450000.0 0.5453273363 0.1595819867
1522400000.0 0.5640958078 0.0901107218
1532350000.0 0.5641474254 0.0227963919
1542300000.0 0.540659775 -0.0473299492
1552250000.0 0.4969836854 -0.1174381279
1562200000.0 0.4440673973 -0.1904309559
1572150000.0 0.383363158 -0.2653373901
1582100000.0 0.3210544573 -0.3343056055
1592050000.0 0.2545836245 -0.3929673352
1602000000.0 0.1832005477 -0.4321800224
1611950000.0 0.104398426 -0.4459142403
1621900000.0 0.0191517357 -0.4377628033
1631850000.0 -0.0719138375 -0.4143342727
1641800000.0 -0.1628715099 -0.3836772793
1651750000.0 -0.2495959152 -0.3506049607
1661700000.0 -0.3288963439 -0.3118676488
1671650000.0 -0.3909546822 -0.2653297758
1681600000.0 -0.4341711401 -0.2053633013
1691550000.0 -0.4576132373 -0.1317165985
1701500000.0 -0.4676824112 -0.0511822936
1711450000.0 -0.4715218124 0.0359490024
1721400000.0 -0.472595559 0.1187251992
1731350000.0 -0.4737520677 0.1933771132
1741300000.0 -0.4710404608 0.2582187308
1751250000.0 -0.4591122591 0.3111598585
1761200000.0 -0.4312879986 0.354899151
1771150000.0 -0.3859298607 0.3921826473
1781100000.0 -0.3280679056 0.4255847391
1791050000.0 -0.2637747989 0.4608786853
1801000000.0 -0.2042880878 0.4958642163
1810950000.0 -0.1522290746 0.5295383766
1820900000.0 -0.1114245902 0.5559226258
1830850000.0 -0.0773075461 0.5693885243
1840800000.0 -0.0444029448 0.5665649266
1850750000.0 -0.007438242 0.5468536411
1860700000.0 0.0371414985 0.5162787071
1870650000.0 0.0891090524 0.4832694046
1880600000.0 0.1438308119 0.4548411292
1890550000.0 0.1933080856 0.4344788089
1900500000.0 0.2325491987 0.420964362
1910450000.0 0.2548647518 0.4100294903
1920400000.0 0.2610789871 0.392289816
1930350000.0 0.2538358629 0.3628247908
1940300000.0 0.241019015 0.3181611595
1950250000.0 0.2283670265 0.2629083693
1960200000.0 0.2203256159 0.2047878084
1970150000.0 0.2153460519 0.1522084737
1980100000.0 0.2080842847 0.1148920514
1990050000.0 0.1890074666 0.0966542904
2000000000.0 0.1492224971 0.1000689159
