!Created with skrf (http://scikit-rf.org).
# GHz S RI R 50.0 
!freq ReS11 ImS11
10000000.0 -1.00009743 0.1635043772
19950000.0 -0.9447770312 0.3123956492
29900000.0 -0.8667458771 0.4546676462
39850000.0 -0.7663804334 0.5950115334
49800000.0 -0.6458111019 0.727491217
59750000.0 -0.5001992969 0.8461542333
69700000.0 -0.3231389086 0.9386338165
79650000.0 -0.11070663 0.987788664
89600000.0 0.1344609496 0.9769419326
99550000.0 0.3993822686 0.8887862327
109500000.0 0.6625429542 0.711868573
119450000.0 0.885726586 0.4336478744
129400000.0 0.9895257922 0.0625219749
139350000.0 0.9660301321 -0.3409749728
149300000.0 0.7482382938 -0.6916746603
159250000.0 0.4125634327 -0.9092405788
169200000.0 0.0495295736 -0.9813296579
179150000.0 -0.2828510683 -0.93789595
189100000.0 -0.5531287835 -0.8150633034
199050000.0 -0.7483173906 -0.6447275761
209000000.0 -0.8684220778 -0.4494248364
218950000.0 -0.928348563 -0.2492150073
228900000.0 -0.940640073 -0.0541437222
238850000.0 -0.9186095561 0.1343404776
248800000.0 -0.8554363875 0.2072327473
258750000.0 -0.8165097174 0.4431694642
268700000.0 -0.7279749532 0.5852342227
278650000.0 -0.6136432806 0.6992535101
288600000.0 -0.4734823869 0.7825558186
298550000.0 -0.3118212089 0.8330198283
308500000.0 -0.133599118 0.8514466936
318450000.0 0.0538142002 0.8326559001
328400000.0 0.2395352638 0.7702860659
338350000.0 0.4007171643 0.6602341564
348300000.0 0.521887356 0.5075603423
358250000.0 0.5786417669 0.3156258849
368200000.0 0.557444471 0.1110055951
378150000.0 0.4682922302 -0.0646232091
388100000.0 0.3400248978 -0.1864370945
398050000.0 0.20388617 -0.2470475791
408000000.0 0.0840242531 -0.2520430625
417950000.0 -0.0075967673 -0.2161677073
427900000.0 -0.0685254934 -0.1573416618
437850000.0 -0.1039733782 -0.0909623336
447800000.0 -0.1188658298 -0.0295681253
457750000.0 -0.1180659145 0.018700378
467700000.0 -0.1061557124 0.0493764881
477650000.0 -0.0857144681 0.0603604179
487600000.0 -0.0607112372 0.0512106881
497550000.0 -0.0801261785 0.0817841147
507500000.0 -0.0083167704 0.0446613471
517450000.0 0.0122359506 0.0207040099
527400000.0 0.020709084 0.000959841
537350000.0 0.0151880176 -0.016448641
547300000.0 -0.0022541541 -0.032341159
557250000.0 -0.0299694815 -0.0457916327
567200000.0 -0.0613542752 -0.0576222022
577150000.0 -0.0927805351 -0.0657280916
587100000.0 -0.1196065216 -0.0679160017
597050000.0 -0.1395781014 -0.0610871892
607000000.0 -0.1526959688 -0.0443388625
616950000.0 -0.1607203146 -0.0176525851
626900000.0 -0.1649185161 0.0157161417
636850000.0 -0.1656526924 0.0513002211
646800000.0 -0.1628591262 0.0848680795
656750000.0 -0.1546306956 0.1121782436
666700000.0 -0.138865176 0.1320868018
676650000.0 -0.1132079508 0.1424509898
686600000.0 -0.0780307232 0.1452957838
696550000.0 -0.0355646893 0.1416269977
706500000.0 0.008949728 0.1319818055
716450000.0 0.0509639143 0.1169621483
726400000.0 0.0846866613 0.0939118314
736350000.0 0.1069171035 0.0615756886
746300000.0 0.1151319582 0.0187268409
756250000.0 0.1102150173 -0.0343991635
766200000.0 0.093054095 -0.0933232746
776150000.0 0.065826215 -0.1522401756
786100000.0 0.0288749961 -0.2046341381
796050000.0 -0.016346233 -0.2434424231
806000000.0 -0.0693944735 -0.2641890681
815950000.0 -0.1302136131 -0.2643685361
825900000.0 -0.196131269 -0.2456047517
835850000.0 -0.2642664188 -0.2117970525
845800000.0 -0.3289376773 -0.1669693702
855750000.0 -0.384852221 -0.1134290084
865700000.0 -0.4253542269 -0.0535148973
875650000.0 -0.4453799817 0.0143398089
885600000.0 -0.4421241232 0.0882790365
895550000.0 -0.4164283876 0.1678110247
905500000.0 -0.3695124498 0.2513995049
915450000.0 -0.3044167953 0.3333952837
925400000.0 -0.2208762763 0.4061563299
935350000.0 -0.1176566173 0.45957761
945300000.0 0.0066165026 0.4800815042
955250000.0 0.1509145664 0.4520257171
965200000.0 0.3035418733 0.3543705005
975150000.0 0.4079714141 0.1606005646
985100000.0 0.3560804838 -0.0624154415
995050000.0 0.3742805726 -0.1423123254
1005000000.0 0.3780745627 -0.312941362
1014950000.0 0.2642081524 -0.5097667989
1024900000.0 0.0222853886 -0.6608549925
1034850000.0 -0.293876631 -0.6813967833
1044800000.0 -0.595041912 -0.5542938769
1054750000.0 -0.8096204375 -0.3140797444
1064700000.0 -0.8905575817 -0.0211112977
1074650000.0 -0.8528480386 0.2584300481
1084600000.0 -0.7112318711 0.4926937691
1094550000.0 -0.5067272284 0.6700453439
1104500000.0 -0.2577706303 0.7722847931
1114450000.0 0.0046175554 0.79189016
1124400000.0 0.2502840147 0.7228761264
1134350000.0 0.4443508433 0.5742712379
1144300000.0 0.5660077545 0.371082282
1154250000.0 0.611857423 0.1487885268
1164200000.0 0.5933639771 -0.0638110724
1174150000.0 0.5295826001 -0.244593904
1184100000.0 0.4388193977 -0.392850024
1194050000.0 0.3184445701 -0.5023992221
1204000000.0 0.1821458475 -0.5637091892
1213950000.0 0.0430605487 -0.5834041371
1223900000.0 -0.0887594313 -0.5739943689
1233850000.0 -0.2092999472 -0.5470993625
1243800000.0 -0.3161347274 -0.5097804476
1253750000.0 -0.407573183 -0.4654085468
1263700000.0 -0.4805958999 -0.4123802857
1273650000.0 -0.5364514885 -0.3518268682
1283600000.0 -0.5747279217 -0.2823874647
1293550000.0 -0.6005345678 -0.2064745498
1303500000.0 -0.6181285192 -0.1276120177
1313450000.0 -0.6321733752 -0.0496510267
1323400000.0 -0.644210665 0.0250998553
1333350000.0 -0.6527927774 0.0946727422
1343300000.0 -0.6536274888 0.1596571281
1353250000.0 -0.6439518163 0.2182824086
1363200000.0 -0.6200389008 0.2734674327
1373150000.0 -0.5828320337 0.3261968708
1383100000.0 -0.5367645693 0.3783326404
1393050000.0 -0.4864435749 0.4300365172
1403000000.0 -0.4358568051 0.4805163409
1412950000.0 -0.3858596642 0.5274358989
1422900000.0 -0.3365139225 0.5668180591
1432850000.0 -0.2853200626 0.594611406
1442800000.0 -0.2300283642 0.6112242176
1452750000.0 -0.1694949871 0.6176169231
1462700000.0 -0.1015135143 0.6164361984
1472650000.0 -0.0262594445 0.6107167908
1482600000.0 0.0519479478 0.6026023537
1492550000.0 0.1299891468 0.5903496446
1502500000.0 0.2041681329 0.5701320815
1512450000.0 0.2717638864 0.5391431367
1522400000.0 0.3302679595 0.4935108803
1532350000.0 0.3791217887 0.4316356127
1542300000.0 0.419985728 0.3549737664
1552250000.0 0.4535191108 0.2682426678
1562200000.0 0.4820413162 0.1774109905
1572150000.0 0.5033442578 0.0871274528
1582100000.0 0.5129841262 -0.0029181399
1592050000.0 0.5055306566 -0.0908700928
1602000000.0 0.4766017572 -0.1739314718
1611950000.0 0.4276738367 -0.2499931678
1621900000.0 0.3621889119 -0.3199318845
1631850000.0 0.2865314932 -0.3846537854
1641800000.0 0.2059452264 -0.4430129232
1651750000.0 0.1239860887 -0.4908029203
1661700000.0 0.0422052849 -0.5239524567
1671650000.0 -0.0379477357 -0.5383679951
1681600000.0 -0.1162535912 -0.5331314008
1691550000.0 -0.1925282406 -0.5121469089
1701500000.0 -0.2682840314 -0.4789883668
1711450000.0 -0.3420727337 -0.4386827025
1721400000.0 -0.4116016253 -0.3959366924
1731350000.0 -0.4738753043 -0.3527475454
1741300000.0 -0.5258962799 -0.3073749959
1751250000.0 -0.5630521116 -0.2572682279
1761200000.0 -0.5859569316 -0.2017318404
1771150000.0 -0.5956062799 -0.1408219155
1781100000.0 -0.5985107159 -0.0756998216
1791050000.0 -0.5980275871 -0.00973798
1801000000.0 -0.5981240963 0.0539662388
1810950000.0 -0.599287519 0.1144580988
1820900000.0 -0.5978035534 0.1692550426
1830850000.0 -0.5888030111 0.2168353376
1840800000.0 -0.5682119465 0.2594898929
1850750000.0 -0.5346772337 0.2969992157
1860700000.0 -0.4892319923 0.330050334
1870650000.0 -0.439064375 0.3619187723
1880600000.0 -0.3888692941 0.3907137617
1890550000.0 -0.3427838824 0.4169902443
1900500000.0 -0.3020974729 0.4373201992
1910450000.0 -0.2638780825 0.4489054461
1920400000.0 -0.2269038603 0.4491523563
1930350000.0 -0.1872945555 0.4360642164
1940300000.0 -0.1434838276 0.4106260946
1950250000.0 -0.0971964206 0.3755869265
1960200000.0 -0.0517553655 0.3347753148
1970150000.0 -0.0146821484 0.2897171515
1980100000.0 0.0087445099 0.2417933252
1990050000.0 0.0126108497 0.1882758513
2000000000.0 -0.0086195176 0.1290368079
