!Created with skrf (http://scikit-rf.org).
# GHz S RI R 50.0 
!freq ReS11 ImS11
10000000.0 -0.7870311885 0.5987771568
19950000.0 -0.2809727664 0.9415129744
29900000.0 0.3283045443 0.9247443892
39850000.0 0.8163903803 0.5492201954
49800000.0 0.9867388049 -0.0550749379
59750000.0 0.7478205561 -0.6521439379
69700000.0 0.1744585277 -0.9765923881
79650000.0 -0.4895953402 -0.8552319311
89600000.0 -0.9234990927 -0.3146745531
99550000.0 -0.8830983224 0.3988424095
109500000.0 -0.3436437065 0.9061133539
119450000.0 0.4273146645 0.8758022891
129400000.0 0.9435768264 0.2600078045
139350000.0 0.8088196822 -0.5477623876
149300000.0 0.0957767026 -0.9605972059
159250000.0 -0.663125022 -0.6838720833
169200000.0 -0.946040438 0.043605302
179150000.0 -0.6193951494 0.7193862302
189100000.0 0.0631347202 0.9511454481
199050000.0 0.6911806083 0.6560571537
209000000.0 0.9464043441 0.0345776124
218950000.0 0.7394331202 -0.5776027302
228900000.0 0.2030820033 -0.9075623143
238850000.0 -0.4124824027 -0.8266316983
248800000.0 -0.639320712 -0.4326484166
258750000.0 -0.9072861022 0.1725677212
268700000.0 -0.6098753939 0.6947198912
278650000.0 -0.0594492349 0.9163490157
288600000.0 0.5052729406 0.7485372559
298550000.0 0.8391032019 0.2682499453
308500000.0 0.7968964775 -0.3109976587
318450000.0 0.3991250322 -0.7244363825
328400000.0 -0.1624410567 -0.779116089
338350000.0 -0.6056502858 -0.4539182837
348300000.0 -0.7014176298 0.0635264171
358250000.0 -0.4255988819 0.4710389638
368200000.0 0.0143117831 0.5507298866
378150000.0 0.3337392904 0.3187696112
388100000.0 0.3766584599 -0.0184002047
398050000.0 0.1918487248 -0.2370813961
408000000.0 -0.0449297598 -0.2456084944
417950000.0 -0.1793637195 -0.1057558872
427900000.0 -0.1675448477 0.0544343461
437850000.0 -0.0607969247 0.1361410919
447800000.0 0.0525197952 0.1136452582
457750000.0 0.1030649135 0.028852394
467700000.0 0.0789531079 -0.0522163841
477650000.0 0.0158855338 -0.0845188913
487600000.0 -0.0361156063 -0.0603227962
497550000.0 -0.048895573 -0.0909070127
507500000.0 -0.0618429181 0.0068326971
517450000.0 -0.0252693002 0.0208588926
527400000.0 -0.0042108634 0.0033732037
537350000.0 -0.0121007888 -0.0209628541
547300000.0 -0.0444181951 -0.02582506
557250000.0 -0.0699740186 0.0072762273
567200000.0 -0.0610832464 0.0566333937
577150000.0 -0.0129896133 0.0930166951
587100000.0 0.0585001273 0.0883858016
597050000.0 0.1187255161 0.0328406027
607000000.0 0.1337815641 -0.0564872243
616950000.0 0.0871708915 -0.1418030346
626900000.0 -0.0047616992 -0.1819051849
636850000.0 -0.1068026719 -0.1565622288
646800000.0 -0.1725780005 -0.0701591766
656750000.0 -0.1705816402 0.0403991848
666700000.0 -0.0989048513 0.1279921822
676650000.0 0.0124559372 0.1517860469
686600000.0 0.1128694919 0.1007027519
696550000.0 0.1570647063 0.0001529173
706500000.0 0.1268588517 -0.1000461539
716450000.0 0.040277602 -0.1508636937
726400000.0 -0.0549905696 -0.1281870636
736350000.0 -0.105283563 -0.0434591507
746300000.0 -0.0787716503 0.0554143645
756250000.0 0.0138792235 0.1078512291
766200000.0 0.1216446971 0.0781744239
776150000.0 0.1808862684 -0.0247857175
786100000.0 0.1482181738 -0.1484363003
796050000.0 0.0281809065 -0.2218454776
806000000.0 -0.1266980991 -0.1908888105
815950000.0 -0.2334469808 -0.0516080477
825900000.0 -0.2236904863 0.137701561
835850000.0 -0.0895686471 0.2858426658
845800000.0 0.1157531395 0.3193673027
855750000.0 0.305506173 0.2155238782
865700000.0 0.3935162847 0.0072735197
875650000.0 0.329553981 -0.2203012972
885600000.0 0.1277309035 -0.3660542361
895550000.0 -0.1330790606 -0.351352309
905500000.0 -0.333516806 -0.1669621612
915450000.0 -0.3699918168 0.1095272706
925400000.0 -0.2155513219 0.3463717123
935350000.0 0.0600861267 0.4211018896
945300000.0 0.3183502476 0.2835382659
955250000.0 0.4111421848 -0.0081217391
965200000.0 0.2543405312 -0.2968501629
975150000.0 -0.0955653003 -0.3806095857
985100000.0 -0.4117454861 -0.1432089011
995050000.0 -0.424491086 0.2865207934
1005000000.0 -0.068063674 0.5891376581
1014950000.0 0.4368265057 0.4915835917
1024900000.0 0.7063735955 -0.0106071463
1034850000.0 0.4625940308 -0.5868675897
1044800000.0 -0.1786512146 -0.7624375092
1054750000.0 -0.7166252897 -0.3608949123
1064700000.0 -0.7494939807 0.2195044723
1074650000.0 -0.4267678713 0.6946898205
1084600000.0 0.1003896231 0.7917124135
1094550000.0 0.6099270758 0.5015219689
1104500000.0 0.7448059648 -0.0799437349
1114450000.0 0.4137353766 -0.57167077
1124400000.0 -0.1498978954 -0.6548224893
1134350000.0 -0.5623533462 -0.3227250249
1144300000.0 -0.6078964737 0.1597543521
1154250000.0 -0.3225704494 0.5059522547
1164200000.0 0.0989017683 0.5511333175
1174150000.0 0.4250691833 0.3011308251
1184100000.0 0.4853380728 -0.1049309251
1194050000.0 0.2480977959 -0.4305441161
1204000000.0 -0.1318356359 -0.5024752015
1213950000.0 -0.4485096742 -0.3182741493
1223900000.0 -0.5746190478 0.0084912211
1233850000.0 -0.4789107947 0.3381297362
1243800000.0 -0.2024826249 0.5450750591
1253750000.0 0.1514793224 0.5468901274
1263700000.0 0.4445168719 0.3302145107
1273650000.0 0.5517160139 -0.0234776128
1283600000.0 0.4321317955 -0.3693071731
1293550000.0 0.1453989656 -0.5779566965
1303500000.0 -0.195526268 -0.5925959153
1313450000.0 -0.4823426917 -0.4263143305
1323400000.0 -0.6358301037 -0.1359963104
1333350000.0 -0.611458323 0.1960397975
1343300000.0 -0.4048295585 0.4726906367
1353250000.0 -0.0655299051 0.5926471634
1363200000.0 0.2914341051 0.496896018
1373150000.0 0.5329978397 0.2165853221
1383100000.0 0.5758366617 -0.1406946622
1393050000.0 0.4240392116 -0.4476530179
1403000000.0 0.1459013176 -0.6173595296
1412950000.0 -0.1693456899 -0.6145819065
1422900000.0 -0.4331637629 -0.4482861472
1432850000.0 -0.5694660955 -0.1637782053
1442800000.0 -0.5301120023 0.1559805989
1452750000.0 -0.3180892478 0.4069386211
1462700000.0 0.0012876615 0.499727159
1472650000.0 0.3165877559 0.3990072561
1482600000.0 0.5131889994 0.145953829
1492550000.0 0.5327694734 -0.1588824058
1502500000.0 0.3845749325 -0.4105409351
1512450000.0 0.1277492918 -0.5324526976
1522400000.0 -0.1541698714 -0.4871575397
1532350000.0 -0.3633486339 -0.2826660205
1542300000.0 -0.4128814293 0.0142402603
1552250000.0 -0.2710823528 0.2818059448
1562200000.0 -0.0010179563 0.4023481563
1572150000.0 0.2736410547 0.3358397163
1582100000.0 0.4438201299 0.1279888546
1592050000.0 0.455782919 -0.1313566336
1602000000.0 0.3096194643 -0.3464404563
1611950000.0 0.0555241023 -0.4327059013
1621900000.0 -0.2100725882 -0.3432284397
1631850000.0 -0.3718602655 -0.1008368634
1641800000.0 -0.3505951528 0.1953849601
1651750000.0 -0.1535267028 0.4160681319
1661700000.0 0.132262177 0.4724620721
1671650000.0 0.3909951599 0.3500503932
1681600000.0 0.5287573792 0.1026995219
1691550000.0 0.4967047268 -0.1806543459
1701500000.0 0.3148923661 -0.3743586255
1711450000.0 0.0677923644 -0.4964125256
1721400000.0 -0.2593600197 -0.4292569471
1731350000.0 -0.4827726554 -0.167178181
1741300000.0 -0.5085219515 0.1728728848
1751250000.0 -0.3416339324 0.4562269522
1761200000.0 -0.0590306415 0.5948690167
1771150000.0 0.2441216537 0.5634097592
1781100000.0 0.4832748322 0.3819360814
1791050000.0 0.5954519644 0.0999743599
1801000000.0 0.5408898179 -0.2079679327
1810950000.0 0.3204492472 -0.4460081421
1820900000.0 -0.0038725876 -0.5233880589
1830850000.0 -0.3158984747 -0.4044423827
1840800000.0 -0.5036609341 -0.1408727166
1850750000.0 -0.5173872946 0.1634529843
1860700000.0 -0.3780650055 0.4105909795
1870650000.0 -0.1458821679 0.5415351261
1880600000.0 0.109469226 0.5336667932
1890550000.0 0.3197642018 0.397022683
1900500000.0 0.4248054061 0.1708261098
1910450000.0 0.3900474183 -0.0745926952
1920400000.0 0.2281349683 -0.254085089
1930350000.0 0.0041165826 -0.3078010765
1940300000.0 -0.1937009994 -0.2355689045
1950250000.0 -0.3012762532 -0.088794097
1960200000.0 -0.3080018273 0.0631757439
1970150000.0 -0.239999946 0.164967442
1980100000.0 -0.1466118056 0.1909814059
1990050000.0 -0.0825164843 0.1528745408
2000000000.0 -0.0827596572 0.0975889246
