!Created with skrf (http://scikit-rf.org).
# GHz S RI R 50.0 
!freq ReS11 ImS11
10000000.0 -0.7379972919 0.6732643722
19950000.0 -0.1030073464 0.9805345151
29900000.0 0.5765610996 0.7913941701
39850000.0 0.9623210116 0.1885953317
49800000.0 0.8355031012 -0.5281930931
59750000.0 0.2393328342 -0.9686684327
69700000.0 -0.5063022493 -0.86323794
79650000.0 -0.9613537678 -0.2483672817
89600000.0 -0.8281531058 0.520150455
99550000.0 -0.1529365364 0.9523007718
109500000.0 0.6438909206 0.7135352525
119450000.0 0.9653650995 -0.0909993988
129400000.0 0.4907860368 -0.849233641
139350000.0 -0.4128693647 -0.8893777707
149300000.0 -0.9492147436 -0.1731073675
159250000.0 -0.6811459741 0.6577779257
169200000.0 0.1236696314 0.9316603912
179150000.0 0.8170329825 0.4764639855
189100000.0 0.8991818346 -0.3270115945
199050000.0 0.3581321937 -0.8924779273
209000000.0 -0.3969994386 -0.8679140824
218950000.0 -0.8812308139 -0.3251025922
228900000.0 -0.8426017474 0.3784058416
238850000.0 -0.3411345096 0.8520495316
248800000.0 0.3445375115 0.8536443023
258750000.0 0.844430339 0.3835756639
268700000.0 0.8756556862 -0.3043920116
278650000.0 0.4617407583 -0.7943879763
288600000.0 -0.2121086404 -0.8783207032
298550000.0 -0.7367339226 -0.476695844
308500000.0 -0.8319145956 0.1682654807
318450000.0 -0.4498520968 0.6861126234
328400000.0 0.180158749 0.7704216267
338350000.0 0.6552110998 0.3707361896
348300000.0 0.6625792623 -0.2197895696
358250000.0 0.2440063422 -0.5752466452
368200000.0 -0.2389675688 -0.4824890873
378150000.0 -0.4389183199 -0.0991235684
388100000.0 -0.2853871673 0.2353709635
398050000.0 0.0160656095 0.3022626504
408000000.0 0.2105197492 0.1316881802
417950000.0 0.1903380904 -0.0804955352
427900000.0 0.0364348386 -0.1688951838
437850000.0 -0.1038372863 -0.106827621
447800000.0 -0.1338777468 0.0197024378
457750000.0 -0.0619475829 0.108282497
467700000.0 0.0387723344 0.1072815722
477650000.0 0.0953022208 0.0391910618
487600000.0 0.079795898 -0.0328279479
497550000.0 0.027807342 -0.0635444452
507500000.0 -0.0151343599 -0.0478827042
517450000.0 -0.0194228357 -0.0193553365
527400000.0 -0.0085258924 -0.015314399
537350000.0 -0.0029907789 -0.0271946689
547300000.0 -0.0244939205 -0.0457334808
557250000.0 -0.0653691873 -0.0386060577
567200000.0 -0.0961188945 0.0113358557
577150000.0 -0.0776862595 0.0803354514
587100000.0 -0.0045794258 0.1223573816
597050000.0 0.0908892835 0.0978694494
607000000.0 0.1488120917 0.0081734679
616950000.0 0.1278843897 -0.1040955711
626900000.0 0.036108491 -0.1798015384
636850000.0 -0.0882581867 -0.1752584257
646800000.0 -0.1777381631 -0.0863894115
656750000.0 -0.1848312607 0.043634858
666700000.0 -0.1005408894 0.1408357361
676650000.0 0.0266541519 0.153378349
686600000.0 0.1259439277 0.0755681937
696550000.0 0.1413501541 -0.0429216361
706500000.0 0.0702462482 -0.1309258789
716450000.0 -0.0327017865 -0.1360544001
726400000.0 -0.0999698005 -0.0665891405
736350000.0 -0.0833806617 0.0247972891
746300000.0 0.0003822978 0.0626793287
756250000.0 0.0859455662 0.0127920243
766200000.0 0.0942012435 -0.0960955245
776150000.0 0.0063887466 -0.1801953013
786100000.0 -0.1318647886 -0.1638932745
796050000.0 -0.2230750212 -0.0321387367
806000000.0 -0.1868506008 0.1478825082
815950000.0 -0.0138426272 0.2585313764
825900000.0 0.2065786896 0.2139235159
835850000.0 0.3444125447 0.0124857687
845800000.0 0.3044697166 -0.2428197222
855750000.0 0.0900141366 -0.4108881106
865700000.0 -0.1946744919 -0.3891493786
875650000.0 -0.3956421444 -0.1663268336
885600000.0 -0.390939873 0.1432693156
895550000.0 -0.1677094776 0.3757500876
905500000.0 0.1626276351 0.3890111225
915450000.0 0.4129010617 0.1629771206
925400000.0 0.4301254677 -0.1784810726
935350000.0 0.1956886184 -0.4306651528
945300000.0 -0.1560092874 -0.4307834294
955250000.0 -0.3947072514 -0.1552663923
965200000.0 -0.3178372857 0.2157856318
975150000.0 0.0470341072 0.3489193818
985100000.0 0.3076300367 0.1231682265
995050000.0 0.3329241139 -0.168714963
1005000000.0 0.0769442197 -0.4591421375
1014950000.0 -0.3972742512 -0.366955421
1024900000.0 -0.5879015343 0.1666106308
1034850000.0 -0.1859743829 0.6615685748
1044800000.0 0.4993535111 0.5776459008
1054750000.0 0.8209812272 -0.0598019051
1064700000.0 0.4942051172 -0.6928804134
1074650000.0 -0.1958268473 -0.8248931968
1084600000.0 -0.7098432901 -0.3876842448
1094550000.0 -0.7505791083 0.2726432608
1104500000.0 -0.2444234399 0.7304067664
1114450000.0 0.4120467591 0.6108691166
1124400000.0 0.6995746559 0.0472655469
1134350000.0 0.4498597367 -0.4851314895
1144300000.0 -0.0796794965 -0.613680142
1154250000.0 -0.4849836783 -0.3056457181
1164200000.0 -0.4985366864 0.1783184623
1174150000.0 -0.142641983 0.4752827927
1184100000.0 0.2951441995 0.3811319732
1194050000.0 0.4877875598 -0.0026218582
1204000000.0 0.3310063681 -0.3845976031
1213950000.0 -0.0434399881 -0.5268410901
1223900000.0 -0.4037324474 -0.3661831555
1233850000.0 -0.5529841227 -0.0012219775
1243800000.0 -0.4108270328 0.3727078067
1253750000.0 -0.047532971 0.5514400915
1263700000.0 0.3444370964 0.4376958116
1273650000.0 0.5622974592 0.0938616773
1283600000.0 0.5067935888 -0.3038850893
1293550000.0 0.2180560807 -0.5745133423
1303500000.0 -0.1726179154 -0.6093328439
1313450000.0 -0.5043056345 -0.3968750264
1323400000.0 -0.638243844 -0.0202480717
1333350000.0 -0.5049956976 0.3651165544
1343300000.0 -0.1522166595 0.5852577447
1353250000.0 0.2632669181 0.5302852581
1363200000.0 0.5496839856 0.2272155098
1373150000.0 0.5839362432 -0.1805240454
1383100000.0 0.3671325811 -0.5153355038
1393050000.0 0.0005451784 -0.6496826128
1403000000.0 -0.3702179879 -0.539215726
1412950000.0 -0.5992332362 -0.2278004768
1422900000.0 -0.5913147366 0.1627347928
1432850000.0 -0.3391060584 0.46654761
1442800000.0 0.0495115686 0.5443813525
1452750000.0 0.3970742174 0.3608193965
1462700000.0 0.5467335136 0.0069801519
1472650000.0 0.4442530024 -0.3506467143
1482600000.0 0.1521491763 -0.5604763514
1492550000.0 -0.1983947081 -0.5438289419
1502500000.0 -0.4590682209 -0.3148654294
1512450000.0 -0.5138686806 0.0277739238
1522400000.0 -0.3312874101 0.3239144311
1532350000.0 -0.0014615769 0.4224874543
1542300000.0 0.3039602625 0.2784976095
1552250000.0 0.4272353677 -0.0241238615
1562200000.0 0.3203338605 -0.318652871
1572150000.0 0.0537064942 -0.46246077
1582100000.0 -0.2349833731 -0.3912871823
1592050000.0 -0.4006865234 -0.1474483948
1602000000.0 -0.3565365606 0.149304911
1611950000.0 -0.116522715 0.3352610635
1621900000.0 0.1893610878 0.3002694653
1631850000.0 0.3843138605 0.0595787355
1641800000.0 0.3539388365 -0.2487635873
1651750000.0 0.1228609982 -0.4508187671
1661700000.0 -0.1871305728 -0.4459354975
1671650000.0 -0.4203747113 -0.2356002405
1681600000.0 -0.4623064349 0.0869083113
1691550000.0 -0.2752703452 0.366740685
1701500000.0 0.0612494859 0.4571126849
1711450000.0 0.3792856181 0.2960689459
1721400000.0 0.5124347174 -0.0377773897
1731350000.0 0.3953313606 -0.3756181047
1741300000.0 0.0940662557 -0.5611942407
1751250000.0 -0.2557137585 -0.5210852316
1761200000.0 -0.510250585 -0.2784116043
1771150000.0 -0.5689684606 0.0743656072
1781100000.0 -0.397885267 0.3962430048
1791050000.0 -0.0564090004 0.5479256559
1801000000.0 0.3081560601 0.4482612425
1810950000.0 0.5268064288 0.1396877136
1820900000.0 0.5013527738 -0.2303350522
1830850000.0 0.2595606469 -0.4973864492
1840800000.0 -0.0820187689 -0.5622892089
1850750000.0 -0.3847957433 -0.4166898043
1860700000.0 -0.541337299 -0.1291046889
1870650000.0 -0.5059285482 0.1889978685
1880600000.0 -0.2883749373 0.424472698
1890550000.0 0.0292635248 0.478959978
1900500000.0 0.3071713599 0.3265015457
1910450000.0 0.4228407233 0.0430975155
1920400000.0 0.3414529359 -0.234417845
1930350000.0 0.1255334709 -0.392676146
1940300000.0 -0.1196875938 -0.3911243554
1950250000.0 -0.2980357414 -0.2585951338
1960200000.0 -0.3573786105 -0.0672365356
1970150000.0 -0.2973112679 0.0983842801
1980100000.0 -0.1704145222 0.1767183417
1990050000.0 -0.0560423485 0.1604255468
2000000000.0 -0.006906932 0.1037429351
