!Created with skrf (http://scikit-rf.org).
# GHz S RI R 50.0 
!freq ReS11 ImS11
10000000.0 -0.9998378956 0.1633255646
19950000.0 -0.9448011346 0.312396298
29900000.0 -0.8670969212 0.4554281674
39850000.0 -0.7658199376 0.597171289
49800000.0 -0.642058664 0.7319904456
59750000.0 -0.4901479873 0.8525857929
69700000.0 -0.3016395538 0.946139758
79650000.0 -0.0727752013 0.9914098558
89600000.0 0.1932948751 0.9671760805
99550000.0 0.4782194409 0.8502424461
109500000.0 0.7493579482 0.6248701749
119450000.0 0.9499110671 0.2847584612
129400000.0 1.005227771 -0.1376102667
139350000.0 0.8710800623 -0.540891903
149300000.0 0.5752846565 -0.8365475203
159250000.0 0.2128448864 -0.9719129836
169200000.0 -0.13417125 -0.9725704544
179150000.0 -0.424679107 -0.8832149752
189100000.0 -0.6476512705 -0.7431906827
199050000.0 -0.8028158245 -0.5761428798
209000000.0 -0.8941477918 -0.3970564508
218950000.0 -0.937512094 -0.2191543582
228900000.0 -0.9445914425 -0.0483484134
238850000.0 -0.9267065515 0.1143597849
248800000.0 -0.8795813933 0.2530810821
258750000.0 -0.8413405598 0.4083127721
268700000.0 -0.7708503373 0.5388072191
278650000.0 -0.6765210036 0.6498347065
288600000.0 -0.5566731087 0.7376522067
298550000.0 -0.4134751015 0.7993174043
308500000.0 -0.2506582392 0.8350824532
318450000.0 -0.0729531681 0.8398032207
328400000.0 0.1129697763 0.8055884425
338350000.0 0.2883737193 0.7198662447
348300000.0 0.4284644153 0.5765423012
358250000.0 0.5019725434 0.386373644
368200000.0 0.4943473944 0.1827655895
378150000.0 0.4150500937 0.0057522796
388100000.0 0.2931684538 -0.118038621
398050000.0 0.1619565614 -0.1793467297
408000000.0 0.0468490991 -0.1840047998
417950000.0 -0.039725633 -0.1479433427
427900000.0 -0.0954582838 -0.0896185015
437850000.0 -0.1259199164 -0.0248659339
447800000.0 -0.1369123013 0.0341873918
457750000.0 -0.1329782072 0.0809715451
467700000.0 -0.1177564526 0.1103117033
477650000.0 -0.0939861708 0.1218157227
487600000.0 -0.0645953652 0.1187776729
497550000.0 -0.0354170989 0.1061898687
507500000.0 -0.0031913806 0.0896950636
517450000.0 0.0195033186 0.068953992
527400000.0 0.0318745052 0.0487977694
537350000.0 0.0303163547 0.0288163679
547300000.0 0.0176469754 0.0098655842
557250000.0 -0.0053507124 -0.0097493728
567200000.0 -0.0343510585 -0.0275275563
577150000.0 -0.0646983173 -0.0414857595
587100000.0 -0.091193109 -0.0490314667
597050000.0 -0.1119954658 -0.046930204
607000000.0 -0.1270088257 -0.0347412515
616950000.0 -0.1374585379 -0.0121510778
626900000.0 -0.1440144095 0.0181176873
636850000.0 -0.1468312187 0.0516804884
646800000.0 -0.1433424142 0.0845030912
656750000.0 -0.1306297099 0.1060149299
666700000.0 -0.1225346623 0.1171830048
676650000.0 -0.1017841657 0.1266408674
686600000.0 -0.0704933164 0.1288334825
696550000.0 -0.0321289029 0.1244033754
706500000.0 0.0089843888 0.1146084599
716450000.0 0.0479340097 0.0992932074
726400000.0 0.0791453566 0.0761072391
736350000.0 0.0990413241 0.0439227133
746300000.0 0.1046600973 0.0012433271
756250000.0 0.0979139477 -0.0505913419
766200000.0 0.0790340205 -0.1078022879
776150000.0 0.0497518655 -0.1652404425
786100000.0 0.0111504936 -0.2157587877
796050000.0 -0.0359785839 -0.2527396216
806000000.0 -0.090849089 -0.2715462498
815950000.0 -0.1530365074 -0.2697710745
825900000.0 -0.2200774493 -0.2494029111
835850000.0 -0.2884798497 -0.2137088208
845800000.0 -0.3531510365 -0.1668761749
855750000.0 -0.408613139 -0.1116812882
865700000.0 -0.4488928246 -0.0487190097
875650000.0 -0.468831559 0.02116163
885600000.0 -0.4651863895 0.0978553552
895550000.0 -0.4384193553 0.1802483188
905500000.0 -0.3901244702 0.2664594721
915450000.0 -0.3215785143 0.3511201292
925400000.0 -0.2300221946 0.4237353205
935350000.0 -0.1149987362 0.4671927379
945300000.0 0.0103963694 0.4554618535
955250000.0 0.0960356484 0.3784731309
965200000.0 0.129782754 0.3210543761
975150000.0 0.2194501435 0.2939531927
985100000.0 0.3452729159 0.2097048118
995050000.0 0.4506567129 0.054123165
1005000000.0 0.4883756184 -0.1552377953
1014950000.0 0.4267791851 -0.3809720686
1024900000.0 0.2520061408 -0.5780879283
1034850000.0 -0.0179032141 -0.6915450106
1044800000.0 -0.3290487963 -0.6836466468
1054750000.0 -0.6160432614 -0.5467283656
1064700000.0 -0.8134763237 -0.303179732
1074650000.0 -0.8900283523 -0.0142095237
1084600000.0 -0.8371809685 0.2873017087
1094550000.0 -0.6515091664 0.5317205177
1104500000.0 -0.4514614427 0.7088594456
1114450000.0 -0.1657678549 0.8142234805
1124400000.0 0.1323484626 0.8013919257
1134350000.0 0.3906726667 0.6745104945
1144300000.0 0.5692104762 0.4612041962
1154250000.0 0.6521612068 0.210277743
1164200000.0 0.6498215227 -0.0340898846
1174150000.0 0.5920046128 -0.241311737
1184100000.0 0.4966641728 -0.4130719859
1194050000.0 0.3684875575 -0.5375078742
1204000000.0 0.2240431853 -0.6093074311
1213950000.0 0.0778904357 -0.6361470676
1223900000.0 -0.0601358306 -0.6320087219
1233850000.0 -0.1853996836 -0.6101330659
1243800000.0 -0.2959312178 -0.5779869977
1253750000.0 -0.3913442963 -0.5382536823
1263700000.0 -0.4691714448 -0.4894106128
1273650000.0 -0.5300674048 -0.4329726152
1283600000.0 -0.5740765461 -0.3672581613
1293550000.0 -0.6058558472 -0.2943890636
1303500000.0 -0.6298195555 -0.2180758779
1313450000.0 -0.6500681585 -0.1421334285
1323400000.0 -0.6690758642 -0.0693511199
1333350000.0 -0.6838009472 -0.0008450109
1343300000.0 -0.6916737796 0.0636914806
1353250000.0 -0.688936737 0.1234993267
1363200000.0 -0.6728737657 0.1804212936
1373150000.0 -0.6430040595 0.2367079799
1383100000.0 -0.6039195321 0.2927463895
1393050000.0 -0.5601665458 0.3495059107
1403000000.0 -0.5158334169 0.4051886858
1412950000.0 -0.4711942165 0.4575920522
1422900000.0 -0.425425 0.5040529277
1432850000.0 -0.3765821034 0.5401691953
1442800000.0 -0.3213035221 0.5654954184
1452750000.0 -0.2575346744 0.5793487146
1462700000.0 -0.1849292168 0.5838794262
1472650000.0 -0.105343388 0.5826000543
1482600000.0 -0.0224339123 0.5771752282
1492550000.0 0.0600052507 0.5659244355
1502500000.0 0.1390236061 0.5457066183
1512450000.0 0.2118180589 0.5124811315
1522400000.0 0.2753155652 0.4622755365
1532350000.0 0.3293316672 0.3937363969
1542300000.0 0.3740935349 0.3091663703
1552250000.0 0.4103055093 0.2126540641
1562200000.0 0.4369896244 0.1110103852
1572150000.0 0.4509305777 0.0081143607
1582100000.0 0.4466671945 -0.0919798895
1592050000.0 0.4221541835 -0.1848292452
1602000000.0 0.3753252339 -0.268036053
1611950000.0 0.3095850269 -0.3396151911
1621900000.0 0.2301279865 -0.401429401
1631850000.0 0.1433418877 -0.454233931
1641800000.0 0.0540298268 -0.497948737
1651750000.0 -0.0344567929 -0.5293528173
1661700000.0 -0.119773444 -0.5451663748
1671650000.0 -0.1992015092 -0.5418732581
1681600000.0 -0.2725852434 -0.5206495461
1691550000.0 -0.3412355581 -0.4859488203
1701500000.0 -0.4064940071 -0.4424360717
1711450000.0 -0.4686479691 -0.3958771305
1721400000.0 -0.5265246138 -0.3485803334
1731350000.0 -0.5781804712 -0.303162537
1741300000.0 -0.6196024991 -0.257132608
1751250000.0 -0.6475923055 -0.2075459763
1761200000.0 -0.661513057 -0.1540491163
1771150000.0 -0.6632440766 -0.0945739686
1781100000.0 -0.6568842016 -0.0291538107
1791050000.0 -0.6399868844 0.0425799396
1801000000.0 -0.5667427378 0.0955158818
1810950000.0 -0.6232537351 0.0254817201
1820900000.0 -0.6698325606 0.1103727489
1830850000.0 -0.6715005749 0.1675819946
1840800000.0 -0.658235973 0.2134422071
1850750000.0 -0.632853218 0.2521087973
1860700000.0 -0.596249961 0.2869911758
1870650000.0 -0.5547045804 0.3201080899
1880600000.0 -0.5133139868 0.3511041885
1890550000.0 -0.4761160911 0.3797957963
1900500000.0 -0.4444783175 0.4037306788
1910450000.0 -0.4161527014 0.42029574
1920400000.0 -0.3888445189 0.4285606117
1930350000.0 -0.3579129479 0.4264340517
1940300000.0 -0.3230511718 0.4150547245
1950250000.0 -0.2837317639 0.3969606878
1960200000.0 -0.2420784243 0.3759469388
1970150000.0 -0.2047355363 0.3527888294
1980100000.0 -0.1759792727 0.3284598108
1990050000.0 -0.1593207899 0.3009546941
2000000000.0 -0.1574012347 0.2683075275
