!Created with skrf (http://scikit-rf.org).
# GHz S RI R 50.0 
!freq ReS11 ImS11
10000000.0 -0.750125918 0.5732929589
19950000.0 -0.2739136156 0.9050989965
29900000.0 0.3076258942 0.8924088012
39850000.0 0.7793488264 0.5293321799
49800000.0 0.9444567845 -0.0615531074
59750000.0 0.7079126558 -0.6483874958
69700000.0 0.1422392026 -0.964387502
79650000.0 -0.5071850611 -0.8320883303
89600000.0 -0.9165704808 -0.2790051952
99550000.0 -0.8418479927 0.4381995797
109500000.0 -0.2636601828 0.9213663099
119450000.0 0.5197665834 0.8251590776
129400000.0 0.9769122239 0.1391351302
139350000.0 0.7309255467 -0.6628714635
149300000.0 -0.0382077429 -0.9644072295
159250000.0 -0.734928568 -0.5774038928
169200000.0 -0.9062818882 0.1620872713
179150000.0 -0.520911284 0.764142417
189100000.0 0.1337597574 0.9177306666
199050000.0 0.6944485913 0.599509981
209000000.0 0.9068389883 0.0076299112
218950000.0 0.7066970881 -0.5614705746
228900000.0 0.210682743 -0.872101554
238850000.0 -0.3603352116 -0.8119470155
248800000.0 -0.7708607678 -0.4056306149
258750000.0 -0.8720750974 0.1330595215
268700000.0 -0.622694243 0.6388743687
278650000.0 -0.1281615038 0.889402175
288600000.0 0.4103897204 0.7856428722
298550000.0 0.7736908128 0.37067737
308500000.0 0.8085905567 -0.1857770399
318450000.0 0.4911420494 -0.6424292844
328400000.0 -0.037517034 -0.7889297958
338350000.0 -0.5186524365 -0.5532630585
348300000.0 -0.7001351374 -0.0706708517
358250000.0 -0.5057589402 0.3703080473
368200000.0 -0.0987202922 0.5221705434
378150000.0 0.2382781332 0.3558255823
388100000.0 0.3260599662 0.0534707504
398050000.0 0.1902253121 -0.1603220293
408000000.0 -0.0077149084 -0.1850953763
417950000.0 -0.1216484088 -0.0740248962
427900000.0 -0.10604845 0.0546591235
437850000.0 -0.0106718828 0.1074584891
447800000.0 0.0798101773 0.0640958612
457750000.0 0.1053862408 -0.028775739
467700000.0 0.057475953 -0.1087432527
477650000.0 -0.0247841577 -0.129797706
487600000.0 -0.0919231386 -0.0891892766
497550000.0 -0.1109102618 -0.0186169364
507500000.0 -0.0837354405 0.049347764
517450000.0 -0.0239076321 0.0744941154
527400000.0 0.027203243 0.0575650048
537350000.0 0.0438300795 0.0171015453
547300000.0 0.0242046164 -0.0135682187
557250000.0 -0.0104776432 -0.0152792708
567200000.0 -0.0313492902 0.0112486907
577150000.0 -0.0184843917 0.0435292558
587100000.0 0.0232579424 0.0527125652
597050000.0 0.0692720488 0.0205059362
607000000.0 0.0845363312 -0.044291737
616950000.0 0.0524884911 -0.1111868929
626900000.0 -0.0190925969 -0.1456135093
636850000.0 -0.0996514623 -0.1218969263
646800000.0 -0.1506916915 -0.0467469588
656750000.0 -0.1452427227 0.0503040724
666700000.0 -0.0794002928 0.1273327006
676650000.0 0.0212762462 0.1473006568
686600000.0 0.1141245022 0.0971306976
696550000.0 0.1564746977 -0.001732261
706500000.0 0.1261273453 -0.1062975201
716450000.0 0.038471478 -0.1677392543
726400000.0 -0.0644974866 -0.1541684689
736350000.0 -0.1272198178 -0.0745231501
746300000.0 -0.1144792797 0.0292399917
756250000.0 -0.0295689025 0.0998969494
766200000.0 0.0836623186 0.0933855991
776150000.0 0.1627523255 0.0101864576
786100000.0 0.1586742441 -0.1077171022
796050000.0 0.0657385269 -0.191427456
806000000.0 -0.0716764542 -0.1832953936
815950000.0 -0.1798297361 -0.0731012603
825900000.0 -0.1899921249 0.094955226
835850000.0 -0.0831841342 0.2385332822
845800000.0 0.0983416341 0.279715042
855750000.0 0.2734935756 0.1884609153
865700000.0 0.3576797563 -0.0055184803
875650000.0 0.2970836508 -0.2216290452
885600000.0 0.1006108114 -0.3543633071
895550000.0 -0.150540606 -0.324954729
905500000.0 -0.3329841883 -0.1275704482
915450000.0 -0.3445689758 0.1560515835
925400000.0 -0.1648215566 0.3841855965
935350000.0 0.1244219545 0.4344181763
945300000.0 0.3773261029 0.2659052818
955250000.0 0.4463060271 -0.05536031
965200000.0 0.2509193709 -0.3602983722
975150000.0 -0.140385806 -0.4326883734
985100000.0 -0.4796524728 -0.1574244248
995050000.0 -0.4838000752 0.3151461623
1005000000.0 -0.0892884681 0.6401389502
1014950000.0 0.4479881397 0.5202821772
1024900000.0 0.706569812 -0.0154791427
1034850000.0 0.4421481383 -0.5879613754
1044800000.0 -0.1890234889 -0.74258382
1054750000.0 -0.7094816532 -0.3391441362
1064700000.0 -0.7347040742 0.3003865444
1074650000.0 -0.3017517411 0.6984432371
1084600000.0 0.10111647 0.6977674361
1094550000.0 0.6002847195 0.4645753413
1104500000.0 0.7188748873 -0.1185081585
1114450000.0 0.3783820121 -0.5966305997
1124400000.0 -0.173855287 -0.673399587
1134350000.0 -0.5836067793 -0.3509537755
1144300000.0 -0.6497612549 0.1306252898
1154250000.0 -0.3922535314 0.5085559342
1164200000.0 0.0322688593 0.6148280256
1174150000.0 0.4120508235 0.4157693758
1184100000.0 0.5611753201 0.0129607627
1194050000.0 0.3972862007 -0.3796460811
1204000000.0 0.026507377 -0.5509300056
1213950000.0 -0.3442321592 -0.4450277564
1223900000.0 -0.5587339679 -0.1490641161
1233850000.0 -0.5557741261 0.2018757666
1243800000.0 -0.3502370385 0.4795996738
1253750000.0 -0.016178406 0.5815377654
1263700000.0 0.3227234395 0.4567525257
1273650000.0 0.5227135951 0.1454914046
1283600000.0 0.4977813004 -0.2213950702
1293550000.0 0.2724096714 -0.4943053143
1303500000.0 -0.0497303036 -0.5860182833
1313450000.0 -0.3524676378 -0.4901479813
1323400000.0 -0.5539979235 -0.2531513117
1333350000.0 -0.6071322276 0.0569201067
1343300000.0 -0.487360154 0.3587160837
1353250000.0 -0.208491484 0.5492546069
1363200000.0 0.1439875216 0.5435007974
1373150000.0 0.4341794571 0.3273992546
1383100000.0 0.5477756088 -0.0107754315
1393050000.0 0.4584362213 -0.3417822358
1403000000.0 0.2195846235 -0.5589254404
1412950000.0 -0.0778735847 -0.6112815938
1422900000.0 -0.347147499 -0.5004293391
1432850000.0 -0.5188698451 -0.2579587647
1442800000.0 -0.5397906816 0.0547490795
1452750000.0 -0.3784339166 0.3402795099
1462700000.0 -0.0756183708 0.4841375769
1472650000.0 0.2519090466 0.4261598156
1482600000.0 0.4769718308 0.1954958269
1492550000.0 0.5268853546 -0.1086080881
1502500000.0 0.4020847576 -0.3765074494
1512450000.0 0.1565660996 -0.5226859687
1522400000.0 -0.1239229108 -0.5023190095
1532350000.0 -0.341538425 -0.3169262167
1542300000.0 -0.4108785087 -0.0276704769
1552250000.0 -0.2906111635 0.2522979629
1562200000.0 -0.0283363381 0.4003519088
1572150000.0 0.2581915741 0.3588217671
1582100000.0 0.4507240273 0.1601078253
1592050000.0 0.4833708921 -0.10743045
1602000000.0 0.3475763008 -0.34018803
1611950000.0 0.09141115 -0.4493914471
1621900000.0 -0.1909528561 -0.3816183046
1631850000.0 -0.3851805931 -0.1459786244
1641800000.0 -0.3984983006 0.1662913912
1651750000.0 -0.2168565245 0.422005797
1661700000.0 0.0773417528 0.513182318
1671650000.0 0.3624980702 0.4143930359
1681600000.0 0.5378900736 0.1737911822
1691550000.0 0.550833496 -0.1243241705
1701500000.0 0.3952564878 -0.3865769133
1711450000.0 0.1136247596 -0.5237247005
1721400000.0 -0.2107339787 -0.4762951944
1731350000.0 -0.4609132134 -0.2439384217
1741300000.0 -0.5383252976 0.0930220412
1751250000.0 -0.4166431651 0.4070479744
1761200000.0 -0.1520262124 0.5912699117
1771150000.0 0.1582814767 0.6031089197
1781100000.0 0.4225936372 0.4552817486
1791050000.0 0.5752268711 0.1938952351
1801000000.0 0.5756315624 -0.115236463
1810950000.0 0.4159397404 -0.3881985127
1820900000.0 0.1304708563 -0.5389988179
1830850000.0 -0.1981447511 -0.5029462327
1840800000.0 -0.4528161624 -0.2868221833
1850750000.0 -0.5459279044 0.0247176285
1860700000.0 -0.4653291518 0.3190820693
1870650000.0 -0.2600040694 0.5159885385
1880600000.0 -0.0008352547 0.5762146126
1890550000.0 0.2395603055 0.4977714933
1900500000.0 0.4004745854 0.3080007334
1910450000.0 0.4426863559 0.0621138077
1920400000.0 0.3568844604 -0.1707504145
1930350000.0 0.1660856153 -0.3214254974
1940300000.0 -0.0666273246 -0.3414009762
1950250000.0 -0.2562360999 -0.2372733963
1960200000.0 -0.3478657432 -0.0677598413
1970150000.0 -0.3353015912 0.0978819562
1980100000.0 -0.248988929 0.2066338323
1990050000.0 -0.1430563048 0.2338583164
2000000000.0 -0.0764226753 0.1930506472
