!Created with skrf (http://scikit-rf.org).
# GHz S RI R 50.0 
!freq ReS11 ImS11
10000000.0 -0.7461022094 0.5765692047
19950000.0 -0.265634621 0.9122329323
29900000.0 0.3223824894 0.9000778005
39850000.0 0.7967326994 0.5321686946
49800000.0 0.9558868573 -0.0640247544
59750000.0 0.708420921 -0.6481616724
69700000.0 0.1364426255 -0.9537475299
79650000.0 -0.5116886858 -0.8128979164
89600000.0 -0.9174668245 -0.2576015377
99550000.0 -0.8373607188 0.4576199048
109500000.0 -0.2530152892 0.9316353421
119450000.0 0.5257860078 0.8188905946
129400000.0 0.9632832698 0.1271464814
139350000.0 0.7048052837 -0.6600223813
149300000.0 -0.060799031 -0.9504910343
159250000.0 -0.7513814646 -0.5605122391
169200000.0 -0.913621529 0.1800570004
179150000.0 -0.5143141281 0.7752428825
189100000.0 0.1476770623 0.9116424517
199050000.0 0.7023511034 0.577968144
209000000.0 0.901661615 -0.0186362411
218950000.0 0.6894600419 -0.5850652038
228900000.0 0.1845897012 -0.8872554703
238850000.0 -0.3889890063 -0.8138876207
248800000.0 -0.7676833005 -0.4155053156
258750000.0 -0.8756695409 0.1476222468
268700000.0 -0.6108333673 0.6448663312
278650000.0 -0.1093358901 0.8825498779
288600000.0 0.4289161774 0.7695330937
298550000.0 0.7887622445 0.3507149877
308500000.0 0.8179657119 -0.2043809339
318450000.0 0.4964666805 -0.6557026925
328400000.0 -0.031663853 -0.795226217
338350000.0 -0.5085211082 -0.5577537979
348300000.0 -0.691555946 -0.0799914498
358250000.0 -0.5055726036 0.3615019923
368200000.0 -0.1070654441 0.5248564885
378150000.0 0.2323908831 0.3717321542
388100000.0 0.3296356081 0.0767894712
398050000.0 0.2019157407 -0.1372352518
408000000.0 0.0077737844 -0.1670263744
417950000.0 -0.1025867038 -0.0601294462
427900000.0 -0.0860146053 0.060730788
437850000.0 0.0056959326 0.1041574173
447800000.0 0.0891922281 0.0564979881
457750000.0 0.1035995802 -0.0397051072
467700000.0 0.0463946462 -0.117367141
477650000.0 -0.0448515324 -0.1333510017
487600000.0 -0.1192959948 -0.0832103932
497550000.0 -0.1364347879 -0.0023568473
507500000.0 -0.1027733775 0.0713313014
517450000.0 -0.0333027075 0.100397306
527400000.0 0.027152113 0.0786005167
537350000.0 0.051803842 0.0292384507
547300000.0 0.0373005195 -0.0156847535
557250000.0 0.0016170676 -0.0319783231
567200000.0 -0.0248954172 -0.016028044
577150000.0 -0.0209988831 0.0120413717
587100000.0 0.0120117649 0.0221191813
597050000.0 0.0494865155 -0.0022472619
607000000.0 0.0631552943 -0.0559445446
616950000.0 0.033786919 -0.1122714788
626900000.0 -0.031109967 -0.1360873521
636850000.0 -0.1020531678 -0.108539588
646800000.0 -0.1418511092 -0.0335570165
656750000.0 -0.1264720099 0.0598093943
666700000.0 -0.0538679885 0.1286536665
676650000.0 0.0487165859 0.1391390803
686600000.0 0.1377104175 0.082134896
696550000.0 0.1723855916 -0.0223908796
706500000.0 0.1348392264 -0.1254100565
716450000.0 0.0390632175 -0.1796008204
726400000.0 -0.068376288 -0.1582328305
736350000.0 -0.1339428644 -0.0687831756
746300000.0 -0.1213555263 0.0437550198
756250000.0 -0.0334053317 0.1199889516
766200000.0 0.083233413 0.1177309943
776150000.0 0.1659808752 0.0337987987
786100000.0 0.1655143809 -0.0848876589
796050000.0 0.0750288894 -0.1725031759
806000000.0 -0.0607023294 -0.171757983
815950000.0 -0.1689458876 -0.0697755886
825900000.0 -0.1861728226 0.0888014569
835850000.0 -0.0884831497 0.2292710164
845800000.0 0.0874594879 0.2729523649
855750000.0 0.2594984858 0.1844129183
865700000.0 0.3403931067 -0.0074621774
875650000.0 0.2767524629 -0.2191457232
885600000.0 0.0806054397 -0.3480559287
895550000.0 -0.1665144913 -0.3144856847
905500000.0 -0.3410382061 -0.1194870975
915450000.0 -0.3513215603 0.1523161362
925400000.0 -0.1806859464 0.3767330504
935350000.0 0.1014858028 0.437441719
945300000.0 0.3616554565 0.2886147434
955250000.0 0.4612845135 -0.0145946408
965200000.0 0.3168151859 -0.3289346155
975150000.0 -0.0352285777 -0.4617065925
985100000.0 -0.4018581634 -0.2807273649
995050000.0 -0.5187924259 0.1447179852
1005000000.0 -0.2597864543 0.5379529934
1014950000.0 0.2414275128 0.6032886039
1024900000.0 0.6491619723 0.2260033363
1034850000.0 0.6065233546 -0.3881921902
1044800000.0 0.0530204977 -0.7499696223
1054750000.0 -0.5843380336 -0.5090459127
1064700000.0 -0.7800663026 0.1267239068
1074650000.0 -0.4797179455 0.6658534825
1084600000.0 0.1159972403 0.8180829423
1094550000.0 0.627148604 0.4916859914
1104500000.0 0.746255974 -0.1043992316
1114450000.0 0.40010318 -0.5961683311
1124400000.0 -0.1660400292 -0.6780197582
1134350000.0 -0.5887113919 -0.3536033435
1144300000.0 -0.6652077011 0.1341432332
1154250000.0 -0.4126792931 0.5207711423
1164200000.0 0.0121630795 0.636222374
1174150000.0 0.3959140357 0.44687234
1184100000.0 0.5590999349 0.0514591583
1194050000.0 0.4162150736 -0.3504925903
1204000000.0 0.0552455841 -0.547452192
1213950000.0 -0.324701767 -0.4673551289
1223900000.0 -0.5580776799 -0.1852895401
1233850000.0 -0.5745577995 0.1660629248
1243800000.0 -0.3819739421 0.4539011616
1253750000.0 -0.0533437008 0.5700357211
1263700000.0 0.2878691302 0.4619478482
1273650000.0 0.5000307562 0.1646565944
1283600000.0 0.4933800999 -0.2004369066
1293550000.0 0.2821950048 -0.4826660164
1303500000.0 -0.0357170348 -0.5866654664
1313450000.0 -0.3417343146 -0.4994408719
1323400000.0 -0.5462574371 -0.2653534874
1333350000.0 -0.5971781852 0.0449734871
1343300000.0 -0.472807519 0.3436253809
1353250000.0 -0.1914098894 0.5292612403
1363200000.0 0.1575428677 0.5186656513
1373150000.0 0.4414185398 0.3038072548
1383100000.0 0.5484292154 -0.0305907268
1393050000.0 0.4532607321 -0.3533338022
1403000000.0 0.20786419 -0.5584995664
1412950000.0 -0.089884991 -0.597062537
1422900000.0 -0.3534408711 -0.4737422489
1432850000.0 -0.5144843583 -0.2224285441
1442800000.0 -0.5178989683 0.0903314457
1452750000.0 -0.3423586962 0.3632870946
1462700000.0 -0.0350981126 0.4878109257
1472650000.0 0.283365134 0.4098543857
1482600000.0 0.490180326 0.1689745139
1492550000.0 0.5194269242 -0.1329758958
1502500000.0 0.3800269141 -0.3887530752
1512450000.0 0.1288029443 -0.5197565363
1522400000.0 -0.1501838136 -0.486149208
1532350000.0 -0.3632277208 -0.2926105691
1542300000.0 -0.4232081116 0.0004459351
1552250000.0 -0.2933267095 0.2776189773
1562200000.0 -0.024638791 0.4157241743
1572150000.0 0.262514632 0.364337685
1582100000.0 0.4525828355 0.1586243536
1592050000.0 0.4823079727 -0.1103810823
1602000000.0 0.3503495945 -0.3449863027
1611950000.0 0.0996225996 -0.4615634193
1621900000.0 -0.1837985887 -0.4041124605
1631850000.0 -0.385592906 -0.1773251666
1641800000.0 -0.4085602481 0.1337853402
1651750000.0 -0.238085234 0.3946055891
1661700000.0 0.0478440535 0.4985355236
1671650000.0 0.3321812035 0.4185110458
1681600000.0 0.5210809524 0.1938048156
1691550000.0 0.5528195828 -0.0963633841
1701500000.0 0.4175675956 -0.3623379079
1711450000.0 0.146840678 -0.514098444
1721400000.0 -0.1757094413 -0.4815675996
1731350000.0 -0.4229341595 -0.2640850278
1741300000.0 -0.5113430523 0.0625502496
1751250000.0 -0.404914106 0.3739375683
1761200000.0 -0.1561779604 0.5660090683
1771150000.0 0.143384103 0.5929730686
1781100000.0 0.4122369569 0.4622230571
1791050000.0 0.5694302814 0.210996343
1801000000.0 0.5746421817 -0.0932634057
1810950000.0 0.4164813845 -0.3652584042
1820900000.0 0.1308408508 -0.5131332865
1830850000.0 -0.1942691778 -0.4762744203
1840800000.0 -0.4430290559 -0.2653654377
1850750000.0 -0.5345958608 0.0355990336
1860700000.0 -0.4588457108 0.3214703613
1870650000.0 -0.2598705478 0.5137919375
1880600000.0 -0.00554666 0.5731607207
1890550000.0 0.2339198505 0.4943668701
1900500000.0 0.395884653 0.302108014
1910450000.0 0.4342791407 0.0489645125
1920400000.0 0.3337741047 -0.187200786
1930350000.0 0.1277299561 -0.3263057929
1940300000.0 -0.104873584 -0.3280686907
1950250000.0 -0.281839279 -0.2131937223
1960200000.0 -0.3570598104 -0.0451969762
1970150000.0 -0.3317066207 0.1113440438
1980100000.0 -0.2387110548 0.2079176857
1990050000.0 -0.1300146435 0.2242568349
2000000000.0 -0.0600845767 0.1747877554
