!Created with skrf (http://scikit-rf.org).
# GHz S RI R 50.0 
!freq ReS11 ImS11
10000000.0 -0.7459091077 0.6708092177
19950000.0 -0.1164105347 0.9810044378
29900000.0 0.5617104103 0.8014622144
39850000.0 0.9564003527 0.2092153243
49800000.0 0.8478168953 -0.507011542
59750000.0 0.2666081606 -0.9633574718
69700000.0 -0.482148618 -0.8817146869
79650000.0 -0.9576495487 -0.2790361206
89600000.0 -0.8449792372 0.4978097255
99550000.0 -0.1723858145 0.9489663925
109500000.0 0.6386774829 0.7162415325
119450000.0 0.9641617159 -0.1046640302
129400000.0 0.4623695194 -0.8684129133
139350000.0 -0.4617821189 -0.8687451645
149300000.0 -0.9597183488 -0.1071461774
159250000.0 -0.6254238726 0.7083233375
169200000.0 0.19987683 0.9161009596
179150000.0 0.8519387663 0.411350982
189100000.0 0.8783798484 -0.3873533816
199050000.0 0.3138200783 -0.9129055447
209000000.0 -0.4263845917 -0.8570184755
218950000.0 -0.8869940594 -0.3130860108
228900000.0 -0.8449324729 0.377738176
238850000.0 -0.3547006897 0.8479841217
248800000.0 0.3240268625 0.8593686057
258750000.0 0.8277137017 0.4310686916
268700000.0 0.909707646 -0.2367969403
278650000.0 0.5174571362 -0.7782587316
288600000.0 -0.1307139663 -0.9061829975
298550000.0 -0.6848858579 -0.5654501579
308500000.0 -0.8566903827 0.054149247
318450000.0 -0.5564873636 0.6151414334
328400000.0 0.0453079878 0.7988894883
338350000.0 0.5796342741 0.494596653
348300000.0 0.6993478668 -0.0801274545
358250000.0 0.3629041311 -0.5048817558
368200000.0 -0.1176502481 -0.5085373759
378150000.0 -0.3711080419 -0.1863510026
388100000.0 -0.2832383968 0.1405618919
398050000.0 -0.0289233667 0.2336846718
408000000.0 0.1407631567 0.1047442357
417950000.0 0.1201900633 -0.0633849447
427900000.0 -0.0126427785 -0.1193786117
437850000.0 -0.1159080641 -0.0420420363
447800000.0 -0.1098520421 0.0803495371
457750000.0 -0.0088620497 0.1469950455
467700000.0 0.1037494194 0.1123722046
477650000.0 0.1494723677 0.0082505853
487600000.0 0.1067829453 -0.0904403112
497550000.0 0.0164470263 -0.1258409601
507500000.0 -0.0649045168 -0.0940414755
517450000.0 -0.0907162002 -0.0255813186
527400000.0 -0.0662666891 0.025312696
537350000.0 -0.0267006293 0.0343136042
547300000.0 -0.0089280635 0.0146285264
557250000.0 -0.020545811 0.0006536298
567200000.0 -0.0405036661 0.016111912
577150000.0 -0.0352316108 0.0528349592
587100000.0 0.0120749181 0.0774429518
597050000.0 0.0777067798 0.0575187644
607000000.0 0.1162388326 -0.0172787813
616950000.0 0.0919194049 -0.1124309497
626900000.0 0.0020324122 -0.1705706672
636850000.0 -0.1126383357 -0.1519308289
646800000.0 -0.1899434307 -0.0554886022
656750000.0 -0.180346797 0.0722767964
666700000.0 -0.0831630635 0.1638170218
676650000.0 0.0523591554 0.1634064706
686600000.0 0.1536054663 0.0715281518
696550000.0 0.1637969002 -0.0637170994
706500000.0 0.0822778974 -0.1654007195
716450000.0 -0.0426273061 -0.1772427014
726400000.0 -0.1338333404 -0.1009061839
736350000.0 -0.1352470156 0.0111582172
746300000.0 -0.052304329 0.081764254
756250000.0 0.0529055289 0.0612573766
766200000.0 0.1003860072 -0.0348269227
776150000.0 0.048892223 -0.1351252714
786100000.0 -0.0689741561 -0.1547524248
796050000.0 -0.16876491 -0.0658988943
806000000.0 -0.1608816799 0.086238672
815950000.0 -0.0289870419 0.1941436782
825900000.0 0.1611993996 0.1667079595
835850000.0 0.2830621018 -0.0034670727
845800000.0 0.2444780853 -0.2262442528
855750000.0 0.0472060994 -0.3604530515
865700000.0 -0.1998355709 -0.3148163614
875650000.0 -0.3531113826 -0.1085067644
885600000.0 -0.3166444162 0.1643367499
895550000.0 -0.0927285042 0.3492616713
905500000.0 0.2101437027 0.3199796039
915450000.0 0.408910748 0.0734527365
925400000.0 0.3697885382 -0.251121141
935350000.0 0.1012139471 -0.448069543
945300000.0 -0.2392970006 -0.3802076875
955250000.0 -0.4191018991 -0.0635534252
965200000.0 -0.2821943094 0.2974361026
975150000.0 0.1175537351 0.4104366928
985100000.0 0.4652671382 0.1218081301
995050000.0 0.4108152216 -0.3664831448
1005000000.0 -0.0741579693 -0.6039216629
1014950000.0 -0.5825768265 -0.2939408415
1024900000.0 -0.60454222 0.3591187294
1034850000.0 -0.0233453834 0.7605864987
1044800000.0 0.6602432743 0.4824491996
1054750000.0 0.8212821242 -0.2402786482
1064700000.0 0.3498175961 -0.7880399966
1074650000.0 -0.348939096 -0.7682721722
1084600000.0 -0.7724960205 -0.2493410545
1094550000.0 -0.6772720582 0.4136598181
1104500000.0 -0.1055471325 0.7617772664
1114450000.0 0.5092288903 0.5434942082
1124400000.0 0.7174929285 -0.0414611227
1134350000.0 0.4227808181 -0.5430604823
1144300000.0 -0.1135217824 -0.6458427295
1154250000.0 -0.5262655264 -0.3311225728
1164200000.0 -0.5660310883 0.1669077191
1174150000.0 -0.224315191 0.5149746067
1184100000.0 0.2492922955 0.4819519711
1194050000.0 0.524015499 0.1149697211
1204000000.0 0.4400983227 -0.3178371297
1213950000.0 0.083203433 -0.5488340619
1223900000.0 -0.3215076895 -0.4665122435
1233850000.0 -0.5578866115 -0.132324549
1243800000.0 -0.5013650843 0.274867623
1253750000.0 -0.1803219689 0.5366454211
1263700000.0 0.2354185507 0.5095187135
1273650000.0 0.5228274218 0.2113330968
1283600000.0 0.5448352763 -0.1963873539
1293550000.0 0.3051087779 -0.5179421724
1303500000.0 -0.076365164 -0.6163462782
1313450000.0 -0.4372004223 -0.4592404465
1323400000.0 -0.6247557226 -0.1075207089
1333350000.0 -0.5501738136 0.2893484616
1343300000.0 -0.2333505568 0.5533562914
1353250000.0 0.1834802448 0.552779604
1363200000.0 0.502599783 0.2870102843
1373150000.0 0.5817402462 -0.1136440402
1383100000.0 0.4005085942 -0.466712944
1393050000.0 0.0478697118 -0.6339398317
1403000000.0 -0.3276369681 -0.5532599128
1412950000.0 -0.5772408441 -0.2622421873
1422900000.0 -0.5938723435 0.1240536057
1432850000.0 -0.3618370309 0.4386112647
1442800000.0 0.0190921214 0.5353594695
1452750000.0 0.3714379418 0.3670051922
1462700000.0 0.5313909111 0.01970841
1472650000.0 0.4379921273 -0.3399843362
1482600000.0 0.1476701919 -0.5533721205
1492550000.0 -0.2033728682 -0.5359244421
1502500000.0 -0.4608784193 -0.3023787309
1512450000.0 -0.5064868451 0.0420971375
1522400000.0 -0.3140831765 0.3318548321
1532350000.0 0.0206463856 0.4180264821
1542300000.0 0.3220686664 0.2572739961
1552250000.0 0.4303122632 -0.0558893163
1562200000.0 0.3023816701 -0.3498171392
1572150000.0 0.0192314121 -0.4758573035
1582100000.0 -0.2701757123 -0.3820354303
1592050000.0 -0.4221819719 -0.1181420435
1602000000.0 -0.3564506988 0.1853859793
1611950000.0 -0.0951321902 0.3638768468
1621900000.0 0.2242534799 0.3105224207
1631850000.0 0.4176968233 0.0477383116
1641800000.0 0.3761125409 -0.2758931677
1651750000.0 0.1253384866 -0.4850000443
1661700000.0 -0.2026405292 -0.4752644894
1671650000.0 -0.4499780246 -0.2506110881
1681600000.0 -0.4946322591 0.0898502394
1691550000.0 -0.3023630759 0.3894801002
1701500000.0 0.0503524481 0.4938431655
1711450000.0 0.3917458078 0.3357526741
1721400000.0 0.5458184331 -0.0111440413
1731350000.0 0.4389245659 -0.3727421664
1741300000.0 0.1311620198 -0.5816836906
1751250000.0 -0.2367504924 -0.5575516267
1761200000.0 -0.5157674681 -0.3180955673
1771150000.0 -0.5985596766 0.0441794283
1781100000.0 -0.4439556528 0.3897868305
1791050000.0 -0.1025991618 0.5725391551
1801000000.0 0.2848061962 0.5007425785
1810950000.0 0.5405359703 0.1989300108
1820900000.0 0.5487326686 -0.1906636612
1830850000.0 0.319321294 -0.4935005191
1840800000.0 -0.0348380812 -0.5937561651
1850750000.0 -0.370219121 -0.4693314952
1860700000.0 -0.5667877232 -0.1786415241
1870650000.0 -0.5562828205 0.1689149681
1880600000.0 -0.3409379876 0.4412672743
1890550000.0 -0.0052384712 0.5254281145
1900500000.0 0.3055332878 0.3843144754
1910450000.0 0.4539480565 0.0897734021
1920400000.0 0.3910410134 -0.2181794807
1930350000.0 0.1688146067 -0.4095149962
1940300000.0 -0.0998962201 -0.4294505305
1950250000.0 -0.3100010885 -0.2991988761
1960200000.0 -0.3962435714 -0.0888366726
1970150000.0 -0.3434770757 0.1106297017
1980100000.0 -0.1978195458 0.2200465387
1990050000.0 -0.0416054628 0.2069165318
2000000000.0 0.0383271175 0.122632154
