!Created with skrf (http://scikit-rf.org).
# GHz S RI R 50.0 
!freq ReS11 ImS11
10000000.0 -0.7837348254 0.5907618437
19950000.0 -0.2848312321 0.9258478073
29900000.0 0.3151536071 0.9031912826
39850000.0 0.7956176568 0.5249168527
49800000.0 0.9603309373 -0.0814122759
59750000.0 0.7122011696 -0.6806333472
69700000.0 0.1235092222 -0.9957649289
79650000.0 -0.5450392857 -0.8393325463
89600000.0 -0.9452901392 -0.2504035506
99550000.0 -0.82785585 0.4824386007
109500000.0 -0.2015684161 0.9380696613
119450000.0 0.5945238074 0.7792300436
129400000.0 1.001656598 0.0367766451
139350000.0 0.6702494228 -0.7486393953
149300000.0 -0.1375613462 -0.9667497585
159250000.0 -0.7926798459 -0.5065518612
169200000.0 -0.8937280759 0.2458671589
179150000.0 -0.45915241 0.8181321762
189100000.0 0.2150979258 0.9287807333
199050000.0 0.7661680981 0.5703236448
209000000.0 0.9440665965 -0.0435864624
218950000.0 0.7039486511 -0.6066294249
228900000.0 0.1832129665 -0.8937089657
238850000.0 -0.3945967695 -0.8096053648
248800000.0 -0.7894463164 -0.4105817502
258750000.0 -0.8970671206 0.164883549
268700000.0 -0.6341619351 0.677751729
278650000.0 -0.1200352135 0.9255130138
288600000.0 0.4330956286 0.806900386
298550000.0 0.7971505816 0.3749258612
308500000.0 0.8234561231 -0.1913198167
318450000.0 0.4964439687 -0.6521045666
328400000.0 -0.0430223178 -0.7992414957
338350000.0 -0.5347540156 -0.5585966846
348300000.0 -0.7178885836 -0.0656763505
358250000.0 -0.5140988837 0.3784656796
368200000.0 -0.0993227452 0.5199989395
378150000.0 0.2326063952 0.343279309
388100000.0 0.3079474478 0.0387364788
398050000.0 0.1658772907 -0.1661909287
408000000.0 -0.0315321209 -0.1766754892
417950000.0 -0.1301241533 -0.0561038074
427900000.0 -0.094464834 0.068220388
437850000.0 0.0120888652 0.1079362739
447800000.0 0.1061680186 0.0515769146
457750000.0 0.1274590304 -0.0513857322
467700000.0 0.0700719132 -0.13455352
477650000.0 -0.0236509518 -0.1546499486
487600000.0 -0.100174245 -0.1030992035
497550000.0 -0.1264030315 -0.0204452349
507500000.0 -0.090464247 0.0529870733
517450000.0 -0.0236248518 0.0829240714
527400000.0 0.0322674236 0.0674413966
537350000.0 0.0528521136 0.0299256798
547300000.0 0.036712933 -0.0018275379
557250000.0 0.0037262702 -0.0051715004
567200000.0 -0.0149417971 0.0183465572
577150000.0 -0.0015809955 0.0481316533
587100000.0 0.0398378213 0.0527730323
597050000.0 0.0826905313 0.017365697
607000000.0 0.0894058404 -0.048808589
616950000.0 0.0484630537 -0.1136795223
626900000.0 -0.0318114765 -0.1408181421
636850000.0 -0.118411306 -0.1113935898
646800000.0 -0.1683344358 -0.0307114466
656750000.0 -0.1575122389 0.0690736175
666700000.0 -0.0854664102 0.1424092994
676650000.0 0.0195360272 0.1550789079
686600000.0 0.1112322847 0.0986913395
696550000.0 0.14877767 -0.0068942732
706500000.0 0.1117898745 -0.1113188229
716450000.0 0.0218220912 -0.1643138981
726400000.0 -0.0745677978 -0.1439763677
736350000.0 -0.1281094812 -0.0613233017
746300000.0 -0.1043663456 0.0369187725
756250000.0 -0.0128047331 0.0936157096
766200000.0 0.0948026974 0.069947577
776150000.0 0.1611828575 -0.025591776
786100000.0 0.1372889995 -0.1415280194
796050000.0 0.0276494195 -0.2119512109
806000000.0 -0.1126916402 -0.1780496054
815950000.0 -0.2048532558 -0.0423281391
825900000.0 -0.1852953013 0.1330244182
835850000.0 -0.050842151 0.2700919106
845800000.0 0.1515405195 0.2907591042
855750000.0 0.3317208304 0.1726247397
865700000.0 0.4015028902 -0.0461603065
875650000.0 0.311625299 -0.2718921167
885600000.0 0.0858989605 -0.3965014094
895550000.0 -0.1830974726 -0.3462411594
905500000.0 -0.3702587636 -0.1260593976
915450000.0 -0.3771307933 0.1733321491
925400000.0 -0.1909953502 0.4104241395
935350000.0 0.1015520147 0.4724647827
945300000.0 0.368802027 0.3238992659
955250000.0 0.4745672843 0.0178727094
965200000.0 0.3306123639 -0.3015002632
975150000.0 -0.0232506313 -0.4385062303
985100000.0 -0.3931313097 -0.2608592178
995050000.0 -0.5073053931 0.1642859225
1005000000.0 -0.2366806068 0.5483264394
1014950000.0 0.2712460233 0.5813868414
1024900000.0 0.6495710096 0.1658250199
1034850000.0 0.5503243184 -0.4475218707
1044800000.0 -0.0401219926 -0.7665832332
1054750000.0 -0.6738818297 -0.4736447444
1064700000.0 -0.8333120646 0.1949879617
1074650000.0 -0.4540956963 0.7344611562
1084600000.0 0.1684680172 0.8260745947
1094550000.0 0.6736441452 0.4569848489
1104500000.0 0.7649730036 -0.1640632261
1114450000.0 0.384636676 -0.6602971538
1124400000.0 -0.2143312161 -0.7171169625
1134350000.0 -0.6349984535 -0.3440320516
1144300000.0 -0.666440144 0.1757320684
1154250000.0 -0.3585461236 0.5482995337
1164200000.0 0.0932232857 0.6172646771
1174150000.0 0.4702797068 0.3752234354
1184100000.0 0.5817397425 -0.0596391997
1194050000.0 0.3658667409 -0.4445689191
1204000000.0 -0.0384865097 -0.5727347262
1213950000.0 -0.4051586274 -0.4123169692
1223900000.0 -0.5830902819 -0.077068905
1233850000.0 -0.5271166971 0.2839924961
1243800000.0 -0.2713137495 0.5397857589
1253750000.0 0.0894947768 0.5918232315
1263700000.0 0.4189764388 0.4082276133
1273650000.0 0.570527772 0.0560864672
1283600000.0 0.4801165674 -0.3115903563
1293550000.0 0.2041785663 -0.5485863893
1303500000.0 -0.1397765894 -0.589565936
1313450000.0 -0.4385437506 -0.4434903645
1323400000.0 -0.614044888 -0.16524604
1333350000.0 -0.618446126 0.1689775684
1343300000.0 -0.4342542352 0.4622822127
1353250000.0 -0.1029809658 0.6029011134
1363200000.0 0.259835132 0.521947599
1373150000.0 0.5112174387 0.2444230598
1383100000.0 0.5620266288 -0.1170852014
1393050000.0 0.4151673344 -0.4341769196
1403000000.0 0.1384503801 -0.6151787705
1412950000.0 -0.1775904438 -0.6219393582
1422900000.0 -0.4453173099 -0.460895461
1432850000.0 -0.5867152 -0.1715458048
1442800000.0 -0.5458152613 0.1622840879
1452750000.0 -0.3167356851 0.4224825019
1462700000.0 0.0225610698 0.5057514763
1472650000.0 0.3418127182 0.3833970324
1482600000.0 0.527854972 0.1134702964
1492550000.0 0.530265364 -0.1999207149
1502500000.0 0.3626307003 -0.4511682057
1512450000.0 0.0886776818 -0.5597042615
1522400000.0 -0.1976746963 -0.4880210626
1532350000.0 -0.3897587235 -0.2549562587
1542300000.0 -0.4079601502 0.0554029646
1552250000.0 -0.2347785467 0.3173106481
1562200000.0 0.0519374549 0.4179005835
1572150000.0 0.3302165035 0.3302838138
1582100000.0 0.4906843207 0.0987983965
1592050000.0 0.4755881538 -0.1767998441
1602000000.0 0.2943144213 -0.3874926974
1611950000.0 0.0138091676 -0.448706816
1621900000.0 -0.2596200469 -0.325945949
1631850000.0 -0.4110431748 -0.053651346
1641800000.0 -0.3655106839 0.260936116
1651750000.0 -0.1382663788 0.4808817
1661700000.0 0.1707883114 0.5163397722
1671650000.0 0.436473655 0.3641514574
1681600000.0 0.5658979982 0.0885845385
1691550000.0 0.5194936159 -0.2167817638
1701500000.0 0.30893466 -0.451875317
1711450000.0 -0.0063420068 -0.5360343957
1721400000.0 -0.3285558717 -0.4240810393
1731350000.0 -0.5361535258 -0.1407721153
1741300000.0 -0.5450383123 0.2114527487
1751250000.0 -0.3562396164 0.498305063
1761200000.0 -0.0506083747 0.6263582417
1771150000.0 0.265619216 0.5725954801
1781100000.0 0.5046172615 0.3674314214
1791050000.0 0.6081547524 0.0684863473
1801000000.0 0.5455808139 -0.2487770414
1810950000.0 0.3221702942 -0.4954212572
1820900000.0 -0.0077337564 -0.5824206999
1830850000.0 -0.3347152022 -0.4653808329
1840800000.0 -0.5383152885 -0.1880597498
1850750000.0 -0.5580077878 0.1406749803
1860700000.0 -0.412670732 0.4130500541
1870650000.0 -0.167028158 0.5654553179
1880600000.0 0.1065343233 0.5748541042
1890550000.0 0.3401807141 0.4487234776
1900500000.0 0.4744519432 0.2187032469
1910450000.0 0.4687714103 -0.0517487492
1920400000.0 0.3176709214 -0.275712915
1930350000.0 0.0752611576 -0.373168889
1940300000.0 -0.1632323517 -0.3208720636
1950250000.0 -0.3172731676 -0.1664474083
1960200000.0 -0.3585164484 0.0182224698
1970150000.0 -0.3044481682 0.1656837171
1980100000.0 -0.2059245067 0.238206767
1990050000.0 -0.1125288634 0.2403594525
2000000000.0 -0.0652200947 0.1936861491
