!Created with skrf (http://scikit-rf.org).
# GHz S RI R 50.0 
!freq ReS11 ImS11
10000000.0 -0.9992212083 0.1620462142
19950000.0 -0.94526463 0.3095173744
29900000.0 -0.869581825 0.4506857436
39850000.0 -0.7718045383 0.589755581
49800000.0 -0.6533358346 0.7213919237
59750000.0 -0.5101047263 0.8395128868
69700000.0 -0.3351970021 0.9329504088
79650000.0 -0.1253792502 0.9846125803
89600000.0 0.118053219 0.978452425
99550000.0 0.3827533118 0.8963567421
109500000.0 0.6476461088 0.7260983199
119450000.0 0.8749267884 0.4537407341
129400000.0 1.003264447 0.0906005763
139350000.0 0.9716854297 -0.3174816279
149300000.0 0.7630094397 -0.6740993547
159250000.0 0.4336068439 -0.9010463089
169200000.0 0.0701016013 -0.9828678304
179150000.0 -0.2639895946 -0.9453524891
189100000.0 -0.5371257264 -0.826914224
199050000.0 -0.7363397242 -0.6590398624
209000000.0 -0.860834289 -0.4654307696
218950000.0 -0.9255837346 -0.2657495225
228900000.0 -0.9421499318 -0.0708147245
238850000.0 -0.9238312013 0.1171466232
248800000.0 -0.8557537965 0.2009412474
258750000.0 -0.8241699952 0.4317463553
268700000.0 -0.7356074774 0.57516159
278650000.0 -0.6206605467 0.6916297798
288600000.0 -0.4792287812 0.7774956148
298550000.0 -0.3160134424 0.8302598327
308500000.0 -0.1358690321 0.8500336842
318450000.0 0.0544850747 0.831816049
328400000.0 0.2442279102 0.7683483567
338350000.0 0.4115117133 0.6522969619
348300000.0 0.5307310463 0.4843559783
358250000.0 0.5775908309 0.2823462955
368200000.0 0.5458166953 0.0792928813
378150000.0 0.4496820664 -0.0894758988
388100000.0 0.3191913056 -0.2031476794
398050000.0 0.1835255802 -0.2566771353
408000000.0 0.0660911305 -0.2570729242
417950000.0 -0.023062053 -0.218949661
427900000.0 -0.0818651133 -0.160045404
437850000.0 -0.1156794225 -0.0949417828
447800000.0 -0.1293976498 -0.0354108689
457750000.0 -0.1281399514 0.0112073731
467700000.0 -0.1158937164 0.0406723173
477650000.0 -0.0958435314 0.0506173145
487600000.0 -0.0728468953 0.0399819998
497550000.0 -0.0685368546 0.0785740389
507500000.0 -0.0192226996 0.035768408
517450000.0 -0.0008542357 0.0125771882
527400000.0 0.0060973707 -0.006990468
537350000.0 -0.0008964111 -0.023763452
547300000.0 -0.0183005296 -0.0380423875
557250000.0 -0.0449498635 -0.050571299
567200000.0 -0.0755022596 -0.0608399065
577150000.0 -0.1056016081 -0.0670980858
587100000.0 -0.1313976404 -0.0671863299
597050000.0 -0.1502746985 -0.0596490393
607000000.0 -0.1622178912 -0.0420749229
616950000.0 -0.168872544 -0.0156927259
626900000.0 -0.1714605379 0.016561894
636850000.0 -0.1702990465 0.0505557582
646800000.0 -0.164777234 0.0811456647
656750000.0 -0.1545855203 0.1060900787
666700000.0 -0.1369300156 0.1227553819
676650000.0 -0.1099987657 0.1307264636
686600000.0 -0.0745645028 0.1305246399
696550000.0 -0.0337139301 0.1241164601
706500000.0 0.007498586 0.1123581273
716450000.0 0.0440790424 0.0957336568
726400000.0 0.0716180183 0.0726765408
736350000.0 0.0895332115 0.0412724725
746300000.0 0.0968167433 -0.0007456357
756250000.0 0.0920571146 -0.0511947809
766200000.0 0.0751828994 -0.1080015788
776150000.0 0.0478974822 -0.1638731813
786100000.0 0.0109884272 -0.2137557807
796050000.0 -0.034539451 -0.249885741
806000000.0 -0.0875494641 -0.268866908
815950000.0 -0.1474617724 -0.267688332
825900000.0 -0.211640592 -0.2487905064
835850000.0 -0.2773430572 -0.2149300215
845800000.0 -0.3392133169 -0.170715609
855750000.0 -0.392165968 -0.1182188323
865700000.0 -0.4294783829 -0.0588838288
875650000.0 -0.4481173013 0.0069357427
885600000.0 -0.4438439184 0.0788612168
895550000.0 -0.4179984842 0.1561289717
905500000.0 -0.3722654274 0.2364772586
915450000.0 -0.308672383 0.3148927558
925400000.0 -0.2273667439 0.383476609
935350000.0 -0.1279784018 0.4329852389
945300000.0 -0.0109276365 0.4507823138
955250000.0 0.1218448842 0.4248202903
965200000.0 0.2610770024 0.3431944666
975150000.0 0.389393902 0.1993997738
985100000.0 0.4756386551 -0.007561323
995050000.0 0.4788733314 -0.2588803986
1005000000.0 0.3625537521 -0.5080989726
1014950000.0 0.1240009757 -0.6857454334
1024900000.0 -0.1854996694 -0.7346520183
1034850000.0 -0.4923700468 -0.6446146128
1044800000.0 -0.7334436413 -0.4449841566
1054750000.0 -0.8736324457 -0.1803717524
1064700000.0 -0.8941087935 0.0995949409
1074650000.0 -0.8075655513 0.3516885969
1084600000.0 -0.6650487375 0.5302545091
1094550000.0 -0.4616614881 0.6907581284
1104500000.0 -0.2155456902 0.7738275887
1114450000.0 0.040109108 0.7772047021
1124400000.0 0.276734042 0.6950961917
1134350000.0 0.4599240537 0.5370751717
1144300000.0 0.5691112049 0.3297786053
1154250000.0 0.6032455742 0.1083065584
1164200000.0 0.576836012 -0.0988247104
1174150000.0 0.5099177237 -0.2795454916
1184100000.0 0.4068519579 -0.4256162426
1194050000.0 0.2790063288 -0.5241651212
1204000000.0 0.1412831055 -0.5759494237
1213950000.0 0.0048046836 -0.5882986319
1223900000.0 -0.1230194003 -0.5744159169
1233850000.0 -0.2383210172 -0.5450731299
1243800000.0 -0.3396825592 -0.5063194618
1253750000.0 -0.4262823236 -0.4613425863
1263700000.0 -0.4954258977 -0.4093309356
1273650000.0 -0.5488857503 -0.3498830406
1283600000.0 -0.5855960078 -0.282843126
1293550000.0 -0.6107262699 -0.209319741
1303500000.0 -0.6288470564 -0.1331520983
1313450000.0 -0.6427048962 -0.0574827635
1323400000.0 -0.6546371764 0.0146712642
1333350000.0 -0.6628570627 0.0825441793
1343300000.0 -0.6638218673 0.145661967
1353250000.0 -0.6548495989 0.2031491142
1363200000.0 -0.6323740768 0.2573497679
1373150000.0 -0.5968976247 0.3096221781
1383100000.0 -0.5531318178 0.361449779
1393050000.0 -0.5050559358 0.4127799196
1403000000.0 -0.4563789146 0.4625928128
1412950000.0 -0.4079444488 0.5088266699
1422900000.0 -0.359889317 0.547934019
1432850000.0 -0.3096134397 0.5766308215
1442800000.0 -0.2555777131 0.5946847487
1452750000.0 -0.1957272369 0.6035830706
1462700000.0 -0.1283046454 0.6048457638
1472650000.0 -0.0539187929 0.6014675898
1482600000.0 0.0244177166 0.5945911515
1492550000.0 0.1027854118 0.5832413769
1502500000.0 0.177760853 0.5629229685
1512450000.0 0.2459654324 0.5311482024
1522400000.0 0.3057247023 0.4848388467
1532350000.0 0.3559857202 0.4219550924
1542300000.0 0.3975980271 0.344871552
1552250000.0 0.4313662049 0.2578986988
1562200000.0 0.459487249 0.1664266208
1572150000.0 0.479506628 0.0746735143
1582100000.0 0.4866809838 -0.0170970665
1592050000.0 0.4754063457 -0.105685371
1602000000.0 0.4429874293 -0.1891450935
1611950000.0 0.3908618705 -0.2647220367
1621900000.0 0.3235562946 -0.3328618586
1631850000.0 0.2465247336 -0.3949324752
1641800000.0 0.1645101653 -0.4498099903
1651750000.0 0.0810521709 -0.4934480698
1661700000.0 -0.0016602816 -0.5221417477
1671650000.0 -0.0810102091 -0.5316749898
1681600000.0 -0.1578251731 -0.5218353798
1691550000.0 -0.2317980775 -0.4973429417
1701500000.0 -0.3040861882 -0.4620382571
1711450000.0 -0.3738473622 -0.4201516296
1721400000.0 -0.4389759966 -0.3755145557
1731350000.0 -0.4972094926 -0.3298036158
1741300000.0 -0.5439713139 -0.281929997
1751250000.0 -0.5752924891 -0.2274993762
1761200000.0 -0.5874578713 -0.1644603907
1771150000.0 -0.5707090125 -0.0900039541
1781100000.0 -0.5647559783 -0.1074038347
1791050000.0 -0.5916605659 -0.0430529846
1801000000.0 -0.6016238833 0.02889659
1810950000.0 -0.6060271749 0.0916041079
1820900000.0 -0.6057677733 0.1473331453
1830850000.0 -0.5975981503 0.1952632931
1840800000.0 -0.578457329 0.2377639122
1850750000.0 -0.5465529277 0.2752487253
1860700000.0 -0.5032691597 0.3083864546
1870650000.0 -0.4546162809 0.3395970164
1880600000.0 -0.4054424325 0.3676807027
1890550000.0 -0.3598840863 0.3925488739
1900500000.0 -0.3183742323 0.4101428202
1910450000.0 -0.2800602807 0.4197826905
1920400000.0 -0.2420476622 0.4160560793
1930350000.0 -0.2020447485 0.3996025627
1940300000.0 -0.1596360514 0.370056958
1950250000.0 -0.1164376123 0.330349052
1960200000.0 -0.0759248234 0.2845323483
1970150000.0 -0.0458711793 0.2335077125
1980100000.0 -0.0318045585 0.1788583718
1990050000.0 -0.0406652944 0.1179601328
2000000000.0 -0.0806428534 0.0503440624
