!Created with skrf (http://scikit-rf.org).
# GHz S RI R 50.0 
!freq ReS11 ImS11
10000000.0 -0.9990311788 0.1644614313
19950000.0 -0.944042165 0.31347763
29900000.0 -0.8668648808 0.4562101387
39850000.0 -0.7668302769 0.5964683584
49800000.0 -0.6458065585 0.7287779429
59750000.0 -0.4995717761 0.8467551984
69700000.0 -0.321554598 0.9385603674
79650000.0 -0.1085339972 0.9872613606
89600000.0 0.1369589008 0.9763439982
99550000.0 0.4017324098 0.8882156093
109500000.0 0.6642832549 0.7116424057
119450000.0 0.8858819875 0.434471877
129400000.0 1.00506112 0.0690440462
139350000.0 0.9674595992 -0.334751338
149300000.0 0.7560650617 -0.6837591832
159250000.0 0.428535594 -0.9044968495
169200000.0 0.0691541585 -0.9833151703
179150000.0 -0.2613162049 -0.9467306647
189100000.0 -0.5327307736 -0.8303255767
199050000.0 -0.7321343153 -0.6650167038
209000000.0 -0.8576658105 -0.4729595945
218950000.0 -0.923850972 -0.2744686933
228900000.0 -0.9421450556 -0.0798349632
238850000.0 -0.9254824729 0.1083424988
248800000.0 -0.7488682879 0.2988501477
258750000.0 -0.8301048959 0.4218228366
268700000.0 -0.7434678859 0.5674149478
278650000.0 -0.6304388671 0.6854652243
288600000.0 -0.4912007447 0.7727898178
298550000.0 -0.3296866093 0.8281869757
308500000.0 -0.1511397868 0.8511281148
318450000.0 0.0380286973 0.8375580573
328400000.0 0.228055691 0.7801694593
338350000.0 0.3982196836 0.671664299
348300000.0 0.5242164653 0.5104607694
358250000.0 0.581542497 0.3120168786
368200000.0 0.5604391619 0.1073207872
378150000.0 0.4734822948 -0.0680206272
388100000.0 0.3478135834 -0.1912789428
398050000.0 0.2128725223 -0.2546782266
408000000.0 0.0922945884 -0.2632883958
417950000.0 -0.0017173466 -0.2301203832
427900000.0 -0.0658118144 -0.1733236751
437850000.0 -0.1041323061 -0.1082209339
447800000.0 -0.1212081878 -0.0470573796
457750000.0 -0.1219008853 0.0019144835
467700000.0 -0.1104742385 0.0344283491
477650000.0 -0.089014988 0.0478267589
487600000.0 -0.0599376093 0.0438682451
497550000.0 -0.0264923939 -0.0004531476
507500000.0 -0.0270723803 0.0327403967
517450000.0 0.001267858 0.0103316447
527400000.0 0.0122087547 -0.0093684652
537350000.0 0.009193844 -0.0269856691
547300000.0 -0.004769038 -0.0469898653
557250000.0 -0.0351405514 -0.0631605461
567200000.0 -0.0666577199 -0.075110677
577150000.0 -0.098502124 -0.0837849003
587100000.0 -0.1263370957 -0.0864313369
597050000.0 -0.1480753312 -0.0800919195
607000000.0 -0.1632857065 -0.0626870989
616950000.0 -0.1721389077 -0.033513255
626900000.0 -0.1641003423 0.0043845542
636850000.0 -0.1713460981 0.0219123282
646800000.0 -0.176851327 0.0537506774
656750000.0 -0.1732493272 0.0836011667
666700000.0 -0.1607238413 0.106227853
676650000.0 -0.1373049173 0.1204960072
686600000.0 -0.103723621 0.1271219518
696550000.0 -0.0626875179 0.1278021183
706500000.0 -0.018476236 0.1221272029
716450000.0 0.0246101738 0.1104095606
726400000.0 0.0601621561 0.0903453531
736350000.0 0.0855454151 0.0602989365
746300000.0 0.0977432528 0.0190751635
756250000.0 0.0978538357 -0.0325821844
766200000.0 0.0855622474 -0.0916204168
776150000.0 0.0631411311 -0.1511931723
786100000.0 0.0304826128 -0.2056023173
796050000.0 -0.0113992998 -0.2480415843
806000000.0 -0.0625417293 -0.2735557487
815950000.0 -0.1222598585 -0.2797316969
825900000.0 -0.1882385009 -0.2680048806
835850000.0 -0.2576250546 -0.240945146
845800000.0 -0.3252607523 -0.2028909409
855750000.0 -0.3848688687 -0.1557726191
865700000.0 -0.431836279 -0.1004778063
875650000.0 -0.4590610068 -0.0371607258
885600000.0 -0.4658271806 0.0345348643
895550000.0 -0.4518949657 0.1137538123
905500000.0 -0.4175654703 0.1996028152
915450000.0 -0.364263229 0.2867339876
925400000.0 -0.2891245821 0.3653393339
935350000.0 -0.1921244786 0.4125471965
945300000.0 -0.1075342181 0.4216138919
955250000.0 -0.0160899741 0.4358444836
965200000.0 0.1087717008 0.4165097767
975150000.0 0.2485688753 0.3453488286
985100000.0 0.3808998711 0.2162632488
995050000.0 0.4765216263 0.0294590043
1005000000.0 0.4984760554 -0.201688648
1014950000.0 0.4104233114 -0.4445032518
1024900000.0 0.2003564718 -0.6382285812
1034850000.0 -0.0960506682 -0.726485062
1044800000.0 -0.4133027888 -0.6817456304
1054750000.0 -0.6839870837 -0.5113723071
1064700000.0 -0.8469267248 -0.2462195044
1074650000.0 -0.8721699423 0.0151524065
1084600000.0 -0.8075380205 0.2925995917
1094550000.0 -0.6659888246 0.4206408289
1104500000.0 -0.5113096426 0.6478115078
1114450000.0 -0.2571267753 0.7671240083
1124400000.0 0.0142399722 0.7826613137
1134350000.0 0.262209059 0.6956253022
1144300000.0 0.4502401167 0.5228501205
1154250000.0 0.557848241 0.3018995541
1164200000.0 0.5859187256 0.0727672781
1174150000.0 0.5585484174 -0.133926942
1184100000.0 0.4848169104 -0.3138124285
1194050000.0 0.3704572845 -0.4490659906
1204000000.0 0.2344616385 -0.5325628844
1213950000.0 0.0920107917 -0.570447661
1223900000.0 -0.0451561583 -0.5750276696
1233850000.0 -0.1711400773 -0.5590012831
1243800000.0 -0.2826046467 -0.5297455357
1253750000.0 -0.3784197238 -0.4920424372
1263700000.0 -0.4560325318 -0.4446469413
1273650000.0 -0.5169792455 -0.3890382836
1283600000.0 -0.5607111803 -0.3241533711
1293550000.0 -0.5918344914 -0.252055869
1303500000.0 -0.6152540948 -0.1770105601
1313450000.0 -0.6343177055 -0.1022221735
1323400000.0 -0.651516506 -0.030162744
1333350000.0 -0.6653057699 0.0373535368
1343300000.0 -0.6717659506 0.1011523385
1353250000.0 -0.6683894118 0.1596500625
1363200000.0 -0.6511094032 0.2157091365
1373150000.0 -0.6204971927 0.2703609755
1383100000.0 -0.5809542282 0.3248044054
1393050000.0 -0.5371864339 0.3795506577
1403000000.0 -0.492165674 0.4327048058
1412950000.0 -0.4475550954 0.4826911729
1422900000.0 -0.4031662989 0.5256243703
1432850000.0 -0.3564124709 0.5580039386
1442800000.0 -0.3056882184 0.5793949129
1452750000.0 -0.2498127937 0.5913238075
1462700000.0 -0.1880707415 0.5969231658
1472650000.0 -0.1186966714 0.6006503523
1482600000.0 -0.0438618921 0.6033901611
1492550000.0 0.0326909631 0.6025084663
1502500000.0 0.1081463549 0.5936096447
1512450000.0 0.1792561773 0.5731935694
1522400000.0 0.2439096465 0.5382252878
1532350000.0 0.3017232662 0.4860310045
1542300000.0 0.3531998722 0.418132889
1552250000.0 0.3990708704 0.3375349512
1562200000.0 0.441004918 0.2505732401
1572150000.0 0.4748965879 0.1605810668
1582100000.0 0.4962001562 0.0690404072
1592050000.0 0.4997134153 -0.0213261969
1602000000.0 0.4821272718 -0.109605967
1611950000.0 0.4432299796 -0.1922353179
1621900000.0 0.3869788963 -0.2707212699
1631850000.0 0.3184796021 -0.3439769904
1641800000.0 0.2433471587 -0.4109899424
1651750000.0 0.1649060078 -0.4673045512
1661700000.0 0.0847747578 -0.5093007858
1671650000.0 0.0052789008 -0.5323548811
1681600000.0 -0.0742938351 -0.5359262224
1691550000.0 -0.1528650532 -0.523288711
1701500000.0 -0.2319973227 -0.4979437306
1711450000.0 -0.3090905896 -0.4643396661
1721400000.0 -0.3826410788 -0.4273096185
1731350000.0 -0.4495225842 -0.3890472727
1741300000.0 -0.5056749116 -0.3477763101
1751250000.0 -0.54867575 -0.301598183
1761200000.0 -0.5774874298 -0.2499445141
1771150000.0 -0.5936976022 -0.1921617496
1781100000.0 -0.603486078 -0.1298614057
1791050000.0 -0.6096126241 -0.0664983645
1801000000.0 -0.6158029916 -0.0048227986
1810950000.0 -0.6230206707 0.0534021241
1820900000.0 -0.6280578228 0.1065375214
1830850000.0 -0.6262293231 0.1543057631
1840800000.0 -0.6132587464 0.1971919624
1850750000.0 -0.5877458261 0.2366978461
1860700000.0 -0.5504527785 0.2730637223
1870650000.0 -0.5074348284 0.3092949141
1880600000.0 -0.4636938553 0.3424490561
1890550000.0 -0.4234966235 0.3736564641
1900500000.0 -0.3877876029 0.3992044533
1910450000.0 -0.3548975551 0.4189072392
1920400000.0 -0.322275072 0.4275844713
1930350000.0 -0.285377889 0.4267632936
1940300000.0 -0.2426254537 0.4156212349
1950250000.0 -0.1944156157 0.3960920836
1960200000.0 -0.1489845022 0.370549896
1970150000.0 -0.1087429024 0.3393628339
1980100000.0 -0.0741072733 0.3088398375
1990050000.0 -0.0518640981 0.2756415401
2000000000.0 -0.04587599 0.2341124379
