!Created with skrf (http://scikit-rf.org).
# GHz S RI R 50.0 
!freq ReS11 ImS11
10000000.0 -0.7304897475 0.5633458568
19950000.0 -0.2683052814 0.8927845576
29900000.0 0.3016167876 0.88444742
39850000.0 0.7673594533 0.5284793798
49800000.0 0.9314209965 -0.0554133387
59750000.0 0.6985372315 -0.6368622021
69700000.0 0.1420269494 -0.9516723422
79650000.0 -0.4964389091 -0.8259923624
89600000.0 -0.9034372658 -0.2852823958
99550000.0 -0.8401264237 0.4244919141
109500000.0 -0.2779193769 0.9145481219
119450000.0 0.5001262992 0.8358986343
129400000.0 0.968840694 0.1620465907
139350000.0 0.7423212963 -0.6409066613
149300000.0 -0.0190140676 -0.9596216497
159250000.0 -0.7221513629 -0.5831030073
169200000.0 -0.9000716694 0.1556830554
179150000.0 -0.517990279 0.7570727293
189100000.0 0.1304503388 0.9061276929
199050000.0 0.6809822808 0.5848569596
209000000.0 0.8855960202 -0.0043669817
218950000.0 0.6833064261 -0.566621728
228900000.0 0.1905353141 -0.867444479
238850000.0 -0.371297549 -0.7975039828
248800000.0 -0.7608473545 -0.4014779376
258750000.0 -0.8523592365 0.1520591626
268700000.0 -0.5935172936 0.6443929918
278650000.0 -0.10270742 0.8795607405
288600000.0 0.4222397564 0.7658701388
298550000.0 0.7708348136 0.349258685
308500000.0 0.7952259548 -0.2016361964
318450000.0 0.4744202406 -0.6495768376
328400000.0 -0.0506202659 -0.7869253042
338350000.0 -0.5226228068 -0.547495266
348300000.0 -0.6981381964 -0.0673655375
358250000.0 -0.5019375078 0.3710640673
368200000.0 -0.0977956656 0.5228183467
378150000.0 0.2371375617 0.3586778547
388100000.0 0.3261724632 0.0607091016
398050000.0 0.1943697402 -0.1488419846
408000000.0 0.0017507489 -0.1728651533
417950000.0 -0.1053971506 -0.0636518342
427900000.0 -0.0867134219 0.0560445069
437850000.0 0.0037742584 0.0970050441
447800000.0 0.0841664252 0.047613302
457750000.0 0.0960899963 -0.0470761796
467700000.0 0.0396975868 -0.1213289114
477650000.0 -0.0460081653 -0.1339262424
487600000.0 -0.112423415 -0.0833722675
497550000.0 -0.1276108618 -0.003607685
507500000.0 -0.0858364878 0.0663183837
517450000.0 -0.0171555256 0.0920630145
527400000.0 0.0399288027 0.0698629109
537350000.0 0.0593544794 0.0229605582
547300000.0 0.0396309222 -0.0154199759
557250000.0 0.0019812102 -0.0251421012
567200000.0 -0.0242111684 -0.0042424541
577150000.0 -0.0183953981 0.0252588124
587100000.0 0.0164448265 0.032977463
597050000.0 0.0545071447 0.0037865495
607000000.0 0.0657841448 -0.0549754099
616950000.0 0.0325879426 -0.1136117845
626900000.0 -0.0353526412 -0.1366308266
636850000.0 -0.1072452953 -0.1053743164
646800000.0 -0.1451210219 -0.0262674396
656750000.0 -0.1267918355 0.0692026549
666700000.0 -0.0526461852 0.1378693947
676650000.0 0.0493605021 0.1464172469
686600000.0 0.1364573796 0.0864274655
696550000.0 0.1683848936 -0.0208958748
706500000.0 0.1276993705 -0.1267635835
716450000.0 0.0295047341 -0.1828060074
726400000.0 -0.0789740915 -0.1620714517
736350000.0 -0.1425616391 -0.0728754009
746300000.0 -0.1260693534 0.0381119794
756250000.0 -0.0349979162 0.1110627373
766200000.0 0.0820378633 0.1054092784
776150000.0 0.1624490151 0.0210752078
786100000.0 0.1587918604 -0.0934102832
796050000.0 0.0681606528 -0.1687111134
806000000.0 -0.0562148335 -0.1578804306
815950000.0 -0.1507853812 -0.0584931639
825900000.0 -0.1601619263 0.0921190534
835850000.0 -0.0626848263 0.2194775635
845800000.0 0.1029600245 0.2502678525
855750000.0 0.2583504581 0.1565243629
865700000.0 0.3236978908 -0.0305920275
875650000.0 0.251105817 -0.2287073303
885600000.0 0.0550084834 -0.3380146808
895550000.0 -0.1807544513 -0.2849904934
905500000.0 -0.3348366288 -0.0746755032
915450000.0 -0.3144020564 0.1994691842
925400000.0 -0.1166501439 0.401691849
935350000.0 0.1690452967 0.4214825526
945300000.0 0.4002416604 0.2309587056
955250000.0 0.4411399927 -0.0918825177
965200000.0 0.2285104652 -0.3799040189
975150000.0 -0.1596559422 -0.4333029285
985100000.0 -0.4863458184 -0.1550071966
995050000.0 -0.4875815088 0.3106708481
1005000000.0 -0.1045503559 0.6301217738
1014950000.0 0.4223798607 0.5270242778
1024900000.0 0.6984674152 0.0068755682
1034850000.0 0.4484815393 -0.5758689227
1044800000.0 -0.1841929315 -0.7353912699
1054750000.0 -0.701184173 -0.3287489786
1064700000.0 -0.7348738292 0.3078614877
1074650000.0 -0.3245904306 0.7455864917
1084600000.0 0.2562793032 0.7621576343
1094550000.0 0.6759551538 0.3582905905
1104500000.0 0.6859762143 -0.2297514582
1114450000.0 0.282246536 -0.6460269311
1124400000.0 -0.266110797 -0.6456400408
1134350000.0 -0.6261439922 -0.279798453
1144300000.0 -0.6386938486 0.2008655779
1154250000.0 -0.3478397322 0.5473269425
1164200000.0 0.0782878526 0.614814853
1174150000.0 0.4412814684 0.3921453717
1184100000.0 0.5637367412 -0.0214150055
1194050000.0 0.3767613364 -0.4032281972
1204000000.0 -0.0003104796 -0.5534928178
1213950000.0 -0.3630337038 -0.4305817329
1223900000.0 -0.5620790151 -0.1278024085
1233850000.0 -0.5450061625 0.2196690381
1243800000.0 -0.330208362 0.4851201685
1253750000.0 0.0050924488 0.567483125
1263700000.0 0.3322333678 0.4240239507
1273650000.0 0.5103649598 0.10504431
1283600000.0 0.4638660431 -0.253699695
1293550000.0 0.2274289667 -0.5050067399
1303500000.0 -0.0903160006 -0.5704021599
1313450000.0 -0.3748414032 -0.4534825014
1323400000.0 -0.549823388 -0.2056132178
1333350000.0 -0.5747158367 0.1029529095
1343300000.0 -0.430829406 0.3871043007
1353250000.0 -0.1387346546 0.5443952022
1363200000.0 0.2036155199 0.4977426205
1373150000.0 0.4600911324 0.253481445
1383100000.0 0.5294997259 -0.0883165451
1393050000.0 0.4033750938 -0.3970359462
1403000000.0 0.1465591799 -0.5775761187
1412950000.0 -0.1464207916 -0.5887445946
1422900000.0 -0.3906773951 -0.4429504885
1432850000.0 -0.52466711 -0.1802161871
1442800000.0 -0.5004464231 0.1317334851
1452750000.0 -0.3013648457 0.3892628529
1462700000.0 0.0157770526 0.4850804807
1472650000.0 0.3245925843 0.3788471709
1482600000.0 0.5084078938 0.1214211853
1492550000.0 0.5118043725 -0.182787194
1502500000.0 0.3504209988 -0.4281347427
1512450000.0 0.0859531283 -0.5381857138
1522400000.0 -0.1911654591 -0.4772837848
1532350000.0 -0.3843024217 -0.2592133806
1542300000.0 -0.4124400946 0.0437025595
1552250000.0 -0.2527784767 0.3099754757
1562200000.0 0.0304822451 0.4237785261
1572150000.0 0.3134654344 0.3463357353
1582100000.0 0.4837012941 0.1225888395
1592050000.0 0.486673708 -0.1506999493
1602000000.0 0.3263513548 -0.3724219024
1611950000.0 0.0594464785 -0.4610992403
1621900000.0 -0.2197318368 -0.3694550237
1631850000.0 -0.3968073467 -0.1181304451
1641800000.0 -0.3863985143 0.1941305137
1651750000.0 -0.1913060509 0.4337420207
1661700000.0 0.1013822633 0.5045862114
1671650000.0 0.3726393037 0.3927873535
1681600000.0 0.5316444225 0.1499530026
1691550000.0 0.5303892475 -0.1429203993
1701500000.0 0.3672816027 -0.391788509
1711450000.0 0.0856448386 -0.5103584848
1721400000.0 -0.2245967886 -0.4430723391
1731350000.0 -0.4500038418 -0.2013437967
1741300000.0 -0.5040335307 0.1283554799
1751250000.0 -0.3694946801 0.421778712
1761200000.0 -0.1070986781 0.5826783862
1771150000.0 0.1892701234 0.5748922407
1781100000.0 0.4328615673 0.4139924561
1791050000.0 0.5591977985 0.1480737422
1801000000.0 0.5317179207 -0.152372776
1810950000.0 0.3523406582 -0.4018052982
1820900000.0 0.0652203001 -0.5159924584
1830850000.0 -0.2418346333 -0.4453023552
1840800000.0 -0.458861587 -0.2120324053
1850750000.0 -0.5143345557 0.092117437
1860700000.0 -0.4079606479 0.3619909986
1870650000.0 -0.1931870556 0.5259906001
1880600000.0 0.0589312187 0.5530984473
1890550000.0 0.2772187833 0.446227203
1900500000.0 0.4044465516 0.2379739857
1910450000.0 0.4061354931 -0.0099200654
1920400000.0 0.2818263308 -0.2221183804
1930350000.0 0.0709757115 -0.3267416581
1940300000.0 -0.147493407 -0.2945722716
1950250000.0 -0.2953385952 -0.1592132485
1960200000.0 -0.3364552285 0.0113476226
1970150000.0 -0.2826951985 0.1518477716
1980100000.0 -0.1757317246 0.2165601921
1990050000.0 -0.0811580241 0.1940591449
2000000000.0 -0.057088046 0.1282818612
