!Created with skrf (http://scikit-rf.org).
# GHz S RI R 50.0 
!freq ReS11 ImS11
10000000.0 -0.7527347187 0.6793162572
19950000.0 -0.1120082696 0.9857622951
29900000.0 0.569418331 0.7939794777
39850000.0 0.9568066008 0.1912111346
49800000.0 0.8357848579 -0.5277328061
59750000.0 0.2430871051 -0.9774014807
69700000.0 -0.5092857076 -0.8811954334
79650000.0 -0.9746349962 -0.26546987
89600000.0 -0.8456308273 0.5098934802
99550000.0 -0.1704601486 0.9489880746
109500000.0 0.6306063351 0.7193983416
119450000.0 0.9683373017 -0.0810095839
129400000.0 0.5084418519 -0.8545131278
139350000.0 -0.4032912101 -0.9140546865
149300000.0 -0.956719469 -0.1983276573
159250000.0 -0.6961680214 0.6423956778
169200000.0 0.1103862804 0.9286149161
179150000.0 0.8150994207 0.4806222188
189100000.0 0.9105152354 -0.3283595109
199050000.0 0.3703056476 -0.9061235425
209000000.0 -0.3926808834 -0.8860290436
218950000.0 -0.8822617642 -0.3404867258
228900000.0 -0.8462514632 0.3700097194
238850000.0 -0.3356413594 0.8504907875
248800000.0 0.2516623482 0.6824969119
258750000.0 0.8468114734 0.4005036148
268700000.0 0.900978133 -0.2924738387
278650000.0 0.4618523849 -0.8185257362
288600000.0 -0.2088143572 -0.8894857317
298550000.0 -0.7330351488 -0.4842571956
308500000.0 -0.828737663 0.1619834105
318450000.0 -0.4472323394 0.6845202523
328400000.0 0.1861670727 0.7739310412
338350000.0 0.6671304206 0.3741494215
348300000.0 0.677213753 -0.2229380556
358250000.0 0.2574773199 -0.579708517
368200000.0 -0.2310518696 -0.4885735173
378150000.0 -0.4372461001 -0.1062922608
388100000.0 -0.2880570095 0.2346236394
398050000.0 0.0187742492 0.3098264411
408000000.0 0.2186026626 0.1452047005
417950000.0 0.2012850476 -0.0676801653
427900000.0 0.049391335 -0.1628341592
437850000.0 -0.0899636938 -0.1093523536
447800000.0 -0.1267552746 0.0100123946
457750000.0 -0.0633637663 0.1016850817
467700000.0 0.0304233856 0.1088885917
477650000.0 0.0822693475 0.0509534606
487600000.0 0.0690428477 -0.0119612002
497550000.0 0.0569752306 -0.0028936363
507500000.0 -0.0128423167 -0.0527286907
517450000.0 -0.0243828005 -0.0140002243
527400000.0 -0.0075252208 -0.0027648803
537350000.0 0.0014668555 -0.0219792957
547300000.0 -0.0230323616 -0.0496709502
557250000.0 -0.0735920047 -0.0420280434
567200000.0 -0.1095329745 0.0127531706
577150000.0 -0.0961226869 0.0874012548
587100000.0 -0.0184951614 0.1335013186
597050000.0 0.0824658513 0.1171450618
607000000.0 0.1461763942 0.0243645954
616950000.0 0.1329837916 -0.0976559542
626900000.0 0.0388919941 -0.1828836534
636850000.0 -0.0906789896 -0.1821750057
646800000.0 -0.1901602962 -0.0939023265
656750000.0 -0.2016895974 0.0357998991
666700000.0 -0.1200005676 0.1403517817
676650000.0 0.007395455 0.1586883844
686600000.0 0.1087554145 0.0844269792
696550000.0 0.1304794344 -0.0353124006
706500000.0 0.0656820105 -0.1271961332
716450000.0 -0.0365272368 -0.1378507308
726400000.0 -0.1055327585 -0.0729530743
736350000.0 -0.091204601 0.0142159529
746300000.0 -0.0105013277 0.0514556345
756250000.0 0.0724503604 0.0029910846
766200000.0 0.0821382162 -0.1011446092
776150000.0 -0.0062588242 -0.1845311123
786100000.0 -0.1415652432 -0.1670048401
796050000.0 -0.2310237509 -0.0376406335
806000000.0 -0.1913817766 0.1403547064
815950000.0 -0.0207546275 0.2506398888
825900000.0 0.2008703567 0.2028404621
835850000.0 0.3391101623 0.0014838408
845800000.0 0.2968587402 -0.2568085315
855750000.0 0.0758593983 -0.4197267164
865700000.0 -0.203959868 -0.3768966707
875650000.0 -0.3839784657 -0.1673878499
885600000.0 -0.3768422368 0.1243276178
895550000.0 -0.16570524 0.350610191
905500000.0 0.1541359622 0.3665573342
915450000.0 0.3981645379 0.1486034063
925400000.0 0.4135637676 -0.1831150567
935350000.0 0.1833513062 -0.4245686209
945300000.0 -0.156380087 -0.4155807036
955250000.0 -0.3768628663 -0.1461738023
965200000.0 -0.3026378639 0.2107864518
975150000.0 0.0514566713 0.3694348144
985100000.0 0.405369547 0.1421127363
995050000.0 0.3918993406 -0.3201409911
1005000000.0 -0.055814921 -0.5673307316
1014950000.0 -0.5510365915 -0.289588231
1024900000.0 -0.5926790612 0.3335833752
1034850000.0 -0.0495584713 0.7467493261
1044800000.0 0.6341698516 0.5180803622
1054750000.0 0.8404689716 -0.181708812
1064700000.0 0.408464199 -0.745597738
1074650000.0 -0.2546422238 -0.7998623882
1084600000.0 -0.7408788358 -0.3374931737
1094550000.0 -0.7182178497 0.3296891654
1104500000.0 -0.1906987594 0.7406881762
1114450000.0 0.4454051516 0.5823509973
1124400000.0 0.691597011 0.0101508427
1134350000.0 0.4141211946 -0.4940964367
1144300000.0 -0.1129123054 -0.5822051519
1154250000.0 -0.4898584898 -0.2554096303
1164200000.0 -0.4773372182 0.2153409767
1174150000.0 -0.1122604934 0.4846174729
1184100000.0 0.3160659922 0.368638525
1194050000.0 0.4899233379 -0.0196255698
1204000000.0 0.3134927361 -0.3919603633
1213950000.0 -0.0684096849 -0.5212519066
1223900000.0 -0.4248161387 -0.3480487752
1233850000.0 -0.5670056373 0.0225344578
1243800000.0 -0.4170725209 0.3967637676
1253750000.0 -0.0467136066 0.5738263578
1263700000.0 0.3496280585 0.4528478712
1273650000.0 0.5669341575 0.0992577651
1283600000.0 0.5055112212 -0.3047164618
1293550000.0 0.2088865916 -0.5778971492
1303500000.0 -0.188595102 -0.6095960935
1313450000.0 -0.524540147 -0.3938326148
1323400000.0 -0.6601781969 -0.0124875764
1333350000.0 -0.5255612662 0.377210053
1343300000.0 -0.1694519303 0.6002281609
1353250000.0 0.2517805004 0.5472095577
1363200000.0 0.5438143855 0.2409671415
1373150000.0 0.5821541225 -0.1723627401
1383100000.0 0.3659747198 -0.5164467892
1393050000.0 -0.0062576232 -0.6579976806
1403000000.0 -0.3838590154 -0.547746676
1412950000.0 -0.6185811528 -0.2313927852
1422900000.0 -0.6100619237 0.1635559588
1432850000.0 -0.3550277268 0.4668277424
1442800000.0 0.0335383642 0.5436743473
1452750000.0 0.3789807598 0.3640826678
1462700000.0 0.5349214905 0.0168975591
1472650000.0 0.4430385787 -0.3444837423
1482600000.0 0.1534962641 -0.5642020985
1492550000.0 -0.2017881994 -0.5555091788
1502500000.0 -0.4678649311 -0.32535236
1512450000.0 -0.5246349939 0.0189376193
1522400000.0 -0.3439782088 0.3185985452
1532350000.0 -0.01250674 0.4234057488
1542300000.0 0.2991720526 0.2799689726
1552250000.0 0.4307326671 -0.0274044977
1562200000.0 0.3222224259 -0.3307510808
1572150000.0 0.0452204783 -0.4737630811
1582100000.0 -0.2486712999 -0.3940260205
1592050000.0 -0.408767551 -0.1393405132
1602000000.0 -0.350481237 0.1580451696
1611950000.0 -0.1015734747 0.3379871834
1621900000.0 0.2052372357 0.2945630632
1631850000.0 0.3945079977 0.0471369128
1641800000.0 0.3582785042 -0.2666015406
1651750000.0 0.1176418898 -0.4686089467
1661700000.0 -0.2014865516 -0.4515911194
1671650000.0 -0.4342937519 -0.2243908104
1681600000.0 -0.4639536644 0.1084637834
1691550000.0 -0.2624428307 0.3875639828
1701500000.0 0.0854272925 0.4671566598
1711450000.0 0.4042282085 0.2906208195
1721400000.0 0.5151844427 -0.0596644255
1731350000.0 0.3688395744 -0.3189938017
1741300000.0 0.1344061622 -0.5588850766
1751250000.0 -0.2404843573 -0.5374387943
1761200000.0 -0.5125843526 -0.2894045594
1771150000.0 -0.5793526045 0.0736611669
1781100000.0 -0.4130224133 0.4086554398
1791050000.0 -0.0701632114 0.57452616
1801000000.0 0.3095966748 0.4872115179
1810950000.0 0.5486664042 0.1767470929
1820900000.0 0.5362534289 -0.2098132201
1830850000.0 0.2908262226 -0.4965546796
1840800000.0 -0.0671513612 -0.5734417832
1850750000.0 -0.3899771684 -0.4293887342
1860700000.0 -0.5636779963 -0.1307903484
1870650000.0 -0.5298740517 0.2079262618
1880600000.0 -0.303831065 0.4592435181
1890550000.0 0.0267128793 0.5195133815
1900500000.0 0.3169513832 0.3623421549
1910450000.0 0.4423420153 0.0673754692
1920400000.0 0.3594313593 -0.2254945441
1930350000.0 0.132356879 -0.3938765027
1940300000.0 -0.1272765416 -0.3911304451
1950250000.0 -0.3162981754 -0.250463173
1960200000.0 -0.3758259827 -0.047507346
1970150000.0 -0.3062543172 0.1230980093
1980100000.0 -0.1700109136 0.1985950063
1990050000.0 -0.0548934924 0.1691887628
2000000000.0 -0.0163697077 0.10769471
