!Created with skrf (http://scikit-rf.org).
# GHz S RI R 50.0 
!freq ReS11 ImS11
10000000.0 -0.8208819046 0.6121422338
19950000.0 -0.2980247356 0.9538062874
29900000.0 0.3211033661 0.9269180766
39850000.0 0.8136553848 0.5426848258
49800000.0 0.9891596403 -0.0692851866
59750000.0 0.752344036 -0.6792801732
69700000.0 0.167537471 -1.014592157
79650000.0 -0.5135082901 -0.884843367
89600000.0 -0.946336578 -0.3203595504
99550000.0 -0.8829354942 0.4073306678
109500000.0 -0.3178620437 0.9082265856
119450000.0 0.4683168463 0.8584019956
129400000.0 0.9701125273 0.2038767319
139350000.0 0.812619072 -0.6078641712
149300000.0 0.063527408 -0.9911603963
159250000.0 -0.6882693346 -0.6685627348
169200000.0 -0.940150247 0.0759962478
179150000.0 -0.5930175593 0.7469457357
189100000.0 0.1004524993 0.9727256449
199050000.0 0.7359031964 0.66735528
209000000.0 0.9859203233 0.031959884
218950000.0 0.764705522 -0.5833328508
228900000.0 0.2188538784 -0.9094885676
238850000.0 -0.4014814714 -0.8296285901
248800000.0 -0.6335311844 -0.3084019775
258750000.0 -0.927102734 0.1765839453
268700000.0 -0.6376190582 0.7171203839
278650000.0 -0.0789282268 0.9540402637
288600000.0 0.4992157893 0.7880641431
298550000.0 0.8412524271 0.3028246356
308500000.0 0.8062795092 -0.2839578372
318450000.0 0.4136100892 -0.7138151905
328400000.0 -0.1573900868 -0.7890043365
338350000.0 -0.6219532837 -0.4702752579
348300000.0 -0.7300010316 0.0577492018
358250000.0 -0.4499307711 0.4739039769
368200000.0 -0.0020384773 0.5523503745
378150000.0 0.3216245146 0.3148921774
388100000.0 0.3659603932 -0.0292125071
398050000.0 0.1799498023 -0.2535726478
408000000.0 -0.0600132499 -0.2622929299
417950000.0 -0.1952416245 -0.1187493449
427900000.0 -0.1781573561 0.0458294651
437850000.0 -0.0635695787 0.1293820544
447800000.0 0.0561296885 0.1077154449
457750000.0 0.1142643296 0.0221596348
467700000.0 0.0965272389 -0.0628660645
477650000.0 0.034921157 -0.0979907406
487600000.0 -0.0183329223 -0.0764491218
497550000.0 0.0143473879 -0.0871798882
507500000.0 -0.0459303237 -0.0075064079
517450000.0 -0.0125120156 0.0079968347
527400000.0 0.0046114696 -0.0063404708
537350000.0 -0.0088207116 -0.0245277537
547300000.0 -0.0442986975 -0.0209657195
557250000.0 -0.0710883408 0.0214662862
567200000.0 -0.0606941409 0.0803296033
577150000.0 -0.0069635058 0.1240001449
587100000.0 0.071947959 0.1220761902
597050000.0 0.1391280011 0.0629933314
607000000.0 0.1566909949 -0.0344289339
616950000.0 0.1079239065 -0.1309601061
626900000.0 0.00766921 -0.1820100274
636850000.0 -0.1078853547 -0.1645697037
646800000.0 -0.1884743676 -0.0818527556
656750000.0 -0.2019228282 0.0327435475
666700000.0 -0.140282445 0.129821322
676650000.0 -0.0320327821 0.1658235844
686600000.0 0.0743941924 0.125640161
696550000.0 0.1305540874 0.0310396244
706500000.0 0.1145277842 -0.0718413618
716450000.0 0.0418623214 -0.132468318
726400000.0 -0.0446967367 -0.1233484073
736350000.0 -0.0912654052 -0.0552486492
746300000.0 -0.0685609112 0.0266188589
756250000.0 0.0147452779 0.0683079878
766200000.0 0.1106972332 0.0341103976
776150000.0 0.1583236378 -0.0662165254
786100000.0 0.1178148551 -0.1814421685
796050000.0 -0.0056306136 -0.24097612
806000000.0 -0.1554563982 -0.1935740009
815950000.0 -0.2490383353 -0.0413706847
825900000.0 -0.2243885714 0.156639179
835850000.0 -0.0712348678 0.3090089237
845800000.0 0.1555683902 0.338701391
855750000.0 0.3606453695 0.2188445616
865700000.0 0.4516004948 -0.0092740985
875650000.0 0.3777181385 -0.2569002784
885600000.0 0.1550434093 -0.4116770069
895550000.0 -0.1293923981 -0.3965126198
905500000.0 -0.3539091092 -0.2035001339
915450000.0 -0.4125916225 0.0948894504
925400000.0 -0.2670591463 0.3663862789
935350000.0 0.0208935861 0.4782227455
945300000.0 0.3116562639 0.3641393412
955250000.0 0.4458056738 0.0693664631
965200000.0 0.3169953532 -0.2473326328
975150000.0 -0.0217980509 -0.3670474915
985100000.0 -0.3405458463 -0.187965271
995050000.0 -0.4192344587 0.1908417424
1005000000.0 -0.1555518217 0.515022153
1014950000.0 0.3134028574 0.5165271246
1024900000.0 0.6492450553 0.0969291261
1034850000.0 0.5160472599 -0.4938081194
1044800000.0 -0.0818088361 -0.7818731598
1054750000.0 -0.7027908836 -0.4720262895
1064700000.0 -0.8193705745 0.1590540984
1074650000.0 -0.5301498906 0.6850313844
1084600000.0 0.0410920638 0.7932920266
1094550000.0 0.5689103172 0.5850274854
1104500000.0 0.7914098556 0.0024112995
1114450000.0 0.5183188959 -0.5596433784
1124400000.0 -0.0648794943 -0.7278004438
1134350000.0 -0.5439820813 -0.4247234506
1144300000.0 -0.636635588 0.0826940679
1154250000.0 -0.3664001235 0.4684022988
1164200000.0 0.0672799742 0.5469956963
1174150000.0 0.4169513356 0.3127435008
1184100000.0 0.4990418515 -0.0973127776
1194050000.0 0.2626974465 -0.435428559
1204000000.0 -0.1273280144 -0.5020758759
1213950000.0 -0.4439479277 -0.3006776386
1223900000.0 -0.555777706 0.0405756539
1233850000.0 -0.4412922864 0.3720866765
1243800000.0 -0.1479483432 0.5719720094
1253750000.0 0.2157699254 0.5542531082
1263700000.0 0.5024953473 0.3122202469
1273650000.0 0.5841454993 -0.0596827949
1283600000.0 0.4296794292 -0.4054221906
1293550000.0 0.1162310638 -0.5954775821
1303500000.0 -0.2375356902 -0.5855301696
1313450000.0 -0.5257698768 -0.3967389871
1323400000.0 -0.6728936387 -0.0865323585
1333350000.0 -0.6327743713 0.2606371209
1343300000.0 -0.4015585525 0.5410809128
1353250000.0 -0.0380133705 0.6469639407
1363200000.0 0.3300061139 0.5252295699
1373150000.0 0.5660882581 0.2186746547
1383100000.0 0.595749813 -0.1559837323
1393050000.0 0.43062047 -0.4749749207
1403000000.0 0.1371860369 -0.6554951497
1412950000.0 -0.1987439015 -0.6579985246
1422900000.0 -0.485016543 -0.4845272556
1432850000.0 -0.6350288778 -0.1792083195
1442800000.0 -0.592037518 0.1664192534
1452750000.0 -0.361805996 0.4376077762
1462700000.0 -0.0171244491 0.5395359458
1472650000.0 0.3222899004 0.4379558346
1482600000.0 0.5436526791 0.1767824056
1492550000.0 0.5844927662 -0.1479335715
1502500000.0 0.4453960799 -0.4306647705
1512450000.0 0.177313319 -0.5834388653
1522400000.0 -0.131970024 -0.55438777
1532350000.0 -0.3663733038 -0.3447843696
1542300000.0 -0.438805708 -0.0426702681
1552250000.0 -0.322836854 0.2512337258
1562200000.0 -0.0588801247 0.4155886138
1572150000.0 0.2373235241 0.3891823083
1582100000.0 0.4455871778 0.1985116078
1592050000.0 0.4919682791 -0.0693543937
1602000000.0 0.3654993545 -0.3076081572
1611950000.0 0.1138197061 -0.4214222507
1621900000.0 -0.1646878531 -0.3574487896
1631850000.0 -0.3535372568 -0.1305151257
1641800000.0 -0.3639442796 0.1708757067
1651750000.0 -0.1857255143 0.4139071331
1661700000.0 0.100582934 0.4926169113
1671650000.0 0.3718648125 0.3812738984
1681600000.0 0.5232445735 0.1311346689
1691550000.0 0.503669056 -0.1662011101
1701500000.0 0.3140655897 -0.4086877827
1711450000.0 0.0095045799 -0.5079823129
1721400000.0 -0.3116317121 -0.412630882
1731350000.0 -0.5234844528 -0.1423816865
1741300000.0 -0.5372770573 0.2014324574
1751250000.0 -0.3530152941 0.4846859917
1761200000.0 -0.0512550421 0.6125539113
1771150000.0 0.263297952 0.5607528165
1781100000.0 0.5029551979 0.357496036
1791050000.0 0.6076665882 0.0591694908
1801000000.0 0.5429905412 -0.2590390061
1810950000.0 0.3103058325 -0.5043797899
1820900000.0 -0.0304430419 -0.5821835085
1830850000.0 -0.3584758017 -0.4512737616
1840800000.0 -0.5509032245 -0.1641548744
1850750000.0 -0.5541958891 0.1651117307
1860700000.0 -0.3954231181 0.4302752557
1870650000.0 -0.141359359 0.5715965141
1880600000.0 0.1372646701 0.5695811472
1890550000.0 0.3735754747 0.4320874227
1900500000.0 0.5050312323 0.189949734
1910450000.0 0.4844307248 -0.0885415836
1920400000.0 0.3116908094 -0.3072863081
1930350000.0 0.0543508125 -0.3883494629
1940300000.0 -0.1880747296 -0.3191793201
1950250000.0 -0.337678117 -0.1522748273
1960200000.0 -0.3728157335 0.0391143246
1970150000.0 -0.3127749526 0.1912121637
1980100000.0 -0.2016224463 0.2684565038
1990050000.0 -0.0946461891 0.2637765585
2000000000.0 -0.0397957534 0.2071570882
