!Created with skrf (http://scikit-rf.org).
# GHz S RI R 50.0 
!freq ReS11 ImS11
10000000.0 -0.7777583117 0.5851928641
19950000.0 -0.2875376951 0.9152662084
29900000.0 0.3012310696 0.8940688229
39850000.0 0.7759840469 0.5255696325
49800000.0 0.9470029686 -0.0692476584
59750000.0 0.7159313746 -0.6667355091
69700000.0 0.1436162673 -0.9951177821
79650000.0 -0.5199518238 -0.8606180157
89600000.0 -0.9318227301 -0.2919324162
99550000.0 -0.8444198468 0.434784434
109500000.0 -0.2542461788 0.9163366705
119450000.0 0.5375000675 0.8172284703
129400000.0 1.001330049 0.1182614041
139350000.0 0.745116652 -0.6909558839
149300000.0 -0.0446139302 -0.9830394266
159250000.0 -0.7397940917 -0.572763781
169200000.0 -0.8970758827 0.176027205
179150000.0 -0.5029434616 0.7795698217
189100000.0 0.1609414389 0.9343061831
199050000.0 0.7300883108 0.6078979215
209000000.0 0.9375456102 0.0017593682
218950000.0 0.7204508173 -0.571336284
228900000.0 0.2104626229 -0.8741178878
238850000.0 -0.3660918276 -0.8046402434
248800000.0 -0.7665972048 -0.4035592842
258750000.0 -0.8848033513 0.1549823438
268700000.0 -0.6325710035 0.6694222025
278650000.0 -0.1267326161 0.9222382918
288600000.0 0.4215502432 0.8073795552
298550000.0 0.7823641687 0.3763901838
308500000.0 0.8052893435 -0.1893503498
318450000.0 0.475619989 -0.6468198633
328400000.0 -0.0620966127 -0.7892506303
338350000.0 -0.5475133248 -0.5447794722
348300000.0 -0.7208755872 -0.0520723074
358250000.0 -0.5085060249 0.3852169978
368200000.0 -0.0930834678 0.5171045721
378150000.0 0.2358517693 0.3332987917
388100000.0 0.3089662923 0.0266730718
398050000.0 0.1637724583 -0.180029482
408000000.0 -0.0341580141 -0.1922917891
417950000.0 -0.1380603184 -0.071967258
427900000.0 -0.1081629065 0.0579076159
437850000.0 -0.0006654335 0.1046532622
447800000.0 0.0951768302 0.0540974907
457750000.0 0.1227988466 -0.0452520557
467700000.0 0.0739837189 -0.1290446698
477650000.0 -0.0114630892 -0.1515828981
487600000.0 -0.0832816411 -0.109599646
497550000.0 -0.1123198187 -0.025710152
507500000.0 -0.0768170038 0.0429413633
517450000.0 -0.0179056015 0.0735154409
527400000.0 0.0340940843 0.0612452598
537350000.0 0.0521714632 0.0259070666
547300000.0 0.035467295 -0.0001581208
557250000.0 0.0054615636 0.0009663432
567200000.0 -0.0112339692 0.0267640798
577150000.0 0.0030869368 0.0553379827
587100000.0 0.0419432092 0.0585465359
597050000.0 0.0796177282 0.0219561372
607000000.0 0.0853035329 -0.043552734
616950000.0 0.0428863233 -0.1069549751
626900000.0 -0.0362732612 -0.1326542804
636850000.0 -0.1183620822 -0.1011322293
646800000.0 -0.1647206266 -0.0204663588
656750000.0 -0.1523351763 0.0762769365
666700000.0 -0.0795364475 0.1466981143
676650000.0 0.0243961375 0.1548478322
686600000.0 0.1136980615 0.0918097687
696550000.0 0.1468376585 -0.0157858899
706500000.0 0.1062659581 -0.1208462667
716450000.0 0.0119314893 -0.1765398028
726400000.0 -0.0911126386 -0.1544681614
736350000.0 -0.1460703739 -0.0671613811
746300000.0 -0.1202489207 0.0370797052
756250000.0 -0.0230436175 0.0995718008
766200000.0 0.09498156 0.0800518368
776150000.0 0.1707463551 -0.0155413669
786100000.0 0.1573375413 -0.1385997425
796050000.0 0.0534664668 -0.2180962991
806000000.0 -0.0882195972 -0.1970951632
815950000.0 -0.1889405134 -0.0713358869
825900000.0 -0.1838880728 0.1046748209
835850000.0 -0.0619735909 0.2457249064
845800000.0 0.1283294285 0.2786151169
855750000.0 0.3046647015 0.1773968878
865700000.0 0.3802386065 -0.0251480428
875650000.0 0.3039640437 -0.2403766701
885600000.0 0.0927894946 -0.3612033512
895550000.0 -0.1629992344 -0.3103938486
905500000.0 -0.3350604431 -0.0934919859
915450000.0 -0.3266084353 0.1968358274
925400000.0 -0.1259464145 0.4149691792
935350000.0 0.1742441904 0.4368636823
945300000.0 0.4109418573 0.229669487
955250000.0 0.4281766583 -0.1137370163
965200000.0 0.1660879415 -0.3897527216
975150000.0 -0.2540753484 -0.3760654859
985100000.0 -0.5358357299 -0.0075376066
995050000.0 -0.4056304441 0.4739641884
1005000000.0 0.0810518631 0.6717571345
1014950000.0 0.5763998244 0.4027660085
1024900000.0 0.6929219005 -0.2115579827
1034850000.0 0.2592212461 -0.7202611347
1044800000.0 -0.4228606402 -0.6851059965
1054750000.0 -0.7998604443 -0.1237968893
1064700000.0 -0.6287411347 0.4253247758
1074650000.0 -0.1953852139 0.6380780131
1084600000.0 0.196659189 0.7218673255
1094550000.0 0.6618375811 0.351865603
1104500000.0 0.6860701752 -0.2449040013
1114450000.0 0.2791999065 -0.6683559983
1124400000.0 -0.2784984488 -0.6620401447
1134350000.0 -0.6347379476 -0.2809079398
1144300000.0 -0.6282438324 0.2045441353
1154250000.0 -0.3210198435 0.5416456895
1164200000.0 0.1125419854 0.5937537772
1174150000.0 0.4708034224 0.3540727977
1184100000.0 0.5776020336 -0.0658680431
1194050000.0 0.3716840589 -0.4402069257
1204000000.0 -0.01762647 -0.5708006611
1213950000.0 -0.3768011539 -0.4255380254
1223900000.0 -0.5647803762 -0.107778126
1233850000.0 -0.5347781267 0.2457344646
1243800000.0 -0.3090024453 0.5142280173
1253750000.0 0.036430612 0.5991479464
1263700000.0 0.3737729757 0.4526647622
1273650000.0 0.5566056159 0.1237389533
1283600000.0 0.5057639696 -0.2465676204
1293550000.0 0.2589671604 -0.5081993166
1303500000.0 -0.0728164556 -0.5835288735
1313450000.0 -0.3785292123 -0.4738074934
1323400000.0 -0.5789859981 -0.2253135125
1333350000.0 -0.6243638946 0.0955770166
1343300000.0 -0.4883599497 0.4018649711
1353250000.0 -0.1913598187 0.5826555497
1363200000.0 0.1701929916 0.5529501839
1373150000.0 0.4507859138 0.3147590228
1383100000.0 0.5464995971 -0.035178057
1393050000.0 0.4418702472 -0.3653447159
1403000000.0 0.1939653073 -0.577957502
1412950000.0 -0.110446851 -0.6252115009
1422900000.0 -0.383952732 -0.5038849477
1432850000.0 -0.5517505666 -0.2479393828
1442800000.0 -0.5541610362 0.0745981158
1452750000.0 -0.3680755661 0.3528940288
1462700000.0 -0.0522910106 0.4767765468
1472650000.0 0.273187493 0.3986703374
1482600000.0 0.4875742356 0.1589521979
1492550000.0 0.5269814244 -0.1446637267
1502500000.0 0.3930846923 -0.4067418485
1512450000.0 0.1408216585 -0.5403817073
1522400000.0 -0.138982313 -0.4993083082
1532350000.0 -0.3434678145 -0.2946230797
1542300000.0 -0.3877368836 0.0026984084
1552250000.0 -0.2436398326 0.2709702702
1562200000.0 0.0268361887 0.3953416333
1572150000.0 0.3032189826 0.3325624527
1582100000.0 0.4767288861 0.1233916859
1592050000.0 0.4820982454 -0.1429287056
1602000000.0 0.3215656592 -0.3584266605
1611950000.0 0.0535247118 -0.4363940647
1621900000.0 -0.2216774 -0.3346780114
1631850000.0 -0.3907092656 -0.0802815375
1641800000.0 -0.3736299027 0.2316619502
1651750000.0 -0.1725053143 0.4670680748
1661700000.0 0.1252849757 0.5304908254
1671650000.0 0.3982448387 0.4052681172
1681600000.0 0.5492317279 0.1469922023
1691550000.0 0.5325718554 -0.1561403325
1701500000.0 0.3503774547 -0.4071920153
1711450000.0 0.0530702239 -0.5234929425
1721400000.0 -0.271419328 -0.4506250918
1731350000.0 -0.5062737754 -0.1991065865
1741300000.0 -0.5582547447 0.143980264
1751250000.0 -0.409621856 0.4481255361
1761200000.0 -0.1272556905 0.6092548653
1771150000.0 0.1865183645 0.5929134651
1781100000.0 0.4416597595 0.4210968214
1791050000.0 0.5772840399 0.1449582643
1801000000.0 0.5589746618 -0.1676249903
1810950000.0 0.3805943819 -0.4345696327
1820900000.0 0.0804915184 -0.5662434973
1830850000.0 -0.2480877912 -0.5014433119
1840800000.0 -0.4822337686 -0.2590546895
1850750000.0 -0.5402130298 0.0614144214
1860700000.0 -0.4253164315 0.3442870083
1870650000.0 -0.1979678823 0.513579787
1880600000.0 0.0602106804 0.5297235277
1890550000.0 0.2513998311 0.4410857108
1900500000.0 0.4046284326 0.2712605246
1910450000.0 0.4352969525 0.0318274889
1920400000.0 0.33135225 -0.1830257373
1930350000.0 0.1335874158 -0.2969288188
1940300000.0 -0.0768017546 -0.2795503989
1950250000.0 -0.2234850552 -0.16438289
1960200000.0 -0.2749733705 -0.0167925933
1970150000.0 -0.2436868513 0.1017296515
1980100000.0 -0.1742687073 0.1514632337
1990050000.0 -0.1295943517 0.1317547891
2000000000.0 -0.1629430288 0.0939454659
