!Created with skrf (http://scikit-rf.org).
# GHz S RI R 50.0 
!freq ReS11 ImS11
10000000.0 -1.001621824 0.1615207825
19950000.0 -0.9465707684 0.3088364231
29900000.0 -0.8691239012 0.4503563489
39850000.0 -0.7694210778 0.5911751784
49800000.0 -0.6485218423 0.7254490972
59750000.0 -0.5014320917 0.8463259034
69700000.0 -0.3192153863 0.9415366664
79650000.0 -0.0980148052 0.9907814548
89600000.0 0.1605203319 0.97400108
99550000.0 0.4401272178 0.8699006845
109500000.0 0.7130128352 0.663216615
119450000.0 0.9281478189 0.342897978
129400000.0 1.011745766 -0.068364311
139350000.0 0.906769961 -0.4816830251
149300000.0 0.6276234614 -0.8005957709
159250000.0 0.2637321948 -0.9599625076
169200000.0 -0.0945884611 -0.9763866986
179150000.0 -0.3992692149 -0.8942757806
189100000.0 -0.6342853215 -0.7545460893
199050000.0 -0.7975549483 -0.5845821199
209000000.0 -0.8926394664 -0.4011543398
218950000.0 -0.9370132343 -0.2189276004
228900000.0 -0.9430532952 -0.0443574422
238850000.0 -0.9233534817 0.1210023171
248800000.0 -0.8717077342 0.2548868889
258750000.0 -0.8364727027 0.4160491912
268700000.0 -0.7659732402 0.5458972784
278650000.0 -0.6726485496 0.6554928518
288600000.0 -0.5546396974 0.7409512123
298550000.0 -0.4146385572 0.8000725634
308500000.0 -0.2563800639 0.8350529785
318450000.0 -0.0837815776 0.8417417891
328400000.0 0.0965075892 0.8135491197
338350000.0 0.2686194996 0.7381635131
348300000.0 0.4102045497 0.6075853776
358250000.0 0.4922694493 0.4286696831
368200000.0 0.4967464073 0.2297934391
378150000.0 0.4282311448 0.050336392
388100000.0 0.3132666314 -0.0805822979
398050000.0 0.1838072469 -0.1495309661
408000000.0 0.0678585626 -0.1605612027
417950000.0 -0.0200839036 -0.1281553748
427900000.0 -0.0776072167 -0.0718119195
437850000.0 -0.1093084786 -0.0078386079
447800000.0 -0.1218253617 0.0516740921
457750000.0 -0.1203589906 0.0987567556
467700000.0 -0.1076056504 0.1292974268
477650000.0 -0.0857860502 0.1420990302
487600000.0 -0.0571857728 0.1401825692
497550000.0 -0.0294335953 0.1263172981
507500000.0 0.0059171314 0.1129776541
517450000.0 0.031461521 0.0918899648
527400000.0 0.0463590826 0.0716004549
537350000.0 0.0471824273 0.0519332475
547300000.0 0.0347884343 0.0326426643
557250000.0 0.0113024837 0.010944613
567200000.0 -0.0189110035 -0.0076852485
577150000.0 -0.0508243795 -0.0228244922
587100000.0 -0.0801315689 -0.0303590119
597050000.0 -0.1047954247 -0.0245459637
607000000.0 -0.1260281844 0.0016268844
616950000.0 -0.1361036929 0.0207131564
626900000.0 -0.1137079873 0.040990755
636850000.0 -0.128097718 0.0713740662
646800000.0 -0.1329766016 0.1027334887
656750000.0 -0.1310941385 0.1297567655
666700000.0 -0.1203562015 0.1491002372
676650000.0 -0.0992130932 0.1601712456
686600000.0 -0.0680608697 0.1640718449
696550000.0 -0.0298991906 0.1634366964
706500000.0 0.0120388353 0.1582039661
716450000.0 0.0524968131 0.1484521388
726400000.0 0.0865856776 0.131376981
736350000.0 0.1104109048 0.1051840119
746300000.0 0.1215344376 0.0674196412
756250000.0 0.1211517296 0.0183088219
766200000.0 0.1094054586 -0.0382052064
776150000.0 0.088897503 -0.0974966123
786100000.0 0.058829738 -0.1520024018
796050000.0 0.0196851641 -0.1952450934
806000000.0 -0.0288165385 -0.2213920144
815950000.0 -0.0875947467 -0.2274787267
825900000.0 -0.1540622788 -0.2144545532
835850000.0 -0.2244339369 -0.1850681704
845800000.0 -0.2929708156 -0.1427059912
855750000.0 -0.3517473567 -0.0897811685
865700000.0 -0.394957258 -0.0323238689
875650000.0 -0.4208725426 0.0302778171
885600000.0 -0.4226674873 0.1032013098
895550000.0 -0.4017459683 0.1832381286
905500000.0 -0.3605151111 0.2673542588
915450000.0 -0.3024159862 0.3505952686
925400000.0 -0.2298230436 0.4255694888
935350000.0 -0.1420417281 0.4844098412
945300000.0 -0.0398898297 0.5174683881
955250000.0 0.0763576674 0.5172286044
965200000.0 0.2032204613 0.4766891827
975150000.0 0.3346251919 0.3943850896
985100000.0 0.4573929701 0.266464437
995050000.0 0.5517814041 0.0913017889
1005000000.0 0.5858180424 -0.1258673062
1014950000.0 0.5259230231 -0.3626679688
1024900000.0 0.3499064985 -0.577585784
1034850000.0 0.0675082354 -0.7140898137
1044800000.0 -0.2730761542 -0.722213307
1054750000.0 -0.5966324644 -0.5817167635
1064700000.0 -0.8201586161 -0.3131154008
1074650000.0 -0.8965831058 0.012910024
1084600000.0 -0.8208051926 0.3315668963
1094550000.0 -0.6246009405 0.5580908763
1104500000.0 -0.4083667365 0.7401561817
1114450000.0 -0.1341379387 0.8285050766
1124400000.0 0.1387093041 0.8171038927
1134350000.0 0.3740635076 0.712491332
1144300000.0 0.5469197217 0.5358079692
1154250000.0 0.646081569 0.3217083987
1164200000.0 0.6777618818 0.1015426873
1174150000.0 0.6580534463 -0.0975408399
1184100000.0 0.6031016937 -0.2724178878
1194050000.0 0.5114277681 -0.4175920919
1204000000.0 0.3900545571 -0.5203295057
1213950000.0 0.2525882147 -0.5805273949
1223900000.0 0.1112048871 -0.6061210052
1233850000.0 -0.0248587362 -0.6083201976
1243800000.0 -0.1497472972 -0.5943870203
1253750000.0 -0.2607112545 -0.5679111698
1263700000.0 -0.3545448754 -0.5282630006
1273650000.0 -0.4315625832 -0.4766072924
1283600000.0 -0.4904612299 -0.4112763635
1293550000.0 -0.5345378712 -0.3350718772
1303500000.0 -0.5693549737 -0.2527454466
1313450000.0 -0.5974535365 -0.1686741605
1323400000.0 -0.622079975 -0.0874423025
1333350000.0 -0.6419232365 -0.0106948835
1343300000.0 -0.6534541998 0.0612848687
1353250000.0 -0.6523602896 0.1277474682
1363200000.0 -0.6361378805 0.1903096961
1373150000.0 -0.6039315349 0.2515011067
1383100000.0 -0.5615195895 0.3119521187
1393050000.0 -0.512931154 0.372671711
1403000000.0 -0.4636450097 0.4314919691
1412950000.0 -0.4139049974 0.486335895
1422900000.0 -0.3636762268 0.5341993624
1432850000.0 -0.3104444428 0.5704491044
1442800000.0 -0.2523187172 0.594221544
1452750000.0 -0.1866373786 0.605959758
1462700000.0 -0.1137067095 0.608019872
1472650000.0 -0.0348979328 0.6045362726
1482600000.0 0.0464861866 0.597955557
1492550000.0 0.1272692421 0.5874475215
1502500000.0 0.2045537217 0.5697725829
1512450000.0 0.2750374382 0.5403218542
1522400000.0 0.3368187462 0.4951954425
1532350000.0 0.3894672898 0.4333171589
1542300000.0 0.4346170568 0.3565856848
1552250000.0 0.4737553916 0.2694267752
1562200000.0 0.5073703727 0.1783917947
1572150000.0 0.5322811195 0.0864837175
1582100000.0 0.5451216673 -0.0044206564
1592050000.0 0.5402077074 -0.0925471558
1602000000.0 0.5142373599 -0.1766014074
1611950000.0 0.4675719222 -0.2540285531
1621900000.0 0.4053762019 -0.3267886048
1631850000.0 0.332991429 -0.3954138269
1641800000.0 0.255911567 -0.4583319469
1651750000.0 0.1764603525 -0.5114248606
1661700000.0 0.0959839662 -0.550102634
1671650000.0 0.0146351805 -0.5647311302
1681600000.0 -0.0189717889 -0.5654269215
1691550000.0 -0.1223470247 -0.5726052923
1701500000.0 -0.207003559 -0.5443755043
1711450000.0 -0.2868794469 -0.5096685836
1721400000.0 -0.3628020618 -0.4717831221
1731350000.0 -0.4323020503 -0.4341733241
1741300000.0 -0.4921002453 -0.3936268171
1751250000.0 -0.5385435613 -0.3479261918
1761200000.0 -0.5701474324 -0.2959128591
1771150000.0 -0.5884131471 -0.2360467499
1781100000.0 -0.5986543876 -0.1710393046
1791050000.0 -0.6061279334 -0.1046470042
1801000000.0 -0.6138664645 -0.0403136112
1810950000.0 -0.6224353338 0.0201317982
1820900000.0 -0.6289239043 0.0763305296
1830850000.0 -0.6290812466 0.1259525506
1840800000.0 -0.6167124773 0.1714303278
1850750000.0 -0.5909733536 0.21354236
1860700000.0 -0.552755352 0.2534070714
1870650000.0 -0.5087885778 0.2923867849
1880600000.0 -0.4638333165 0.3293372777
1890550000.0 -0.423302537 0.3637770051
1900500000.0 -0.3882368541 0.3930205634
1910450000.0 -0.3564569993 0.4138842877
1920400000.0 -0.3245961025 0.4237076384
1930350000.0 -0.2890950465 0.4217210559
1940300000.0 -0.2478157919 0.4095666866
1950250000.0 -0.2011605348 0.3895151871
1960200000.0 -0.1515430122 0.366232484
1970150000.0 -0.1060093506 0.3417919893
1980100000.0 -0.0688927037 0.3170629785
1990050000.0 -0.0443714129 0.289168963
2000000000.0 -0.035717142 0.2547640852
