!Created with skrf (http://scikit-rf.org).
# GHz S RI R 50.0 
!freq ReS11 ImS11
10000000.0 -0.7936628737 0.5872085568
19950000.0 -0.2944885301 0.9227040652
29900000.0 0.3063657193 0.9058109308
39850000.0 0.7916311695 0.5370938873
49800000.0 0.9684081651 -0.0606147968
59750000.0 0.7386734213 -0.6596125182
69700000.0 0.1657602964 -0.9898335839
79650000.0 -0.5040963597 -0.863708271
89600000.0 -0.9325981264 -0.3064062018
99550000.0 -0.8667360276 0.4190257801
109500000.0 -0.2890590647 0.9144610088
119450000.0 0.5073372126 0.8349833102
129400000.0 0.9902681644 0.1502103915
139350000.0 0.7534302139 -0.6677710575
149300000.0 -0.0333535233 -0.981544212
159250000.0 -0.7456257986 -0.5865762788
169200000.0 -0.9165551445 0.1684102645
179150000.0 -0.5142182161 0.7840801832
189100000.0 0.170268333 0.9385217238
199050000.0 0.7517950244 0.6016291113
209000000.0 0.9545610124 -0.0144194716
218950000.0 0.7229216406 -0.5907929037
228900000.0 0.1975092198 -0.8905064137
238850000.0 -0.3900339646 -0.8128997404
248800000.0 -0.7995118115 -0.4074543148
258750000.0 -0.9062405182 0.165606196
268700000.0 -0.6410894811 0.6797132817
278650000.0 -0.1208690693 0.9260114833
288600000.0 0.4382544186 0.8040034322
298550000.0 0.8044666037 0.3699509767
308500000.0 0.8299603256 -0.196126204
318450000.0 0.5016691633 -0.6553021008
328400000.0 -0.0386936454 -0.8021597563
338350000.0 -0.5335726427 -0.5640615398
348300000.0 -0.724809771 -0.0734915496
358250000.0 -0.5305110695 0.3750288839
368200000.0 -0.117788766 0.52861305
378150000.0 0.2229845521 0.362059561
388100000.0 0.3122223462 0.0581325534
398050000.0 0.1791455423 -0.1560225756
408000000.0 -0.0172022929 -0.1781912047
417950000.0 -0.1193893479 -0.0659885379
427900000.0 -0.088431568 0.0546149532
437850000.0 0.0142146956 0.0936838132
447800000.0 0.1046822584 0.0390344046
457750000.0 0.1226390083 -0.0601089207
467700000.0 0.0618558412 -0.1378609101
477650000.0 -0.0337079293 -0.1513336059
487600000.0 -0.1101951647 -0.0944565927
497550000.0 -0.1329188989 -0.0088203114
507500000.0 -0.0933677497 0.067470353
517450000.0 -0.0201360374 0.0960249541
527400000.0 0.0412629382 0.0750941312
537350000.0 0.0643479556 0.0297183416
547300000.0 0.0475502151 -0.009190811
557250000.0 0.0115367432 -0.0182053487
567200000.0 -0.0123245784 0.0027927848
577150000.0 -0.0045577709 0.0342870774
587100000.0 0.0324803136 0.0438595918
597050000.0 0.070181056 0.0158567605
607000000.0 0.0781485656 -0.0429811917
616950000.0 0.0404251544 -0.1026057785
626900000.0 -0.0360421554 -0.1271582549
636850000.0 -0.1189906239 -0.0980040401
646800000.0 -0.1654871766 -0.0191393574
656750000.0 -0.1513172076 0.0766786665
666700000.0 -0.0761995156 0.1447006645
676650000.0 0.0308045176 0.1514940767
686600000.0 0.1225503775 0.0891186322
696550000.0 0.1574799557 -0.0211720525
706500000.0 0.1178756798 -0.1274199153
716450000.0 0.0214586459 -0.181302208
726400000.0 -0.0828026997 -0.1583891071
736350000.0 -0.144170416 -0.0692338395
746300000.0 -0.1250346406 0.0390681046
756250000.0 -0.0331968065 0.1076146966
766200000.0 0.081587723 0.0943739263
776150000.0 0.1611312601 0.0037498819
786100000.0 0.1528473855 -0.1162864848
796050000.0 0.055758716 -0.2001276787
806000000.0 -0.0811848553 -0.186822087
815950000.0 -0.1845278541 -0.0700335022
825900000.0 -0.1813752241 0.1006610026
835850000.0 -0.0590230976 0.2408228765
845800000.0 0.1349043588 0.2700565997
855750000.0 0.3110524479 0.1634375126
865700000.0 0.3795568022 -0.0429248277
875650000.0 0.2905629038 -0.2570589983
885600000.0 0.0687551487 -0.3706207927
895550000.0 -0.1911440771 -0.3116105768
905500000.0 -0.3635304311 -0.0884381245
915450000.0 -0.352233062 0.2046546983
925400000.0 -0.1476150247 0.424630741
935350000.0 0.1582450786 0.4551295317
945300000.0 0.4138686094 0.2636345773
955250000.0 0.4722325234 -0.0717139511
965200000.0 0.2643923139 -0.3754021083
975150000.0 -0.1311122059 -0.447493537
985100000.0 -0.482997186 -0.1847904085
995050000.0 -0.5166317683 0.2883711734
1005000000.0 -0.147469369 0.6405927997
1014950000.0 0.3983915448 0.5713161074
1024900000.0 0.7171163596 0.0636249087
1034850000.0 0.506428653 -0.554336258
1044800000.0 -0.1506344248 -0.7848425713
1054750000.0 -0.7485156004 -0.3988697527
1064700000.0 -0.818980277 0.2919107524
1074650000.0 -0.3604637453 0.7662796525
1084600000.0 0.2246296189 0.7813611207
1094550000.0 0.6912037096 0.3879835284
1104500000.0 0.7344217205 -0.2207738268
1114450000.0 0.3312793891 -0.6731999475
1124400000.0 -0.2552699219 -0.6898591741
1134350000.0 -0.6470159717 -0.3044917376
1144300000.0 -0.6577311656 0.2042180663
1154250000.0 -0.345239789 0.5615995077
1164200000.0 0.1031171412 0.6231208822
1174150000.0 0.477881915 0.3814296788
1184100000.0 0.5943193621 -0.0509349679
1194050000.0 0.3873972274 -0.4413705377
1204000000.0 -0.0140858973 -0.5846341563
1213950000.0 -0.3898526315 -0.4405007851
1223900000.0 -0.5857091777 -0.1137544476
1233850000.0 -0.5497821088 0.251089003
1243800000.0 -0.3092983212 0.523448681
1253750000.0 0.0518556611 0.601748376
1263700000.0 0.3946152185 0.4420363032
1273650000.0 0.5706866557 0.1013502783
1283600000.0 0.5045207103 -0.2728380856
1293550000.0 0.2417803553 -0.5286957757
1303500000.0 -0.103177428 -0.59146914
1313450000.0 -0.4139205813 -0.4640410545
1323400000.0 -0.6070964652 -0.1980517567
1333350000.0 -0.630232178 0.1329650259
1343300000.0 -0.4615024492 0.4342569439
1353250000.0 -0.1376049765 0.592926391
1363200000.0 0.2304847374 0.5326863018
1373150000.0 0.4977593 0.2691041724
1383100000.0 0.5668037567 -0.0901761288
1393050000.0 0.4334049028 -0.4134087005
1403000000.0 0.1615484378 -0.6045978287
1412950000.0 -0.1582927812 -0.6214835373
1422900000.0 -0.4352082169 -0.4684654702
1432850000.0 -0.5871781496 -0.1844174416
1442800000.0 -0.5549002717 0.1491089759
1452750000.0 -0.3309044471 0.4141339662
1462700000.0 0.0089078096 0.5048105975
1472650000.0 0.3343170883 0.3881985727
1482600000.0 0.5288106313 0.1194650457
1492550000.0 0.5381648 -0.1959780087
1502500000.0 0.374048823 -0.4512836301
1512450000.0 0.0990618099 -0.5640909349
1522400000.0 -0.1930188216 -0.4956321265
1532350000.0 -0.3937070627 -0.263204656
1542300000.0 -0.420748619 0.0505028505
1552250000.0 -0.2525737496 0.3211048069
1562200000.0 0.038158005 0.4326146695
1572150000.0 0.3266287862 0.3504379022
1582100000.0 0.4989831228 0.1182385464
1592050000.0 0.4949419044 -0.1637869293
1602000000.0 0.3207776007 -0.3871463161
1611950000.0 0.0393587951 -0.4652390707
1621900000.0 -0.2454425912 -0.357703482
1631850000.0 -0.4169047383 -0.091801915
1641800000.0 -0.3926118733 0.2308507864
1651750000.0 -0.1787369434 0.4715017811
1661700000.0 0.1313090661 0.5331191973
1671650000.0 0.4123068372 0.4020308569
1681600000.0 0.5650287696 0.1355199606
1691550000.0 0.5426563248 -0.1744159422
1701500000.0 0.3499665349 -0.4269797703
1711450000.0 0.0397570287 -0.5379064068
1721400000.0 -0.2935162858 -0.4544623813
1731350000.0 -0.525853926 -0.1898303822
1741300000.0 -0.562894045 0.1618582774
1751250000.0 -0.3943966819 0.4654951262
1761200000.0 -0.0950324357 0.618051483
1771150000.0 0.2283360312 0.5873056737
1781100000.0 0.4834896648 0.3984365202
1791050000.0 0.6078596888 0.1068749917
1801000000.0 0.5649874796 -0.2132181094
1810950000.0 0.3535551343 -0.4724168183
1820900000.0 0.0243976613 -0.5781057909
1830850000.0 -0.3136506458 -0.477031072
1840800000.0 -0.5303305415 -0.2034765755
1850750000.0 -0.5462762809 0.1289715396
1860700000.0 -0.3925208457 0.3581330909
1870650000.0 -0.2130552588 0.5265790832
1880600000.0 0.0611807331 0.5714994242
1890550000.0 0.3097269992 0.4670625581
1900500000.0 0.4647978087 0.2497289299
1910450000.0 0.4802756477 -0.0188010157
1920400000.0 0.3441020135 -0.2519410246
1930350000.0 0.1059480607 -0.364990734
1940300000.0 -0.1368679393 -0.3310776795
1950250000.0 -0.3071523434 -0.1887683778
1960200000.0 -0.3690191467 -0.0049476805
1970150000.0 -0.332148615 0.1557584435
1980100000.0 -0.2333322936 0.2511571474
1990050000.0 -0.1230396668 0.2672622781
2000000000.0 -0.0504796719 0.2226043491
