!Created with skrf (http://scikit-rf.org).
# GHz S RI R 50.0 
!freq ReS11 ImS11
10000000.0 -0.7669436345 0.5827301025
19950000.0 -0.2795927075 0.9188955246
29900000.0 0.3122882162 0.905920086
39850000.0 0.7913153948 0.5401412813
49800000.0 0.9613634999 -0.0546356757
59750000.0 0.7270789542 -0.6469566523
69700000.0 0.1585821791 -0.969513334
79650000.0 -0.4998699948 -0.8426364576
89600000.0 -0.9210861045 -0.2902533503
99550000.0 -0.8543505007 0.4315491064
109500000.0 -0.277646191 0.9215146165
119450000.0 0.5098209537 0.8311966896
129400000.0 0.9739276306 0.1467615768
139350000.0 0.7332837461 -0.6562174258
149300000.0 -0.0386925677 -0.9646616205
159250000.0 -0.742195129 -0.5793828565
169200000.0 -0.9164427159 0.1648459865
179150000.0 -0.5255017641 0.7730650403
189100000.0 0.1408308858 0.9278288566
199050000.0 0.711170434 0.6039312995
209000000.0 0.9243198274 0.0037296984
218950000.0 0.7177227595 -0.5716524575
228900000.0 0.2127476518 -0.8850530683
238850000.0 -0.3668710551 -0.8248605164
248800000.0 -0.7862778955 -0.4198344488
258750000.0 -0.8911530883 0.1286224833
268700000.0 -0.6417455922 0.6410804565
278650000.0 -0.1409056676 0.8983214641
288600000.0 0.4085714971 0.7985903335
298550000.0 0.7828428507 0.3834618755
308500000.0 0.8256302489 -0.1766222057
318450000.0 0.5122531269 -0.6398192495
328400000.0 -0.0168203876 -0.7949707712
338350000.0 -0.5048481451 -0.5680611171
348300000.0 -0.6986418534 -0.0891481481
358250000.0 -0.5160076238 0.356519948
368200000.0 -0.1136229668 0.5184055463
378150000.0 0.2256579488 0.3610668416
388100000.0 0.3182751398 0.0627660237
398050000.0 0.1867062928 -0.1507948761
408000000.0 -0.0081301368 -0.1767804752
417950000.0 -0.1196707915 -0.0667570616
427900000.0 -0.1010485903 0.0607011775
437850000.0 -0.0023157459 0.1109746724
447800000.0 0.0900563307 0.0645577106
457750000.0 0.1152854168 -0.0323234327
467700000.0 0.0639326619 -0.1155695698
477650000.0 -0.0243351871 -0.1378383049
487600000.0 -0.0981344137 -0.0952233975
497550000.0 -0.1216070764 -0.019204248
507500000.0 -0.0951956331 0.0518792288
517450000.0 -0.0346299112 0.0804095932
527400000.0 0.0194592431 0.0647532995
537350000.0 0.0401477306 0.0235887728
547300000.0 0.0240713425 -0.00949387
557250000.0 -0.0077027462 -0.0143631561
567200000.0 -0.0271185534 0.0094030242
577150000.0 -0.0137956576 0.0402045854
587100000.0 0.0277255928 0.0487713786
597050000.0 0.0731916659 0.0168781411
607000000.0 0.0891388941 -0.0479960037
616950000.0 0.0555446755 -0.1155905333
626900000.0 -0.0186979492 -0.1499916895
636850000.0 -0.1031801335 -0.1267865464
646800000.0 -0.1582628449 -0.0507209493
656750000.0 -0.1545864981 0.0491845282
666700000.0 -0.087746769 0.1294741914
676650000.0 0.0166005293 0.1520289512
686600000.0 0.1145903499 0.1029211935
696550000.0 0.161648352 0.0034532414
706500000.0 0.1352417896 -0.1031065507
716450000.0 0.0494221162 -0.1672438306
726400000.0 -0.0539715445 -0.1568717565
736350000.0 -0.1197262632 -0.0795106956
746300000.0 -0.1122313617 0.0241035171
756250000.0 -0.0322570597 0.0968472299
766200000.0 0.0777605774 0.0935532717
776150000.0 0.1552697026 0.0134987194
786100000.0 0.152002353 -0.102336819
796050000.0 0.0609191979 -0.1863450999
806000000.0 -0.0702334194 -0.1823970418
815950000.0 -0.1794608078 -0.0753281358
825900000.0 -0.1919318687 0.0920062888
835850000.0 -0.0862425803 0.2372733996
845800000.0 0.0962027893 0.2813146918
855750000.0 0.2738580384 0.1920477714
865700000.0 0.3598063849 -0.0019784812
875650000.0 0.29969987 -0.2194153679
885600000.0 0.1017092592 -0.3542727789
895550000.0 -0.1517079927 -0.3254338054
905500000.0 -0.3348333489 -0.1276487302
915450000.0 -0.3453421111 0.1552439413
925400000.0 -0.1643454926 0.3795631685
935350000.0 0.121584226 0.4239887674
945300000.0 0.3656004098 0.2559913986
955250000.0 0.4306539618 -0.0526326896
965200000.0 0.2454805621 -0.3447678373
975150000.0 -0.1298326934 -0.4186088436
985100000.0 -0.4616108831 -0.1563965764
995050000.0 -0.4696329689 0.3035579249
1005000000.0 -0.0918876589 0.6261495306
1014950000.0 0.4376013651 0.5257187957
1024900000.0 0.7153119477 0.0036009131
1034850000.0 0.4656267491 -0.5870029542
1044800000.0 -0.1760106641 -0.7633886438
1054750000.0 -0.7160114197 -0.3706712443
1064700000.0 -0.7757023645 0.2740898608
1074650000.0 -0.3724715462 0.7329797232
1084600000.0 0.1759325064 0.7655649854
1094550000.0 0.6334668109 0.4445325946
1104500000.0 0.7255345149 -0.1317725521
1114450000.0 0.381931435 -0.5997923001
1124400000.0 -0.1682531035 -0.6758848245
1134350000.0 -0.5801087237 -0.3580457758
1144300000.0 -0.653078266 0.1212432599
1154250000.0 -0.403414877 0.5028433738
1164200000.0 0.0148584659 0.617769956
1174150000.0 0.3974900903 0.4303810972
1184100000.0 0.5564243748 0.0336000684
1194050000.0 0.4045508698 -0.3629382093
1204000000.0 0.041699381 -0.5476802976
1213950000.0 -0.3326924303 -0.4556283409
1223900000.0 -0.5568519756 -0.1660910514
1233850000.0 -0.5627795437 0.1865237112
1243800000.0 -0.3622559925 0.4715450672
1253750000.0 -0.0284110267 0.5834179999
1263700000.0 0.3147949237 0.4683817272
1273650000.0 0.5240939624 0.1628107897
1283600000.0 0.5099984656 -0.2066880564
1293550000.0 0.2908974482 -0.4905903789
1303500000.0 -0.0337815668 -0.5958924908
1313450000.0 -0.3473287713 -0.5092497515
1323400000.0 -0.5605749827 -0.2741346888
1333350000.0 -0.6203016923 0.0386979666
1343300000.0 -0.5064382014 0.3494482781
1353250000.0 -0.2272467664 0.5500807914
1363200000.0 0.1303316238 0.556245403
1373150000.0 0.4314347455 0.349760055
1383100000.0 0.5559416903 0.0135300023
1393050000.0 0.4800172462 -0.3236629985
1403000000.0 0.2477213353 -0.55300375
1412950000.0 -0.0520547128 -0.6191222409
1422900000.0 -0.3315427038 -0.5196994078
1432850000.0 -0.5179890724 -0.283049749
1442800000.0 -0.5540250861 0.0315228018
1452750000.0 -0.4049243052 0.326782984
1462700000.0 -0.1066851512 0.4875052873
1472650000.0 0.2273286858 0.4468847202
1482600000.0 0.4679605397 0.2270391745
1492550000.0 0.5367077096 -0.0761404023
1502500000.0 0.428453058 -0.353028329
1512450000.0 0.1921391152 -0.5159750837
1522400000.0 -0.0900229304 -0.5159879698
1532350000.0 -0.3223567242 -0.3483814853
1542300000.0 -0.4153345817 -0.066099779
1552250000.0 -0.3188938614 0.2226837504
1562200000.0 -0.0703248821 0.3920239883
1572150000.0 0.218091493 0.3747626325
1582100000.0 0.4266057289 0.1942097877
1592050000.0 0.4817459062 -0.0677314306
1602000000.0 0.3686810682 -0.3085786664
1611950000.0 0.1282623822 -0.4375118833
1621900000.0 -0.1525251571 -0.3956180547
1631850000.0 -0.3607226588 -0.1818319633
1641800000.0 -0.3976794175 0.1231563497
1651750000.0 -0.238142487 0.3887064803
1661700000.0 0.0445498345 0.5003359913
1671650000.0 0.3309947915 0.4230260536
1681600000.0 0.5179823255 0.1979466355
1691550000.0 0.548278727 -0.0942147027
1701500000.0 0.4093859397 -0.3614024009
1711450000.0 0.1379422345 -0.5123529778
1721400000.0 -0.1859856679 -0.481775574
1731350000.0 -0.4445540907 -0.2633296558
1741300000.0 -0.5343231407 0.0679990198
1751250000.0 -0.4249447271 0.3853124084
1761200000.0 -0.1685263114 0.5794545261
1771150000.0 0.1397364013 0.604383105
1781100000.0 0.4087869899 0.4684284795
1791050000.0 0.5712466438 0.2144964144
1801000000.0 0.5866528365 -0.0962432256
1810950000.0 0.4332945796 -0.3776352042
1820900000.0 0.1458868996 -0.5378544874
1830850000.0 -0.189031105 -0.5105242777
1840800000.0 -0.4487748426 -0.3005421354
1850750000.0 -0.5506017352 0.0079745819
1860700000.0 -0.4821752695 0.3083660639
1870650000.0 -0.2817677589 0.5145594362
1880600000.0 -0.0203973069 0.5868338484
1890550000.0 0.231209587 0.5185395182
1900500000.0 0.4098749567 0.3322258886
1910450000.0 0.4676989908 0.0752479018
1920400000.0 0.3818950265 -0.1766162546
1930350000.0 0.1759547482 -0.3365302429
1940300000.0 -0.0699446719 -0.3542772044
1950250000.0 -0.2652771265 -0.2449380085
1960200000.0 -0.3581282789 -0.0721464856
1970150000.0 -0.3468344514 0.0953135481
1980100000.0 -0.2613118998 0.2079290059
1990050000.0 -0.1511570017 0.2402621626
2000000000.0 -0.0737971148 0.200433598
