!Created with skrf (http://scikit-rf.org).
# GHz S RI R 50.0 
!freq ReS11 ImS11
10000000.0 -0.7945802705 0.5997096549
19950000.0 -0.2873285351 0.9396030845
29900000.0 0.3200009499 0.9195894716
39850000.0 0.8067227211 0.5441664024
49800000.0 0.9798582988 -0.0590758326
59750000.0 0.7458294622 -0.6596473964
69700000.0 0.1727464535 -0.9904728903
79650000.0 -0.4950456121 -0.8697347909
89600000.0 -0.9283631727 -0.323538417
99550000.0 -0.8828620498 0.3935541743
109500000.0 -0.3400423869 0.9013749699
119450000.0 0.4337636485 0.8734921581
129400000.0 0.9484369779 0.2661111744
139350000.0 0.8261805006 -0.5567831698
149300000.0 0.1099090937 -0.9736711758
159250000.0 -0.6516076238 -0.6973266727
169200000.0 -0.9408187596 0.0282144685
179150000.0 -0.6273683224 0.7089731771
189100000.0 0.0469062425 0.9587276818
199050000.0 0.6829934455 0.682344591
209000000.0 0.9560981016 0.0668295835
218950000.0 0.7655864984 -0.5514566563
228900000.0 0.2388278162 -0.8960328367
238850000.0 -0.3769820576 -0.8354393196
248800000.0 -0.6380109127 -0.3910909542
258750000.0 -0.9111834496 0.1524057446
268700000.0 -0.6323808874 0.6861593566
278650000.0 -0.0885182572 0.9268669713
288600000.0 0.480936794 0.7745009128
298550000.0 0.8270264996 0.3017957899
308500000.0 0.7999324741 -0.2809370431
318450000.0 0.4120071749 -0.7088997905
328400000.0 -0.1519848676 -0.7807276805
338350000.0 -0.6060512488 -0.4640526521
348300000.0 -0.710461195 0.054614172
358250000.0 -0.4375634446 0.4656959374
368200000.0 0.0033676131 0.5474736129
378150000.0 0.3259068377 0.3155640314
388100000.0 0.3709765261 -0.0246452261
398050000.0 0.1868568505 -0.2476492149
408000000.0 -0.0531327373 -0.258288751
417950000.0 -0.1916541383 -0.1160049437
427900000.0 -0.1806457906 0.0497560087
437850000.0 -0.0706626825 0.1370678565
447800000.0 0.0490960393 0.120254451
457750000.0 0.1106903911 0.0359683317
467700000.0 0.0951454746 -0.0518656488
477650000.0 0.0350420525 -0.0920029104
487600000.0 -0.0183088514 -0.0745160533
497550000.0 -0.0564390667 -0.0948135196
507500000.0 -0.053517032 -0.0073091003
517450000.0 -0.0231396905 0.0091440766
527400000.0 -0.0061721453 -0.002149322
537350000.0 -0.0152807069 -0.0187241321
547300000.0 -0.0454749918 -0.0170737459
557250000.0 -0.069162535 0.0192936454
567200000.0 -0.0593058763 0.0714814469
577150000.0 -0.0088157926 0.110389868
587100000.0 0.0653892031 0.1066383808
597050000.0 0.1295708578 0.0494400842
607000000.0 0.1463031724 -0.0446196264
616950000.0 0.0996185591 -0.1367443388
626900000.0 0.0034301593 -0.1849120348
636850000.0 -0.1049090402 -0.1642424918
646800000.0 -0.1792451233 -0.0805504476
656750000.0 -0.1875765316 0.0315677569
666700000.0 -0.1237523734 0.1255942227
676650000.0 -0.0153656133 0.1598203348
686600000.0 0.0897245807 0.1176433514
696550000.0 0.1438385041 0.0209250267
706500000.0 0.1241319047 -0.0823066263
716450000.0 0.0456935331 -0.1427859541
726400000.0 -0.046806091 -0.1307411972
736350000.0 -0.0988874396 -0.0568408478
746300000.0 -0.0789873536 0.0342908342
756250000.0 0.0069840841 0.0865531156
766200000.0 0.1113942056 0.060785514
776150000.0 0.1710338545 -0.0383074736
786100000.0 0.1414559954 -0.1599496522
796050000.0 0.0238121078 -0.2327823914
806000000.0 -0.1298437264 -0.2019264201
815950000.0 -0.2377748407 -0.0618163121
825900000.0 -0.2314258715 0.1330012421
835850000.0 -0.096030931 0.2923899261
845800000.0 0.1192957829 0.3360726193
855750000.0 0.3242412626 0.2327655254
865700000.0 0.42494014 0.0157892473
875650000.0 0.3661657701 -0.2275650597
885600000.0 0.157799825 -0.3878108687
895550000.0 -0.1179023525 -0.3812877802
905500000.0 -0.3370868933 -0.1966803464
915450000.0 -0.3907958664 0.0945422149
925400000.0 -0.24069141 0.354515488
935350000.0 0.0457433252 0.4478884355
945300000.0 0.322124504 0.3151999294
955250000.0 0.4263200607 0.0109474655
965200000.0 0.2638010531 -0.2942992168
975150000.0 -0.1023100071 -0.3800065559
985100000.0 -0.4290676839 -0.1276523666
995050000.0 -0.4303093009 0.3237744731
1005000000.0 -0.0341661315 0.625564678
1014950000.0 0.4954753595 0.4783521674
1024900000.0 0.7274479085 -0.0786614781
1034850000.0 0.4162635057 -0.6525544494
1044800000.0 -0.2534981373 -0.7749301035
1054750000.0 -0.7600715609 -0.3303064035
1064700000.0 -0.7888323838 0.2342444786
1074650000.0 -0.4495040529 0.7225163443
1084600000.0 0.1322305861 0.8184575583
1094550000.0 0.6127346325 0.4983854516
1104500000.0 0.7433620486 -0.0622317804
1114450000.0 0.4461069605 -0.5491633337
1124400000.0 -0.0877079337 -0.6720550461
1134350000.0 -0.5166852074 -0.3938699341
1144300000.0 -0.6166941646 0.0669464852
1154250000.0 -0.3882891027 0.4421753551
1164200000.0 0.0136675281 0.5515723735
1174150000.0 0.373198015 0.3610354761
1184100000.0 0.4956175338 -0.0261595117
1194050000.0 0.3113292734 -0.3802315086
1204000000.0 -0.0533735903 -0.5011501326
1213950000.0 -0.3875124392 -0.355652232
1223900000.0 -0.5469422263 -0.0467783235
1233850000.0 -0.4878696014 0.2863000077
1243800000.0 -0.241006679 0.5192532769
1253750000.0 0.1050903301 0.5585777257
1263700000.0 0.4150191644 0.3748269421
1273650000.0 0.5535249887 0.0341190862
1283600000.0 0.4625582888 -0.3209794772
1293550000.0 0.1922237063 -0.5522893176
1303500000.0 -0.147517649 -0.5940924848
1313450000.0 -0.447098805 -0.4519696825
1323400000.0 -0.6251772866 -0.1776871409
1333350000.0 -0.6342157107 0.1541451103
1343300000.0 -0.4575676538 0.4499254966
1353250000.0 -0.1323510598 0.6034686431
1363200000.0 0.2346149335 0.5437425982
1373150000.0 0.5060427238 0.2843815139
1383100000.0 0.5853932127 -0.0744731057
1393050000.0 0.4638203292 -0.404130463
1403000000.0 0.2002370608 -0.609681226
1412950000.0 -0.1181793993 -0.645753808
1422900000.0 -0.4037717443 -0.5130033628
1432850000.0 -0.5775106699 -0.2457593362
1442800000.0 -0.5817484708 0.0824160322
1452750000.0 -0.4019835829 0.3685781188
1462700000.0 -0.0875685768 0.5117706815
1472650000.0 0.2526598896 0.4553171773
1482600000.0 0.4957389849 0.2250789987
1492550000.0 0.5662401384 -0.0868180631
1502500000.0 0.4577649073 -0.3723068942
1512450000.0 0.2155267138 -0.5441430248
1522400000.0 -0.0805434894 -0.5483313079
1532350000.0 -0.3264705428 -0.3764027769
1542300000.0 -0.4254393402 -0.0901668349
1552250000.0 -0.3444780803 0.201528227
1562200000.0 -0.1057338569 0.387710279
1572150000.0 0.1865559077 0.3918641686
1582100000.0 0.4086249936 0.2263184449
1592050000.0 0.4807981286 -0.0285039905
1602000000.0 0.3859829897 -0.2699800132
1611950000.0 0.160786301 -0.4074035879
1621900000.0 -0.1115096971 -0.3819359092
1631850000.0 -0.3214774212 -0.1888858535
1641800000.0 -0.3708449731 0.1016188321
1651750000.0 -0.2283726821 0.3617146151
1661700000.0 0.039823195 0.4753829115
1671650000.0 0.3149116702 0.4055606869
1681600000.0 0.4949436552 0.1906529571
1691550000.0 0.5217377111 -0.0919356851
1701500000.0 0.3820960573 -0.3492092201
1711450000.0 0.1100776489 -0.4909908062
1721400000.0 -0.2105188757 -0.449635554
1731350000.0 -0.4560000947 -0.2228161936
1741300000.0 -0.5245006567 0.1060988314
1751250000.0 -0.3940799446 0.4082786191
1761200000.0 -0.1267121762 0.5794806984
1771150000.0 0.1804288285 0.5794844916
1781100000.0 0.4381544584 0.422765461
1791050000.0 0.5800051231 0.1560432705
1801000000.0 0.5644358143 -0.1535149956
1810950000.0 0.3824106364 -0.4181397357
1820900000.0 0.0755797276 -0.5437180455
1830850000.0 -0.253395233 -0.4744407937
1840800000.0 -0.4837712652 -0.2351555005
1850750000.0 -0.542798859 0.0777915785
1860700000.0 -0.4335964194 0.3554295722
1870650000.0 -0.2127984937 0.5266372241
1880600000.0 0.0490202221 0.5616478831
1890550000.0 0.2858698245 0.4616218871
1900500000.0 0.4352226089 0.2531844566
1910450000.0 0.4488821214 -0.0047066444
1920400000.0 0.3190437825 -0.2264753028
1930350000.0 0.0946065889 -0.3323927706
1940300000.0 -0.1318748941 -0.2953343746
1950250000.0 -0.2814213735 -0.1570264954
1960200000.0 -0.3210833054 0.0106436764
1970150000.0 -0.270127115 0.1412323097
1980100000.0 -0.1748710325 0.1948842374
1990050000.0 -0.0980773377 0.1673283575
2000000000.0 -0.0972087988 0.1034387066
