!Created with skrf (http://scikit-rf.org).
# GHz S RI R 50.0 
!freq ReS11 ImS11
10000000.0 -0.7745060121 0.681582578
19950000.0 -0.1374792112 0.9917563738
29900000.0 0.5396016709 0.8145094972
39850000.0 0.9424610443 0.2370524167
49800000.0 0.8664709367 -0.4754092869
59750000.0 0.3157229261 -0.9666832676
69700000.0 -0.4467185482 -0.936731213
79650000.0 -0.9717126128 -0.3516003248
89600000.0 -0.8982291411 0.4492162936
99550000.0 -0.2404860231 0.9393704121
109500000.0 0.5808904616 0.7584335837
119450000.0 0.9745574328 -0.0191389769
129400000.0 0.5746572005 -0.8298528402
139350000.0 -0.3418596846 -0.9637896093
149300000.0 -0.9572522368 -0.2793169875
159250000.0 -0.7558066672 0.5872469789
169200000.0 0.0202358088 0.9378846994
179150000.0 0.7571508266 0.5781274943
189100000.0 0.9662562335 -0.1907814919
199050000.0 0.5471815408 -0.8455829197
209000000.0 -0.1981284786 -0.9816903048
218950000.0 -0.7959016513 -0.5587136592
228900000.0 -0.9288760551 0.140894501
238850000.0 -0.5553619934 0.7341754415
248800000.0 -0.0395782886 0.8471827499
258750000.0 0.6943581258 0.6467568479
268700000.0 0.9726246461 0.0154703768
278650000.0 0.7443054632 -0.6314224414
288600000.0 0.1383347455 -0.9416053308
298550000.0 -0.5064109314 -0.7524553042
308500000.0 -0.8395688748 -0.1794662538
318450000.0 -0.6837681887 0.4555641065
328400000.0 -0.1318169427 0.7880438528
338350000.0 0.4717544611 0.6173421071
348300000.0 0.7275315754 0.0787371071
358250000.0 0.4958966125 -0.4192490747
368200000.0 0.0196163812 -0.5383215236
378150000.0 -0.3193651739 -0.281049935
388100000.0 -0.3256124245 0.0808747697
398050000.0 -0.089154865 0.2703936972
408000000.0 0.1510459384 0.2058594964
417950000.0 0.2218223109 0.0127533237
427900000.0 0.1244113116 -0.1315648545
437850000.0 -0.0246906186 -0.1380108734
447800000.0 -0.1110975682 -0.0379768316
457750000.0 -0.091782563 0.0770216016
467700000.0 -0.0051003302 0.1260089952
477650000.0 0.0739830415 0.0923539801
487600000.0 0.0827786627 0.0224799557
497550000.0 0.1139566017 -0.0211694407
507500000.0 0.0349212956 -0.0495659332
517450000.0 -0.0047272456 -0.0264250669
527400000.0 -0.0053161891 -0.001106919
537350000.0 0.0131706155 -0.0012622824
547300000.0 0.0146348877 -0.0322917969
557250000.0 -0.0272051982 -0.0528774413
567200000.0 -0.0836119883 -0.0331966376
577150000.0 -0.1148724608 0.030846656
587100000.0 -0.0866957211 0.1094789039
597050000.0 -0.0001582356 0.1521442644
607000000.0 0.1033937235 0.1215449603
616950000.0 0.1647678247 0.021010464
626900000.0 0.143971148 -0.1032740061
636850000.0 0.0439966342 -0.1881595522
646800000.0 -0.0875609786 -0.1869655017
656750000.0 -0.1844094028 -0.0982837602
666700000.0 -0.1946552765 0.0305722909
676650000.0 -0.1155881367 0.1282832738
686600000.0 0.006050939 0.1416592705
696550000.0 0.0993627175 0.0689303711
706500000.0 0.1135206158 -0.0413533075
716450000.0 0.0495640678 -0.1201928708
726400000.0 -0.0437062519 -0.1221630779
736350000.0 -0.0966824681 -0.0534529335
746300000.0 -0.0676856028 0.0282211497
756250000.0 0.0236167184 0.0517016017
766200000.0 0.1080855496 -0.0152699155
776150000.0 0.1106241721 -0.1386941222
786100000.0 0.0066145722 -0.2345079656
796050000.0 -0.1543763247 -0.2202402652
806000000.0 -0.2689663347 -0.0761385776
815950000.0 -0.2443701745 0.130638251
825900000.0 -0.0645787079 0.2769375915
835850000.0 0.1872689141 0.2598103537
845800000.0 0.373877844 0.0657849712
855750000.0 0.3833170888 -0.2171789843
865700000.0 0.1926378933 -0.4432820598
875650000.0 -0.111662677 -0.4844584641
885600000.0 -0.3742735586 -0.3028406969
895550000.0 -0.447355914 0.0202853647
905500000.0 -0.2758491292 0.31687815
915450000.0 0.0600275244 0.417434017
925400000.0 0.3748815718 0.2534252851
935350000.0 0.4820052948 -0.0872390028
945300000.0 0.3086084815 -0.4013349587
955250000.0 -0.0454856012 -0.4851303982
965200000.0 -0.3484863034 -0.2631605674
975150000.0 -0.3619775953 0.1340802196
985100000.0 -0.0204396248 0.3938029959
995050000.0 0.4168064407 0.2339224871
1005000000.0 0.5156386363 -0.2664122565
1014950000.0 0.1006806072 -0.6467998036
1024900000.0 -0.4977061658 -0.488792641
1034850000.0 -0.7192556172 0.1551633293
1044800000.0 -0.267646317 0.7465270773
1054750000.0 0.4945109733 0.6729749407
1064700000.0 0.8732412582 0.0863670135
1074650000.0 0.6554292331 -0.6051333966
1084600000.0 0.0194691606 -0.8588176624
1094550000.0 -0.5820308939 -0.5725862052
1104500000.0 -0.7627486717 0.0623643472
1114450000.0 -0.3980088835 0.6118929245
1124400000.0 0.2272249672 0.6613207234
1134350000.0 0.6279027532 0.2123619917
1144300000.0 0.5429907478 -0.3335524481
1154250000.0 0.093929104 -0.5818411346
1164200000.0 -0.3544661601 -0.4169384909
1174150000.0 -0.5284593418 0.0026179203
1184100000.0 -0.3209313753 0.4117279998
1194050000.0 0.1289009557 0.5113867259
1204000000.0 0.4842750021 0.2358725235
1213950000.0 0.5181533048 -0.1951623595
1223900000.0 0.2512778508 -0.5136887704
1233850000.0 -0.1496735258 -0.5722415858
1243800000.0 -0.4936659174 -0.3572383383
1253750000.0 -0.6196836653 0.0381895293
1263700000.0 -0.4494219935 0.431454543
1273650000.0 -0.0496484143 0.6141233512
1283600000.0 0.3716540571 0.4823860867
1293550000.0 0.6010161313 0.114315768
1303500000.0 0.550678193 -0.3023784312
1313450000.0 0.2689871957 -0.5968814453
1323400000.0 -0.1262219011 -0.6698627019
1333350000.0 -0.492135582 -0.4979065436
1343300000.0 -0.6899054193 -0.1330548875
1353250000.0 -0.6205532448 0.2908943048
1363200000.0 -0.290525693 0.5843583475
1373150000.0 0.1551226073 0.6007405295
1383100000.0 0.5052737438 0.3357161734
1393050000.0 0.6154691356 -0.0744329476
1403000000.0 0.4659975351 -0.453660986
1412950000.0 0.1341944807 -0.6665717068
1422900000.0 -0.2522672391 -0.647827121
1432850000.0 -0.5531248534 -0.4071235276
1442800000.0 -0.6514066163 -0.0322601108
1452750000.0 -0.498333788 0.3294310436
1462700000.0 -0.1483039682 0.5206062341
1472650000.0 0.2444812046 0.4480192441
1482600000.0 0.4980868653 0.1492959659
1492550000.0 0.5067575437 -0.2300635624
1502500000.0 0.2852157638 -0.5206559842
1512450000.0 -0.0580592906 -0.6081361215
1522400000.0 -0.3731930987 -0.4641997237
1532350000.0 -0.5234415061 -0.1545848635
1542300000.0 -0.4376615644 0.1799543465
1552250000.0 -0.1526654695 0.3735451251
1562200000.0 0.1841034717 0.323743674
1572150000.0 0.3915331528 0.0620611508
1582100000.0 0.3645139503 -0.2585045032
1592050000.0 0.1322375251 -0.4630621902
1602000000.0 -0.1717793947 -0.4540221897
1611950000.0 -0.3907831893 -0.243218653
1621900000.0 -0.4103522172 0.0636164024
1631850000.0 -0.2106599311 0.3103530668
1641800000.0 0.1142692836 0.3578975977
1651750000.0 0.3879709198 0.1655711212
1661700000.0 0.4517589334 -0.168302261
1671650000.0 0.2661301947 -0.4567724562
1681600000.0 -0.0523586322 -0.5210801582
1691550000.0 -0.3491590141 -0.4431953037
1701500000.0 -0.5368510955 -0.132485936
1711450000.0 -0.4875200403 0.2308353155
1721400000.0 -0.213083972 0.4926089605
1731350000.0 0.1786660731 0.5196616043
1741300000.0 0.5046152035 0.2814819453
1751250000.0 0.5989758753 -0.1113847588
1761200000.0 0.423212644 -0.4665111064
1771150000.0 0.0741347023 -0.6323661035
1781100000.0 -0.2951652607 -0.5627120434
1791050000.0 -0.5535786566 -0.3000032276
1801000000.0 -0.6170957362 0.0638804772
1810950000.0 -0.456180367 0.4063721732
1820900000.0 -0.1119432168 0.5917039364
1830850000.0 0.2811986608 0.5218464522
1840800000.0 0.5405709146 0.2153465627
1850750000.0 0.5464694851 -0.176554662
1860700000.0 0.3224192486 -0.4728660866
1870650000.0 -0.0109885539 -0.5733655973
1880600000.0 -0.3234003153 -0.4732563817
1890550000.0 -0.520098318 -0.2289917046
1900500000.0 -0.5466293319 0.0727283406
1910450000.0 -0.3968919883 0.3298785202
1920400000.0 -0.1275421713 0.4423366427
1930350000.0 0.1434581885 0.3652817733
1940300000.0 0.2918956509 0.1494837775
1950250000.0 0.2725833677 -0.0852254317
1960200000.0 0.1357655876 -0.2348151892
1970150000.0 -0.0276678129 -0.2669127764
1980100000.0 -0.1421222528 -0.2131021917
1990050000.0 -0.1806324156 -0.1429560018
2000000000.0 -0.1790130294 -0.1144622131
