!Created with skrf (http://scikit-rf.org).
# GHz S RI R 50.0 
!freq ReS11 ImS11
10000000.0 -0.9757505205 0.073023588
19950000.0 -0.9665843834 0.1396823038
29900000.0 -0.9527114398 0.2087909577
39850000.0 -0.9319333538 0.2815983025
49800000.0 -0.9011332627 0.3610055643
59750000.0 -0.8579227356 0.4483508718
69700000.0 -0.7978211298 0.5441239645
79650000.0 -0.7161623215 0.6487083654
89600000.0 -0.6037719427 0.7582365817
99550000.0 -0.4511427706 0.8638137078
109500000.0 -0.2490827464 0.9487485424
119450000.0 0.0056547805 0.9855075922
129400000.0 0.2985206058 0.9406846946
139350000.0 0.5738531253 0.805838273
149300000.0 0.8004160362 0.5805413814
159250000.0 0.9375657793 0.3078453874
169200000.0 0.9810633172 0.033908107
179150000.0 0.9508894004 -0.2071028886
189100000.0 0.8751286426 -0.4017080308
199050000.0 0.7790578634 -0.5510747839
209000000.0 0.6769052865 -0.6621161981
218950000.0 0.5772001269 -0.7450790965
228900000.0 0.4823291985 -0.8061032131
238850000.0 0.3867971916 -0.851188986
248800000.0 0.2635626645 -0.6795025195
258750000.0 0.2374504099 -0.8903177336
268700000.0 0.1445926864 -0.9026051296
278650000.0 0.0535856638 -0.9038617352
288600000.0 -0.0382449196 -0.8955635814
298550000.0 -0.1317516637 -0.8750674109
308500000.0 -0.2278566074 -0.8390930488
318450000.0 -0.3247985251 -0.781038472
328400000.0 -0.4181437771 -0.69647279
338350000.0 -0.4992279712 -0.5823576316
348300000.0 -0.5558361047 -0.4415167186
358250000.0 -0.574353989 -0.2850842759
368200000.0 -0.5486471158 -0.1309156676
378150000.0 -0.4832340635 0.0011461049
388100000.0 -0.390636077 0.0992420906
398050000.0 -0.2866723222 0.1607464534
408000000.0 -0.1861151978 0.1899577504
417950000.0 -0.0988979051 0.1948067324
427900000.0 -0.0299101417 0.1838642278
437850000.0 0.0201038804 0.1624601028
447800000.0 0.0526948232 0.1353282983
457750000.0 0.0704477646 0.1056041244
467700000.0 0.0760410232 0.0770528863
477650000.0 0.0723711544 0.0516781498
487600000.0 0.058763117 0.0316148343
497550000.0 0.0337112163 0.0694245044
507500000.0 0.0485961719 0.0055068663
517450000.0 0.020146531 0.0001098707
527400000.0 -0.0065689816 0.0002851694
537350000.0 -0.032773346 0.004322136
547300000.0 -0.0589894812 0.0121167141
557250000.0 -0.0804812591 0.0225935208
567200000.0 -0.0982709337 0.0355723275
577150000.0 -0.1126376277 0.0504081564
587100000.0 -0.1237534103 0.0675244422
597050000.0 -0.132460211 0.0849360846
607000000.0 -0.1378974934 0.1016804061
616950000.0 -0.1404323206 0.1168076857
626900000.0 -0.1391731114 0.1295827559
636850000.0 -0.133650808 0.1396543859
646800000.0 -0.1232480639 0.1474386168
656750000.0 -0.1093895009 0.1535691593
666700000.0 -0.0922355779 0.1584871629
676650000.0 -0.0737280916 0.1611569599
686600000.0 -0.0543840652 0.1604176204
696550000.0 -0.033638817 0.1546696387
706500000.0 -0.0119193056 0.1428576221
716450000.0 0.0117150874 0.1241643
726400000.0 0.0374656904 0.0995735708
736350000.0 0.0637868961 0.0702225021
746300000.0 0.0891323373 0.037801132
756250000.0 0.1115540023 0.0023580349
766200000.0 0.1282420741 -0.0356636477
776150000.0 0.1379368075 -0.0770978742
786100000.0 0.1408775441 -0.1210785712
796050000.0 0.1367622632 -0.1678084713
806000000.0 0.1280314989 -0.2157758963
815950000.0 0.1148728553 -0.2612657174
825900000.0 0.098775375 -0.3024006148
835850000.0 0.079351148 -0.3373484255
845800000.0 0.0550319848 -0.3648075374
855750000.0 0.0248883956 -0.3850582709
865700000.0 -0.011077981 -0.3999560383
875650000.0 -0.0519686133 -0.4093129071
885600000.0 -0.0970958328 -0.4131775217
895550000.0 -0.1439889792 -0.4106278047
905500000.0 -0.1914268333 -0.3993151518
915450000.0 -0.2390246515 -0.3755418101
925400000.0 -0.2867636215 -0.3358099266
935350000.0 -0.3332805486 -0.2759715512
945300000.0 -0.3743899039 -0.1934634417
955250000.0 -0.4041361363 -0.0885609545
965200000.0 -0.4126643051 0.0384621412
975150000.0 -0.3845464934 0.1782615718
985100000.0 -0.3244127471 0.3195867539
995050000.0 -0.2102229166 0.4724228906
1005000000.0 -0.0218666353 0.5946972947
1014950000.0 0.2170047867 0.6433941797
1024900000.0 0.4612950178 0.5993352657
1034850000.0 0.6641679002 0.4724910186
1044800000.0 0.7994352153 0.2927194535
1054750000.0 0.8601488014 0.0896772757
1064700000.0 0.8411470589 -0.0951658908
1074650000.0 0.8212749078 -0.2499414801
1084600000.0 0.7473291138 -0.4119982375
1094550000.0 0.6330087044 -0.5450949881
1104500000.0 0.4868662185 -0.64289784
1114450000.0 0.3172489531 -0.6999806046
1124400000.0 0.1360975085 -0.7123040606
1134350000.0 -0.0411309588 -0.6796778591
1144300000.0 -0.2000316989 -0.6080968719
1154250000.0 -0.3297886347 -0.5070658153
1164200000.0 -0.4233524972 -0.3899038816
1174150000.0 -0.4883054797 -0.2720529626
1184100000.0 -0.5320713034 -0.1521694826
1194050000.0 -0.5531015458 -0.0370170681
1204000000.0 -0.5575026045 0.0638697579
1213950000.0 -0.5514276583 0.1484916604
1223900000.0 -0.5400787948 0.2166230872
1233850000.0 -0.5257188184 0.2716542727
1243800000.0 -0.5094035627 0.3165459871
1253750000.0 -0.4910564322 0.3558697567
1263700000.0 -0.4723224285 0.3911528975
1273650000.0 -0.455167138 0.4219939215
1283600000.0 -0.4416454643 0.449037241
1293550000.0 -0.4323723107 0.4703267158
1303500000.0 -0.4277143819 0.4853881225
1313450000.0 -0.4257777455 0.4947066921
1323400000.0 -0.4249475891 0.4994226585
1333350000.0 -0.4231084918 0.5021546807
1343300000.0 -0.419684332 0.5064076948
1353250000.0 -0.4155254678 0.5127492415
1363200000.0 -0.4108830475 0.5206854286
1373150000.0 -0.4064539336 0.5281742419
1383100000.0 -0.403571147 0.5336718197
1393050000.0 -0.4021289696 0.5354469092
1403000000.0 -0.4000967353 0.5333079484
1412950000.0 -0.3959796763 0.5272439487
1422900000.0 -0.3885432241 0.5203144524
1432850000.0 -0.3783758595 0.5141357186
1442800000.0 -0.3659894938 0.511401112
1452750000.0 -0.3532625205 0.5128565019
1462700000.0 -0.3387574145 0.5171714349
1472650000.0 -0.3237965601 0.5223592877
1482600000.0 -0.30723431 0.5259774172
1492550000.0 -0.2878176501 0.5271265028
1502500000.0 -0.263774191 0.5250339348
1512450000.0 -0.2348890764 0.5221699525
1522400000.0 -0.2003664311 0.517701295
1532350000.0 -0.161364018 0.5141613151
1542300000.0 -0.1189895038 0.5096384807
1552250000.0 -0.0737833088 0.5043110862
1562200000.0 -0.0295541745 0.496445471
1572150000.0 0.0141669659 0.4860263134
1582100000.0 0.0599065374 0.4726441903
1592050000.0 0.1066623849 0.456444025
1602000000.0 0.1541583901 0.4364613139
1611950000.0 0.2009392298 0.4145689092
1621900000.0 0.2462961389 0.3912615563
1631850000.0 0.2903390405 0.3661497819
1641800000.0 0.3305785665 0.3406047933
1651750000.0 0.3686337812 0.3112787117
1661700000.0 0.4037028818 0.2824602438
1671650000.0 0.4356260941 0.2536147396
1681600000.0 0.4650927184 0.2267341262
1691550000.0 0.4918715155 0.2034252828
1701500000.0 0.5152146934 0.1836832054
1711450000.0 0.5356317051 0.1663884176
1721400000.0 0.5520146457 0.1508244096
1731350000.0 0.5652603899 0.135657762
1741300000.0 0.5764404393 0.1200438875
1751250000.0 0.5862896037 0.1053782198
1761200000.0 0.5947060458 0.0917833134
1771150000.0 0.6018010164 0.0816526662
1781100000.0 0.6062404948 0.0744633228
1791050000.0 0.6073046443 0.0696448759
1801000000.0 0.6004029036 0.0627723273
1810950000.0 0.5680203097 0.0527662227
1820900000.0 0.5158559287 0.1174099404
1830850000.0 0.5661212041 0.1535357917
1840800000.0 0.5852194912 0.14337946
1850750000.0 0.5892811257 0.1339067189
1860700000.0 0.586635639 0.1278426496
1870650000.0 0.5791163095 0.1259625543
1880600000.0 0.5663954335 0.1278566581
1890550000.0 0.5481791048 0.1326181847
1900500000.0 0.5253480032 0.1368741173
1910450000.0 0.4993409385 0.1378014077
1920400000.0 0.4718472032 0.1349630057
1930350000.0 0.4436398473 0.1280805942
1940300000.0 0.4133699447 0.1178031177
1950250000.0 0.3800063924 0.1067500793
1960200000.0 0.3413244216 0.0971884824
1970150000.0 0.2948223365 0.0894779538
1980100000.0 0.2377610049 0.0850500358
1990050000.0 0.1680042096 0.0834108526
2000000000.0 0.0836960095 0.0868925275
