!Created with skrf (http://scikit-rf.org).
# GHz S RI R 50.0 
!freq ReS11 ImS11
10000000.0 -0.8869227314 0.4412151604
19950000.0 -0.6041767048 0.7777377287
29900000.0 -0.2025771662 0.96088285
39850000.0 0.2469256578 0.9503268205
49800000.0 0.6550075224 0.7337939684
59750000.0 0.9267068945 0.339568821
69700000.0 0.9784526031 -0.1558096497
79650000.0 0.7676529045 -0.6310030768
89600000.0 0.3204872534 -0.9404177029
99550000.0 -0.2498637871 -0.9564609682
109500000.0 -0.7523074744 -0.6277084049
119450000.0 -0.971152771 -0.0345508529
129400000.0 -0.7645474402 0.5946387212
139350000.0 -0.1868828799 0.9519663927
149300000.0 0.4871093609 0.8421580231
159250000.0 0.9137281335 0.3351381392
169200000.0 0.9240276658 -0.2913652171
179150000.0 0.582038467 -0.7647886529
189100000.0 0.0701246248 -0.9493682763
199050000.0 -0.4300316971 -0.8409469774
209000000.0 -0.7907603658 -0.5095985012
218950000.0 -0.9375585348 -0.0647732625
228900000.0 -0.85920586 0.386084609
238850000.0 -0.5848902006 0.7423125098
248800000.0 -0.1643201651 0.9153810257
258750000.0 0.2426787594 0.9116548813
268700000.0 0.6183562737 0.7024714502
278650000.0 0.8557037323 0.3496861626
288600000.0 0.9075275682 -0.0700876467
298550000.0 0.762824977 -0.4664354976
308500000.0 0.4497545171 -0.7499410723
318450000.0 0.0380055963 -0.8486066475
328400000.0 -0.3675344321 -0.728494058
338350000.0 -0.646900469 -0.4168860507
348300000.0 -0.7066546219 -0.0150640167
358250000.0 -0.5348955133 0.3264323619
368200000.0 -0.2250748625 0.4829167752
378150000.0 0.0722406254 0.426085989
388100000.0 0.2392479744 0.2322991845
398050000.0 0.2445457386 0.0221225976
408000000.0 0.1372218314 -0.1105254035
417950000.0 0.0005109864 -0.1338696459
427900000.0 -0.0971493066 -0.0716828928
437850000.0 -0.1243324241 0.0250121005
447800000.0 -0.086648528 0.107303216
457750000.0 -0.0117025337 0.1450896836
467700000.0 0.065841348 0.1314857479
477650000.0 0.1184379131 0.0789963492
487600000.0 0.1320188218 0.0114625092
497550000.0 0.1094502421 -0.0447766399
507500000.0 0.0662298514 -0.0851496972
517450000.0 0.0147722623 -0.0896424611
527400000.0 -0.0230975075 -0.0686500063
537350000.0 -0.0372027824 -0.036580496
547300000.0 -0.0275106242 -0.0105358436
557250000.0 -0.004288932 -0.001788515
567200000.0 0.0186686633 -0.0161836219
577150000.0 0.0256370224 -0.0477637907
587100000.0 0.0085639455 -0.0833752305
597050000.0 -0.0317338704 -0.1064462782
607000000.0 -0.0847427356 -0.1047854282
616950000.0 -0.1348954345 -0.0724712006
626900000.0 -0.164517418 -0.0144136306
636850000.0 -0.1621961486 0.0566181993
646800000.0 -0.1232628548 0.1218483926
656750000.0 -0.0543276471 0.1633916438
666700000.0 0.0296879449 0.1675276454
676650000.0 0.1078742677 0.1313238711
686600000.0 0.1604893304 0.0620459753
696550000.0 0.1743840653 -0.0230812047
706500000.0 0.1455217131 -0.1021948377
716450000.0 0.0828477343 -0.1543562942
726400000.0 0.0035667752 -0.165557667
736350000.0 -0.0675669072 -0.1317185061
746300000.0 -0.1079677526 -0.0633388948
756250000.0 -0.1020558013 0.0188741183
766200000.0 -0.0488472757 0.0858236195
776150000.0 0.0367101276 0.1123150837
786100000.0 0.1267678933 0.0849216705
796050000.0 0.1892406242 0.0077321011
806000000.0 0.1988663402 -0.0973127889
815950000.0 0.1438306785 -0.1981228409
825900000.0 0.0339583709 -0.2588604353
835850000.0 -0.1037021406 -0.252533453
845800000.0 -0.229779179 -0.1698773381
855750000.0 -0.3035790852 -0.0243369195
865700000.0 -0.2954433961 0.1489425766
875650000.0 -0.1989168429 0.3040760729
885600000.0 -0.0326997131 0.394308393
895550000.0 0.1627697734 0.3904546257
905500000.0 0.3358869453 0.2858972805
915450000.0 0.4363723391 0.1006734972
925400000.0 0.4278053837 -0.1208731615
935350000.0 0.2972454089 -0.3165390384
945300000.0 0.0674001014 -0.4191597411
955250000.0 -0.2004197313 -0.3731961708
965200000.0 -0.407659496 -0.1655332639
975150000.0 -0.452113118 0.1495479809
985100000.0 -0.2765544349 0.4474728762
995050000.0 0.0753585124 0.5751748276
1005000000.0 0.4617924543 0.435060758
1014950000.0 0.6849521731 0.0377809766
1024900000.0 0.5815320821 -0.4523181619
1034850000.0 0.1468234461 -0.7719831329
1044800000.0 -0.4112318527 -0.7177371575
1054750000.0 -0.7982681508 -0.3110940998
1064700000.0 -0.8389639387 0.2316072453
1074650000.0 -0.5536313344 0.6650274631
1084600000.0 -0.1164926514 0.8305230651
1094550000.0 0.3455807516 0.7553372839
1104500000.0 0.6767315649 0.4248013619
1114450000.0 0.7585459853 -0.0292884277
1124400000.0 0.5674711395 -0.4394057891
1134350000.0 0.1876854483 -0.6554734156
1144300000.0 -0.2244923834 -0.6143840383
1154250000.0 -0.519049868 -0.3655028767
1164200000.0 -0.621151574 -0.0237098421
1174150000.0 -0.537421113 0.2958769205
1184100000.0 -0.3150840266 0.5198855933
1194050000.0 -0.0168181201 0.5975394696
1204000000.0 0.275260314 0.5153205044
1213950000.0 0.4852826024 0.2999295952
1223900000.0 0.5608938687 0.0107085241
1233850000.0 0.48767463 -0.2749674721
1243800000.0 0.2930539549 -0.486927102
1253750000.0 0.0321377149 -0.5835364345
1263700000.0 -0.23399834 -0.556726575
1273650000.0 -0.4549455948 -0.4254717973
1283600000.0 -0.5979678846 -0.221951939
1293550000.0 -0.6464041625 0.0177689724
1303500000.0 -0.5959273483 0.255977598
1313450000.0 -0.4532369467 0.4564369859
1323400000.0 -0.2378257517 0.5853766146
1333350000.0 0.0172769075 0.6162546339
1343300000.0 0.2684569503 0.5389644848
1353250000.0 0.4682936394 0.3638926542
1363200000.0 0.5800176352 0.1240733772
1373150000.0 0.5867247167 -0.1353019438
1383100000.0 0.4938370778 -0.3693773325
1393050000.0 0.3243703923 -0.5427279407
1403000000.0 0.1093205468 -0.6350567447
1412950000.0 -0.1182610983 -0.6382682365
1422900000.0 -0.3269252645 -0.5556690945
1432850000.0 -0.4878142778 -0.3979099199
1442800000.0 -0.5759151582 -0.1857054876
1452750000.0 -0.5723212032 0.0496555793
1462700000.0 -0.4703805933 0.2691030923
1472650000.0 -0.2835228333 0.4295692206
1482600000.0 -0.045595556 0.4969584147
1492550000.0 0.1945247284 0.457327636
1502500000.0 0.3889147102 0.3224036859
1512450000.0 0.5013754923 0.1249601342
1522400000.0 0.5175915853 -0.0927228996
1532350000.0 0.439727988 -0.2887543738
1542300000.0 0.2870242611 -0.4285634881
1552250000.0 0.0877154536 -0.4856048804
1562200000.0 -0.1186567513 -0.4473931419
1572150000.0 -0.2902937586 -0.3162825975
1582100000.0 -0.3853234227 -0.1155979013
1592050000.0 -0.3761550004 0.1102836639
1602000000.0 -0.2635391273 0.3067246231
1611950000.0 -0.0716521269 0.4256903697
1621900000.0 0.1477164538 0.4409671779
1631850000.0 0.3452579575 0.3565780473
1641800000.0 0.4823560686 0.1950059114
1651750000.0 0.5352204318 -0.0092891109
1661700000.0 0.4960259191 -0.2195224003
1671650000.0 0.3696297417 -0.3987897328
1681600000.0 0.1736988424 -0.513075376
1691550000.0 -0.0608941231 -0.5368058431
1701500000.0 -0.2911786809 -0.4575752231
1711450000.0 -0.4708964153 -0.284839553
1721400000.0 -0.5633485051 -0.0502611013
1731350000.0 -0.5500863094 0.1997028807
1741300000.0 -0.4386375931 0.4183556043
1751250000.0 -0.2552322514 0.5708251215
1761200000.0 -0.0346777728 0.6398918113
1771150000.0 0.1905982282 0.6238091137
1781100000.0 0.3921943799 0.5287654541
1791050000.0 0.5459853929 0.3690155777
1801000000.0 0.6327374968 0.1630584846
1810950000.0 0.6398363484 -0.0637411705
1820900000.0 0.5619900414 -0.281662986
1830850000.0 0.4053784458 -0.4581848756
1840800000.0 0.1906012397 -0.5631883484
1850750000.0 -0.049030477 -0.5770198018
1860700000.0 -0.2727940921 -0.4973403476
1870650000.0 -0.4442433366 -0.3419272323
1880600000.0 -0.5408455153 -0.1420489865
1890550000.0 -0.5561605373 0.0677422584
1900500000.0 -0.4984558573 0.2566748016
1910450000.0 -0.3845576127 0.4025347145
1920400000.0 -0.2357494059 0.4918695141
1930350000.0 -0.0748024463 0.5186562254
1940300000.0 0.0759547433 0.4850473699
1950250000.0 0.195354898 0.4005096218
1960200000.0 0.2671856 0.2817053431
1970150000.0 0.2828285517 0.1535615481
1980100000.0 0.247159346 0.0422573884
1990050000.0 0.1773762852 -0.0298230167
2000000000.0 0.101577061 -0.0520859249
