!Created with skrf (http://scikit-rf.org).
# GHz S RI R 50.0 
!freq ReS11 ImS11
10000000.0 -0.7564507594 0.6813660312
19950000.0 -0.1135056822 0.9875033897
29900000.0 0.5684192747 0.7940027469
39850000.0 0.9558472625 0.1906588607
49800000.0 0.8357450216 -0.5286826842
59750000.0 0.2438774618 -0.9804017392
69700000.0 -0.5100054044 -0.8870046861
79650000.0 -0.9785727799 -0.2722914336
89600000.0 -0.8530511262 0.5039797792
99550000.0 -0.1819986565 0.9470872497
109500000.0 0.6194244125 0.7274658392
119450000.0 0.9696876504 -0.0641793404
129400000.0 0.5285680918 -0.8459098897
139350000.0 -0.3807049041 -0.9296105525
149300000.0 -0.9543784925 -0.228348283
159250000.0 -0.7165702818 0.6213211556
169200000.0 0.0832223525 0.9300568449
179150000.0 0.8023488488 0.5014073225
189100000.0 0.9202582352 -0.3089131565
199050000.0 0.3911272326 -0.9030921839
209000000.0 -0.3774015763 -0.8980717012
218950000.0 -0.878603358 -0.3570389983
228900000.0 -0.8518027262 0.3575936537
238850000.0 -0.344328268 0.8460640284
248800000.0 0.4025494739 0.7220660483
258750000.0 0.8473777542 0.4061071988
268700000.0 0.9068820069 -0.2916472634
278650000.0 0.4648625589 -0.8225208262
288600000.0 -0.2105866666 -0.8912965371
298550000.0 -0.7333049937 -0.4807289822
308500000.0 -0.823964372 0.1678465885
318450000.0 -0.4371825548 0.687318381
328400000.0 0.2000482065 0.7696832389
338350000.0 0.6770267718 0.3596984043
348300000.0 0.6715993869 -0.2375648018
358250000.0 0.2393240708 -0.5843907163
368200000.0 -0.2436239738 -0.4768652915
378150000.0 -0.4350415039 -0.0863758084
388100000.0 -0.2734947836 0.2493373811
398050000.0 0.0352269911 0.3135952755
408000000.0 0.2328925493 0.1363471719
417950000.0 0.2098775982 -0.0844291945
427900000.0 0.0471614248 -0.1772775652
437850000.0 -0.1029620658 -0.1141957324
447800000.0 -0.1401527487 0.0195345918
457750000.0 -0.0696396539 0.1172327509
467700000.0 0.0342597556 0.1223648698
477650000.0 0.0940283005 0.0580789036
487600000.0 0.0804568231 -0.0115493743
497550000.0 0.0593150733 0.0038518512
507500000.0 -0.0030726789 -0.0607929144
517450000.0 -0.0242970365 -0.0255690719
527400000.0 -0.0165661216 -0.0105321818
537350000.0 -0.0109369552 -0.0215649303
547300000.0 -0.0354593628 -0.0409561047
557250000.0 -0.0800354368 -0.02780217
567200000.0 -0.107918124 0.0276572557
577150000.0 -0.0840369768 0.0979222188
587100000.0 -0.0065263949 0.1367244501
597050000.0 0.090867385 0.1067056395
607000000.0 0.1483732046 0.0104794456
616950000.0 0.1238171124 -0.1094422085
626900000.0 0.0217055283 -0.1878302505
636850000.0 -0.1105783343 -0.1782401726
646800000.0 -0.2021761997 -0.080990539
656750000.0 -0.2051971852 0.0548412556
666700000.0 -0.1127011504 0.1539213079
676650000.0 0.0207410984 0.1616665545
686600000.0 0.1233585753 0.0759462837
696550000.0 0.1360976632 -0.0508283616
706500000.0 0.0584622527 -0.1437724592
716450000.0 -0.0523238442 -0.1477219688
726400000.0 -0.1233353406 -0.0734748842
736350000.0 -0.1060523649 0.0240773153
746300000.0 -0.0150063595 0.0662649856
756250000.0 0.0769053331 0.0162045477
766200000.0 0.0924548324 -0.098371906
776150000.0 0.0059642065 -0.1907878991
786100000.0 -0.1356793907 -0.1809321317
796050000.0 -0.2328759934 -0.0517806738
806000000.0 -0.2020777078 0.129220653
815950000.0 -0.0329573438 0.2444279007
825900000.0 0.1886030067 0.2066593841
835850000.0 0.3320123967 0.0100295841
845800000.0 0.2984366243 -0.2450835893
855750000.0 0.0880428321 -0.4147595139
865700000.0 -0.1918193215 -0.3916825304
875650000.0 -0.3870848509 -0.1728233625
885600000.0 -0.3771526557 0.1308775358
895550000.0 -0.1536596287 0.3522502358
905500000.0 0.170218459 0.3539514043
915450000.0 0.4028480166 0.1197859276
925400000.0 0.3921674391 -0.2143222586
935350000.0 0.1359678461 -0.4290986251
945300000.0 -0.1986747704 -0.3730446073
955250000.0 -0.3712703311 -0.0704300218
965200000.0 -0.2249022399 0.2659244732
975150000.0 0.1688084005 0.3396646232
985100000.0 0.4632365534 0.0049878673
995050000.0 0.2972902423 -0.467022283
1005000000.0 -0.2519676427 -0.5689199634
1014950000.0 -0.6655093074 -0.1122384101
1024900000.0 -0.4981200166 0.537941777
1034850000.0 0.1742538556 0.7811799791
1044800000.0 0.7759919469 0.3568826315
1054750000.0 0.7855284941 -0.3735582253
1064700000.0 0.243148693 -0.7792192524
1074650000.0 -0.3500080726 -0.7259521065
1084600000.0 -0.7502544416 -0.2483731756
1094550000.0 -0.669623517 0.3929062981
1104500000.0 -0.1273376538 0.7452232085
1114450000.0 0.4757326713 0.5525407111
1124400000.0 0.6904768324 -0.0116353031
1134350000.0 0.4083481613 -0.4977892242
1144300000.0 -0.1065465781 -0.5884119204
1154250000.0 -0.4866450422 -0.2778921123
1164200000.0 -0.4949514584 0.1918188608
1174150000.0 -0.1491088652 0.4865683287
1184100000.0 0.2857460469 0.4033810229
1194050000.0 0.4885131799 0.0254327254
1204000000.0 0.3413503515 -0.3622569979
1213950000.0 -0.029457874 -0.5162763799
1223900000.0 -0.3955621265 -0.3682501741
1233850000.0 -0.55931967 -0.0109300084
1243800000.0 -0.4357961205 0.3671025712
1253750000.0 -0.0821494879 0.5630440377
1263700000.0 0.3153815739 0.4676273478
1273650000.0 0.5488964877 0.130251119
1283600000.0 0.5074965104 -0.2727051415
1293550000.0 0.226832892 -0.5550659911
1303500000.0 -0.1633075073 -0.6046848459
1313450000.0 -0.5037636322 -0.4062901511
1323400000.0 -0.6541414701 -0.0349499798
1333350000.0 -0.5367118763 0.3568012587
1343300000.0 -0.1910449402 0.5906697362
1353250000.0 0.2285231666 0.55014888
1363200000.0 0.5268598028 0.2552483533
1373150000.0 0.5774452709 -0.1547961784
1383100000.0 0.3708426515 -0.5017111668
1393050000.0 0.0042330026 -0.651073592
1403000000.0 -0.3735536274 -0.5501065478
1412950000.0 -0.611969762 -0.2428899421
1422900000.0 -0.6119511751 0.1486608344
1432850000.0 -0.3663046957 0.4556228301
1442800000.0 0.015934244 0.540993464
1452750000.0 0.3638867685 0.3715066337
1462700000.0 0.5283580161 0.0296156311
1472650000.0 0.4478027992 -0.331493627
1482600000.0 0.1671418005 -0.5598424046
1492550000.0 -0.1889998622 -0.5622731384
1502500000.0 -0.4628445433 -0.3409195508
1512450000.0 -0.5296950417 0.0019906868
1522400000.0 -0.3571327693 0.3050448238
1532350000.0 -0.0320575461 0.4189766565
1542300000.0 0.2809498706 0.2926564185
1552250000.0 0.4246280905 -0.003391819
1562200000.0 0.3358790346 -0.3076840611
1572150000.0 0.0754196573 -0.468980559
1582100000.0 -0.2197137244 -0.410586335
1592050000.0 -0.3955787219 -0.1731132878
1602000000.0 -0.3641993722 0.1240917251
1611950000.0 -0.1359748266 0.3204924382
1621900000.0 0.1681045174 0.3051972634
1631850000.0 0.3775103878 0.0797320076
1641800000.0 0.3682309103 -0.229445871
1651750000.0 0.1474504307 -0.4443216822
1661700000.0 -0.1631677439 -0.4504629388
1671650000.0 -0.4014159657 -0.2472882794
1681600000.0 -0.4511062971 0.0705948812
1691550000.0 -0.276717604 0.3513841729
1701500000.0 0.0498353452 0.4534234431
1711450000.0 0.3699476869 0.3097503745
1721400000.0 0.5163927754 -0.016874224
1731350000.0 0.4092659292 -0.3578634173
1741300000.0 0.1076507998 -0.5483798674
1751250000.0 -0.2432862316 -0.5067439563
1761200000.0 -0.49439486 -0.2611627424
1771150000.0 -0.5446506471 0.0900933767
1781100000.0 -0.3658768543 0.3996711372
1791050000.0 -0.0308549249 0.5211676879
1801000000.0 0.2676068663 0.4109784241
1810950000.0 0.4731583137 0.1910037601
1820900000.0 0.509517884 -0.1622335271
1830850000.0 0.2944256281 -0.4569069762
1840800000.0 -0.0490478913 -0.5465534094
1850750000.0 -0.3668788599 -0.4131436354
1860700000.0 -0.5391682705 -0.1260467705
1870650000.0 -0.5091652036 0.2023281712
1880600000.0 -0.2895464847 0.4419156855
1890550000.0 0.0268525002 0.4955050269
1900500000.0 0.3013397254 0.3421277574
1910450000.0 0.4129514377 0.0607768065
1920400000.0 0.3278514935 -0.2128012857
1930350000.0 0.1088202949 -0.3642335122
1940300000.0 -0.1323331026 -0.3513125589
1950250000.0 -0.2965893652 -0.2111960457
1960200000.0 -0.3332115667 -0.0275708938
1970150000.0 -0.2587696321 0.1117785235
1980100000.0 -0.1417702102 0.1516231397
1990050000.0 -0.0703385228 0.1096460321
2000000000.0 -0.0804571118 0.0672429777
