!Created with skrf (http://scikit-rf.org).
# GHz S RI R 50.0 
!freq ReS11 ImS11
10000000.0 -0.7846483464 0.5896441673
19950000.0 -0.2888781202 0.9305615773
29900000.0 0.3124435863 0.9160754313
39850000.0 0.7984497384 0.5433496678
49800000.0 0.9695866034 -0.0618122049
59750000.0 0.7273278056 -0.663284205
69700000.0 0.142895148 -0.9847007951
79650000.0 -0.5279411092 -0.8386198403
89600000.0 -0.938740409 -0.2563975125
99550000.0 -0.8308805397 0.4797095271
109500000.0 -0.2050417509 0.9391704072
119450000.0 0.5889483809 0.7752949924
129400000.0 0.9826045612 0.0332310543
139350000.0 0.6431053236 -0.7434602349
149300000.0 -0.1542458151 -0.9539336405
159250000.0 -0.7998804949 -0.4992614859
169200000.0 -0.90077424 0.2468076708
179150000.0 -0.4692570967 0.8176529448
189100000.0 0.2022792548 0.9316339526
199050000.0 0.7558398249 0.5801995291
209000000.0 0.9448938993 -0.0289547305
218950000.0 0.7200731427 -0.5987827794
228900000.0 0.2076000167 -0.9029889723
238850000.0 -0.3752249049 -0.8371475607
248800000.0 -0.7995728683 -0.4401012411
258750000.0 -0.909169165 0.1284766011
268700000.0 -0.6582381209 0.6530081224
278650000.0 -0.1462024693 0.9176634151
288600000.0 0.4161619634 0.8142361044
298550000.0 0.7957361025 0.3876761501
308500000.0 0.8327023223 -0.1836619266
318450000.0 0.5047297941 -0.6504103908
328400000.0 -0.040470474 -0.7933897281
338350000.0 -0.5277942989 -0.5389958997
348300000.0 -0.6925048787 -0.039862269
358250000.0 -0.4695141207 0.392915343
368200000.0 -0.0534308855 0.5121916285
378150000.0 0.2629750497 0.3143292386
388100000.0 0.3138693591 0.0042976387
398050000.0 0.148925807 -0.193445332
408000000.0 -0.0592580018 -0.191066116
417950000.0 -0.1642086848 -0.056042136
427900000.0 -0.1299197183 0.08524705
437850000.0 -0.0150663398 0.1409789229
447800000.0 0.0917495211 0.095028938
457750000.0 0.1289185813 -0.0055703902
467700000.0 0.0891645341 -0.0946795112
477650000.0 0.0088559572 -0.1269660588
487600000.0 -0.0611803733 -0.0981203803
497550000.0 -0.0877375145 -0.0389847415
507500000.0 -0.0681275811 0.0166193512
517450000.0 -0.026448457 0.0331520888
527400000.0 0.0028302687 0.0157421216
537350000.0 0.0002428674 -0.0124470406
547300000.0 -0.0281499858 -0.0208391374
557250000.0 -0.0576879763 0.0025715416
567200000.0 -0.0592416469 0.0506759682
577150000.0 -0.0190563665 0.0937937427
587100000.0 0.0501385457 0.0993531972
597050000.0 0.1151312662 0.0531543281
607000000.0 0.1399523258 -0.0325631125
616950000.0 0.1048940738 -0.1218896446
626900000.0 0.0201402628 -0.1741617255
636850000.0 -0.0807732065 -0.1634380694
646800000.0 -0.154591324 -0.0926680755
656750000.0 -0.1699414524 0.0090082073
666700000.0 -0.1201817243 0.097759579
676650000.0 -0.0290876681 0.1347479972
686600000.0 0.060814825 0.105654893
696550000.0 0.1082801825 0.0292685272
706500000.0 0.0938577837 -0.051965836
716450000.0 0.0326544734 -0.09526819
726400000.0 -0.0343831198 -0.0782737455
736350000.0 -0.0610488915 -0.0149067149
746300000.0 -0.0245095041 0.0509736427
756250000.0 0.0598192137 0.0696132564
766200000.0 0.1420533763 0.0149599857
776150000.0 0.1658666876 -0.0962793018
786100000.0 0.0991678943 -0.2077563994
796050000.0 -0.042152697 -0.2512339211
806000000.0 -0.1963076038 -0.183156578
815950000.0 -0.2830359387 -0.0126976371
825900000.0 -0.2440268911 0.1938592548
835850000.0 -0.0779743652 0.3442647379
845800000.0 0.1552674371 0.3639946099
855750000.0 0.3616200579 0.232378756
865700000.0 0.4511473783 -0.00745344
875650000.0 0.3754734139 -0.2620553767
885600000.0 0.1519457095 -0.4240254609
895550000.0 -0.1338639671 -0.4139324722
905500000.0 -0.3588857956 -0.221962594
915450000.0 -0.4156889852 0.0755519371
925400000.0 -0.2713622375 0.3433180447
935350000.0 0.0083606176 0.4529734659
945300000.0 0.2880214144 0.3481466213
955250000.0 0.4229885512 0.0733032287
965200000.0 0.3202543447 -0.2325076944
975150000.0 0.0071351992 -0.3779723322
985100000.0 -0.3315312267 -0.2227040813
995050000.0 -0.4317440389 0.1690606109
1005000000.0 -0.1689686015 0.5165807384
1014950000.0 0.2971854797 0.5280285904
1024900000.0 0.6307479116 0.1447144642
1034850000.0 0.5538737773 -0.4056716318
1044800000.0 0.0576554039 -0.7276536507
1054750000.0 -0.5248409082 -0.5578688892
1064700000.0 -0.7936439781 -0.0247502705
1074650000.0 -0.6277557113 0.5303244051
1084600000.0 -0.1246923335 0.8357316191
1094550000.0 0.4591524424 0.696006739
1104500000.0 0.7891246853 0.1443188684
1114450000.0 0.586297151 -0.4869748497
1124400000.0 -0.0250158579 -0.7260137833
1134350000.0 -0.554136908 -0.409624491
1144300000.0 -0.6351749885 0.1470572656
1154250000.0 -0.3038574243 0.5382097645
1164200000.0 0.1763995296 0.556310748
1174150000.0 0.5051070271 0.2236974908
1184100000.0 0.4876430422 -0.2365273621
1194050000.0 0.1594543483 -0.5345808802
1204000000.0 -0.258031393 -0.5240125069
1213950000.0 -0.5505323184 -0.2604294064
1223900000.0 -0.6197855299 0.1096175263
1233850000.0 -0.4651131683 0.4438463957
1243800000.0 -0.1440054959 0.6299350439
1253750000.0 0.2361566105 0.5935456222
1263700000.0 0.5319516831 0.3317502058
1273650000.0 0.6203832484 -0.0594997322
1283600000.0 0.4710011313 -0.4253709184
1293550000.0 0.1579102642 -0.6370107487
1303500000.0 -0.2010083873 -0.6468564904
1313450000.0 -0.5008404811 -0.4747484353
1323400000.0 -0.6714041007 -0.1765307844
1333350000.0 -0.669030461 0.1738569651
1343300000.0 -0.4800788405 0.4836146098
1353250000.0 -0.1409344016 0.6470680827
1363200000.0 0.2421340542 0.5917244339
1373150000.0 0.5303153502 0.330011902
1383100000.0 0.6252105347 -0.0385349251
1393050000.0 0.5147310195 -0.385158416
1403000000.0 0.2549488751 -0.6119518885
1412950000.0 -0.0685979717 -0.6694692867
1422900000.0 -0.36832006 -0.5531320088
1432850000.0 -0.5656660103 -0.2919109181
1442800000.0 -0.5949542977 0.0460377858
1452750000.0 -0.429745003 0.3518709321
1462700000.0 -0.119016557 0.5106069037
1472650000.0 0.2184765922 0.4641496222
1482600000.0 0.4571510258 0.2430074571
1492550000.0 0.5225935322 -0.0577678004
1502500000.0 0.4103953473 -0.3267856638
1512450000.0 0.1736364362 -0.4736168916
1522400000.0 -0.0952198283 -0.448436975
1532350000.0 -0.2879603241 -0.261910375
1542300000.0 -0.3192087568 0.0058743816
1552250000.0 -0.1738445236 0.227762922
1562200000.0 0.0717880617 0.2974203816
1572150000.0 0.2907365513 0.1909592021
1582100000.0 0.3800819334 -0.0282176397
1592050000.0 0.3017224844 -0.2516263836
1602000000.0 0.0879400247 -0.3740004004
1611950000.0 -0.1690862156 -0.3274598146
1621900000.0 -0.3509812267 -0.1144380487
1631850000.0 -0.3614645913 0.1813830829
1641800000.0 -0.1821012564 0.4275835657
1651750000.0 0.1116762738 0.5138425189
1661700000.0 0.399309118 0.4081162371
1671650000.0 0.5764068477 0.155655232
1681600000.0 0.5859882517 -0.1575414029
1691550000.0 0.4212430301 -0.4358403151
1701500000.0 0.1216618184 -0.5883075224
1711450000.0 -0.2264778222 -0.5515133504
1721400000.0 -0.5091380103 -0.3184697387
1731350000.0 -0.6217077618 0.0411619581
1741300000.0 -0.518503 0.398462594
1751250000.0 -0.2493326032 0.6354503883
1761200000.0 0.0899006512 0.6941234503
1771150000.0 0.4026261263 0.5775382255
1781100000.0 0.6152304921 0.3259869001
1791050000.0 0.6821132648 0.0022769248
1801000000.0 0.5829383749 -0.32765615
1810950000.0 0.3198333433 -0.5764058062
1820900000.0 -0.0483841982 -0.6492772879
1830850000.0 -0.4019157233 -0.50538919
1840800000.0 -0.6179373005 -0.1971195384
1850750000.0 -0.6394577454 0.1611319558
1860700000.0 -0.4889923154 0.460687484
1870650000.0 -0.2308933182 0.6394261877
1880600000.0 0.0670714306 0.6730164909
1890550000.0 0.3398757005 0.562694494
1900500000.0 0.5280337923 0.3295194624
1910450000.0 0.5772206287 0.0235612175
1920400000.0 0.4600454763 -0.2699475793
1930350000.0 0.2078803243 -0.4537455815
1940300000.0 -0.0879308618 -0.4728170318
1950250000.0 -0.3287522623 -0.3475474604
1960200000.0 -0.4597697618 -0.1441152457
1970150000.0 -0.4757851643 0.0686755611
1980100000.0 -0.4010815909 0.2402898183
1990050000.0 -0.2742240909 0.3428261792
2000000000.0 -0.1381335659 0.3715975039
