!Created with skrf (http://scikit-rf.org).
# GHz S RI R 50.0 
!freq ReS11 ImS11
10000000.0 -0.7428197533 0.6687080755
19950000.0 -0.1159075767 0.9793339841
29900000.0 0.561216018 0.8021412437
39850000.0 0.9568910328 0.2122090599
49800000.0 0.8499591206 -0.5030835823
59750000.0 0.2706943507 -0.9594645228
69700000.0 -0.4759400379 -0.8799551013
79650000.0 -0.9525281459 -0.2814494501
89600000.0 -0.8443460691 0.4939610924
99550000.0 -0.1756669161 0.9482970753
109500000.0 0.636125392 0.7196658
119450000.0 0.9638548944 -0.1000296056
129400000.0 0.4631076064 -0.8640094533
139350000.0 -0.4604748728 -0.8643014575
149300000.0 -0.9570764199 -0.1023469643
159250000.0 -0.620832639 0.7117011001
169200000.0 0.2041346263 0.9144763734
179150000.0 0.8512326297 0.40870652
189100000.0 0.8742562901 -0.3879274949
199050000.0 0.308800785 -0.9098196134
209000000.0 -0.4297263931 -0.8510778522
218950000.0 -0.8876721661 -0.3060504555
228900000.0 -0.8426232163 0.3836385893
238850000.0 -0.3502116945 0.8505801421
248800000.0 0.3276627728 0.8512969421
258750000.0 0.8266768612 0.4274148982
268700000.0 0.9045526841 -0.2391157871
278650000.0 0.5103891528 -0.7772901939
288600000.0 -0.1372325229 -0.9016260426
298550000.0 -0.6896026442 -0.556621431
308500000.0 -0.8552104656 0.0646352342
318450000.0 -0.5474417354 0.6213666358
328400000.0 0.0561499335 0.7947606302
338350000.0 0.5826254474 0.4812431972
348300000.0 0.690183645 -0.0934272373
358250000.0 0.3464019199 -0.5084388072
368200000.0 -0.1320855546 -0.4996206999
378150000.0 -0.3757021014 -0.1710129081
388100000.0 -0.2769600915 0.1522442432
398050000.0 -0.0185681318 0.2362172071
408000000.0 0.1487144213 0.0999700825
417950000.0 0.1227244961 -0.0716056582
427900000.0 -0.0141109767 -0.1276179145
437850000.0 -0.1201764538 -0.0491577787
447800000.0 -0.1166812423 0.0749821915
457750000.0 -0.0179894564 0.1458762449
467700000.0 0.0944102363 0.1166101123
477650000.0 0.1449515613 0.0169852647
487600000.0 0.1095432009 -0.0801930675
497550000.0 0.0305257197 -0.1200491347
507500000.0 -0.0531094733 -0.0960967502
517450000.0 -0.0804356658 -0.0349606562
527400000.0 -0.0620863352 0.0117722485
537350000.0 -0.0305508165 0.0205788736
547300000.0 -0.0197193772 0.0072039169
557250000.0 -0.0346600394 0.0027409501
567200000.0 -0.0500603846 0.0267929746
577150000.0 -0.0340425311 0.0667723597
587100000.0 0.024112078 0.0891225675
597050000.0 0.0944684319 0.060083047
607000000.0 0.1322291468 -0.0255490177
616950000.0 0.1014793962 -0.1271298514
626900000.0 0.0015084772 -0.1854334574
636850000.0 -0.1217512576 -0.160213797
646800000.0 -0.2016935649 -0.054136728
656750000.0 -0.1868094987 0.0820891822
666700000.0 -0.0817732401 0.1765905984
676650000.0 0.0623656599 0.1736575802
686600000.0 0.1676195522 0.0752104772
696550000.0 0.1768972276 -0.0667245143
706500000.0 0.0899341138 -0.1715007104
716450000.0 -0.0407481159 -0.1840751272
726400000.0 -0.134727542 -0.1054349993
736350000.0 -0.1365421475 0.0102823626
746300000.0 -0.0529369173 0.0841104957
756250000.0 0.051892577 0.0651607943
766200000.0 0.0999811238 -0.0291554222
776150000.0 0.0499592636 -0.1274237813
786100000.0 -0.0644583071 -0.1453170409
796050000.0 -0.1593452935 -0.0581450221
806000000.0 -0.1482015956 0.0888888449
815950000.0 -0.0173349703 0.1884513611
825900000.0 0.1660702486 0.1559541185
835850000.0 0.2781740551 -0.0128967992
845800000.0 0.2334705009 -0.2276953369
855750000.0 0.035329948 -0.3566029187
865700000.0 -0.2100977644 -0.3060591227
875650000.0 -0.359167663 -0.0819498644
885600000.0 -0.3015897436 0.1980565808
895550000.0 -0.0513146149 0.3623076237
905500000.0 0.2543404519 0.2943977535
915450000.0 0.4216132969 0.0163272006
925400000.0 0.3262829148 -0.305829894
935350000.0 0.0098646219 -0.4516391681
945300000.0 -0.3080270894 -0.2919618981
955250000.0 -0.3639531505 0.0556940702
965200000.0 -0.1793226584 0.3190127099
975150000.0 0.2132793525 0.3500168396
985100000.0 0.4940663131 -0.001136485
995050000.0 0.3164508139 -0.4781903807
1005000000.0 -0.244812715 -0.5911878844
1014950000.0 -0.6791606114 -0.1313049454
1024900000.0 -0.5091719394 0.5376218221
1034850000.0 0.1852002004 0.7720235215
1044800000.0 0.7756728983 0.318465948
1054750000.0 0.7543916486 -0.4132588869
1064700000.0 0.1865503091 -0.8357938844
1074650000.0 -0.4794580502 -0.6758946938
1084600000.0 -0.7899695322 -0.102558509
1094550000.0 -0.571120504 0.5178636866
1104500000.0 0.0385151449 0.7424052675
1114450000.0 0.5791728753 0.4255484694
1124400000.0 0.6764085888 -0.159431224
1134350000.0 0.3200384116 -0.5857620532
1144300000.0 -0.2031503637 -0.6046693528
1154250000.0 -0.5539713679 -0.2453632475
1164200000.0 -0.522372964 0.2394022205
1174150000.0 -0.1441570945 0.5302965256
1184100000.0 0.3102430357 0.4372902715
1194050000.0 0.5343597642 0.0486077768
1204000000.0 0.4089851331 -0.3635565231
1213950000.0 0.038016636 -0.559185993
1223900000.0 -0.3541349562 -0.4465247967
1233850000.0 -0.5649591541 -0.0988745941
1243800000.0 -0.4815873681 0.3023778658
1253750000.0 -0.1468767925 0.5430694119
1263700000.0 0.2641157185 0.493218842
1273650000.0 0.5348426957 0.1833783204
1283600000.0 0.5389024241 -0.2205489887
1293550000.0 0.2900942061 -0.5296347591
1303500000.0 -0.0916267376 -0.6145410099
1313450000.0 -0.4448503909 -0.4462316322
1323400000.0 -0.6203996446 -0.0913298464
1333350000.0 -0.5315691433 0.3010620461
1343300000.0 -0.2076396949 0.5527667481
1353250000.0 0.2060713145 0.5365122932
1363200000.0 0.5111856847 0.2615309239
1373150000.0 0.5730396404 -0.1367025499
1383100000.0 0.3801209042 -0.4769784643
1393050000.0 0.0265914616 -0.6272877901
1403000000.0 -0.3390915854 -0.5313479454
1412950000.0 -0.5713929634 -0.2326680136
1422900000.0 -0.5671654035 0.1484948293
1432850000.0 -0.3205044446 0.444597627
1442800000.0 0.0594591076 0.5134098887
1452750000.0 0.3906473444 0.3227790649
1462700000.0 0.5189087882 -0.0275464245
1472650000.0 0.3970240874 -0.366742215
1482600000.0 0.0972807344 -0.5455144661
1492550000.0 -0.2410161074 -0.4939633
1502500000.0 -0.4639697443 -0.2396187158
1512450000.0 -0.4658415582 0.0984324978
1522400000.0 -0.2388967376 0.3525278146
1532350000.0 0.0970055617 0.383015742
1542300000.0 0.3584669499 0.1792687124
1552250000.0 0.4044368213 -0.1394718413
1562200000.0 0.2277232849 -0.3939439821
1572150000.0 -0.0649875611 -0.4622777655
1582100000.0 -0.3265887705 -0.3176034843
1592050000.0 -0.426208683 -0.0300666113
1602000000.0 -0.3005652926 0.2576911642
1611950000.0 -0.0033952441 0.3824513056
1621900000.0 0.3058416401 0.2639055408
1631850000.0 0.4470288482 -0.0394066483
1641800000.0 0.3431547836 -0.3567857621
1651750000.0 0.0542917065 -0.5251001425
1661700000.0 -0.2777288908 -0.4635965385
1671650000.0 -0.499161228 -0.1988826266
1681600000.0 -0.5013814151 0.15793031
1691550000.0 -0.2651111413 0.4435322686
1701500000.0 0.112655427 0.5086351724
1711450000.0 0.4459615782 0.3068039679
1721400000.0 0.5679462128 -0.0641356327
1731350000.0 0.4257644163 -0.422259824
1741300000.0 0.0971398398 -0.611278132
1751250000.0 -0.2745556389 -0.5640977281
1761200000.0 -0.5454797732 -0.3058976822
1771150000.0 -0.6131115622 0.0669599495
1781100000.0 -0.4408312573 0.4135217524
1791050000.0 -0.0851589166 0.5863988909
1801000000.0 0.3070176552 0.4985679937
1810950000.0 0.5565226639 0.1828809331
1820900000.0 0.5531170732 -0.2111703872
1830850000.0 0.3151948496 -0.5110888742
1840800000.0 -0.0423525073 -0.6058055629
1850750000.0 -0.3784044212 -0.4770203606
1860700000.0 -0.5739089555 -0.1838227205
1870650000.0 -0.5613715207 0.1659065785
1880600000.0 -0.3429841206 0.4391275414
1890550000.0 -0.004683955 0.5227710422
1900500000.0 0.305888035 0.3789773453
1910450000.0 0.4523470613 0.0831711966
1920400000.0 0.3873625083 -0.2215039263
1930350000.0 0.1676780395 -0.4091531034
1940300000.0 -0.0964876423 -0.4264675955
1950250000.0 -0.3006940525 -0.2963732167
1960200000.0 -0.3777715118 -0.0913143037
1970150000.0 -0.3206005509 0.094345061
1980100000.0 -0.1807959797 0.1829208652
1990050000.0 -0.0516791061 0.1589945414
2000000000.0 -0.0098899983 0.0817421832
