!Created with skrf (http://scikit-rf.org).
# GHz S RI R 50.0 
!freq ReS11 ImS11
10000000.0 -0.7069728703 0.0542595233
14975000.0 -0.7140878258 0.0850160753
19950000.0 -0.722014014 0.1189721562
24925000.0 -0.728805855 0.1568505461
29900000.0 -0.7331456483 0.1975659663
34875000.0 -0.7329421414 0.2412826356
39850000.0 -0.7274443336 0.2874332953
44825000.0 -0.716617955 0.3354844181
49800000.0 -0.7004613977 0.3846290545
54775000.0 -0.6790255424 0.4342881731
59750000.0 -0.6526583859 0.484318479
64725000.0 -0.6222397625 0.5341646256
69700000.0 -0.5877803011 0.5838637203
74675000.0 -0.5492676184 0.6333301156
79650000.0 -0.5066915417 0.6828962714
84625000.0 -0.4595888114 0.7327524139
89600000.0 -0.4065747402 0.7827179127
94575000.0 -0.346038912 0.832381858
99550000.0 -0.2752842485 0.8799567924
104525000.0 -0.192580081 0.9223380013
109500000.0 -0.0971809947 0.9554223776
114475000.0 0.0107196807 0.9746686194
119450000.0 0.1278282465 0.9764843768
124425000.0 0.250178479 0.9579948301
129400000.0 0.3622159753 0.919623617
134375000.0 0.4863587812 0.8589275146
139350000.0 0.5944335359 0.7780640745
144325000.0 0.6888156276 0.6802492003
149300000.0 0.7662438488 0.5684836956
154275000.0 0.8242740823 0.4476152245
159250000.0 0.8615525338 0.3223180897
164225000.0 0.87755055 0.1979281599
169200000.0 0.874051639 0.0787910131
174175000.0 0.8537235488 -0.0313107634
179150000.0 0.8212164543 -0.1295996509
184125000.0 0.7813626961 -0.2155595919
189100000.0 0.7386670879 -0.2901483532
194075000.0 0.6958263195 -0.3553863243
199050000.0 0.6541376213 -0.413333781
204025000.0 0.6134528152 -0.4661819247
209000000.0 0.5732346932 -0.5150211157
213975000.0 0.5319158258 -0.560777277
218950000.0 0.4885722289 -0.603109398
223925000.0 0.4427706189 -0.6423159232
228900000.0 0.393993134 -0.6775148531
233875000.0 0.341649925 -0.7081972957
238850000.0 0.2841062357 -0.7345801951
243825000.0 0.2098839513 -0.755189356
248800000.0 0.2853557469 -0.6274166688
253775000.0 0.1720057945 -0.7637680901
258750000.0 0.1106504432 -0.7762867614
263725000.0 0.0583698527 -0.7812512267
268700000.0 0.0105584684 -0.7826929621
273675000.0 -0.0340273901 -0.7818530884
278650000.0 -0.0762926207 -0.779152234
283625000.0 -0.1164261501 -0.7746366454
288600000.0 -0.1536192468 -0.7687208085
293575000.0 -0.1986119839 -0.7659180031
298550000.0 -0.2431919882 -0.7590015673
303525000.0 -0.2891834469 -0.7488347178
308500000.0 -0.3370538469 -0.7334714753
313475000.0 -0.3858364561 -0.7113259932
318450000.0 -0.433906835 -0.6821149494
323425000.0 -0.4802861899 -0.6452186019
328400000.0 -0.5237242845 -0.601526456
333375000.0 -0.5618462829 -0.5510089165
338350000.0 -0.5942583691 -0.4936697424
343325000.0 -0.6201942052 -0.431731913
348300000.0 -0.637533965 -0.3659599266
353275000.0 -0.6453463923 -0.2968541402
358250000.0 -0.6443068454 -0.2277738762
363225000.0 -0.6331188127 -0.1609983233
368200000.0 -0.611390294 -0.0968390418
373175000.0 -0.5820018154 -0.0378369939
378150000.0 -0.5463948237 0.0125513023
383125000.0 -0.5045091345 0.0551440001
388100000.0 -0.4587077726 0.0903722154
393075000.0 -0.4119264726 0.1160333531
398050000.0 -0.3642395311 0.1336655761
403025000.0 -0.3171885459 0.1460507584
408000000.0 -0.2730730805 0.1516924669
412975000.0 -0.2315398453 0.1495632829
417950000.0 -0.1920603145 0.143676473
422925000.0 -0.156589921 0.1357369783
427900000.0 -0.1254336635 0.123217932
432875000.0 -0.0978836089 0.1081580611
437850000.0 -0.0752621784 0.0930158597
442825000.0 -0.057120251 0.0757546279
447800000.0 -0.0417298649 0.0572715772
452775000.0 -0.0301205958 0.0392375144
457750000.0 -0.0217977392 0.0215840756
462725000.0 -0.0148876883 0.0045314237
467700000.0 -0.010692792 -0.0112801176
472675000.0 -0.00933595 -0.0259414417
477650000.0 -0.0094521926 -0.0390652092
482625000.0 -0.0118589329 -0.051308534
487600000.0 -0.0203753231 -0.0632337865
492575000.0 -0.0590073882 -0.0530834277
497550000.0 0.0126651331 -0.0358677501
502525000.0 0.0042181539 -0.0639537363
507500000.0 -0.001679145 -0.0740348658
512475000.0 -0.0073554003 -0.0790598372
517450000.0 -0.0128802968 -0.0822786967
522425000.0 -0.0177600335 -0.0845505328
527400000.0 -0.0232046768 -0.0854684125
532375000.0 -0.0289435141 -0.0855644394
537350000.0 -0.0344361901 -0.085382617
542325000.0 -0.0416882912 -0.0850986622
547300000.0 -0.0491753338 -0.0805640756
552275000.0 -0.0531890205 -0.0746305868
557250000.0 -0.0559986692 -0.0690500595
562225000.0 -0.0583549922 -0.0635697412
567200000.0 -0.060193075 -0.0567480548
572175000.0 -0.0616883001 -0.0484281083
577150000.0 -0.0624841232 -0.0396954974
582125000.0 -0.0624456602 -0.0304675573
587100000.0 -0.0618928198 -0.0201126478
592075000.0 -0.060722672 -0.009440696
597050000.0 -0.0576161756 0.0011648785
602025000.0 -0.0541782676 0.0121505363
607000000.0 -0.0504541717 0.0229017845
611975000.0 -0.0452616505 0.0332959147
616950000.0 -0.0392754726 0.0429432439
621925000.0 -0.0331360373 0.0510400883
626900000.0 -0.0253802325 0.0584585079
631875000.0 -0.0170520357 0.0650658413
636850000.0 -0.0084131656 0.070338981
641825000.0 0.0007404147 0.0746865951
646800000.0 0.010062522 0.0786830729
651775000.0 0.0194605443 0.0818296523
656750000.0 0.0292263692 0.0848380725
661725000.0 0.0382392588 0.0880499543
666700000.0 0.0468582845 0.0907661479
671675000.0 0.0561398054 0.0931811897
676650000.0 0.0659489785 0.095754647
681625000.0 0.0759261119 0.0979162519
686600000.0 0.086714847 0.1001253154
691575000.0 0.0974516577 0.101895436
696550000.0 0.1081745727 0.1017389037
701525000.0 0.1193812146 0.1001942472
706500000.0 0.130941517 0.0975121202
711475000.0 0.1426613014 0.0929119435
716450000.0 0.1546981601 0.087030581
721425000.0 0.166551261 0.0798245226
726400000.0 0.17802343 0.0710812592
731375000.0 0.1890768452 0.0608695877
736350000.0 0.200027541 0.0494952905
741325000.0 0.2097236305 0.0372777075
746300000.0 0.2188406245 0.0238386942
751275000.0 0.2262596771 0.0096021043
756250000.0 0.2323645523 -0.0056472268
761225000.0 0.2368778684 -0.0216188643
766200000.0 0.2400684512 -0.0376552106
771175000.0 0.2409083606 -0.0544091774
776150000.0 0.2397596813 -0.0714654002
781125000.0 0.2367923623 -0.0891660301
786100000.0 0.2318131378 -0.1068945951
791075000.0 0.2254234124 -0.1248829465
796050000.0 0.2170769613 -0.1423564598
801025000.0 0.2071472231 -0.1595875495
806000000.0 0.1958521051 -0.1765286815
810975000.0 0.1833229589 -0.1924181044
815950000.0 0.1693539475 -0.2070651406
820925000.0 0.1546673575 -0.2207486151
825900000.0 0.139638018 -0.2329836021
830875000.0 0.124234371 -0.2432992353
835850000.0 0.1082257812 -0.2521219624
840825000.0 0.0924803901 -0.2599917411
845800000.0 0.0768190257 -0.266550627
850775000.0 0.0609948217 -0.2724743152
855750000.0 0.0446288122 -0.2784946111
860725000.0 0.0274914102 -0.2840947997
865700000.0 0.00892575 -0.2894996643
870675000.0 -0.0110778994 -0.2949719474
875650000.0 -0.0326887275 -0.2993213816
880625000.0 -0.0568015556 -0.3023574708
885600000.0 -0.0823702234 -0.3034166453
890575000.0 -0.109466511 -0.3021470688
895550000.0 -0.1375770178 -0.2984876203
900525000.0 -0.1656212049 -0.2916659309
905500000.0 -0.1938332443 -0.2811450142
910475000.0 -0.221591513 -0.266965325
915450000.0 -0.2486485636 -0.249328382
920425000.0 -0.2740805964 -0.2280532154
925400000.0 -0.2983997001 -0.2032939719
930375000.0 -0.3208786081 -0.1749816933
935350000.0 -0.3417401639 -0.1433944793
940325000.0 -0.3607685701 -0.1085507087
945300000.0 -0.37788731 -0.0698681948
950275000.0 -0.3929419679 -0.0275934927
955250000.0 -0.4053317439 0.0188628117
960225000.0 -0.4136463915 0.0698907447
965200000.0 -0.4167125422 0.1255018932
970175000.0 -0.4129424319 0.1856616155
975150000.0 -0.40055018 0.2491316847
980125000.0 -0.3772435034 0.3146317973
985100000.0 -0.3416586062 0.3800403509
990075000.0 -0.2932708083 0.4427131454
995050000.0 -0.2314084078 0.4990706939
1000025000.0 -0.1569743116 0.5462426822
1005000000.0 -0.0719114701 0.5813709215
1009975000.0 0.0214211571 0.5990122469
1014950000.0 0.1191749343 0.5973622611
1019925000.0 0.2161488727 0.5759882039
1024900000.0 0.3078792918 0.535656745
1029875000.0 0.3907209901 0.4779248125
1034850000.0 0.4617262918 0.4049502201
1039825000.0 0.518373041 0.3182550558
1044800000.0 0.5568938254 0.2188706163
1049775000.0 0.5688044038 0.1105635919
1054750000.0 0.5398139022 0.0208141725
1059725000.0 0.5299442962 -0.0014050935
1064700000.0 0.5752509623 -0.0694322511
1069675000.0 0.5830288078 -0.1832220077
1074650000.0 0.5391471933 -0.2961969193
1079625000.0 0.4495236337 -0.3256119177
1084600000.0 0.489624637 -0.3512542938
1089575000.0 0.4648130019 -0.4624213209
1094550000.0 0.3998239761 -0.5484990283
1099525000.0 0.3218119608 -0.6114269403
1104500000.0 0.2382541281 -0.6561461655
1109475000.0 0.1517832263 -0.6843217619
1114450000.0 0.0656781394 -0.6979889231
1119425000.0 -0.0181797271 -0.6992838549
1124400000.0 -0.0988637043 -0.6893988138
1129375000.0 -0.1755253129 -0.6697347477
1134350000.0 -0.2472647844 -0.6410114595
1139325000.0 -0.3132393269 -0.6041532992
1144300000.0 -0.3727200308 -0.55992524
1149275000.0 -0.4241919166 -0.5101163761
1154250000.0 -0.4665486685 -0.4561050173
1159225000.0 -0.4999475078 -0.4002202428
1164200000.0 -0.5251871592 -0.3457164099
1169175000.0 -0.5457166038 -0.2927836356
1174150000.0 -0.562236019 -0.2395266753
1179125000.0 -0.573948016 -0.1855107066
1184100000.0 -0.5796715196 -0.1317743241
1189075000.0 -0.5803552554 -0.0798403342
1194050000.0 -0.576611896 -0.0315299504
1199025000.0 -0.5688694699 0.0137070265
1204000000.0 -0.5581413488 0.0554972865
1208975000.0 -0.5451382759 0.0933226632
1213950000.0 -0.530229363 0.1275229358
1218925000.0 -0.5151987808 0.1569129119
1223900000.0 -0.50025316 0.1829928193
1228875000.0 -0.4861529761 0.2064069327
1233850000.0 -0.4735917365 0.2268179592
1238825000.0 -0.4624150423 0.2467484561
1243800000.0 -0.4503376691 0.2667507317
1248775000.0 -0.440587837 0.2860562098
1253750000.0 -0.429134527 0.3054429044
1258725000.0 -0.4147688596 0.3255735125
1263700000.0 -0.4046933126 0.3445059225
1268675000.0 -0.3889286965 0.3642371638
1273650000.0 -0.3731029902 0.3818419581
1278625000.0 -0.356896404 0.3980578213
1283600000.0 -0.3384556214 0.4126366778
1288575000.0 -0.3209472148 0.4251462383
1293550000.0 -0.3043788949 0.4332780826
1298525000.0 -0.2857562752 0.4403937006
1303500000.0 -0.2670095321 0.4449401895
1308475000.0 -0.2525003785 0.4452334536
1313450000.0 -0.2384523997 0.4437594908
1318425000.0 -0.2253589064 0.4404316588
1323400000.0 -0.2187651366 0.4356348014
1328375000.0 -0.2166570291 0.431993975
1333350000.0 -0.2166452656 0.4301586182
1338325000.0 -0.2180090573 0.4331328747
1343300000.0 -0.2221223519 0.4393959139
1348275000.0 -0.2270381556 0.4478181506
1353250000.0 -0.2265471147 0.4604534981
1358225000.0 -0.2233022392 0.4745010156
1363200000.0 -0.2161359306 0.488925213
1368175000.0 -0.205921938 0.5027346748
1373150000.0 -0.1913704787 0.5165788517
1378125000.0 -0.1782413456 0.5266929224
1383100000.0 -0.1605804431 0.5369510238
1388075000.0 -0.1441023802 0.5430716497
1393050000.0 -0.126803915 0.5475076252
1398025000.0 -0.1099751957 0.5484057737
1403000000.0 -0.0962042534 0.5451007959
1407975000.0 -0.0793206398 0.5409327358
1412950000.0 -0.0655325009 0.5336861632
1417925000.0 -0.0568333003 0.5235609483
1422900000.0 -0.0495274958 0.5147769997
1427875000.0 -0.0505418642 0.5048265333
1432850000.0 -0.055016037 0.495601899
1437825000.0 -0.0601090506 0.4929808859
1442800000.0 -0.0696546 0.4937228032
1447775000.0 -0.077022003 0.4985120604
1452750000.0 -0.081122603 0.5073634166
1457725000.0 -0.0812778779 0.5198717737
1462700000.0 -0.0774177413 0.531609834
1467675000.0 -0.0697883703 0.5428768319
1472650000.0 -0.0607307785 0.553203074
1477625000.0 -0.0479522572 0.5615692093
1482600000.0 -0.0320252899 0.5679186046
1487575000.0 -0.0160391915 0.5728384483
1492550000.0 0.0003431307 0.5748840456
1497525000.0 0.0189838432 0.5750816191
1502500000.0 0.0382728435 0.5754021465
1507475000.0 0.0552609252 0.5731056428
1512450000.0 0.0721441094 0.5705975567
1517425000.0 0.0876278075 0.5671237399
1522400000.0 0.1015183257 0.5624680528
1527375000.0 0.1141164459 0.5579078293
1532350000.0 0.1244612997 0.5534116821
1537325000.0 0.1343233215 0.5484031509
1542300000.0 0.1441796549 0.5442204638
1547275000.0 0.15319079 0.5394571358
1552250000.0 0.1635760507 0.5342815275
1557225000.0 0.1743240684 0.5294209736
1562200000.0 0.1852319415 0.5232429356
1567175000.0 0.1974602054 0.5154969145
1572150000.0 0.2099561582 0.5073486823
1577125000.0 0.2230145165 0.4975164935
1582100000.0 0.2375370065 0.4864531425
1587075000.0 0.2507902056 0.4752910395
1592050000.0 0.2640237941 0.4628626556
1597025000.0 0.2784686167 0.4503025006
1602000000.0 0.2925703276 0.4372496613
1606975000.0 0.3054314993 0.4239797774
1611950000.0 0.3181305682 0.4112131155
1616925000.0 0.3309192763 0.398236238
1621900000.0 0.343076376 0.3845567515
1626875000.0 0.3536258727 0.3717488838
1631850000.0 0.3641998574 0.3580573138
1636825000.0 0.375291943 0.344210113
1641800000.0 0.3848014418 0.3299080017
1646775000.0 0.3937870363 0.3147005436
1651750000.0 0.4036869705 0.2994286134
1656725000.0 0.412581952 0.2841278563
1661700000.0 0.4202279011 0.2670204713
1666675000.0 0.4281075239 0.250854929
1671650000.0 0.4345926733 0.234311172
1676625000.0 0.4399124013 0.2169661304
1681600000.0 0.4443400153 0.2003456678
1686575000.0 0.4466298428 0.1840227565
1691550000.0 0.4476765352 0.1674564322
1696525000.0 0.4474012441 0.1521044728
1701500000.0 0.4450423189 0.1373360699
1706475000.0 0.4409007908 0.1231043128
1711450000.0 0.435750665 0.110584393
1716425000.0 0.4303770135 0.0992993593
1721400000.0 0.4249817117 0.0889643079
1726375000.0 0.4210633346 0.0799083064
1731350000.0 0.4196081252 0.071114558
1736325000.0 0.4205209587 0.0623912358
1741300000.0 0.4228450673 0.0523053272
1746275000.0 0.4274705829 0.0413841548
1751250000.0 0.4331284545 0.0298110534
1756225000.0 0.4383507541 0.0167486102
1761200000.0 0.4428937134 0.0033007856
1766175000.0 0.4458514287 -0.0099153195
1771150000.0 0.4475524235 -0.0231061043
1776125000.0 0.4476062221 -0.0358312048
1781100000.0 0.4443512284 -0.0473995151
1786075000.0 0.4396646903 -0.0577670967
1791050000.0 0.4325984279 -0.0664075155
1796025000.0 0.4232764477 -0.073740872
1801000000.0 0.4132038636 -0.0790696445
1805975000.0 0.4021704669 -0.0818304823
1810950000.0 0.3912474979 -0.0829196525
1815925000.0 0.3822056786 -0.0833492145
1820900000.0 0.3747947625 -0.0820772934
1825875000.0 0.3696722317 -0.0804707171
1830850000.0 0.3672655614 -0.0787261037
1835825000.0 0.3663317728 -0.0787520387
1840800000.0 0.3633102845 -0.0768184236
1845775000.0 0.364762654 -0.0703421272
1850750000.0 0.3720445418 -0.0652456838
1855725000.0 0.3811518443 -0.0656950577
1860700000.0 0.388467364 -0.0697403231
1865675000.0 0.3929222459 -0.0769556504
1870650000.0 0.3928885419 -0.085294634
1875625000.0 0.3893825095 -0.0930493633
1880600000.0 0.3819429808 -0.1005854289
1885575000.0 0.3715493972 -0.1065615882
1890550000.0 0.3586812644 -0.1110908818
1895525000.0 0.3438867572 -0.1144963046
1900500000.0 0.3283128598 -0.1148148883
1905475000.0 0.3127961541 -0.1134513454
1910450000.0 0.2988229824 -0.1102951984
1915425000.0 0.287335952 -0.1050411437
1920400000.0 0.2789687779 -0.0995276826
1925375000.0 0.2742135586 -0.0941364472
1930350000.0 0.2719131525 -0.0899903859
1935325000.0 0.2702323155 -0.0880145787
1940300000.0 0.2681456829 -0.0873330422
1945275000.0 0.2648417506 -0.0875381455
1950250000.0 0.2595716237 -0.0881122797
1955225000.0 0.2515465336 -0.0889130983
1960200000.0 0.2403953803 -0.0889044625
1965175000.0 0.2272570283 -0.087732099
1970150000.0 0.2114686241 -0.0861102989
1975125000.0 0.1918615282 -0.0833885915
1980100000.0 0.1708976687 -0.079357417
1985075000.0 0.1474309725 -0.0742235128
1990050000.0 0.1213475823 -0.0676749547
1995025000.0 0.0930832606 -0.0586535351
2000000000.0 0.0625188938 -0.0469161451
