!Created with skrf (http://scikit-rf.org).
# GHz S RI R 50.0 
!freq ReS11 ImS11
10000000.0 -0.7767876556 0.6784280734
19950000.0 -0.1450824218 0.990892825
29900000.0 0.5306184508 0.8210047344
39850000.0 0.9392403673 0.2500781019
49800000.0 0.8731826055 -0.4624806593
59750000.0 0.3289234671 -0.9618661914
69700000.0 -0.437345297 -0.940409755
79650000.0 -0.9703574539 -0.3535954009
89600000.0 -0.8924952198 0.458221517
99550000.0 -0.2127611911 0.9448625688
109500000.0 0.6213233472 0.7257869347
119450000.0 0.9722820122 -0.1006943662
129400000.0 0.4775222604 -0.8921381889
139350000.0 -0.4670377705 -0.9078833734
149300000.0 -0.9817932424 -0.1344793697
159250000.0 -0.6568057442 0.6899700873
169200000.0 0.1498194607 0.9271181719
179150000.0 0.8242069161 0.4872198265
189100000.0 0.9482886041 -0.2824299387
199050000.0 0.486401792 -0.88431864
209000000.0 -0.2468668068 -0.9710970974
218950000.0 -0.8122736155 -0.5363153286
228900000.0 -0.9301919529 0.1468657301
238850000.0 -0.5739510174 0.7245485817
248800000.0 0.0417427465 0.9167199556
258750000.0 0.6748341722 0.6704456765
268700000.0 0.9714004929 0.0708164624
278650000.0 0.7934843362 -0.5735420487
288600000.0 0.2323444559 -0.929337305
298550000.0 -0.4143292675 -0.8173136417
308500000.0 -0.8127979739 -0.3055572502
318450000.0 -0.7588168527 0.3330915329
328400000.0 -0.2835094543 0.7506886902
338350000.0 0.3334484289 0.7031649024
348300000.0 0.6939386419 0.2352013186
358250000.0 0.57660266 -0.2954821137
368200000.0 0.1453826644 -0.5066923445
378150000.0 -0.2197710199 -0.3258887993
388100000.0 -0.2766196862 0.0022331472
398050000.0 -0.0888171524 0.1857941614
408000000.0 0.109307874 0.1352718492
417950000.0 0.1510334129 -0.0237944662
427900000.0 0.0461805883 -0.1218563754
437850000.0 -0.084514115 -0.0860330842
447800000.0 -0.1313764932 0.0377342019
457750000.0 -0.0658536598 0.1493531495
467700000.0 0.0578910994 0.1707862205
477650000.0 0.1518421449 0.0963609759
487600000.0 0.1611327075 -0.0165581983
497550000.0 0.0991358905 -0.0923354703
507500000.0 0.0083010727 -0.1049357079
517450000.0 -0.0532491911 -0.057980371
527400000.0 -0.0601397755 0.0005598205
537350000.0 -0.033057002 0.0287687331
547300000.0 -0.0092484551 0.0184873849
557250000.0 -0.0177975377 -0.0108092793
567200000.0 -0.0504684176 0.005746636
577150000.0 -0.0659704283 0.048174233
587100000.0 -0.0405975814 0.0891897688
597050000.0 0.0246404812 0.1121887863
607000000.0 0.1013197753 0.0792711957
616950000.0 0.142477707 -0.0097535869
626900000.0 0.1125162005 -0.1159938241
636850000.0 0.0137496549 -0.182593389
646800000.0 -0.1092254724 -0.1681020523
656750000.0 -0.1934977188 -0.0731135877
666700000.0 -0.1912099982 0.0553635544
676650000.0 -0.1013356022 0.1479827978
686600000.0 0.0278599848 0.1537544087
696550000.0 0.1249842598 0.0706524892
706500000.0 0.1378672694 -0.0520484791
716450000.0 0.0665364957 -0.1430869646
726400000.0 -0.0404890536 -0.1528590924
736350000.0 -0.1106960016 -0.0829576994
746300000.0 -0.0977270379 0.0108484846
756250000.0 -0.0127434837 0.0551938364
766200000.0 0.0783559352 0.0099112531
776150000.0 0.1000362972 -0.1002414528
786100000.0 0.0199709488 -0.1960210599
796050000.0 -0.121112201 -0.1964748663
806000000.0 -0.2275875954 -0.0751274124
815950000.0 -0.2093457467 0.1092229771
825900000.0 -0.0469417877 0.2414195268
835850000.0 0.1832966458 0.2212055596
845800000.0 0.3495683651 0.0347371138
855750000.0 0.344554411 -0.2316364449
865700000.0 0.1498566108 -0.4343324437
875650000.0 -0.1445932967 -0.4515750451
885600000.0 -0.3830271827 -0.2536160485
895550000.0 -0.4246098117 0.0688569185
905500000.0 -0.2257832969 0.3438995688
915450000.0 0.1183982602 0.4084040383
925400000.0 0.4154144395 0.2096305245
935350000.0 0.486326306 -0.1467141893
945300000.0 0.2758988554 -0.4496509006
955250000.0 -0.0991568876 -0.5023596124
965200000.0 -0.3989670572 -0.2446374823
975150000.0 -0.3893596179 0.1770829367
985100000.0 -0.0173010056 0.4420540355
995050000.0 0.4474905748 0.2684332165
1005000000.0 0.5580837866 -0.2607499561
1014950000.0 0.1326356781 -0.6685111939
1024900000.0 -0.4922194802 -0.5188140704
1034850000.0 -0.7333293706 0.1412119751
1044800000.0 -0.2750671977 0.7527298392
1054750000.0 0.5135368368 0.684891137
1064700000.0 0.8863691675 0.0431171425
1074650000.0 0.627969515 -0.643318118
1084600000.0 -0.0320834863 -0.8683354628
1094550000.0 -0.6290707712 -0.5395902726
1104500000.0 -0.7811737526 0.1185134767
1114450000.0 -0.3794827097 0.6639793677
1124400000.0 0.2859096565 0.6891990896
1134350000.0 0.6908595864 0.2056423733
1144300000.0 0.5788746353 -0.3636853772
1154250000.0 0.1200428251 -0.6303370704
1164200000.0 -0.3520781738 -0.4924554125
1174150000.0 -0.5806183742 -0.0697694741
1184100000.0 -0.4231176556 0.3893466098
1194050000.0 0.0265738996 0.571735073
1204000000.0 0.45014589 0.3559363965
1213950000.0 0.5736228019 -0.0828506351
1223900000.0 0.3649611797 -0.4639625002
1233850000.0 -0.0298947989 -0.6039304073
1243800000.0 -0.4177260336 -0.4567090343
1253750000.0 -0.6225203235 -0.0900015525
1263700000.0 -0.5348381565 0.3331867261
1273650000.0 -0.1777021657 0.5960637824
1283600000.0 0.2671027731 0.5503996065
1293550000.0 0.5663545408 0.227055845
1303500000.0 0.5903462011 -0.199866196
1313450000.0 0.3562806285 -0.5412830137
1323400000.0 -0.0267332701 -0.6755889148
1333350000.0 -0.4159196913 -0.5593593064
1343300000.0 -0.664996855 -0.2266832918
1353250000.0 -0.6583487399 0.2027453715
1363200000.0 -0.3730941317 0.5414653828
1373150000.0 0.0685206295 0.6192404651
1383100000.0 0.4540705618 0.3996588556
1393050000.0 0.6148541662 0.0013751188
1403000000.0 0.5081174301 -0.3966878153
1412950000.0 0.1979862833 -0.6468377399
1422900000.0 -0.1931098174 -0.6698463813
1432850000.0 -0.5222570898 -0.4584832518
1442800000.0 -0.6589784946 -0.0867066619
1452750000.0 -0.5334834806 0.2971974546
1462700000.0 -0.1884923023 0.5177333637
1472650000.0 0.2152907113 0.4675021553
1482600000.0 0.4873484266 0.177395773
1492550000.0 0.5130029179 -0.2053558287
1502500000.0 0.3019677789 -0.5071308483
1512450000.0 -0.0389652672 -0.6071619592
1522400000.0 -0.3599031248 -0.4729389067
1532350000.0 -0.5196443425 -0.1664325995
1542300000.0 -0.4408555802 0.1707782003
1552250000.0 -0.158661388 0.3679590242
1562200000.0 0.1773513411 0.3251368596
1572150000.0 0.3922486043 0.0704635158
1582100000.0 0.372540616 -0.254863276
1592050000.0 0.1398469798 -0.4699050577
1602000000.0 -0.1718427019 -0.4696640292
1611950000.0 -0.402148015 -0.2580486612
1621900000.0 -0.4314460428 0.0609074435
1631850000.0 -0.2313093553 0.3261971618
1641800000.0 0.1062845572 0.3876849317
1651750000.0 0.4022309937 0.1948055451
1661700000.0 0.4854029892 -0.1537928662
1671650000.0 0.3101502993 -0.4676870587
1681600000.0 -0.0272125632 -0.5870112912
1691550000.0 -0.3643244374 -0.4638268493
1701500000.0 -0.5559806483 -0.1533872641
1711450000.0 -0.5183351861 0.218665926
1721400000.0 -0.2491468722 0.499717768
1731350000.0 0.1516939849 0.5505999701
1741300000.0 0.5020526843 0.326965872
1751250000.0 0.625330394 -0.0720064976
1761200000.0 0.4684647134 -0.4514256623
1771150000.0 0.1208536092 -0.6476770707
1781100000.0 -0.2636766165 -0.602906477
1791050000.0 -0.548932186 -0.3529516248
1801000000.0 -0.6440199837 0.0150421443
1810950000.0 -0.5099798023 0.3799000663
1820900000.0 -0.1759065423 0.6033818861
1830850000.0 0.2362673193 0.5730178134
1840800000.0 0.5386882016 0.2857068843
1850750000.0 0.5897260981 -0.1210941005
1860700000.0 0.3897658713 -0.455686447
1870650000.0 0.0520892107 -0.5983374033
1880600000.0 -0.2867027937 -0.5297015647
1890550000.0 -0.521369237 -0.2972579341
1900500000.0 -0.5871917235 0.0161164801
1910450000.0 -0.46461163 0.3065388019
1920400000.0 -0.1967241414 0.4634769123
1930350000.0 0.0991909227 0.4289514212
1940300000.0 0.3025109232 0.2313929358
1950250000.0 0.3345531914 -0.0345520594
1960200000.0 0.2106213584 -0.2398747565
1970150000.0 0.0217925009 -0.318161971
1980100000.0 -0.1392689734 -0.2778509065
1990050000.0 -0.219061023 -0.1800183408
2000000000.0 -0.2217575668 -0.1032163829
