!Created with skrf (http://scikit-rf.org).
# GHz S RI R 50.0 
!freq ReS11 ImS11
10000000.0 -0.7870220824 0.5995171919
19950000.0 -0.280098626 0.9437556388
29900000.0 0.3308879078 0.9282385293
39850000.0 0.8204388409 0.5525346668
49800000.0 0.990669325 -0.0528233542
59750000.0 0.7501913225 -0.6497628577
69700000.0 0.1752910221 -0.9729170579
79650000.0 -0.4899963224 -0.8503121691
89600000.0 -0.9244033265 -0.3072789596
99550000.0 -0.8803521887 0.4090517787
109500000.0 -0.3318846518 0.9132359144
119450000.0 0.4432855923 0.8678627514
129400000.0 0.9456538049 0.23669787
139350000.0 0.7862791888 -0.5689620327
149300000.0 0.0612403113 -0.959095621
159250000.0 -0.6874666034 -0.6605294721
169200000.0 -0.9481317091 0.0724572034
179150000.0 -0.6035532411 0.7360783052
189100000.0 0.0815795898 0.9494835198
199050000.0 0.7004122362 0.6441323656
209000000.0 0.9458996961 0.0237762219
218950000.0 0.7363069483 -0.583423973
228900000.0 0.2014950285 -0.9116369957
238850000.0 -0.4131200925 -0.8321962584
248800000.0 -0.5900114744 -0.4125178966
258750000.0 -0.912168176 0.1563062782
268700000.0 -0.6229568777 0.6814332819
278650000.0 -0.07820665 0.9125529293
288600000.0 0.4891128945 0.7588477546
298550000.0 0.8356105622 0.2892652587
308500000.0 0.8103649243 -0.2897306163
318450000.0 0.4256878624 -0.7141213288
328400000.0 -0.133359552 -0.7853976041
338350000.0 -0.5856337695 -0.47454754
348300000.0 -0.6982734841 0.0382596581
358250000.0 -0.4377532013 0.4539347885
368200000.0 -0.0024713749 0.5486027643
378150000.0 0.3221714013 0.3282108194
388100000.0 0.373485485 -0.0043161127
398050000.0 0.1957927821 -0.2245722859
408000000.0 -0.0380410916 -0.2377924206
417950000.0 -0.1733323595 -0.1018145687
427900000.0 -0.1633811278 0.0567853869
437850000.0 -0.0581051703 0.1381159377
447800000.0 0.0540318158 0.1157955393
457750000.0 0.1040551912 0.0314566365
467700000.0 0.0799412096 -0.0501772679
477650000.0 0.015834175 -0.0833128702
487600000.0 -0.0373401655 -0.0601578908
497550000.0 -0.0142013944 -0.0917675287
507500000.0 -0.069306989 0.0070743547
517450000.0 -0.0304982117 0.0222280512
527400000.0 -0.0079640615 0.0037021208
537350000.0 -0.0161077562 -0.0226835938
547300000.0 -0.0503538405 -0.0274493442
557250000.0 -0.0755817281 0.005906002
567200000.0 -0.0673901853 0.0564155392
577150000.0 -0.018254475 0.0953369019
587100000.0 0.056070487 0.0931577688
597050000.0 0.1212261598 0.0387570942
607000000.0 0.141739554 -0.0528645753
616950000.0 0.0987807975 -0.143567236
626900000.0 0.0059419976 -0.1919533188
636850000.0 -0.0995175841 -0.1720613187
646800000.0 -0.1734458733 -0.0888884719
656750000.0 -0.1806198401 0.0243850506
666700000.0 -0.1152266001 0.1201854522
676650000.0 -0.0050035633 0.1552056014
686600000.0 0.1014266929 0.1151488477
696550000.0 0.1564184651 0.0207200286
706500000.0 0.1387252852 -0.0801114496
716450000.0 0.0620854227 -0.138916901
726400000.0 -0.0304001789 -0.1283181109
736350000.0 -0.0856609009 -0.0549462957
746300000.0 -0.0699412062 0.0372851399
756250000.0 0.0099951355 0.0902712425
766200000.0 0.1085104661 0.0680844332
776150000.0 0.1634781383 -0.0250727922
786100000.0 0.1332946445 -0.1395246234
796050000.0 0.0197368774 -0.2084346918
806000000.0 -0.1287796896 -0.1781977245
815950000.0 -0.2326120416 -0.0429377605
825900000.0 -0.2239471895 0.1440216147
835850000.0 -0.0896254569 0.2942874823
845800000.0 0.1210404713 0.3290260822
855750000.0 0.3167473868 0.219834235
865700000.0 0.4059044345 0.0015296869
875650000.0 0.3359255068 -0.2350787273
885600000.0 0.1229810313 -0.3840041082
895550000.0 -0.1475475415 -0.3637904204
905500000.0 -0.3485197354 -0.1708667635
915450000.0 -0.3822255928 0.1074844111
925400000.0 -0.2289500095 0.3462774212
935350000.0 0.0471303477 0.4282551176
945300000.0 0.3136541175 0.2991673573
955250000.0 0.4213199453 0.0084038996
965200000.0 0.276842286 -0.2918055474
975150000.0 -0.073860148 -0.3941797829
985100000.0 -0.4052285386 -0.1655778994
995050000.0 -0.4314153275 0.2699211888
1005000000.0 -0.0776148241 0.5894764115
1014950000.0 0.4439063695 0.4991549458
1024900000.0 0.7235754339 -0.0181756923
1034850000.0 0.4640626268 -0.610147858
1044800000.0 -0.2007878508 -0.7751796178
1054750000.0 -0.7421816223 -0.3514205757
1064700000.0 -0.7436890384 0.2641165753
1074650000.0 -0.4206371037 0.7011675292
1084600000.0 0.1499641501 0.8173659952
1094550000.0 0.6440447208 0.473846611
1104500000.0 0.739092575 -0.1139364479
1114450000.0 0.3841896215 -0.5779085362
1124400000.0 -0.1685096448 -0.6323778788
1134350000.0 -0.5561161392 -0.2974806354
1144300000.0 -0.5889958059 0.1691534776
1154250000.0 -0.3083905918 0.4992025981
1164200000.0 0.100425172 0.5385033184
1174150000.0 0.4132558067 0.2924588823
1184100000.0 0.4696794291 -0.1010101963
1194050000.0 0.2391714965 -0.4189498056
1204000000.0 -0.1322250158 -0.492357776
1213950000.0 -0.4456133243 -0.3140762908
1223900000.0 -0.5725099846 0.0072244516
1233850000.0 -0.4804764313 0.333412153
1243800000.0 -0.2085001079 0.5412681994
1253750000.0 0.1436502613 0.5469472851
1263700000.0 0.4379293788 0.3359111951
1273650000.0 0.5516372954 -0.0141367481
1283600000.0 0.4402624807 -0.3630489212
1293550000.0 0.1578770397 -0.5797112723
1303500000.0 -0.1840469447 -0.6036793304
1313450000.0 -0.4767088828 -0.4444997178
1323400000.0 -0.6393805214 -0.1572976788
1333350000.0 -0.6249802864 0.1772569694
1343300000.0 -0.4263748876 0.4625350164
1353250000.0 -0.0903432937 0.5980635205
1363200000.0 0.2740559693 0.5201487137
1373150000.0 0.5336104565 0.2504488628
1383100000.0 0.5970911163 -0.1093491293
1393050000.0 0.4606657518 -0.4311403685
1403000000.0 0.186827011 -0.6216065258
1412950000.0 -0.13525096 -0.6394535115
1422900000.0 -0.416469195 -0.4890973717
1432850000.0 -0.5783128281 -0.2096621955
1442800000.0 -0.5655630093 0.1211951652
1452750000.0 -0.3696660645 0.3992724094
1462700000.0 -0.0476402195 0.5241508449
1472650000.0 0.2856915301 0.4481123919
1482600000.0 0.5105830128 0.2071183025
1492550000.0 0.561917926 -0.103773727
1502500000.0 0.4378501102 -0.3789883292
1512450000.0 0.1895314516 -0.5352230487
1522400000.0 -0.102907039 -0.5264166537
1532350000.0 -0.3424912334 -0.3501130675
1542300000.0 -0.4375806367 -0.0601180206
1552250000.0 -0.3386540041 0.232948284
1562200000.0 -0.0852910434 0.4026117455
1572150000.0 0.2068257204 0.3826033581
1582100000.0 0.4159057077 0.199577416
1592050000.0 0.470700647 -0.060242451
1602000000.0 0.3615343406 -0.2967734068
1611950000.0 0.1296097971 -0.4240821784
1621900000.0 -0.1425911418 -0.3846507669
1631850000.0 -0.3417782882 -0.1767053911
1641800000.0 -0.3659446164 0.1168802279
1651750000.0 -0.2079628823 0.35024873
1661700000.0 0.0468796547 0.4665487559
1671650000.0 0.3295540766 0.3925017757
1681600000.0 0.5089775776 0.171430832
1691550000.0 0.5312303029 -0.1140043065
1701500000.0 0.3839386056 -0.3710590536
1711450000.0 0.1027524846 -0.5054697648
1721400000.0 -0.2201454917 -0.4498939193
1731350000.0 -0.4570941877 -0.2100043948
1741300000.0 -0.5109832152 0.1231419895
1751250000.0 -0.3701820769 0.4202056576
1761200000.0 -0.1001185217 0.5847684827
1771150000.0 0.2058594949 0.5804854643
1781100000.0 0.4601739714 0.4203861481
1791050000.0 0.5960747019 0.1499942464
1801000000.0 0.5694169474 -0.1608285244
1810950000.0 0.3723657668 -0.4198156038
1820900000.0 0.0548866875 -0.5323812236
1830850000.0 -0.2744132658 -0.4471818901
1840800000.0 -0.4954252649 -0.1992552529
1850750000.0 -0.5431876321 0.1119813258
1860700000.0 -0.427788181 0.3829701412
1870650000.0 -0.2042692516 0.5458336783
1880600000.0 0.0591525711 0.5706459413
1890550000.0 0.2938426122 0.4587548618
1900500000.0 0.4353387667 0.2402392874
1910450000.0 0.4372408112 -0.0231570754
1920400000.0 0.2948379686 -0.2417877283
1930350000.0 0.0636553119 -0.3397244476
1940300000.0 -0.1628062569 -0.2969169014
1950250000.0 -0.3087285047 -0.1543807839
1960200000.0 -0.344087875 0.0153725832
1970150000.0 -0.2880043167 0.1459441129
1980100000.0 -0.1871677677 0.1989768001
1990050000.0 -0.1060260125 0.1730052637
2000000000.0 -0.0960166812 0.1135063729
