!Created with skrf (http://scikit-rf.org).
# GHz S RI R 50.0 
!freq ReS11 ImS11
10000000.0 -0.8120291161 0.608019301
19950000.0 -0.2954424469 0.9500728933
29900000.0 0.3193743725 0.9285615274
39850000.0 0.8121497181 0.550356334
49800000.0 0.990182478 -0.0585283118
59750000.0 0.7545750885 -0.6686521274
69700000.0 0.167144691 -1.003941299
79650000.0 -0.51893508 -0.8679697075
89600000.0 -0.9482380885 -0.2875649454
99550000.0 -0.8577962709 0.4529746648
109500000.0 -0.2476252691 0.9314530923
119450000.0 0.5538085605 0.8055704127
129400000.0 0.9932268629 0.0840136844
139350000.0 0.6940930518 -0.7179755866
149300000.0 -0.1140879802 -0.9697438933
159250000.0 -0.7926387605 -0.5254346081
169200000.0 -0.9133595873 0.2349212554
179150000.0 -0.4789928782 0.8256430963
189100000.0 0.2134721393 0.9492355575
199050000.0 0.7868140581 0.5876718194
209000000.0 0.9727079197 -0.0418552091
218950000.0 0.7242299038 -0.6202095043
228900000.0 0.1872113175 -0.9146244734
238850000.0 -0.4060886434 -0.8300712265
248800000.0 -0.824134905 -0.4193814678
258750000.0 -0.9279555476 0.1614088102
268700000.0 -0.6629128011 0.685394942
278650000.0 -0.1349329776 0.9420276203
288600000.0 0.4385429823 0.8227901518
298550000.0 0.8161108173 0.3796534773
308500000.0 0.841376789 -0.1981558339
318450000.0 0.50451911 -0.6622338554
328400000.0 -0.0436149249 -0.8033217135
338350000.0 -0.5353555955 -0.5538234759
348300000.0 -0.7131000018 -0.0593471446
358250000.0 -0.5019775884 0.3795360807
368200000.0 -0.0874529705 0.5115577291
378150000.0 0.2367514575 0.3240364407
388100000.0 0.299234302 0.0189547321
398050000.0 0.1441353112 -0.1777122727
408000000.0 -0.0552334991 -0.1782450152
417950000.0 -0.1492985469 -0.0468847958
427900000.0 -0.1050910977 0.0853317723
437850000.0 0.0144900538 0.126931214
447800000.0 0.1199823969 0.0685507812
457750000.0 0.1465473976 -0.0424618673
467700000.0 0.091350438 -0.1347177148
477650000.0 -0.0061023366 -0.1616118795
487600000.0 -0.0907611517 -0.1176276295
497550000.0 -0.1232847743 -0.0378590717
507500000.0 -0.0974911726 0.0359939277
517450000.0 -0.0407191276 0.0707292981
527400000.0 0.0091350187 0.0606455662
537350000.0 0.0277746853 0.0284694768
547300000.0 0.0160253844 0.0044056637
557250000.0 -0.0074287444 0.0059851225
567200000.0 -0.013870668 0.0322615032
577150000.0 0.011105405 0.0586663997
587100000.0 0.0584345455 0.0562149583
597050000.0 0.0992762305 0.0140113915
607000000.0 0.1041465158 -0.0578117726
616950000.0 0.0568279375 -0.1263806507
626900000.0 -0.0295144775 -0.1545351883
636850000.0 -0.1209882483 -0.1237790623
646800000.0 -0.1764249186 -0.0393229474
656750000.0 -0.1670793241 0.0649725142
666700000.0 -0.0919313088 0.1422181572
676650000.0 0.0175179032 0.1560570571
686600000.0 0.1131272471 0.0986690119
696550000.0 0.152254819 -0.0063262561
706500000.0 0.1195156485 -0.1075492191
716450000.0 0.0321307593 -0.1590974544
726400000.0 -0.0629991567 -0.1378078237
736350000.0 -0.1130697228 -0.055190685
746300000.0 -0.087252826 0.0401855991
756250000.0 0.0037143805 0.0902299995
766200000.0 0.1078624142 0.0610644432
776150000.0 0.1625350841 -0.0384223197
786100000.0 0.1303392834 -0.1518823781
796050000.0 0.01694516 -0.2155074175
806000000.0 -0.1254659166 -0.1793990669
815950000.0 -0.2183673806 -0.0396931145
825900000.0 -0.1980258195 0.1446073129
835850000.0 -0.0542301251 0.2852878214
845800000.0 0.1569529201 0.3065317613
855750000.0 0.3428855234 0.1850655042
865700000.0 0.4127927869 -0.0375255726
875650000.0 0.3189795009 -0.2642766573
885600000.0 0.089230871 -0.387957507
895550000.0 -0.1815034596 -0.3339519191
905500000.0 -0.364443449 -0.1113939546
915450000.0 -0.3611127514 0.1821446624
925400000.0 -0.1670009098 0.4045877416
935350000.0 0.1269492908 0.4438081638
945300000.0 0.3778538848 0.2667573747
955250000.0 0.4374972989 -0.0547300882
965200000.0 0.2312680101 -0.3446247214
975150000.0 -0.1554779726 -0.3930735711
985100000.0 -0.4702788492 -0.1062997866
995050000.0 -0.4440768669 0.3537719249
1005000000.0 -0.0367169979 0.6411171641
1014950000.0 0.4866531678 0.4891272273
1024900000.0 0.7210401497 -0.0631417588
1034850000.0 0.4148457608 -0.6421177101
1044800000.0 -0.2655883289 -0.7724793008
1054750000.0 -0.7992449882 -0.3232752977
1064700000.0 -0.8094776682 0.3474132797
1074650000.0 -0.3457833069 0.7971013353
1084600000.0 0.2675913657 0.7856995834
1094550000.0 0.7107187917 0.3622431165
1104500000.0 0.717881242 -0.2572323281
1114450000.0 0.2766142866 -0.6810901337
1124400000.0 -0.3042912717 -0.6444316191
1134350000.0 -0.6486696386 -0.2310104362
1144300000.0 -0.6068501128 0.2609187486
1154250000.0 -0.26485864 0.5708941605
1164200000.0 0.1771346848 0.5717830805
1174150000.0 0.5042483653 0.2823451143
1184100000.0 0.5458819634 -0.1551373104
1194050000.0 0.2795804414 -0.4949148717
1204000000.0 -0.1275740344 -0.5645192459
1213950000.0 -0.4661179505 -0.36819582
1223900000.0 -0.6087645989 -0.0240464116
1233850000.0 -0.5253811749 0.3295110241
1243800000.0 -0.2508253902 0.5703648331
1253750000.0 0.1209311317 0.6049079206
1263700000.0 0.4486614316 0.4064832501
1273650000.0 0.5937918652 0.0464302796
1283600000.0 0.4991297559 -0.3267127394
1293550000.0 0.2187184695 -0.5703250173
1303500000.0 -0.1347167274 -0.6187825324
1313450000.0 -0.4491861734 -0.4792220117
1323400000.0 -0.6415612908 -0.199728444
1333350000.0 -0.6575489461 0.1432423108
1343300000.0 -0.4800591135 0.4500855035
1353250000.0 -0.1465930587 0.6112729743
1363200000.0 0.22767321 0.5528234004
1373150000.0 0.5035571815 0.2908790812
1383100000.0 0.5845975477 -0.0694920777
1393050000.0 0.4641467334 -0.4003674722
1403000000.0 0.2000360341 -0.6078520891
1412950000.0 -0.1221731293 -0.6431797147
1422900000.0 -0.4117416783 -0.5042883108
1432850000.0 -0.5809869696 -0.2250526087
1442800000.0 -0.5635452703 0.1106517271
1452750000.0 -0.3539940264 0.3836330983
1462700000.0 -0.0230066511 0.4876736611
1472650000.0 0.298672361 0.3869175735
1482600000.0 0.4968882149 0.1343292185
1492550000.0 0.5151221327 -0.1681541139
1502500000.0 0.3656516735 -0.4139434974
1512450000.0 0.1066313857 -0.5235341858
1522400000.0 -0.1679156021 -0.4571895256
1532350000.0 -0.3507685129 -0.2325010198
1542300000.0 -0.356943777 0.0634133562
1552250000.0 -0.1796891749 0.299567306
1562200000.0 0.0975086559 0.3708873843
1572150000.0 0.3483599229 0.2606322949
1582100000.0 0.4701400679 0.0258395197
1592050000.0 0.4195199549 -0.2300546075
1602000000.0 0.2175088169 -0.4049540627
1611950000.0 -0.0637152639 -0.4218422784
1621900000.0 -0.310897831 -0.2565672061
1631850000.0 -0.4125565029 0.036775357
1641800000.0 -0.3134120486 0.3368415711
1651750000.0 -0.0554111109 0.5161389317
1661700000.0 0.2535356987 0.5071295657
1671650000.0 0.4970003268 0.3241041774
1681600000.0 0.5978410679 0.0355005033
1691550000.0 0.5232843486 -0.2695190728
1701500000.0 0.2881679625 -0.4956151063
1711450000.0 -0.0480369939 -0.561957333
1721400000.0 -0.3793923053 -0.4239896848
1731350000.0 -0.5780381461 -0.1171213612
1741300000.0 -0.5670886039 0.2450505735
1751250000.0 -0.3626324567 0.5304945661
1761200000.0 -0.0498196793 0.6568679446
1771150000.0 0.2721679727 0.6058361084
1781100000.0 0.5223779783 0.4051476708
1791050000.0 0.6425378654 0.1049630646
1801000000.0 0.5947336455 -0.2248237794
1810950000.0 0.3738486388 -0.4929008709
1820900000.0 0.0321192255 -0.6018720847
1830850000.0 -0.3158495845 -0.5020056555
1840800000.0 -0.544038457 -0.2319384103
1850750000.0 -0.5877772676 0.1003802685
1860700000.0 -0.4627130786 0.386545996
1870650000.0 -0.2282240318 0.5617414456
1880600000.0 0.0477279582 0.598574339
1890550000.0 0.2993894951 0.4974816022
1900500000.0 0.4639649912 0.2818867102
1910450000.0 0.4883314975 0.0116776972
1920400000.0 0.3616554552 -0.2239681555
1930350000.0 0.1362866837 -0.3444347591
1940300000.0 -0.0962263263 -0.3252092399
1950250000.0 -0.2601809669 -0.2046969428
1960200000.0 -0.3265974344 -0.0492053911
1970150000.0 -0.309904416 0.0839787051
1980100000.0 -0.2486675191 0.1601010546
1990050000.0 -0.1916064365 0.1775103075
2000000000.0 -0.17579369 0.1689104953
