!Created with skrf (http://scikit-rf.org).
# GHz S RI R 50.0 
!freq ReS11 ImS11
10000000.0 -0.9982193029 0.1648042634
19950000.0 -0.9435068595 0.314613157
29900000.0 -0.8659453688 0.4580161858
39850000.0 -0.7654081092 0.5985045306
49800000.0 -0.643271292 0.7309622992
59750000.0 -0.4949990814 0.8486991211
69700000.0 -0.3141992473 0.9401652628
79650000.0 -0.0983658229 0.9871737985
89600000.0 0.1505942907 0.9735606732
99550000.0 0.4181529147 0.880811726
109500000.0 0.6811338281 0.6965805548
119450000.0 0.8988370685 0.4096069066
129400000.0 1.008833094 0.0339003276
139350000.0 0.9534193164 -0.370524469
149300000.0 0.7266708703 -0.7123733549
159250000.0 0.3909895961 -0.9195350083
169200000.0 0.0318433256 -0.98449241
179150000.0 -0.2934718633 -0.936317858
189100000.0 -0.5570632641 -0.8125085698
199050000.0 -0.7480916813 -0.6436294819
209000000.0 -0.86668413 -0.4507699303
218950000.0 -0.9276257198 -0.2525558377
228900000.0 -0.9418525429 -0.0582463203
238850000.0 -0.9202346624 0.1329674191
248800000.0 -0.7016182169 0.3213427098
258750000.0 -0.8281060469 0.4215556138
268700000.0 -0.7381615212 0.5705102208
278650000.0 -0.6230604627 0.6888258194
288600000.0 -0.4816083858 0.7760103838
298550000.0 -0.3181679908 0.8300327241
308500000.0 -0.1377739142 0.8507333622
318450000.0 0.0531735833 0.8334334674
328400000.0 0.24410426 0.770375344
338350000.0 0.4125141956 0.6545650608
348300000.0 0.5338679906 0.486671258
358250000.0 0.5828085292 0.2833414724
368200000.0 0.5520473119 0.0783136486
378150000.0 0.4556251879 -0.0924887648
388100000.0 0.3235035446 -0.2074485853
398050000.0 0.1862701945 -0.2611625713
408000000.0 0.0672635145 -0.2606372615
417950000.0 -0.0216667219 -0.2204749424
427900000.0 -0.076227145 -0.1590795501
437850000.0 -0.1005374792 -0.1046119173
447800000.0 -0.1279299944 -0.0496495764
457750000.0 -0.1289680944 0.0025817527
467700000.0 -0.1153252962 0.0356983735
477650000.0 -0.0922499181 0.0487015793
487600000.0 -0.0612045524 0.0428593928
497550000.0 -0.0365808392 -0.0271046536
507500000.0 -0.0322117244 0.0351503669
517450000.0 -0.0035524912 0.0112816079
527400000.0 0.0076748111 -0.0091776372
537350000.0 0.0044069543 -0.0275935409
547300000.0 -0.0113861412 -0.047219262
557250000.0 -0.0396226402 -0.0610624801
567200000.0 -0.0700353203 -0.0726817845
577150000.0 -0.1004404775 -0.0805231066
587100000.0 -0.1269065737 -0.0826208853
597050000.0 -0.147076689 -0.0763974305
607000000.0 -0.1606941313 -0.0601911084
616950000.0 -0.1693734195 -0.0350775053
626900000.0 -0.1740900588 -0.0035471465
636850000.0 -0.1749854517 0.0300571251
646800000.0 -0.171934969 0.0617340482
656750000.0 -0.1637060612 0.0882445373
666700000.0 -0.1478037105 0.1073818199
676650000.0 -0.1225393249 0.1178587602
686600000.0 -0.0881305605 0.1205086664
696550000.0 -0.0471306773 0.116460777
706500000.0 -0.0042055856 0.1065471175
716450000.0 0.036346298 0.090115998
726400000.0 0.0689323906 0.0655904113
736350000.0 0.0905320025 0.0315941546
746300000.0 0.0985225839 -0.0121971688
756250000.0 0.0923904475 -0.0658914431
766200000.0 0.0739653748 -0.1242887909
776150000.0 0.0453144057 -0.1819806269
786100000.0 0.0064146686 -0.232699188
796050000.0 -0.0410289454 -0.2698251468
806000000.0 -0.0959016771 -0.2895438201
815950000.0 -0.1585236797 -0.2892392925
825900000.0 -0.2259250298 -0.2705467986
835850000.0 -0.2961328105 -0.2355680936
845800000.0 -0.3626364645 -0.1865226979
855750000.0 -0.4174703574 -0.120829968
865700000.0 -0.42310012 -0.0453774836
875650000.0 -0.43391362 -0.0248491296
885600000.0 -0.4512287738 0.03679841
895550000.0 -0.440567597 0.1129746239
905500000.0 -0.4071198443 0.1951687182
915450000.0 -0.3559913079 0.277308238
925400000.0 -0.2876879785 0.3527981006
935350000.0 -0.2010174408 0.4131320793
945300000.0 -0.0952488609 0.447555165
955250000.0 0.0294731118 0.4448650917
965200000.0 0.1679342769 0.3939954202
975150000.0 0.3080130088 0.2869900521
985100000.0 0.4255928323 0.1170827035
995050000.0 0.4836541777 -0.1110148908
1005000000.0 0.4364881409 -0.3686050029
1014950000.0 0.2582094574 -0.593693212
1024900000.0 -0.0272082336 -0.7156936648
1034850000.0 -0.3522829476 -0.6954193645
1044800000.0 -0.6391970416 -0.5371263177
1054750000.0 -0.8249603557 -0.273912874
1064700000.0 -0.8253369335 0.028864787
1074650000.0 -0.7922870912 0.1384110787
1084600000.0 -0.7490989457 0.3989701289
1094550000.0 -0.5731683292 0.5996803665
1104500000.0 -0.3371961421 0.7349700732
1114450000.0 -0.0717609613 0.7794639568
1124400000.0 0.1869576866 0.7273273957
1134350000.0 0.3988757853 0.5842118402
1144300000.0 0.5360463625 0.3773044123
1154250000.0 0.5908354286 0.1458309573
1164200000.0 0.5749406844 -0.0778432066
1174150000.0 0.5049601209 -0.2716804895
1184100000.0 0.3966110582 -0.4231345642
1194050000.0 0.2642939061 -0.5239969095
1204000000.0 0.1234849874 -0.5754761266
1213950000.0 -0.0149051807 -0.5869473624
1223900000.0 -0.1428329123 -0.5717216064
1233850000.0 -0.2576285002 -0.5408214875
1243800000.0 -0.3580709636 -0.500911774
1253750000.0 -0.443366946 -0.455041466
1263700000.0 -0.5109655644 -0.4020385974
1273650000.0 -0.5624637456 -0.3426055417
1283600000.0 -0.5977356359 -0.2758255952
1293550000.0 -0.621727596 -0.2037366929
1303500000.0 -0.6387260747 -0.1297288148
1313450000.0 -0.652237623 -0.0564985076
1323400000.0 -0.6642737552 0.0133525449
1333350000.0 -0.6729647056 0.0787985674
1343300000.0 -0.6750953815 0.1402678048
1353250000.0 -0.6673804278 0.1962912313
1363200000.0 -0.6472087252 0.2494814114
1373150000.0 -0.6139405763 0.3010721322
1383100000.0 -0.5725750896 0.3520676807
1393050000.0 -0.5270594818 0.4029152948
1403000000.0 -0.4807921614 0.4525064801
1412950000.0 -0.4348463688 0.4978423134
1422900000.0 -0.3890064282 0.5361037249
1432850000.0 -0.3413939904 0.5638177177
1442800000.0 -0.2912355966 0.5800174075
1452750000.0 -0.2377814423 0.5879243498
1462700000.0 -0.1793871486 0.591709869
1472650000.0 -0.1127370751 0.5949194714
1482600000.0 -0.0399210974 0.5974625098
1492550000.0 0.0357138456 0.5955006112
1502500000.0 0.110634338 0.5853430852
1512450000.0 0.1811342262 0.5631627061
1522400000.0 0.2449804891 0.5261296727
1532350000.0 0.3013510818 0.4719418636
1542300000.0 0.3508374548 0.4022045897
1552250000.0 0.3943216971 0.3210792606
1562200000.0 0.4334624947 0.2324499455
1572150000.0 0.4627321603 0.1410928261
1582100000.0 0.4787745166 0.0491323073
1592050000.0 0.4769245777 -0.0418272461
1602000000.0 0.4528529797 -0.1294708964
1611950000.0 0.4079938416 -0.2103596154
1621900000.0 0.3459680945 -0.2850930833
1631850000.0 0.2726393727 -0.3540443984
1641800000.0 0.1932145678 -0.4156134619
1651750000.0 0.1113553447 -0.4661205178
1661700000.0 0.029099249 -0.5008643127
1671650000.0 -0.0525229198 -0.5169115756
1681600000.0 -0.1319383189 -0.5130201177
1691550000.0 -0.2091334396 -0.4932657169
1701500000.0 -0.2843428015 -0.4615144634
1711450000.0 -0.3567647913 -0.4230820916
1721400000.0 -0.424928232 -0.3816591428
1731350000.0 -0.485815724 -0.3397257645
1741300000.0 -0.5361459974 -0.2958831376
1751250000.0 -0.5730421384 -0.2468241879
1761200000.0 -0.5957911401 -0.1939077088
1771150000.0 -0.6065608615 -0.1360599758
1781100000.0 -0.6105065936 -0.0744159978
1791050000.0 -0.6114513456 -0.0126736961
1801000000.0 -0.6128706748 0.0473648504
1810950000.0 -0.6150016817 0.1039708439
1820900000.0 -0.6145257261 0.1557443688
1830850000.0 -0.6075551001 0.2013687246
1840800000.0 -0.5893634559 0.2424638133
1850750000.0 -0.5597795137 0.278962986
1860700000.0 -0.519391133 0.3120025761
1870650000.0 -0.4741489988 0.3432347818
1880600000.0 -0.4286862335 0.3714332751
1890550000.0 -0.3875523149 0.3976047953
1900500000.0 -0.3509684435 0.4175143292
1910450000.0 -0.3180478382 0.4305905563
1920400000.0 -0.2855306778 0.4344426465
1930350000.0 -0.2503238802 0.4269711895
1940300000.0 -0.2104750785 0.4091532318
1950250000.0 -0.1669395818 0.3828407514
1960200000.0 -0.1236059025 0.3513895161
1970150000.0 -0.0873635397 0.3158845164
1980100000.0 -0.0626273418 0.2768956847
1990050000.0 -0.0563033822 0.2333932822
2000000000.0 -0.0723842325 0.1843331151
