!Created with skrf (http://scikit-rf.org).
# GHz S RI R 50.0 
!freq ReS11 ImS11
10000000.0 -0.7788548954 0.5890541858
19950000.0 -0.2854939088 0.9255097797
29900000.0 0.3107969037 0.9075755587
39850000.0 0.7914839319 0.5353046302
49800000.0 0.9609121366 -0.0663959881
59750000.0 0.7219188961 -0.6654185178
69700000.0 0.1437516735 -0.9887924298
79650000.0 -0.5213521442 -0.850196499
89600000.0 -0.934668508 -0.2797698392
99550000.0 -0.8457321357 0.4500254888
109500000.0 -0.2461703977 0.9283358261
119450000.0 0.5491449457 0.8102906888
129400000.0 0.9928097225 0.0961879331
139350000.0 0.7090238735 -0.7056866454
149300000.0 -0.0863938546 -0.9717700102
159250000.0 -0.7694899952 -0.5438237623
169200000.0 -0.9051989061 0.2109502655
179150000.0 -0.4866301842 0.8036281997
189100000.0 0.1889679673 0.932471653
199050000.0 0.7499819682 0.5820616362
209000000.0 0.9386268982 -0.0333234535
218950000.0 0.7053722852 -0.6027328721
228900000.0 0.1856011664 -0.8957296112
238850000.0 -0.3944363241 -0.8129527407
248800000.0 -0.7708548453 -0.4167749141
258750000.0 -0.8939808752 0.1631061759
268700000.0 -0.6284534892 0.6765078986
278650000.0 -0.1135823895 0.9221059628
288600000.0 0.4383078723 0.800363708
298550000.0 0.7989692121 0.3652370539
308500000.0 0.819857554 -0.2013952259
318450000.0 0.4883293731 -0.6579275884
328400000.0 -0.0510262048 -0.7978702357
338350000.0 -0.5367571596 -0.551295152
348300000.0 -0.7125106 -0.0582737444
358250000.0 -0.5030839086 0.3811361307
368200000.0 -0.0905106379 0.5187173957
378150000.0 0.2379426483 0.3395923686
388100000.0 0.3111374007 0.0365673301
398050000.0 0.1662637203 -0.1655423124
408000000.0 -0.0294575838 -0.1753108175
417950000.0 -0.1277450231 -0.0544566003
427900000.0 -0.0942453378 0.0706256719
437850000.0 0.0128537948 0.1093389516
447800000.0 0.1043404005 0.0520198725
457750000.0 0.1216735105 -0.0501194957
467700000.0 0.0646169694 -0.1326946371
477650000.0 -0.0268273221 -0.1502259305
487600000.0 -0.1009747867 -0.1017193736
497550000.0 -0.1294730071 -0.017318591
507500000.0 -0.0886968772 0.0550066174
517450000.0 -0.0233216313 0.083864584
527400000.0 0.0316806679 0.0665114672
537350000.0 0.0505817721 0.0249072365
547300000.0 0.0312174213 -0.0076341793
557250000.0 -0.0010176303 -0.0096123724
567200000.0 -0.0188150638 0.0151430218
577150000.0 -0.0049274065 0.0448112787
587100000.0 0.0357835696 0.0491247657
597050000.0 0.0758038616 0.0136850864
607000000.0 0.0835598973 -0.0507982893
616950000.0 0.0437998379 -0.1142431923
626900000.0 -0.03268926 -0.140911157
636850000.0 -0.1146278952 -0.109618235
646800000.0 -0.1614296976 -0.0295642826
656750000.0 -0.1475283158 0.0677911856
666700000.0 -0.0752867604 0.1392981096
676650000.0 0.0288415351 0.1498134321
686600000.0 0.1177110721 0.0897007663
696550000.0 0.149992801 -0.0150269992
706500000.0 0.1113911599 -0.1164567127
716450000.0 0.0195880428 -0.1674961307
726400000.0 -0.0786874046 -0.1445852092
736350000.0 -0.130017208 -0.0589348087
746300000.0 -0.1050349653 0.0402409594
756250000.0 -0.0124827916 0.0965963571
766200000.0 0.0968449777 0.0744182298
776150000.0 0.1610528506 -0.0204378141
786100000.0 0.1388255921 -0.1372451912
796050000.0 0.0309727057 -0.2055500697
806000000.0 -0.1085736148 -0.1744592922
815950000.0 -0.2009124878 -0.0428002431
825900000.0 -0.1842799808 0.1339113542
835850000.0 -0.0493748003 0.2673204166
845800000.0 0.1498751996 0.2837794278
855750000.0 0.3228664427 0.1624222531
865700000.0 0.3846266224 -0.0538091356
875650000.0 0.2892580262 -0.2720634086
885600000.0 0.063307279 -0.3842705329
895550000.0 -0.1967804318 -0.3211560619
905500000.0 -0.3665503284 -0.092991581
915450000.0 -0.3498112645 0.2031494243
925400000.0 -0.140397606 0.4224752151
935350000.0 0.1655989995 0.4465859874
945300000.0 0.4116846132 0.2452652188
955250000.0 0.4508430534 -0.0941710941
965200000.0 0.2195557028 -0.385438924
975150000.0 -0.1868584542 -0.4184727638
985100000.0 -0.5059723817 -0.1044751585
995050000.0 -0.4583485074 0.3826957347
1005000000.0 -0.0124230637 0.6661562159
1014950000.0 0.526207496 0.4709796993
1024900000.0 0.7243257422 -0.1213800044
1034850000.0 0.3601680496 -0.6845305701
1044800000.0 -0.3328145306 -0.7424702299
1054750000.0 -0.8072622793 -0.2300154156
1064700000.0 -0.7219548706 0.4362062138
1074650000.0 -0.2027865449 0.7568443419
1084600000.0 0.2670756358 0.7215620677
1094550000.0 0.6915106552 0.3328423245
1104500000.0 0.6948760251 -0.2671490071
1114450000.0 0.2632594304 -0.6801881817
1124400000.0 -0.304199216 -0.6481730063
1134350000.0 -0.6493528478 -0.2448917571
1144300000.0 -0.619080938 0.2464567109
1154250000.0 -0.292689283 0.5661208254
1164200000.0 0.1402970532 0.5920159125
1174150000.0 0.4848044377 0.3342987515
1184100000.0 0.5659762465 -0.09495893
1194050000.0 0.3337163533 -0.4589934899
1204000000.0 -0.0675231585 -0.5658416363
1213950000.0 -0.4222089482 -0.3951300624
1223900000.0 -0.5884198283 -0.0596635777
1233850000.0 -0.5271611433 0.2950853226
1243800000.0 -0.2718639155 0.5436198816
1253750000.0 0.0876423803 0.5932103289
1263700000.0 0.4146793893 0.4100483892
1273650000.0 0.5683140653 0.0607074133
1283600000.0 0.4832332182 -0.3083104425
1293550000.0 0.2103351246 -0.5499457922
1303500000.0 -0.132530383 -0.594637973
1313450000.0 -0.4315424026 -0.4523984249
1323400000.0 -0.6095725153 -0.1771820204
1333350000.0 -0.6191573841 0.1545833368
1343300000.0 -0.4440314307 0.4498857886
1353250000.0 -0.1201912978 0.5985943891
1363200000.0 0.2419389591 0.5305377672
1373150000.0 0.5022246214 0.2629334087
1383100000.0 0.5650475926 -0.0968106284
1393050000.0 0.4290693128 -0.4189701266
1403000000.0 0.1576488118 -0.6086197605
1412950000.0 -0.1576837466 -0.6244408141
1422900000.0 -0.4285602834 -0.47038006
1432850000.0 -0.576342871 -0.1862783639
1442800000.0 -0.5456597507 0.1468699261
1452750000.0 -0.3266660202 0.4133450967
1462700000.0 0.0076998055 0.5069373787
1472650000.0 0.3296458979 0.3941054945
1482600000.0 0.5213597896 0.130368975
1492550000.0 0.5307297522 -0.1830131471
1502500000.0 0.3695696975 -0.4371656131
1512450000.0 0.0994111348 -0.5522702215
1522400000.0 -0.186401757 -0.4889363317
1532350000.0 -0.3823752115 -0.2636301603
1542300000.0 -0.4074028815 0.0430058023
1552250000.0 -0.243279423 0.3052732253
1562200000.0 0.0398322879 0.4127135597
1572150000.0 0.3185034954 0.3279196602
1582100000.0 0.4779856676 0.1012975526
1592050000.0 0.4669957043 -0.1706342169
1602000000.0 0.292640672 -0.3805642507
1611950000.0 0.0156245835 -0.445910147
1621900000.0 -0.2573965135 -0.3270529359
1631850000.0 -0.409189802 -0.0581037124
1641800000.0 -0.3670303436 0.2534416771
1651750000.0 -0.1437126725 0.473296741
1661700000.0 0.1630758821 0.5120698851
1671650000.0 0.4292084169 0.3638234785
1681600000.0 0.5624726362 0.0910427304
1691550000.0 0.5214122986 -0.2126269005
1701500000.0 0.3155249298 -0.4509962945
1711450000.0 0.0021179723 -0.5380367233
1721400000.0 -0.3193065266 -0.4281697779
1731350000.0 -0.5282389694 -0.1466809818
1741300000.0 -0.5408760126 0.2043186451
1751250000.0 -0.3580652586 0.4920797446
1761200000.0 -0.0566428554 0.623854653
1771150000.0 0.2583705386 0.574692154
1781100000.0 0.4986471997 0.3715853516
1791050000.0 0.6002511956 0.0703136165
1801000000.0 0.5166761471 -0.2436852654
1810950000.0 0.3317450142 -0.4238239705
1820900000.0 0.0369305141 -0.5635078996
1830850000.0 -0.2989555918 -0.4736321068
1840800000.0 -0.5182081511 -0.2072849015
1850750000.0 -0.5531451143 0.1201740807
1860700000.0 -0.4192244059 0.3975605683
1870650000.0 -0.1801823327 0.5565998839
1880600000.0 0.0899749861 0.5723007845
1890550000.0 0.3211074164 0.4518050938
1900500000.0 0.4547771934 0.2286320577
1910450000.0 0.4524494865 -0.0336832813
1920400000.0 0.3131403248 -0.2504324529
1930350000.0 0.0885169988 -0.349441519
1940300000.0 -0.1371431661 -0.3108419211
1950250000.0 -0.2869343415 -0.1740398189
1960200000.0 -0.3342303666 -0.0067225498
1970150000.0 -0.2933638728 0.1304670437
1980100000.0 -0.2066285307 0.1998667209
1990050000.0 -0.1297282039 0.1976987173
2000000000.0 -0.1096650018 0.1578687444
