!Created with skrf (http://scikit-rf.org).
# GHz S RI R 50.0 
!freq ReS11 ImS11
10000000.0 -0.8072141091 0.6044880958
19950000.0 -0.2925835249 0.9494389646
29900000.0 0.3238196705 0.929458354
39850000.0 0.8168713598 0.5487354362
49800000.0 0.9904665414 -0.062297339
59750000.0 0.7498594137 -0.6680124268
69700000.0 0.1665927717 -0.9969423309
79650000.0 -0.5088145363 -0.8668728984
89600000.0 -0.9402551789 -0.3081634497
99550000.0 -0.8803618659 0.4159264888
109500000.0 -0.3166036512 0.9148147647
119450000.0 0.4667197585 0.8581579633
129400000.0 0.9627166502 0.222761576
139350000.0 0.7934795638 -0.6005391606
149300000.0 0.0529545222 -0.978986148
159250000.0 -0.6933735321 -0.6639265138
169200000.0 -0.9475142273 0.0744062346
179150000.0 -0.6021266877 0.7425381164
189100000.0 0.0882293611 0.9652961166
199050000.0 0.7193673493 0.6621695586
209000000.0 0.9722200776 0.0339212716
218950000.0 0.7612173488 -0.5807545991
228900000.0 0.2235418074 -0.9140365815
238850000.0 -0.3946127571 -0.8433401569
248800000.0 -0.7170396436 -0.306106887
258750000.0 -0.9255372112 0.1611240176
268700000.0 -0.6391025993 0.6981941452
278650000.0 -0.0865555257 0.938339612
288600000.0 0.4901845853 0.7834311124
298550000.0 0.8406184593 0.3077961287
308500000.0 0.8166616451 -0.277577503
318450000.0 0.4304682073 -0.7110007202
328400000.0 -0.1375271877 -0.7901864307
338350000.0 -0.6019178681 -0.4768332449
348300000.0 -0.716136082 0.046465463
358250000.0 -0.4458881048 0.4657549588
368200000.0 -0.0027629681 0.553602457
378150000.0 0.3226572672 0.3237922049
388100000.0 0.3702592571 -0.016337278
398050000.0 0.1863521539 -0.2404702362
408000000.0 -0.0532605263 -0.2509018307
417950000.0 -0.1903436325 -0.1085622544
427900000.0 -0.176135326 0.0555861622
437850000.0 -0.0642251486 0.1394972854
447800000.0 0.0544736788 0.117340928
457750000.0 0.1116767738 0.030076256
467700000.0 0.0917874342 -0.0569053927
477650000.0 0.0274441706 -0.0951530964
487600000.0 -0.0306084136 -0.0753060231
497550000.0 -0.0023020035 -0.0529982057
507500000.0 -0.0593883401 -0.0046044661
517450000.0 -0.0246199904 0.0112054217
527400000.0 -0.0058914952 -0.0041176721
537350000.0 -0.015866591 -0.0245794978
547300000.0 -0.0487355598 -0.0258220729
557250000.0 -0.0763660499 0.0129538645
567200000.0 -0.0661116443 0.0692076301
577150000.0 -0.0127039398 0.1120674234
587100000.0 0.0660012519 0.110619136
597050000.0 0.1344446572 0.0536519795
607000000.0 0.1556087519 -0.042409984
616950000.0 0.1111417547 -0.1379760888
626900000.0 0.0141788593 -0.1907750607
636850000.0 -0.0986555847 -0.1743484016
646800000.0 -0.1793927754 -0.092151706
656750000.0 -0.1935593493 0.0230129583
666700000.0 -0.1331187986 0.1220175575
676650000.0 -0.0254887181 0.1614844039
686600000.0 0.0807531546 0.1256335538
696550000.0 0.1385196152 0.0346513819
706500000.0 0.1249241073 -0.0650945565
716450000.0 0.0537031715 -0.1249238155
726400000.0 -0.0328172843 -0.1171679034
736350000.0 -0.0822557853 -0.0500850359
746300000.0 -0.0636889783 0.0325280912
756250000.0 0.0155790408 0.0762873401
766200000.0 0.109158469 0.0455384492
776150000.0 0.1560253725 -0.0522743746
786100000.0 0.1158273599 -0.1663628662
796050000.0 -0.0064454982 -0.2276985355
806000000.0 -0.1568706354 -0.1848527293
815950000.0 -0.2548436209 -0.0367145276
825900000.0 -0.2353136374 0.1594894588
835850000.0 -0.0866668105 0.3137512087
845800000.0 0.1383343494 0.3462314613
855750000.0 0.3460656443 0.2286147544
865700000.0 0.4419438474 -0.0010428504
875650000.0 0.3740905048 -0.2515091197
885600000.0 0.1564521604 -0.4152734091
895550000.0 -0.128240617 -0.4117889098
905500000.0 -0.3597106341 -0.2274486418
915450000.0 -0.429420881 0.0682169421
925400000.0 -0.2963720209 0.3459973995
935350000.0 -0.0148576023 0.4744855528
945300000.0 0.2843121482 0.3857056381
955250000.0 0.4491043534 0.1130705833
965200000.0 0.3759842561 -0.2107417152
975150000.0 0.0751415814 -0.3965724053
985100000.0 -0.2890036705 -0.2896272235
995050000.0 -0.4496884974 0.0828234437
1005000000.0 -0.246137763 0.4627515283
1014950000.0 0.2083047762 0.5467659449
1024900000.0 0.5967317252 0.2194700572
1034850000.0 0.5895602396 -0.3483303069
1044800000.0 0.0970260014 -0.7337679394
1054750000.0 -0.5447189433 -0.5826764608
1064700000.0 -0.8242063442 0.0050706164
1074650000.0 -0.6380980365 0.5732223387
1084600000.0 -0.08285467 0.8632594858
1094550000.0 0.4924896946 0.6765033455
1104500000.0 0.8043875578 0.1375946373
1114450000.0 0.6182377504 -0.4727228085
1124400000.0 0.0494225326 -0.7376849606
1134350000.0 -0.4906220239 -0.502636003
1144300000.0 -0.6649424576 0.0040070271
1154250000.0 -0.4432357357 0.4382933413
1164200000.0 -0.0107153067 0.5753969222
1174150000.0 0.3720151105 0.3754434418
1184100000.0 0.4993707909 -0.0306087035
1194050000.0 0.2959720504 -0.3989839015
1204000000.0 -0.0924774765 -0.506717123
1213950000.0 -0.4297249652 -0.3318618791
1223900000.0 -0.567789934 0.0015790309
1233850000.0 -0.4728516566 0.3401495136
1243800000.0 -0.1903832599 0.554222889
1253750000.0 0.1745226186 0.5545532562
1263700000.0 0.4734734166 0.3267935719
1273650000.0 0.57513208 -0.0414752085
1283600000.0 0.4391399242 -0.3939033294
1293550000.0 0.1359679545 -0.5988333671
1303500000.0 -0.2159072046 -0.6030493447
1313450000.0 -0.5082748406 -0.4245831566
1323400000.0 -0.6628139872 -0.1200823056
1333350000.0 -0.6323899505 0.2267999195
1343300000.0 -0.4100154858 0.5130567138
1353250000.0 -0.052094184 0.6320663773
1363200000.0 0.3193274591 0.5257166553
1373150000.0 0.5658931111 0.2299715238
1383100000.0 0.607042765 -0.1415613297
1393050000.0 0.4501512484 -0.462674922
1403000000.0 0.1604752908 -0.6464533236
1412950000.0 -0.1737016511 -0.6524454677
1422900000.0 -0.4605241857 -0.484119332
1432850000.0 -0.6158746534 -0.1845807592
1442800000.0 -0.5835763819 0.1592644479
1452750000.0 -0.3644106773 0.4346295249
1462700000.0 -0.0275043644 0.5452782708
1472650000.0 0.3098149967 0.453387713
1482600000.0 0.5332457234 0.198987268
1492550000.0 0.578033076 -0.1220902884
1502500000.0 0.4439470042 -0.4044246683
1512450000.0 0.181026226 -0.5608445199
1522400000.0 -0.1247700067 -0.5405388168
1532350000.0 -0.3655112479 -0.3439915724
1542300000.0 -0.4456539742 -0.0392463645
1552250000.0 -0.3281661833 0.2524860875
1562200000.0 -0.0653214907 0.4099208959
1572150000.0 0.2262350962 0.3776281785
1582100000.0 0.427634176 0.1852797679
1592050000.0 0.469013264 -0.0794688382
1602000000.0 0.3422203233 -0.3119479727
1611950000.0 0.0956204998 -0.421026587
1621900000.0 -0.1745337576 -0.355323216
1631850000.0 -0.3515788634 -0.1320135562
1641800000.0 -0.3616867155 0.1568637032
1651750000.0 -0.1856068739 0.4023474134
1661700000.0 0.1051235019 0.480630588
1671650000.0 0.377978504 0.3679850922
1681600000.0 0.530941833 0.1183645641
1691550000.0 0.5133167123 -0.1777976027
1701500000.0 0.32576668 -0.4203403416
1711450000.0 0.0212977599 -0.5198571242
1721400000.0 -0.3009809679 -0.4225007168
1731350000.0 -0.5133735621 -0.149294006
1741300000.0 -0.5271740275 0.1977883217
1751250000.0 -0.3442990407 0.4843083764
1761200000.0 -0.0440400541 0.6169582217
1771150000.0 0.2705042481 0.5711844509
1781100000.0 0.5123229303 0.3733035037
1791050000.0 0.6205801535 0.0774626127
1801000000.0 0.5588960006 -0.2416727037
1810950000.0 0.3275483417 -0.4903195609
1820900000.0 -0.0144436037 -0.5742837425
1830850000.0 -0.3481682173 -0.4502410707
1840800000.0 -0.5507636164 -0.1676704401
1850750000.0 -0.5663373323 0.1619242753
1860700000.0 -0.4177634192 0.4319143443
1870650000.0 -0.1694647794 0.5815481247
1880600000.0 0.1082546573 0.5881525162
1890550000.0 0.3488325078 0.4570098488
1900500000.0 0.4894540819 0.2179557584
1910450000.0 0.4804438301 -0.0635876698
1920400000.0 0.3176771149 -0.293742243
1930350000.0 0.0627288681 -0.3915524836
1940300000.0 -0.1849690889 -0.3377170937
1950250000.0 -0.3461820805 -0.178622769
1960200000.0 -0.392789987 0.0123295309
1970150000.0 -0.3408239352 0.1721252549
1980100000.0 -0.2309906023 0.261169244
1990050000.0 -0.1153931814 0.2691764179
2000000000.0 -0.0412734984 0.2194615086
