!Created with skrf (http://scikit-rf.org).
# GHz S RI R 50.0 
!freq ReS11 ImS11
10000000.0 -0.9547035648 0.0640462064
14975000.0 -0.9407282671 0.0956738969
19950000.0 -0.9386452376 0.1293058243
24925000.0 -0.9352677614 0.1646637408
29900000.0 -0.9304267185 0.2013174318
34875000.0 -0.9227986608 0.2400745317
39850000.0 -0.9124503176 0.2808998071
44825000.0 -0.8991449929 0.3239955909
49800000.0 -0.8828711397 0.3693077096
54775000.0 -0.8626990694 0.4168111333
59750000.0 -0.8383564206 0.4667523273
64725000.0 -0.809213533 0.5187348702
69700000.0 -0.7742323156 0.5728281945
74675000.0 -0.7322747381 0.6286436266
79650000.0 -0.6821262935 0.6858414452
84625000.0 -0.6227540256 0.7437398309
89600000.0 -0.5524549317 0.8011483207
94575000.0 -0.4699530227 0.8564176959
99550000.0 -0.3738507062 0.9069310168
104525000.0 -0.2631183146 0.9491620722
109500000.0 -0.1382011338 0.9786249875
114475000.0 -0.0001914789 0.9905233789
119450000.0 0.1470191191 0.9809442831
124425000.0 0.2979580702 0.9464228358
129400000.0 0.4463037253 0.8845667908
134375000.0 0.5798243444 0.8017462057
139350000.0 0.7043989623 0.6913740063
144325000.0 0.8051966922 0.5644632361
149300000.0 0.8812755915 0.4266172951
154275000.0 0.9321781008 0.2845749871
159250000.0 0.9594955977 0.1441410759
164225000.0 0.9655942312 0.0105426411
169200000.0 0.9542891893 -0.113204623
174175000.0 0.9292508337 -0.2251512349
179150000.0 0.8947616666 -0.3242219232
184125000.0 0.8542703981 -0.4107925609
189100000.0 0.8107019866 -0.4859232214
194075000.0 0.7659751943 -0.5509791437
199050000.0 0.7212244704 -0.6071143046
204025000.0 0.6770255547 -0.6556851335
209000000.0 0.6336182949 -0.6981590756
213975000.0 0.5908399046 -0.7349918574
218950000.0 0.5487540398 -0.7671173744
223925000.0 0.5074993484 -0.7953392455
228900000.0 0.4667709935 -0.819940295
233875000.0 0.4265754303 -0.8412968724
238850000.0 0.3866670412 -0.8599057187
243825000.0 0.346741775 -0.8757932332
248800000.0 0.3080200263 -0.8768314905
253775000.0 0.2722822917 -0.8992601998
258750000.0 0.2337145577 -0.9085960374
263725000.0 0.1960270559 -0.9158547605
268700000.0 0.1587000004 -0.9211932026
273675000.0 0.1213754077 -0.9246150316
278650000.0 0.0840895413 -0.9258901916
283625000.0 0.0463935638 -0.9251015717
288600000.0 0.0076437467 -0.9224679073
293575000.0 -0.0320952073 -0.9177021977
298550000.0 -0.0736594325 -0.9097889496
303525000.0 -0.1167746504 -0.8988121018
308500000.0 -0.1613355227 -0.8837745205
313475000.0 -0.2072884037 -0.8638377608
318450000.0 -0.2542924288 -0.8380229394
323425000.0 -0.3011363746 -0.8057953592
328400000.0 -0.3469924395 -0.7667400032
333375000.0 -0.3908259705 -0.720468404
338350000.0 -0.4310861414 -0.6667443027
343325000.0 -0.4659406235 -0.6059880276
348300000.0 -0.4936034732 -0.5384997119
353275000.0 -0.5117339934 -0.4658740899
358250000.0 -0.5195462329 -0.3896942104
363225000.0 -0.5161212912 -0.3121372052
368200000.0 -0.5016465884 -0.2361583889
373175000.0 -0.4764402296 -0.164243869
378150000.0 -0.4419265806 -0.0985511604
383125000.0 -0.3997984309 -0.0403759142
388100000.0 -0.3522070611 0.0087742364
393075000.0 -0.3012608707 0.0485259386
398050000.0 -0.2489896162 0.0790769276
403025000.0 -0.1972973333 0.1006474844
408000000.0 -0.1476783482 0.1138835779
412975000.0 -0.1011435162 0.1200108251
417950000.0 -0.0584675277 0.12046042
422925000.0 -0.0200560414 0.1165958336
427900000.0 0.0139238675 0.1094638246
432875000.0 0.0433242716 0.0996235457
437850000.0 0.0679849468 0.0879021851
442825000.0 0.0885291151 0.0752110489
447800000.0 0.1054331703 0.0618907445
452775000.0 0.1186512877 0.04830945
457750000.0 0.1282013235 0.0352114886
462725000.0 0.1348035484 0.0226582897
467700000.0 0.1389074683 0.0108538442
472675000.0 0.1404702948 -8.75799e-05
477650000.0 0.1397627232 -0.0099600972
482625000.0 0.1372885617 -0.0188520054
487600000.0 0.1332071826 -0.0264342808
492575000.0 0.1282457819 -0.0322937414
497550000.0 0.1268894168 -0.0415317901
502525000.0 0.1142017395 -0.0463410808
507500000.0 0.1050224848 -0.0488836553
512475000.0 0.0954914336 -0.0508107901
517450000.0 0.0855132453 -0.0516760927
522425000.0 0.075149242 -0.0514678979
527400000.0 0.0644597239 -0.0501312174
532375000.0 0.0524593312 -0.0504882115
537350000.0 0.0417917074 -0.0465988282
542325000.0 0.0312572607 -0.0414590083
547300000.0 0.0210608306 -0.0352694507
552275000.0 0.0111650081 -0.0285746731
557250000.0 0.0015172752 -0.0212503138
562225000.0 -0.0074812401 -0.0128370103
567200000.0 -0.0161313292 -0.0036360648
572175000.0 -0.0241803894 0.0061520836
577150000.0 -0.031752807 0.0165559032
582125000.0 -0.0384567115 0.0269681474
587100000.0 -0.0442716995 0.0377433642
592075000.0 -0.0491452728 0.0483574425
597050000.0 -0.0529912193 0.0592148025
602025000.0 -0.0557642129 0.0699910275
607000000.0 -0.0573923637 0.0807368357
611975000.0 -0.058098836 0.0912824563
616950000.0 -0.0579933251 0.1015837565
621925000.0 -0.0567652044 0.1114003524
626900000.0 -0.0572975033 0.1238206998
631875000.0 -0.0545887337 0.1326575912
636850000.0 -0.0510892727 0.1404936402
641825000.0 -0.0431876815 0.1445448908
646800000.0 -0.0380466074 0.1513333666
651775000.0 -0.0362865496 0.1602987552
656750000.0 -0.0303077288 0.1655556699
661725000.0 -0.022813336 0.1686675019
666700000.0 -0.0133635379 0.1701760237
671675000.0 -0.0059720127 0.1727755994
676650000.0 0.001606081 0.1746409573
681625000.0 0.0064558506 0.177757042
686600000.0 0.015421951 0.1774233031
691575000.0 0.0249485876 0.1758364744
696550000.0 0.0350750006 0.1734227012
701525000.0 0.0455282797 0.1699434442
706500000.0 0.056157505 0.1649290271
711475000.0 0.0670538495 0.158665956
716450000.0 0.0778879287 0.1510356854
721425000.0 0.0886270116 0.1419411523
726400000.0 0.0992979879 0.1312285531
731375000.0 0.1097846678 0.1192619032
736350000.0 0.1195292261 0.1062308163
741325000.0 0.123528211 0.0928358464
746300000.0 0.1302773015 0.0770247888
751275000.0 0.137222445 0.060061833
756250000.0 0.1435886345 0.0415203026
761225000.0 0.1487524013 0.0222254685
766200000.0 0.1529282874 0.0019598825
771175000.0 0.1556565318 -0.0193247127
776150000.0 0.1572316574 -0.0408620773
781125000.0 0.1572236278 -0.0629190588
786100000.0 0.1559568449 -0.085186538
791075000.0 0.1527871675 -0.1079710981
796050000.0 0.1479907026 -0.1307120038
801025000.0 0.1469984689 -0.1509847784
806000000.0 0.1397026757 -0.1725732969
810975000.0 0.1303044378 -0.1941077189
815950000.0 0.11932236 -0.2146000616
820925000.0 0.1065426108 -0.2345077185
825900000.0 0.0921040842 -0.2533386152
830875000.0 0.076275528 -0.2714639717
835850000.0 0.0593843593 -0.2882367371
840825000.0 0.0413284124 -0.3037976504
845800000.0 0.022093766 -0.3182182215
850775000.0 0.0019082415 -0.3312530171
855750000.0 -0.0192132449 -0.3425660771
860725000.0 -0.0413319446 -0.3525580029
865700000.0 -0.0645598082 -0.3609853202
870675000.0 -0.0886162502 -0.3674693174
875650000.0 -0.1136561166 -0.372149687
880625000.0 -0.1395470819 -0.3745071987
885600000.0 -0.1660747234 -0.3747091061
890575000.0 -0.1930952187 -0.3719783313
895550000.0 -0.2205349283 -0.3663981543
900525000.0 -0.25277633 -0.364757831
905500000.0 -0.2802205738 -0.3532542364
910475000.0 -0.3075219218 -0.3383018722
915450000.0 -0.3345124379 -0.320503654
920425000.0 -0.3607453945 -0.2989699397
925400000.0 -0.3861618495 -0.2733121625
930375000.0 -0.4103886416 -0.2439183173
935350000.0 -0.4330579023 -0.2107907073
940325000.0 -0.4536493911 -0.1728758551
945300000.0 -0.4714705909 -0.1305045131
950275000.0 -0.486178799 -0.0834257554
955250000.0 -0.4969335133 -0.0313521149
960225000.0 -0.5023820222 0.0255775429
965200000.0 -0.5018035427 0.0868475677
970175000.0 -0.4940022152 0.1530159497
975150000.0 -0.4768625125 0.2228638284
980125000.0 -0.4495052556 0.2950194289
985100000.0 -0.4097549937 0.3680226622
990075000.0 -0.3571924469 0.4389218822
995050000.0 -0.2916965102 0.5057886236
1000025000.0 -0.2132828607 0.5659746993
1005000000.0 -0.1218150373 0.6173012448
1009975000.0 -0.0172574101 0.6556934726
1014950000.0 0.0979235349 0.6769276416
1019925000.0 0.2201208618 0.6781570246
1024900000.0 0.3449971676 0.6570735504
1029875000.0 0.4676108488 0.6129192626
1034850000.0 0.5821477617 0.5458105819
1039825000.0 0.6832602338 0.4579632936
1044800000.0 0.7597636996 0.3535681797
1049775000.0 0.8230196052 0.2351820532
1054750000.0 0.864051678 0.1081744966
1059725000.0 0.8817713381 -0.022698655
1064700000.0 0.8768536079 -0.1497404614
1069675000.0 0.854132414 -0.2735722915
1074650000.0 0.8080852781 -0.3928855248
1079625000.0 0.7331816811 -0.497266307
1084600000.0 0.6438394482 -0.5475734395
1089575000.0 0.6090593543 -0.6053059685
1094550000.0 0.538959836 -0.6865341987
1099525000.0 0.4483426831 -0.7484617329
1104500000.0 0.3501877981 -0.7912604871
1109475000.0 0.2492209792 -0.8168731227
1114450000.0 0.1488982448 -0.826096718
1119425000.0 0.0527135338 -0.8213630037
1124400000.0 -0.037535278 -0.8048276559
1129375000.0 -0.1211553552 -0.7784148865
1134350000.0 -0.1974944382 -0.7449013929
1139325000.0 -0.2669533916 -0.7071516737
1144300000.0 -0.3316255941 -0.6647322476
1149275000.0 -0.39170725 -0.6167611059
1154250000.0 -0.4450440911 -0.5633130965
1159225000.0 -0.4896473786 -0.506461535
1164200000.0 -0.5263661781 -0.4484647239
1169175000.0 -0.5563363291 -0.3918431432
1174150000.0 -0.5818385181 -0.3362020353
1179125000.0 -0.6024980197 -0.2804763028
1184100000.0 -0.6176744208 -0.2257795448
1189075000.0 -0.6279787059 -0.1728845215
1194050000.0 -0.6342601416 -0.1220528633
1199025000.0 -0.6368317645 -0.0735262905
1204000000.0 -0.6361628772 -0.0281847639
1208975000.0 -0.6333199822 0.0141893986
1213950000.0 -0.6277180558 0.0546689122
1218925000.0 -0.6205337751 0.0923932848
1223900000.0 -0.6126150387 0.1276036721
1228875000.0 -0.6037406581 0.1605593493
1233850000.0 -0.5945850554 0.191047677
1238825000.0 -0.5850536409 0.2191247129
1243800000.0 -0.5747428049 0.2458438841
1248775000.0 -0.5646120229 0.270886229
1253750000.0 -0.5548594107 0.2941964891
1258725000.0 -0.5447720909 0.3162475645
1263700000.0 -0.5348020262 0.3365854914
1268675000.0 -0.5255181453 0.355584027
1273650000.0 -0.5160760129 0.3730568561
1278625000.0 -0.5068828888 0.3889105834
1283600000.0 -0.4978979125 0.4034471209
1288575000.0 -0.4886421472 0.4163994088
1293550000.0 -0.4795538564 0.4285823656
1298525000.0 -0.470303419 0.4396763277
1303500000.0 -0.4614545984 0.4498588183
1308475000.0 -0.453037185 0.4591634365
1313450000.0 -0.445281168 0.4674333993
1318425000.0 -0.437495459 0.4749668662
1323400000.0 -0.4302741085 0.4816183705
1328375000.0 -0.4243163347 0.4878784142
1333350000.0 -0.4190195532 0.4951274724
1338325000.0 -0.4163752725 0.5073149735
1343300000.0 -0.4115419839 0.513725975
1348275000.0 -0.4068458665 0.5205115466
1353250000.0 -0.4017142699 0.5275072942
1358225000.0 -0.3959511376 0.5342019644
1363200000.0 -0.3899195874 0.5412638485
1368175000.0 -0.3834719405 0.5477614217
1373150000.0 -0.376292455 0.5537408969
1378125000.0 -0.3684293304 0.5595318926
1383100000.0 -0.3600712297 0.5647333751
1388075000.0 -0.3510547734 0.569434273
1393050000.0 -0.3420603757 0.5734759722
1398025000.0 -0.3326107071 0.5768495361
1403000000.0 -0.3228785243 0.5791597268
1407975000.0 -0.3130208519 0.5813758117
1412950000.0 -0.3032296295 0.5830278834
1417925000.0 -0.293660573 0.5835843612
1422900000.0 -0.2848013143 0.5837666144
1427875000.0 -0.2765368638 0.5842933593
1432850000.0 -0.2685104933 0.5840678982
1437825000.0 -0.2614413096 0.5844064997
1442800000.0 -0.2540851681 0.5855642629
1447775000.0 -0.2462087562 0.5866679384
1452750000.0 -0.2374212541 0.5878155155
1457725000.0 -0.227362668 0.5896260804
1462700000.0 -0.2156490662 0.591402967
1467675000.0 -0.2033441778 0.5925392393
1472650000.0 -0.1895350477 0.5939113593
1477625000.0 -0.1749224073 0.5949328896
1482600000.0 -0.1596074968 0.5951520592
1487575000.0 -0.1433527948 0.5946350749
1492550000.0 -0.126074242 0.5940446154
1497525000.0 -0.10779595 0.59222837
1502500000.0 -0.0891867081 0.5899998628
1507475000.0 -0.0697417611 0.5875345605
1512450000.0 -0.0500326814 0.584540056
1517425000.0 -0.0304279223 0.5803471485
1522400000.0 -0.0111052544 0.5758018911
1527375000.0 0.0090284583 0.5709111423
1532350000.0 0.0288927248 0.5645758871
1537325000.0 0.048547372 0.5572111152
1542300000.0 0.0686225001 0.5489315395
1547275000.0 0.0889158837 0.5399536662
1552250000.0 0.1087287219 0.5302592932
1557225000.0 0.1281116767 0.5197632517
1562200000.0 0.1471869659 0.5086353792
1567175000.0 0.1657881812 0.4975910751
1572150000.0 0.1842869561 0.486269296
1577125000.0 0.203148461 0.4746316192
1582100000.0 0.2223505096 0.4624039103
1587075000.0 0.2414213646 0.4499076137
1592050000.0 0.2606586541 0.4373662676
1597025000.0 0.2805528531 0.4243769158
1602000000.0 0.3003098146 0.4104580176
1606975000.0 0.3197793291 0.3962924438
1611950000.0 0.3392224805 0.3819446137
1616925000.0 0.3582713535 0.3672705086
1621900000.0 0.3769544774 0.352239192
1626875000.0 0.3955252971 0.3377244651
1631850000.0 0.4132813484 0.3222080966
1636825000.0 0.430261506 0.3065486595
1641800000.0 0.4466704167 0.2910367776
1646775000.0 0.4623974735 0.2757591685
1651750000.0 0.4770000152 0.2606173562
1656725000.0 0.4910121275 0.2461045873
1661700000.0 0.5037852905 0.2319809799
1666675000.0 0.5160630516 0.2181589552
1671650000.0 0.527390171 0.2046996963
1676625000.0 0.537538818 0.1917673232
1681600000.0 0.5469137931 0.1788978683
1686575000.0 0.5554380107 0.1668709989
1691550000.0 0.5632011038 0.1549322412
1696525000.0 0.5701709829 0.1439433423
1701500000.0 0.5771441916 0.1331898509
1706475000.0 0.5829478203 0.1230190639
1711450000.0 0.588675499 0.1130162433
1716425000.0 0.5938773035 0.1038876814
1721400000.0 0.5981758618 0.0951893412
1726375000.0 0.6029174406 0.0867964285
1731350000.0 0.6074243577 0.078911309
1736325000.0 0.6125063751 0.0712357045
1741300000.0 0.6169429361 0.0642008043
1746275000.0 0.6217390473 0.0575142063
1751250000.0 0.6259609408 0.0508356699
1756225000.0 0.629690054 0.0449345438
1761200000.0 0.6322389135 0.0398787824
1766175000.0 0.6354970979 0.0359490886
1771150000.0 0.6396661739 0.0315822636
1776125000.0 0.6425844281 0.0266560852
1781100000.0 0.6441543494 0.0226930879
1786075000.0 0.645327873 0.0192846624
1791050000.0 0.6456906735 0.0163651027
1796025000.0 0.6455811383 0.0141365439
1801000000.0 0.6446335535 0.0126924503
1805975000.0 0.6434604205 0.0121942181
1810950000.0 0.642060608 0.0120602969
1815925000.0 0.6405769842 0.0130921968
1820900000.0 0.6391733645 0.0140801762
1825875000.0 0.6380476197 0.0159232968
1830850000.0 0.6370811407 0.0174264169
1835825000.0 0.6361538768 0.0192429368
1840800000.0 0.6348359011 0.0213245623
1845775000.0 0.6332047769 0.0228432527
1850750000.0 0.6308000888 0.0242197274
1855725000.0 0.6273079645 0.0255596053
1860700000.0 0.6230084284 0.0267521503
1865675000.0 0.6181328775 0.0277236025
1870650000.0 0.6121925964 0.0285750798
1875625000.0 0.6052982946 0.029288705
1880600000.0 0.5974017735 0.0298363636
1885575000.0 0.5888066752 0.0306107001
1890550000.0 0.5787489953 0.0310246133
1895525000.0 0.5682772405 0.0316199035
1900500000.0 0.5571287115 0.0325259906
1905475000.0 0.5447863706 0.0339482985
1910450000.0 0.5320236957 0.0356611854
1915425000.0 0.5193438338 0.0380323348
1920400000.0 0.50606953 0.0412049438
1925375000.0 0.4931460783 0.0443090322
1930350000.0 0.4791908824 0.0478911869
1935325000.0 0.4648032433 0.051982856
1940300000.0 0.4506502808 0.055977843
1945275000.0 0.4353815532 0.0595927597
1950250000.0 0.4190134282 0.0625111937
1955225000.0 0.4018779359 0.0655191391
1960200000.0 0.3832951776 0.0682832526
1965175000.0 0.3636428187 0.0706238533
1970150000.0 0.3419242748 0.0729122094
1975125000.0 0.3187682563 0.0755297609
1980100000.0 0.2922979949 0.0759825276
1985075000.0 0.2651576247 0.0760427962
1990050000.0 0.2369891157 0.078378888
1995025000.0 0.2072605901 0.0798522205
2000000000.0 0.1749687901 0.0821164865
