!Created with skrf (http://scikit-rf.org).
# GHz S RI R 50.0 
!freq ReS11 ImS11
10000000.0 -0.7978800099 0.6022943672
19950000.0 -0.2873103062 0.9436042247
29900000.0 0.323306604 0.9231386183
39850000.0 0.8123279856 0.5463485733
49800000.0 0.9854613824 -0.0588958621
59750000.0 0.7499149544 -0.660215346
69700000.0 0.1751569527 -0.9906518112
79650000.0 -0.4944134368 -0.8697252208
89600000.0 -0.9295962873 -0.323330764
99550000.0 -0.8853048421 0.3946187561
109500000.0 -0.341286859 0.9029411445
119450000.0 0.4341996297 0.8732465845
129400000.0 0.9532428666 0.2468124685
139350000.0 0.8195691966 -0.5608801134
149300000.0 0.0973871154 -0.9727012506
159250000.0 -0.6637880912 -0.6866686011
169200000.0 -0.9427242285 0.0461080784
179150000.0 -0.6139417981 0.7234646362
189100000.0 0.0703766262 0.9584530235
199050000.0 0.7025881795 0.6644706133
209000000.0 0.9596970982 0.0398671034
218950000.0 0.7508733193 -0.5741390997
228900000.0 0.2123897291 -0.9048435785
238850000.0 -0.4057281007 -0.8253832036
248800000.0 -0.5680227132 -0.3796786243
258750000.0 -0.9128549138 0.1664749896
268700000.0 -0.6232812927 0.6977908707
278650000.0 -0.0732358164 0.9289969703
288600000.0 0.4954997573 0.7671337063
298550000.0 0.8357952896 0.2894113662
308500000.0 0.8018400016 -0.2925572362
318450000.0 0.4099802484 -0.7160493436
328400000.0 -0.1542873581 -0.7836194789
338350000.0 -0.6074407785 -0.4654249853
348300000.0 -0.712249789 0.0533944729
358250000.0 -0.4403204677 0.4655680651
368200000.0 0.0005568294 0.5487859884
378150000.0 0.3230102499 0.3179630016
388100000.0 0.3676338981 -0.0203436324
398050000.0 0.183678688 -0.2396584102
408000000.0 -0.051517956 -0.2469910093
417950000.0 -0.1828975894 -0.105598306
427900000.0 -0.1662444615 0.0539699225
437850000.0 -0.0553652708 0.1320843005
447800000.0 0.0592211915 0.1067657836
457750000.0 0.1108156441 0.0186956121
467700000.0 0.0838686987 -0.0662121621
477650000.0 0.0151544003 -0.0966638155
487600000.0 -0.0406939721 -0.062386414
497550000.0 -0.031866185 -0.1099390662
507500000.0 -0.0651923981 -0.0007379429
517450000.0 -0.0281753448 0.022444213
527400000.0 -0.0026225856 0.011070716
537350000.0 -0.0041214353 -0.0117862048
547300000.0 -0.037065233 -0.0196130234
557250000.0 -0.0615055698 0.0150205324
567200000.0 -0.0526243374 0.0633534379
577150000.0 -0.0050095757 0.0993332054
587100000.0 0.06466376 0.0939318703
597050000.0 0.1234420411 0.0378400746
607000000.0 0.1356014559 -0.0521430144
616950000.0 0.086898301 -0.1379922101
626900000.0 -0.0080744088 -0.1792216437
636850000.0 -0.1120325794 -0.1539905334
646800000.0 -0.1798739753 -0.068052349
656750000.0 -0.1808846354 0.0429705972
666700000.0 -0.1113610792 0.131207086
676650000.0 -0.0011956006 0.1578444415
686600000.0 0.101101327 0.1090916675
696550000.0 0.1494421148 0.0088056249
706500000.0 0.1230724389 -0.0938647193
716450000.0 0.0398803606 -0.1498498818
726400000.0 -0.0539361057 -0.1319138868
736350000.0 -0.104026352 -0.0534593584
746300000.0 -0.0807902922 0.0393412716
756250000.0 0.0077776395 0.0903130817
766200000.0 0.1119865289 0.061610762
776150000.0 0.168775829 -0.038825999
786100000.0 0.1350135446 -0.1596536904
796050000.0 0.0143513027 -0.2277276361
806000000.0 -0.1378356314 -0.1896155116
815950000.0 -0.2379037212 -0.0429455852
825900000.0 -0.2159263438 0.1518469294
835850000.0 -0.0671329497 0.2925579568
845800000.0 0.1391381449 0.3159601287
855750000.0 0.328065551 0.2064955843
865700000.0 0.4144761668 -0.0076721446
875650000.0 0.3446111414 -0.2422713735
885600000.0 0.1315103357 -0.3889731353
895550000.0 -0.140140061 -0.3695463378
905500000.0 -0.3492430338 -0.1777377529
915450000.0 -0.3917013229 0.1124859851
925400000.0 -0.2354223204 0.3654315037
935350000.0 0.0501290631 0.4536563577
945300000.0 0.3252265637 0.3240458119
955250000.0 0.4389646895 0.0281835983
965200000.0 0.2996411261 -0.2814801493
975150000.0 -0.0494074045 -0.3995928127
985100000.0 -0.3952064069 -0.1931903324
995050000.0 -0.4562962696 0.2406029669
1005000000.0 -0.1229818487 0.5821149425
1014950000.0 0.3978425782 0.5211705625
1024900000.0 0.7005553655 0.0266667083
1034850000.0 0.4803620038 -0.5728964567
1044800000.0 -0.1701976769 -0.7793940443
1054750000.0 -0.7354686001 -0.3787580257
1064700000.0 -0.7848276546 0.2231659674
1074650000.0 -0.4060167061 0.7119942964
1084600000.0 0.0449293458 0.7558436336
1094550000.0 0.5813970359 0.5440325549
1104500000.0 0.7673567024 -0.0330134005
1114450000.0 0.4747957465 -0.5594674931
1124400000.0 -0.0882513545 -0.6976828788
1134350000.0 -0.5399809955 -0.402904066
1144300000.0 -0.6366900657 0.0815745178
1154250000.0 -0.3888198065 0.4628723025
1164200000.0 0.0235494598 0.5624553042
1174150000.0 0.3856893963 0.3626757687
1184100000.0 0.5029927198 -0.0367533971
1194050000.0 0.303961765 -0.3930411303
1204000000.0 -0.0709285458 -0.5038289048
1213950000.0 -0.4044158969 -0.3440169939
1223900000.0 -0.5524381391 -0.0246142314
1233850000.0 -0.4756799064 0.3089473176
1243800000.0 -0.2127199446 0.5296508853
1253750000.0 0.1390047622 0.5475031204
1263700000.0 0.4381284812 0.3409030008
1273650000.0 0.5517668759 -0.0104510815
1283600000.0 0.4343587602 -0.3579698763
1293550000.0 0.1464109798 -0.5677882997
1303500000.0 -0.1958340159 -0.5821866849
1313450000.0 -0.4833601673 -0.4155764071
1323400000.0 -0.638083278 -0.1254127942
1333350000.0 -0.6154037475 0.2083342789
1343300000.0 -0.4073123448 0.4873070458
1353250000.0 -0.0647164323 0.606462457
1363200000.0 0.295159978 0.5070240765
1373150000.0 0.5367595444 0.2203286564
1383100000.0 0.5759284345 -0.1428763396
1393050000.0 0.420034687 -0.4540312985
1403000000.0 0.1374258567 -0.6268515744
1412950000.0 -0.1814035767 -0.6259703516
1422900000.0 -0.4491185246 -0.4615124509
1432850000.0 -0.5901805212 -0.1748561394
1442800000.0 -0.5522624589 0.1495111744
1452750000.0 -0.3423273477 0.4054726889
1462700000.0 -0.0229930517 0.510438069
1472650000.0 0.3024128805 0.4237545541
1482600000.0 0.5203998844 0.1769133746
1492550000.0 0.5634346189 -0.1371586898
1502500000.0 0.4308072257 -0.4116437432
1512450000.0 0.173713454 -0.5627808911
1522400000.0 -0.1246384645 -0.5421978346
1532350000.0 -0.3614319956 -0.3502970339
1542300000.0 -0.4447713192 -0.0494404796
1552250000.0 -0.3338225631 0.2451036975
1562200000.0 -0.0745816323 0.4105872181
1572150000.0 0.2177185426 0.390806759
1582100000.0 0.4300793427 0.2100877636
1592050000.0 0.4882453437 -0.0515446228
1602000000.0 0.3796572471 -0.2914265662
1611950000.0 0.1453614454 -0.4201742707
1621900000.0 -0.1289431855 -0.3828995818
1631850000.0 -0.3329171258 -0.1793313554
1641800000.0 -0.3693593501 0.1150569836
1651750000.0 -0.2148301107 0.3686055548
1661700000.0 0.0576798122 0.4693516971
1671650000.0 0.328143209 0.3867050143
1681600000.0 0.495337386 0.1635984939
1691550000.0 0.5029582408 -0.1184485206
1701500000.0 0.3419579424 -0.3587959531
1711450000.0 0.0698729823 -0.4581844264
1721400000.0 -0.2083478549 -0.412558651
1731350000.0 -0.4459685355 -0.1976393669
1741300000.0 -0.5046670044 0.1289217497
1751250000.0 -0.3625308089 0.4223900794
1761200000.0 -0.0881379726 0.577400083
1771150000.0 0.2158825971 0.5583296989
1781100000.0 0.4606990218 0.3856714987
1791050000.0 0.5814488458 0.1100006188
1801000000.0 0.5391390907 -0.1967610014
1810950000.0 0.332156919 -0.4424334809
1820900000.0 0.0140860211 -0.5344001796
1830850000.0 -0.3032187859 -0.4297657278
1840800000.0 -0.5020012902 -0.1698805994
1850750000.0 -0.5245602411 0.1409065616
1860700000.0 -0.3881160169 0.398047524
1870650000.0 -0.1549877942 0.5400190006
1880600000.0 0.104625939 0.5444113698
1890550000.0 0.3244786001 0.4187925838
1900500000.0 0.4464883455 0.197323668
1910450000.0 0.4304215242 -0.0563273544
1920400000.0 0.278331138 -0.2589390581
1930350000.0 0.0469798153 -0.3393142947
1940300000.0 -0.1735887914 -0.2817795379
1950250000.0 -0.3090530219 -0.1313944388
1960200000.0 -0.3365479703 0.0379233687
1970150000.0 -0.2791105243 0.1678907515
1980100000.0 -0.1814084988 0.2260058686
1990050000.0 -0.096956857 0.2106666041
2000000000.0 -0.0685858992 0.1614830022
