!Created with skrf (http://scikit-rf.org).
# GHz S RI R 50.0 
!freq ReS11 ImS11
10000000.0 -0.7850884882 0.5941430998
19950000.0 -0.2833806481 0.9343562346
29900000.0 0.3211421991 0.918413013
39850000.0 0.8071355226 0.5466289354
49800000.0 0.9793391072 -0.0535491538
59750000.0 0.7451452373 -0.6492900343
69700000.0 0.175897125 -0.9761392817
79650000.0 -0.4867317008 -0.8580956925
89600000.0 -0.9209702591 -0.3190876767
99550000.0 -0.8814137058 0.3947795267
109500000.0 -0.3410085232 0.9037117744
119450000.0 0.4335237357 0.8726517878
129400000.0 0.95132841 0.2381970745
139350000.0 0.8123111194 -0.5549779778
149300000.0 0.0939310631 -0.9655763697
159250000.0 -0.6634192849 -0.6830781788
169200000.0 -0.9418874917 0.0442928055
179150000.0 -0.6163808435 0.7161214669
189100000.0 0.0596739198 0.9488663074
199050000.0 0.6842299858 0.6615965799
209000000.0 0.9439613995 0.0484613517
218950000.0 0.7477447399 -0.560750958
228900000.0 0.2215793122 -0.8970078381
238850000.0 -0.389741422 -0.8296914158
248800000.0 -0.715497184 -0.2668816076
258750000.0 -0.9043208395 0.1566440509
268700000.0 -0.6191918986 0.6821377494
278650000.0 -0.0761171272 0.9134732586
288600000.0 0.4883320071 0.7565034371
298550000.0 0.8285641726 0.2834514987
308500000.0 0.7946398351 -0.2956368629
318450000.0 0.4018657501 -0.7145286547
328400000.0 -0.1609050723 -0.774031907
338350000.0 -0.6056466881 -0.4476577585
348300000.0 -0.6959899013 0.0719717006
358250000.0 -0.4124412002 0.4733012669
368200000.0 0.0272129488 0.5404468341
378150000.0 0.337639344 0.3001834947
388100000.0 0.3689577148 -0.0369001227
398050000.0 0.1773295704 -0.2495345877
408000000.0 -0.0612216 -0.2497566318
417950000.0 -0.1937654163 -0.1022811163
427900000.0 -0.177014651 0.0626563844
437850000.0 -0.0643752984 0.1457023576
447800000.0 0.0535987338 0.1241368647
457750000.0 0.1106991399 0.0387528913
467700000.0 0.0928477843 -0.0467896808
477650000.0 0.0337869015 -0.0860437563
487600000.0 -0.0175411166 -0.07231786
497550000.0 -0.0767761458 -0.0946572141
507500000.0 -0.0560826071 -0.0009850867
517450000.0 -0.024603275 0.0097039046
527400000.0 -0.0095704571 -0.0062409536
537350000.0 -0.0232769871 -0.0246459855
547300000.0 -0.0550957214 -0.0194230357
557250000.0 -0.0773157047 0.0175600945
567200000.0 -0.0655965201 0.0705220884
577150000.0 -0.0120105953 0.1091864676
587100000.0 0.0645862219 0.10381921
597050000.0 0.1294537142 0.0446206818
607000000.0 0.1463786043 -0.0504842183
616950000.0 0.0996416115 -0.1423614186
626900000.0 0.003913373 -0.1891853211
636850000.0 -0.1034385393 -0.1676516829
646800000.0 -0.1754729477 -0.0837818439
656750000.0 -0.1817031896 0.0281971257
666700000.0 -0.1170008556 0.1198914344
676650000.0 -0.0100704199 0.151762518
686600000.0 0.0914944167 0.110140754
696550000.0 0.1417032469 0.0166700815
706500000.0 0.1200538678 -0.0800884115
716450000.0 0.0436010599 -0.1327922063
726400000.0 -0.0430376425 -0.115577793
736350000.0 -0.0869390582 -0.0407088404
746300000.0 -0.0597929811 0.0451383085
756250000.0 0.0278586994 0.0867208722
766200000.0 0.1256567877 0.0501246636
776150000.0 0.1720305749 -0.0534926942
786100000.0 0.1276133206 -0.1702711495
796050000.0 0.0008752843 -0.2304699378
806000000.0 -0.1515083115 -0.1839109079
815950000.0 -0.2476029584 -0.0331343928
825900000.0 -0.2234120292 0.1615965436
835850000.0 -0.0719682398 0.3062336628
845800000.0 0.1432336335 0.3236948496
855750000.0 0.3256653116 0.2041333104
865700000.0 0.4029922055 -0.0072548633
875650000.0 0.3327749493 -0.2339282033
885600000.0 0.124153514 -0.3755847685
895550000.0 -0.1393686626 -0.3521106941
905500000.0 -0.3360373032 -0.1589667624
915450000.0 -0.3609999008 0.1231034818
925400000.0 -0.19031702 0.3534358314
935350000.0 0.0940185492 0.4050566634
945300000.0 0.3376223417 0.234621045
955250000.0 0.3814070205 -0.0791457546
965200000.0 0.1497388239 -0.340737711
975150000.0 -0.2414490633 -0.3172227117
985100000.0 -0.4786827007 0.0526806146
995050000.0 -0.2971012246 0.5091197836
1005000000.0 0.227631072 0.6390134529
1014950000.0 0.6845698846 0.2696463297
1024900000.0 0.6825713218 -0.3621838782
1034850000.0 0.1684406811 -0.7826982062
1044800000.0 -0.4904582815 -0.6547859779
1054750000.0 -0.8047265333 -0.0880175805
1064700000.0 -0.6160015612 0.3964173678
1074650000.0 -0.2984855601 0.6951119796
1084600000.0 0.2402096994 0.771929758
1094550000.0 0.6760867668 0.385127459
1104500000.0 0.7062704206 -0.1895378079
1114450000.0 0.3242297412 -0.605797688
1124400000.0 -0.2134487441 -0.6165875456
1134350000.0 -0.5668962742 -0.2660746943
1144300000.0 -0.5701499439 0.1920694128
1154250000.0 -0.2767178238 0.5001589485
1164200000.0 0.125207832 0.5208077069
1174150000.0 0.4280531756 0.2673835671
1184100000.0 0.4691603805 -0.1282279553
1194050000.0 0.2251946111 -0.4351298175
1204000000.0 -0.1494285615 -0.4888354385
1213950000.0 -0.4524153168 -0.2952946621
1223900000.0 -0.5644335226 0.0322023297
1233850000.0 -0.4587635387 0.3540677883
1243800000.0 -0.1804389734 0.5519114877
1253750000.0 0.170428906 0.5464746696
1263700000.0 0.4588106348 0.3261647641
1273650000.0 0.5608891701 -0.0291327
1283600000.0 0.4364230299 -0.374667258
1293550000.0 0.1472577509 -0.5820392267
1303500000.0 -0.1949245425 -0.5967585662
1313450000.0 -0.4827788424 -0.4319561142
1323400000.0 -0.641436913 -0.1441357144
1333350000.0 -0.6265630142 0.1890319618
1343300000.0 -0.429446054 0.4740228984
1353250000.0 -0.0938478337 0.6093440002
1363200000.0 0.2715906556 0.5308804297
1373150000.0 0.5318056919 0.2585575076
1383100000.0 0.5957416608 -0.1034745729
1393050000.0 0.460125592 -0.428305761
1403000000.0 0.1870670095 -0.6230907831
1412950000.0 -0.1350766426 -0.6458167749
1422900000.0 -0.4180481748 -0.5007222025
1432850000.0 -0.5849543718 -0.2244697327
1442800000.0 -0.579026044 0.108626538
1452750000.0 -0.3865122778 0.3932515165
1462700000.0 -0.0623271409 0.5249609211
1472650000.0 0.2758983497 0.4531708952
1482600000.0 0.5073458212 0.2128455923
1492550000.0 0.5629952627 -0.0994515554
1502500000.0 0.4430506217 -0.3769988602
1512450000.0 0.1975134945 -0.5364290733
1522400000.0 -0.0934459424 -0.5309305786
1532350000.0 -0.3320090119 -0.3567312062
1542300000.0 -0.426114065 -0.0696272369
1552250000.0 -0.3292913997 0.2194917247
1562200000.0 -0.0821804962 0.3863844788
1572150000.0 0.2006370299 0.3698556147
1582100000.0 0.4049425436 0.1962254801
1592050000.0 0.4598972404 -0.0557001527
1602000000.0 0.3517351589 -0.286683611
1611950000.0 0.1213361175 -0.4061213844
1621900000.0 -0.1422980976 -0.3599257553
1631850000.0 -0.3326980904 -0.1564991921
1641800000.0 -0.3580442841 0.1336977448
1651750000.0 -0.1937368716 0.3775463722
1661700000.0 0.080236906 0.4653104591
1671650000.0 0.3459303679 0.3734440422
1681600000.0 0.5081674568 0.1458545366
1691550000.0 0.5118735059 -0.1388520221
1701500000.0 0.3489060069 -0.3840959027
1711450000.0 0.0630941935 -0.4994138705
1721400000.0 -0.2520151391 -0.4265422927
1731350000.0 -0.4736340225 -0.1777010694
1741300000.0 -0.5108015929 0.1540337693
1751250000.0 -0.3564655829 0.4411976802
1761200000.0 -0.0793851062 0.5898054771
1771150000.0 0.2244832816 0.5685557485
1781100000.0 0.4692635491 0.3956020629
1791050000.0 0.5919968044 0.1202271488
1801000000.0 0.5533455126 -0.1876761548
1810950000.0 0.3506052086 -0.4378527807
1820900000.0 0.0342507519 -0.5393938283
1830850000.0 -0.2886088198 -0.4457123668
1840800000.0 -0.5002982428 -0.1931085121
1850750000.0 -0.5384742376 0.1187645693
1860700000.0 -0.4151622972 0.3858150925
1870650000.0 -0.1875150964 0.5420257749
1880600000.0 0.0746983004 0.5601758643
1890550000.0 0.3032201295 0.4445162125
1900500000.0 0.4373006701 0.2261842336
1910450000.0 0.4321018178 -0.0304467245
1920400000.0 0.2882835434 -0.2383274091
1930350000.0 0.0640539042 -0.3252217656
1940300000.0 -0.1507889077 -0.2762973024
1950250000.0 -0.2812050142 -0.1372371481
1960200000.0 -0.3069622645 0.0176065455
1970150000.0 -0.2524594436 0.1276455736
1980100000.0 -0.1701878385 0.1611503978
1990050000.0 -0.1237557748 0.1283582585
2000000000.0 -0.1545976939 0.088684049
