!Created with skrf (http://scikit-rf.org).
# GHz S RI R 50.0 
!freq ReS11 ImS11
10000000.0 -0.7642972332 0.5760496369
19950000.0 -0.2792087098 0.9058630688
29900000.0 0.3078139653 0.8885056744
39850000.0 0.7815907998 0.5218151754
49800000.0 0.9477229032 -0.0713358565
59750000.0 0.7096727901 -0.6610704272
69700000.0 0.1361044368 -0.976768438
79650000.0 -0.522070107 -0.834845909
89600000.0 -0.9285705146 -0.2676947391
99550000.0 -0.8403013791 0.4529740647
109500000.0 -0.2415879769 0.9260155807
119450000.0 0.5495718972 0.8067663607
129400000.0 0.9911553451 0.0976079668
139350000.0 0.710817641 -0.7006345276
149300000.0 -0.0802050358 -0.9686281329
159250000.0 -0.761399171 -0.5475336616
169200000.0 -0.9003655051 0.1988926452
179150000.0 -0.4910729787 0.7873235411
189100000.0 0.1744632135 0.9227735385
199050000.0 0.7335607973 0.5881339867
209000000.0 0.9307033233 -0.0134308069
218950000.0 0.7096708937 -0.5793733762
228900000.0 0.1992529589 -0.8783042133
238850000.0 -0.3768874752 -0.8065020499
248800000.0 -0.771630374 -0.4144722686
258750000.0 -0.8873481153 0.1506211413
268700000.0 -0.6323923492 0.6585432668
278650000.0 -0.1272228071 0.9070093753
288600000.0 0.4208266245 0.7952863799
298550000.0 0.7855433627 0.3709348345
308500000.0 0.8146655361 -0.1900757619
318450000.0 0.4900334421 -0.6463549104
328400000.0 -0.04525827 -0.789587171
338350000.0 -0.5297994333 -0.547516184
348300000.0 -0.7068648757 -0.0595997101
358250000.0 -0.5028071974 0.3762886372
368200000.0 -0.0930047353 0.5140922695
378150000.0 0.233352918 0.3367630263
388100000.0 0.3062424267 0.0356193407
398050000.0 0.1629788194 -0.1662448447
408000000.0 -0.0317439235 -0.1770277449
417950000.0 -0.1302595042 -0.0588630356
427900000.0 -0.0974689844 0.0661024487
437850000.0 0.0083984597 0.1083610848
447800000.0 0.1023623216 0.0529770095
457750000.0 0.1236992569 -0.0474104252
467700000.0 0.0673866356 -0.1301090995
477650000.0 -0.0247082911 -0.1480506001
487600000.0 -0.098467514 -0.1003133539
497550000.0 -0.1255432899 -0.0190912822
507500000.0 -0.0914470048 0.0532082279
517450000.0 -0.028356045 0.08202125
527400000.0 0.0277427505 0.0678993857
537350000.0 0.0499031434 0.0276848076
547300000.0 0.0357525333 -0.0042702053
557250000.0 0.0049875286 -0.009774399
567200000.0 -0.0138617133 0.0119249148
577150000.0 -0.0023020678 0.0388912658
587100000.0 0.0334923211 0.0445451164
597050000.0 0.0711167204 0.0123908451
607000000.0 0.0782058745 -0.0482198302
616950000.0 0.0388466486 -0.1066592862
626900000.0 -0.0347876041 -0.1304584136
636850000.0 -0.112293818 -0.0997701327
646800000.0 -0.1558177718 -0.0220618625
656750000.0 -0.1409043848 0.0698659429
666700000.0 -0.0677840011 0.1350584861
676650000.0 0.0337906744 0.1402566721
686600000.0 0.1196435293 0.0776934871
696550000.0 0.1491185204 -0.0254086479
706500000.0 0.105944798 -0.1244481051
716450000.0 0.0120413882 -0.1726988441
726400000.0 -0.0877266134 -0.1437532376
736350000.0 -0.1380123869 -0.0541002414
746300000.0 -0.1093321705 0.0499020896
756250000.0 -0.01179984 0.1100255149
766200000.0 0.104306013 0.0860751396
776150000.0 0.1760293131 -0.0119865222
786100000.0 0.156712408 -0.1372863991
796050000.0 0.0485629692 -0.2168839375
806000000.0 -0.0964223335 -0.1946144126
815950000.0 -0.2005874056 -0.0677040675
825900000.0 -0.1951270039 0.1111700732
835850000.0 -0.0690092406 0.255085092
845800000.0 0.1276599665 0.2857329065
855750000.0 0.3063170903 0.1790255903
865700000.0 0.3801050843 -0.0273502938
875650000.0 0.2986897894 -0.2448354498
885600000.0 0.083301076 -0.3632867142
895550000.0 -0.1728865756 -0.3105093871
905500000.0 -0.3404486576 -0.0937969858
915450000.0 -0.3260903366 0.1867051782
925400000.0 -0.1338312573 0.3892028936
935350000.0 0.1446351399 0.415674078
945300000.0 0.376907069 0.2404234597
955250000.0 0.42671222 -0.0708196425
965200000.0 0.2225314853 -0.3539070077
975150000.0 -0.1608806767 -0.4038013037
985100000.0 -0.4803271463 -0.1196450647
995050000.0 -0.4619377051 0.3450339411
1005000000.0 -0.0577329602 0.6428725182
1014950000.0 0.4692376474 0.4999554433
1024900000.0 0.7093866179 -0.0465570505
1034850000.0 0.4125826923 -0.6196884091
1044800000.0 -0.2496620237 -0.7459671794
1054750000.0 -0.76238038 -0.3015173596
1064700000.0 -0.7517526594 0.3523386779
1074650000.0 -0.2815760916 0.7348687048
1084600000.0 0.2284323985 0.7467714541
1094550000.0 0.6779362453 0.3577614747
1104500000.0 0.6966345144 -0.2425307477
1114450000.0 0.2798480415 -0.6643599233
1124400000.0 -0.2849945791 -0.6487775432
1134350000.0 -0.6404798738 -0.2591437672
1144300000.0 -0.6267767941 0.2296791485
1154250000.0 -0.3098254118 0.5610065911
1164200000.0 0.1264057062 0.6008918878
1174150000.0 0.4796949376 0.3501775851
1184100000.0 0.5758142688 -0.0769119447
1194050000.0 0.358010598 -0.4504652252
1204000000.0 -0.0366690417 -0.5759481329
1213950000.0 -0.3990513773 -0.4273583339
1223900000.0 -0.586055155 -0.1074008391
1233850000.0 -0.5529900713 0.2480137683
1243800000.0 -0.3227322569 0.5170140534
1253750000.0 0.0269523614 0.6015013427
1263700000.0 0.3679658703 0.456299334
1273650000.0 0.5561671905 0.1282110901
1283600000.0 0.5114645521 -0.2448244632
1293550000.0 0.2672564267 -0.5121175509
1303500000.0 -0.0673879107 -0.5928945401
1313450000.0 -0.3766078254 -0.4862225076
1323400000.0 -0.5793112692 -0.2398871441
1333350000.0 -0.6261281803 0.0778089323
1343300000.0 -0.4931213825 0.3816614609
1353250000.0 -0.199783002 0.566193617
1363200000.0 0.159363217 0.5478347156
1373150000.0 0.4469636565 0.3196280571
1383100000.0 0.5508729952 -0.0242410812
1393050000.0 0.4528445733 -0.3530777262
1403000000.0 0.2073863054 -0.5648977494
1412950000.0 -0.0951737615 -0.6105384491
1422900000.0 -0.3681747299 -0.4915311995
1432850000.0 -0.5358585356 -0.2400241228
1442800000.0 -0.540356951 0.0749274506
1452750000.0 -0.3598114594 0.3499328701
1462700000.0 -0.0470732341 0.4712697465
1472650000.0 0.2741051969 0.3910917017
1482600000.0 0.4817749608 0.1493323597
1492550000.0 0.5114262196 -0.1524853414
1502500000.0 0.3698638623 -0.4052821395
1512450000.0 0.1154042699 -0.5255236065
1522400000.0 -0.1606141042 -0.4735397175
1532350000.0 -0.3538477513 -0.2613106013
1542300000.0 -0.3838009692 0.0326529584
1552250000.0 -0.2280070795 0.2885524022
1562200000.0 0.047492026 0.3943866811
1572150000.0 0.3188857139 0.3111983949
1582100000.0 0.4743091976 0.0883802779
1592050000.0 0.4627256691 -0.1768951328
1602000000.0 0.2891517788 -0.3833429051
1611950000.0 0.0158218258 -0.4472889177
1621900000.0 -0.2545739119 -0.331100667
1631850000.0 -0.4094463064 -0.063752197
1641800000.0 -0.372656634 0.2492677615
1651750000.0 -0.1535782383 0.4766269713
1661700000.0 0.1533203519 0.5245745349
1671650000.0 0.4243061006 0.3863937086
1681600000.0 0.5678617991 0.1216891286
1691550000.0 0.5428623119 -0.1814147333
1701500000.0 0.3533840336 -0.4292891881
1711450000.0 0.0504516439 -0.5387681895
1721400000.0 -0.2767027187 -0.4595638512
1731350000.0 -0.5098553677 -0.2028765628
1741300000.0 -0.5578596101 0.1423653353
1751250000.0 -0.4068976336 0.4472499743
1761200000.0 -0.1242306701 0.6113168779
1771150000.0 0.1904126213 0.6005276328
1781100000.0 0.4490480307 0.4349747291
1791050000.0 0.5899216333 0.1633752876
1801000000.0 0.5762097126 -0.1483371856
1810950000.0 0.4011061106 -0.4169705976
1820900000.0 0.1017924386 -0.5546331619
1830850000.0 -0.2295169446 -0.5012170312
1840800000.0 -0.4734655045 -0.2725629273
1850750000.0 -0.5493305851 0.04036384
1860700000.0 -0.4551237195 0.3265550228
1870650000.0 -0.2433669562 0.5116861957
1880600000.0 0.0147288914 0.5620272316
1890550000.0 0.2513999205 0.478949753
1900500000.0 0.4072161472 0.2897739823
1910450000.0 0.4419489958 0.048220137
1920400000.0 0.3441777512 -0.1725842015
1930350000.0 0.1484948562 -0.2982885813
1940300000.0 -0.0655422419 -0.2950309405
1950250000.0 -0.2235289721 -0.1903104543
1960200000.0 -0.2894311423 -0.045730801
1970150000.0 -0.2727753662 0.0786852344
1980100000.0 -0.2116732916 0.1461623231
1990050000.0 -0.1583846897 0.1517491927
2000000000.0 -0.1542135585 0.1310054641
