!Created with skrf (http://scikit-rf.org).
# GHz S RI R 50.0 
!freq ReS11 ImS11
10000000.0 -0.7635291089 0.6759165755
19950000.0 -0.132839301 0.9873701908
29900000.0 0.5421343788 0.8152771786
39850000.0 0.9458089022 0.2411622173
49800000.0 0.8703868111 -0.4686795939
59750000.0 0.3224038176 -0.9565498166
69700000.0 -0.4330266115 -0.9271010983
79650000.0 -0.9554354163 -0.3524013297
89600000.0 -0.892986687 0.4398821539
99550000.0 -0.2507186575 0.9366505671
109500000.0 0.5676600542 0.7733819295
119450000.0 0.9738346374 0.009020275
129400000.0 0.5970234932 -0.8004531387
139350000.0 -0.3104872707 -0.9591261189
149300000.0 -0.9414283336 -0.2976033982
159250000.0 -0.7657984665 0.5719633711
169200000.0 0.0010811212 0.9413920239
179150000.0 0.7448315046 0.5935274061
189100000.0 0.9608650035 -0.1731394994
199050000.0 0.5467679086 -0.8285259731
209000000.0 -0.1947660814 -0.9681534565
218950000.0 -0.7922095364 -0.5495987448
228900000.0 -0.9264792115 0.1476631635
238850000.0 -0.5522793374 0.7392091543
248800000.0 0.0178647844 0.9058416907
258750000.0 0.6925777616 0.6398982895
268700000.0 0.9592381154 0.0115543311
278650000.0 0.7276986695 -0.6255057104
288600000.0 0.1281713939 -0.9289949623
298550000.0 -0.5082284568 -0.7433088713
308500000.0 -0.8401534732 -0.1786583285
318450000.0 -0.6911610055 0.4500862132
328400000.0 -0.1505857307 0.7860037829
338350000.0 0.4505128847 0.6306218157
348300000.0 0.7232894538 0.1043562865
358250000.0 0.515969609 -0.4047513868
368200000.0 0.0435131151 -0.5526800681
378150000.0 -0.316259595 -0.3131126903
388100000.0 -0.3466803504 0.0537329428
398050000.0 -0.1209385279 0.2595251447
408000000.0 0.1236341222 0.2104331703
417950000.0 0.2064935064 0.0262023287
427900000.0 0.120474591 -0.1163672162
437850000.0 -0.0201719218 -0.126952198
447800000.0 -0.0990259497 -0.0345973849
457750000.0 -0.0753912085 0.0691077923
467700000.0 0.0098216442 0.1067497035
477650000.0 0.0791495749 0.0652308042
487600000.0 0.0675911594 -0.0023234617
497550000.0 0.0853249076 -0.0486889489
507500000.0 0.0105392894 -0.0583272326
517450000.0 -0.022464332 -0.0221489269
527400000.0 -0.0114561842 0.0120198433
537350000.0 0.0197859123 0.0129940701
547300000.0 0.0315296836 -0.0265097647
557250000.0 -0.0059061133 -0.0593479077
567200000.0 -0.0646514322 -0.0501114428
577150000.0 -0.1038781406 0.008912903
587100000.0 -0.0848888933 0.0894949451
597050000.0 -0.0033221654 0.138763341
607000000.0 0.103789378 0.1106391967
616950000.0 0.1617799115 -0.0108965077
626900000.0 0.1061099964 -0.0656684613
636850000.0 0.0596817844 -0.1573083997
646800000.0 -0.0594357016 -0.1748254139
656750000.0 -0.1572822966 -0.1020360111
666700000.0 -0.1765729171 0.0172564974
676650000.0 -0.1076028625 0.1149782042
686600000.0 0.0084592084 0.1353325563
696550000.0 0.1025664073 0.0699342536
706500000.0 0.1210052462 -0.0378091026
716450000.0 0.0598102987 -0.1196223022
726400000.0 -0.0351990495 -0.1263266311
736350000.0 -0.0945399498 -0.0592438645
746300000.0 -0.0735274602 0.0276706352
756250000.0 0.0152315926 0.0629563305
766200000.0 0.1062654474 0.0076814865
776150000.0 0.1222033146 -0.1113871228
786100000.0 0.0332779621 -0.2136045104
796050000.0 -0.1201522503 -0.2171179962
806000000.0 -0.2415684236 -0.0928239957
815950000.0 -0.2377753687 0.1032296689
825900000.0 -0.082336971 0.2557129863
835850000.0 0.1554610345 0.2593354397
845800000.0 0.3449640416 0.0889492653
855750000.0 0.3713949421 -0.1784674655
865700000.0 0.2049315043 -0.4031971483
875650000.0 -0.0817030119 -0.4610304945
885600000.0 -0.3436091102 -0.3039539977
895550000.0 -0.4330684644 0.0005125357
905500000.0 -0.2854707033 0.2947097129
915450000.0 0.0326651203 0.4109258861
925400000.0 0.3461589145 0.2698819727
935350000.0 0.4705434827 -0.0542588471
945300000.0 0.3240763361 -0.3718834041
955250000.0 -0.0126431459 -0.4837741762
965200000.0 -0.3289234433 -0.3009754423
975150000.0 -0.3947013203 0.0781695053
985100000.0 -0.1151131577 0.3800547862
995050000.0 0.3260264361 0.3175250097
1005000000.0 0.5313134779 -0.1242213509
1014950000.0 0.2460811546 -0.5720869926
1024900000.0 -0.3387816966 -0.5795457095
1034850000.0 -0.7093436169 -0.0470011904
1044800000.0 -0.4451917095 0.6187482498
1054750000.0 0.3048058234 0.7555765618
1064700000.0 0.8359620028 0.2320253516
1074650000.0 0.7162526599 -0.5145700215
1084600000.0 0.1487147619 -0.7755996644
1094550000.0 -0.4891974346 -0.6685677815
1104500000.0 -0.7877664085 -0.0462958363
1114450000.0 -0.4823271629 0.5684023468
1124400000.0 0.1766468838 0.6844565257
1134350000.0 0.6249013996 0.2459641152
1144300000.0 0.5491113667 -0.3173173746
1154250000.0 0.1107404556 -0.5806856208
1164200000.0 -0.3330994965 -0.4394521818
1174150000.0 -0.5279409528 -0.0332408218
1184100000.0 -0.3436652275 0.3834411486
1194050000.0 0.0961397183 0.5066154604
1204000000.0 0.4646103793 0.2557132731
1213950000.0 0.5243106543 -0.16933092
1223900000.0 0.2785619042 -0.5017351322
1233850000.0 -0.1155497425 -0.5827157345
1243800000.0 -0.4669833514 -0.3875750835
1253750000.0 -0.6112809629 -0.0036395954
1263700000.0 -0.4651770793 0.3926295242
1273650000.0 -0.0839447029 0.5955140585
1283600000.0 0.3388447121 0.4928682947
1293550000.0 0.5898159233 0.1451027281
1303500000.0 0.5665916768 -0.2710614332
1313450000.0 0.3034023352 -0.5792268387
1323400000.0 -0.085625751 -0.6721948049
1333350000.0 -0.456867516 -0.5192297241
1343300000.0 -0.6695356364 -0.1675351153
1353250000.0 -0.6215089964 0.2543161018
1363200000.0 -0.3104229363 0.5617858182
1373150000.0 0.1295960636 0.601181057
1383100000.0 0.4896515466 0.3559820121
1393050000.0 0.6175883113 -0.0457379052
1403000000.0 0.4848592011 -0.4279572308
1412950000.0 0.1643258759 -0.650852255
1422900000.0 -0.2171616351 -0.646756654
1432850000.0 -0.5218987596 -0.423210392
1442800000.0 -0.6371160823 -0.0618990284
1452750000.0 -0.50994419 0.3013645267
1462700000.0 -0.1778225016 0.5135435612
1472650000.0 0.2177081116 0.4689117896
1482600000.0 0.4909982233 0.1861177739
1492550000.0 0.5213119479 -0.1950390937
1502500000.0 0.3144431571 -0.4994548369
1512450000.0 -0.0240014865 -0.6056840332
1522400000.0 -0.3478233461 -0.4815183389
1532350000.0 -0.5199929673 -0.1834660148
1542300000.0 -0.4613702422 0.156210373
1552250000.0 -0.1932537239 0.3727138132
1562200000.0 0.1474039975 0.3536963597
1572150000.0 0.379812943 0.1145194939
1582100000.0 0.385307859 -0.2084961354
1592050000.0 0.1757887193 -0.4402859531
1602000000.0 -0.1278923778 -0.4692748388
1611950000.0 -0.3710667443 -0.2861985161
1621900000.0 -0.4297381014 0.0167810079
1631850000.0 -0.2642133471 0.2873028319
1641800000.0 0.0508960804 0.3743850124
1651750000.0 0.3465953485 0.215911808
1661700000.0 0.4516292518 -0.1062991728
1671650000.0 0.3088931058 -0.4143751762
1681600000.0 -0.0020677888 -0.5491518339
1691550000.0 -0.3283228263 -0.4519718112
1701500000.0 -0.5249233324 -0.1661122232
1711450000.0 -0.5004648338 0.189726576
1721400000.0 -0.2465929759 0.4622682589
1731350000.0 0.1401307678 0.5077102001
1741300000.0 0.4579959753 0.2612903899
1751250000.0 0.5581529678 -0.0229581403
1761200000.0 0.447558551 -0.4149565455
1771150000.0 0.1180133451 -0.6191521539
1781100000.0 -0.2550325319 -0.5842853062
1791050000.0 -0.5334339348 -0.3438711883
1801000000.0 -0.6247724965 0.0138284607
1810950000.0 -0.4888660965 0.3652263217
1820900000.0 -0.1585465121 0.5725160614
1830850000.0 0.2380852439 0.528292214
1840800000.0 0.5173821963 0.2411313808
1850750000.0 0.5506741858 -0.1491214358
1860700000.0 0.3461413321 -0.4608061801
1870650000.0 0.0167671901 -0.5837929139
1880600000.0 -0.3049496236 -0.5028861134
1890550000.0 -0.5184551122 -0.2674190037
1900500000.0 -0.5628021331 0.0388126458
1910450000.0 -0.4262328273 0.3118611038
1920400000.0 -0.1556772797 0.4487940185
1930350000.0 0.1339633709 0.3899533754
1940300000.0 0.3117128202 0.1724468803
1950250000.0 0.3125027132 -0.08468642
1960200000.0 0.1727687876 -0.264159794
1970150000.0 -0.0140453694 -0.3143539404
1980100000.0 -0.1599497593 -0.2570963264
1990050000.0 -0.2216008994 -0.1589839021
2000000000.0 -0.216721638 -0.0925057723
