!Created with skrf (http://scikit-rf.org).
# GHz S RI R 50.0 
!freq ReS11 ImS11
10000000.0 -0.9986574218 0.1628190206
19950000.0 -0.9447245744 0.3109122988
29900000.0 -0.8685525227 0.4524952749
39850000.0 -0.7699268248 0.5918057277
49800000.0 -0.6509614055 0.7232629934
59750000.0 -0.5069022903 0.8411768693
69700000.0 -0.3314271334 0.9339665814
79650000.0 -0.1209882194 0.9847727191
89600000.0 0.1224941853 0.9774291433
99550000.0 0.386589635 0.8944439877
109500000.0 0.650295967 0.7232989314
119450000.0 0.8760049063 0.4511989759
129400000.0 1.002525694 0.0906038014
139350000.0 0.9716536167 -0.3169786842
149300000.0 0.764362456 -0.6722048111
159250000.0 0.4370456411 -0.8990467734
169200000.0 0.075238552 -0.981978734
179150000.0 -0.2583823441 -0.946020786
189100000.0 -0.5318519148 -0.8287714241
199050000.0 -0.731905759 -0.6620566303
209000000.0 -0.8575617875 -0.4686986597
218950000.0 -0.9230372569 -0.2688810146
228900000.0 -0.9404359782 -0.0738686612
238850000.0 -0.9226512624 0.1141351469
248800000.0 -0.7667453648 0.2366974425
258750000.0 -0.8222444468 0.4322767184
268700000.0 -0.7331026836 0.5764467492
278650000.0 -0.6173537266 0.6932850123
288600000.0 -0.4748087661 0.7793944286
298550000.0 -0.3104016158 0.8323286772
308500000.0 -0.1288216776 0.8512811862
318450000.0 0.0629557798 0.8323517036
328400000.0 0.2542689852 0.767204932
338350000.0 0.4225348444 0.6497900436
348300000.0 0.5425701863 0.4793641241
358250000.0 0.589407722 0.2747774788
368200000.0 0.5560977941 0.0699545473
378150000.0 0.4583208643 -0.1003175067
388100000.0 0.3257543022 -0.2153304005
398050000.0 0.1879632435 -0.2695366405
408000000.0 0.0682579549 -0.2699726517
417950000.0 -0.0226422532 -0.2312513021
427900000.0 -0.082456634 -0.171230493
437850000.0 -0.1168542945 -0.1049415877
447800000.0 -0.1308640345 -0.0442278228
457750000.0 -0.1291748339 0.0035296365
467700000.0 -0.1162040226 0.0342091154
477650000.0 -0.0948217374 0.0455268505
487600000.0 -0.0679288474 0.0383522758
497550000.0 -0.095733999 0.0065819198
507500000.0 -0.0244850325 0.0276724982
517450000.0 -0.0033387796 0.0040490355
527400000.0 0.0044660858 -0.0159060108
537350000.0 -0.0015344594 -0.0334560701
547300000.0 -0.018831097 -0.0509430318
557250000.0 -0.0479777583 -0.0639621721
567200000.0 -0.0794248654 -0.0743402412
577150000.0 -0.1107409369 -0.0807805697
587100000.0 -0.1376217605 -0.0811963877
597050000.0 -0.1577181478 -0.0733737229
607000000.0 -0.171209742 -0.0557117002
616950000.0 -0.1794664265 -0.0285224629
626900000.0 -0.183348392 0.0045163141
636850000.0 -0.183259291 0.0395832021
646800000.0 -0.1791506044 0.0726041256
656750000.0 -0.1697398443 0.100399124
666700000.0 -0.152503043 0.1200848873
676650000.0 -0.1259683306 0.130360898
686600000.0 -0.0902435339 0.1330993279
696550000.0 -0.0478814139 0.1287682654
706500000.0 -0.0037653526 0.1181079674
716450000.0 0.0376376487 0.1012614698
726400000.0 0.0707359136 0.0757736183
736350000.0 0.092214907 0.0407557827
746300000.0 0.0991415973 -0.0042011514
756250000.0 0.092444112 -0.0590379336
766200000.0 0.0724399896 -0.1183206172
776150000.0 0.0418904518 -0.1766253407
786100000.0 0.0010044266 -0.2275697435
796050000.0 -0.0487128391 -0.2636294833
806000000.0 -0.1051433063 -0.2822455948
815950000.0 -0.1697635789 -0.2772001132
825900000.0 -0.2386683413 -0.2444587558
835850000.0 -0.3117284058 -0.1625004381
845800000.0 -0.3708463701 -0.1372747634
855750000.0 -0.3832129797 -0.1107703941
865700000.0 -0.3958573656 -0.0619142066
875650000.0 -0.4250077775 -0.0004365606
885600000.0 -0.4306930128 0.068944441
895550000.0 -0.4115727377 0.1441952398
905500000.0 -0.3707935211 0.2233786261
915450000.0 -0.3114076222 0.3010265051
925400000.0 -0.2345045876 0.369521495
935350000.0 -0.1387642615 0.4191200079
945300000.0 -0.0247514517 0.4381434974
955250000.0 0.1049711233 0.4142583202
965200000.0 0.2417720631 0.3355517954
975150000.0 0.3686292543 0.1956403381
985100000.0 0.4552279969 -0.0069999162
995050000.0 0.4612200559 -0.2535598295
1005000000.0 0.3510041732 -0.4966505387
1014950000.0 0.1226529654 -0.6724900584
1024900000.0 -0.1758141336 -0.7262741909
1034850000.0 -0.4743971293 -0.647352449
1044800000.0 -0.7150439328 -0.4636813374
1054750000.0 -0.8616924654 -0.2128581756
1064700000.0 -0.8869586168 0.0538060048
1074650000.0 -0.8372356779 0.2886492656
1084600000.0 -0.7071493119 0.4964162915
1094550000.0 -0.5117427132 0.6637867512
1104500000.0 -0.2727895758 0.761788087
1114450000.0 -0.0153289937 0.7832014225
1124400000.0 0.2319944257 0.7165858575
1134350000.0 0.4302993782 0.5641547061
1144300000.0 0.5521439017 0.3498555285
1154250000.0 0.5913171152 0.1176752714
1164200000.0 0.565883342 -0.0959620189
1174150000.0 0.4951737101 -0.2865588676
1184100000.0 0.3828434284 -0.4350046468
1194050000.0 0.2470516688 -0.5318430205
1204000000.0 0.1037566998 -0.5782963331
1213950000.0 -0.0356963128 -0.5848428349
1223900000.0 -0.1639391486 -0.5649343942
1233850000.0 -0.2781978218 -0.5298857352
1243800000.0 -0.3775279519 -0.4864618177
1253750000.0 -0.4610147952 -0.4371607481
1263700000.0 -0.5267030766 -0.3815676137
1273650000.0 -0.5753668001 -0.3196308791
1283600000.0 -0.6074978229 -0.2509695461
1293550000.0 -0.628054349 -0.177442784
1303500000.0 -0.6423769179 -0.1017658777
1313450000.0 -0.6531351717 -0.028079679
1323400000.0 -0.6623215631 0.0423662172
1333350000.0 -0.6685267102 0.1081532393
1343300000.0 -0.6674881685 0.1694559382
1353250000.0 -0.6573316178 0.2245719263
1363200000.0 -0.633763269 0.27692516
1373150000.0 -0.5978157634 0.3272656847
1383100000.0 -0.5539695792 0.3771428046
1393050000.0 -0.5061183722 0.4266440557
1403000000.0 -0.4574009131 0.4753797188
1412950000.0 -0.4094868266 0.5205195133
1422900000.0 -0.3614600725 0.5587464181
1432850000.0 -0.3116975281 0.5870040359
1442800000.0 -0.2575147936 0.6045298731
1452750000.0 -0.1973292063 0.6122218663
1462700000.0 -0.1298898867 0.6118100629
1472650000.0 -0.0552505625 0.606788041
1482600000.0 0.0230923168 0.5989863074
1492550000.0 0.101226155 0.5863202031
1502500000.0 0.1763935528 0.5645175404
1512450000.0 0.2445973456 0.5308389704
1522400000.0 0.3036641354 0.482517109
1532350000.0 0.3532099957 0.4179960089
1542300000.0 0.3935171204 0.3388300028
1552250000.0 0.4256030037 0.2485892397
1562200000.0 0.4509143358 0.1531055095
1572150000.0 0.4675435996 0.0588142098
1582100000.0 0.4711130665 -0.0339388468
1592050000.0 0.4555072677 -0.1231282703
1602000000.0 0.417372091 -0.2070989627
1611950000.0 0.3591213053 -0.2829431943
1621900000.0 0.2850104485 -0.3504521945
1631850000.0 0.2012350025 -0.4086842163
1641800000.0 0.1132030158 -0.4573830523
1651750000.0 0.0247203559 -0.4939168815
1661700000.0 -0.0607401687 -0.5149187984
1671650000.0 -0.1415092924 -0.5164655996
1681600000.0 -0.2175363017 -0.4996961358
1691550000.0 -0.289545492 -0.4687542054
1701500000.0 -0.358871274 -0.4278056974
1711450000.0 -0.4250697673 -0.3820481295
1721400000.0 -0.4866229493 -0.3345776677
1731350000.0 -0.5408439877 -0.2874403179
1741300000.0 -0.5837545813 -0.2389087184
1751250000.0 -0.6117093626 -0.1866460705
1761200000.0 -0.6168435947 -0.130387466
1771150000.0 -0.5408815519 -0.0700384617
1781100000.0 -0.6141185115 -0.0063649922
1791050000.0 -0.6204116619 0.059249294
1801000000.0 -0.6196885227 0.1228994948
1810950000.0 -0.6189347246 0.1792159755
1820900000.0 -0.6155543406 0.1579444171
1830850000.0 -0.6053040271 0.2249255636
1840800000.0 -0.5840395065 0.2739746417
1850750000.0 -0.5512578113 0.312826118
1860700000.0 -0.5078885911 0.3455683245
1870650000.0 -0.4600824225 0.3758025668
1880600000.0 -0.4126779456 0.4030685986
1890550000.0 -0.3694556502 0.4275888207
1900500000.0 -0.3309286733 0.446364451
1910450000.0 -0.2955236064 0.4578476226
1920400000.0 -0.2600072699 0.4578483309
1930350000.0 -0.2219180945 0.4462389185
1940300000.0 -0.1806457423 0.4229493324
1950250000.0 -0.1367946474 0.3897314847
1960200000.0 -0.0941439021 0.3511536655
1970150000.0 -0.0605012455 0.3086424182
1980100000.0 -0.0398568485 0.2636183653
1990050000.0 -0.0374933055 0.2147549714
2000000000.0 -0.0580653383 0.1599308307
