!Created with skrf (http://scikit-rf.org).
# GHz S RI R 50.0 
!freq ReS11 ImS11
10000000.0 -0.7638104379 0.577509388
19950000.0 -0.2808958075 0.9103245471
29900000.0 0.3066993551 0.8955074538
39850000.0 0.782574707 0.5291126742
49800000.0 0.9501357902 -0.0659646315
59750000.0 0.7127139328 -0.657864973
69700000.0 0.1412262487 -0.9763424532
79650000.0 -0.5150460551 -0.8402246637
89600000.0 -0.9254822792 -0.279493678
99550000.0 -0.8440991517 0.4424119626
109500000.0 -0.2562077591 0.9235395911
119450000.0 0.5342968089 0.8183070517
129400000.0 0.9874064455 0.118362726
139350000.0 0.7228958329 -0.6855638624
149300000.0 -0.0614997374 -0.9703208538
159250000.0 -0.7523694401 -0.5614842996
169200000.0 -0.9043282682 0.1869682007
179150000.0 -0.4994556172 0.7837137083
189100000.0 0.1672193602 0.9223936876
199050000.0 0.7266461333 0.58550459
209000000.0 0.9229208805 -0.0182026559
218950000.0 0.7022464174 -0.5844063687
228900000.0 0.1929991627 -0.8818207263
238850000.0 -0.3811532359 -0.8070567853
248800000.0 -0.7812584226 -0.3897918719
258750000.0 -0.8809409741 0.1570523283
268700000.0 -0.6197337963 0.6631186118
278650000.0 -0.1135719182 0.9059361174
288600000.0 0.4300468638 0.7887301164
298550000.0 0.7883208855 0.3622913212
308500000.0 0.8131674445 -0.1974369034
318450000.0 0.4879531245 -0.6521711167
328400000.0 -0.0466761144 -0.7948997914
338350000.0 -0.5316412601 -0.5530248568
348300000.0 -0.7117589339 -0.0632142477
358250000.0 -0.5086687741 0.379349119
368200000.0 -0.0970059273 0.5261284206
378150000.0 0.2387055432 0.3533514846
388100000.0 0.32219292 0.0487608244
398050000.0 0.1826355091 -0.1622754784
408000000.0 -0.0157120676 -0.1826614071
417950000.0 -0.1222368564 -0.0670229232
427900000.0 -0.0975360937 0.0590556288
437850000.0 0.0033538169 0.102461196
447800000.0 0.0928404972 0.0522950086
457750000.0 0.111211746 -0.0440929703
467700000.0 0.0580516762 -0.1223352973
477650000.0 -0.0278389215 -0.1390022628
487600000.0 -0.0982976321 -0.0916603736
497550000.0 -0.1136001878 -0.0151260035
507500000.0 -0.082528785 0.0541575888
517450000.0 -0.0181853693 0.0804655808
527400000.0 0.0336688988 0.0603068118
537350000.0 0.048302556 0.018187583
547300000.0 0.02679228 -0.0140653217
557250000.0 -0.0087410312 -0.0149881932
567200000.0 -0.0287023491 0.0133741758
577150000.0 -0.0139811685 0.0481579009
587100000.0 0.0305734878 0.0562432572
597050000.0 0.0762632269 0.0222016584
607000000.0 0.0892203545 -0.044180434
616950000.0 0.0527424578 -0.112368062
626900000.0 -0.0233432321 -0.1441044419
636850000.0 -0.1082434899 -0.1173473024
646800000.0 -0.160135739 -0.0394649951
656750000.0 -0.1514598379 0.0595789593
666700000.0 -0.0830446512 0.1359175688
676650000.0 0.0209300463 0.1536295158
686600000.0 0.1145637859 0.0993977322
696550000.0 0.1544083653 -0.0039473841
706500000.0 0.1229683078 -0.1091306623
716450000.0 0.034320642 -0.1679805718
726400000.0 -0.06660725 -0.1537048407
736350000.0 -0.1263307845 -0.0725377855
746300000.0 -0.1113641148 0.0280173404
756250000.0 -0.0262053703 0.0919356269
766200000.0 0.0815306123 0.0807721047
776150000.0 0.1511238823 -0.0046644067
786100000.0 0.1393099302 -0.1175824235
796050000.0 0.0421203029 -0.1894499414
806000000.0 -0.0900608297 -0.1694332511
815950000.0 -0.1841152412 -0.0505720206
825900000.0 -0.1769268848 0.117436242
835850000.0 -0.0543412718 0.248965672
845800000.0 0.1343754671 0.2711697388
855750000.0 0.3021861657 0.1608671582
865700000.0 0.3673401134 -0.0442912398
875650000.0 0.2804334261 -0.2564177609
885600000.0 0.0644734278 -0.3693117419
895550000.0 -0.1884937499 -0.3116127343
905500000.0 -0.3547714268 -0.0912859578
915450000.0 -0.3393242832 0.1960317448
925400000.0 -0.1370494063 0.4088636046
935350000.0 0.1572318025 0.4318496226
945300000.0 0.3906884336 0.2409571572
955250000.0 0.4325803559 -0.0745209948
965200000.0 0.2323813755 -0.3506712562
975150000.0 -0.1392240707 -0.4083913348
985100000.0 -0.459128034 -0.1444984041
995050000.0 -0.459910547 0.3034855944
1005000000.0 -0.0864801963 0.6137708397
1014950000.0 0.4351366087 0.5043274838
1024900000.0 0.6956000637 -0.023781062
1034850000.0 0.4180255009 -0.602863406
1044800000.0 -0.2418634812 -0.7365189678
1054750000.0 -0.7507182393 -0.2805416832
1064700000.0 -0.7038288879 0.3824887468
1074650000.0 -0.1820733311 0.6758684473
1084600000.0 0.0799793363 0.6876506204
1094550000.0 0.6318356357 0.4418844313
1104500000.0 0.728032072 -0.1742266496
1114450000.0 0.3413007131 -0.6466879995
1124400000.0 -0.2377179157 -0.6784605188
1134350000.0 -0.6286183086 -0.3050039153
1144300000.0 -0.6442290824 0.1965573144
1154250000.0 -0.3402321786 0.5517397223
1164200000.0 0.1026516152 0.6113764787
1174150000.0 0.4653732734 0.3669026727
1184100000.0 0.5675434677 -0.0588858774
1194050000.0 0.3547109674 -0.4333332185
1204000000.0 -0.0383919502 -0.5605251636
1213950000.0 -0.3975773541 -0.4080462658
1223900000.0 -0.575818924 -0.0838417019
1233850000.0 -0.5289902924 0.2688401933
1243800000.0 -0.2857615959 0.522907715
1253750000.0 0.0664523935 0.582888362
1263700000.0 0.3925178964 0.4109847831
1273650000.0 0.5505347955 0.0707071817
1283600000.0 0.4734635921 -0.2934585203
1293550000.0 0.2092156313 -0.5342956605
1303500000.0 -0.1257863973 -0.5819451125
1313450000.0 -0.4183698629 -0.4449043071
1323400000.0 -0.5930611273 -0.1777242013
1333350000.0 -0.6046502597 0.1459175405
1343300000.0 -0.435765022 0.4359164069
1353250000.0 -0.1186698881 0.5842400434
1363200000.0 0.2369694712 0.5188655718
1373150000.0 0.4944232471 0.2556603931
1383100000.0 0.555267798 -0.0996003369
1393050000.0 0.4188031729 -0.4157300818
1403000000.0 0.1499150291 -0.5995272849
1412950000.0 -0.1585292988 -0.6106792187
1422900000.0 -0.4211037269 -0.4581399268
1432850000.0 -0.5644620042 -0.1797182759
1442800000.0 -0.5347301267 0.1473180834
1452750000.0 -0.3190605009 0.4114492491
1462700000.0 0.0129246961 0.5038947373
1472650000.0 0.3329349728 0.3903874979
1482600000.0 0.5223892324 0.1251791731
1492550000.0 0.528797402 -0.1879448005
1502500000.0 0.3649974243 -0.4400416158
1512450000.0 0.0943155337 -0.5531569334
1522400000.0 -0.1910741546 -0.4888999558
1532350000.0 -0.38776025 -0.263788325
1542300000.0 -0.414840351 0.0438051944
1552250000.0 -0.2521773692 0.3100002155
1562200000.0 0.0323320048 0.4223872
1572150000.0 0.3164823755 0.3413239816
1582100000.0 0.4830135212 0.1135469102
1592050000.0 0.4780981966 -0.1626940189
1602000000.0 0.3070985819 -0.3806445539
1611950000.0 0.0304345672 -0.4564689297
1621900000.0 -0.2489266675 -0.3467126626
1631850000.0 -0.4113434755 -0.0809986603
1641800000.0 -0.3795854784 0.2341330849
1651750000.0 -0.1640263789 0.4645646973
1661700000.0 0.141516746 0.5154914719
1671650000.0 0.412516452 0.3781151126
1681600000.0 0.5554483044 0.1125605305
1691550000.0 0.5265710463 -0.1906289595
1701500000.0 0.3324775437 -0.434337576
1711450000.0 0.0279769914 -0.5328646496
1721400000.0 -0.2917473454 -0.4389203375
1731350000.0 -0.5096114485 -0.171788249
1741300000.0 -0.538263719 0.1738201734
1751250000.0 -0.3715098788 0.467313488
1761200000.0 -0.0807110156 0.6125526016
1771150000.0 0.2320070615 0.5798218042
1781100000.0 0.4773942182 0.3926312127
1791050000.0 0.5938654993 0.1052810527
1801000000.0 0.5480366833 -0.2078846288
1810950000.0 0.3429729639 -0.4595965512
1820900000.0 0.0268563741 -0.561863548
1830850000.0 -0.2980164118 -0.4650239734
1840800000.0 -0.5105340349 -0.2021247266
1850750000.0 -0.5435651956 0.1177671929
1860700000.0 -0.4174789964 0.3869796524
1870650000.0 -0.1884274351 0.5506730383
1880600000.0 0.0802462541 0.5752773335
1890550000.0 0.3134028329 0.4612119181
1900500000.0 0.4543613854 0.2428969063
1910450000.0 0.4643766291 -0.022637274
1920400000.0 0.3316792014 -0.2550606651
1930350000.0 0.0980731807 -0.3710908896
1940300000.0 -0.1453286711 -0.3412216762
1950250000.0 -0.3157730765 -0.1956093258
1960200000.0 -0.373765541 -0.0089760878
1970150000.0 -0.3307447539 0.1529120775
1980100000.0 -0.2262186289 0.2458465435
1990050000.0 -0.1149003558 0.2547693315
2000000000.0 -0.0513890263 0.2027611786
