!Created with skrf (http://scikit-rf.org).
# GHz S RI R 50.0 
!freq ReS11 ImS11
10000000.0 -0.7732299881 0.6768263286
19950000.0 -0.1429169125 0.989529844
29900000.0 0.5324267575 0.8204209344
39850000.0 0.9405560825 0.2501601933
49800000.0 0.8737480491 -0.4611213681
59750000.0 0.3304068734 -0.9584808323
69700000.0 -0.4323463123 -0.937657347
79650000.0 -0.9648753847 -0.3559196034
89600000.0 -0.8937748826 0.4512967219
99550000.0 -0.2232620971 0.9431500056
109500000.0 0.6091498514 0.7382306128
119450000.0 0.9732624702 -0.0755185224
129400000.0 0.5022282336 -0.8732383387
139350000.0 -0.4347714975 -0.9187667498
149300000.0 -0.9753889255 -0.1668903111
159250000.0 -0.6795461487 0.6689725932
169200000.0 0.1211426752 0.9321572046
179150000.0 0.8092179927 0.5094389484
189100000.0 0.9507054747 -0.2594009052
199050000.0 0.4987674053 -0.8709388606
209000000.0 -0.2339911747 -0.9695803596
218950000.0 -0.8057566966 -0.5416268982
228900000.0 -0.9306990034 0.1413171263
238850000.0 -0.5777336075 0.7223335942
248800000.0 0.0330943378 0.8946592678
258750000.0 0.6720021307 0.670651703
268700000.0 0.9684695688 0.0694917969
278650000.0 0.7875777426 -0.5758792585
288600000.0 0.2221670368 -0.9293765676
298550000.0 -0.4262691286 -0.8106594424
308500000.0 -0.8196452642 -0.2912910332
318450000.0 -0.7538906268 0.3489324899
328400000.0 -0.267951554 0.7568912722
338350000.0 0.3474962515 0.6934473024
348300000.0 0.6943758702 0.2168671608
358250000.0 0.5655298076 -0.3094182808
368200000.0 0.1316999656 -0.5113912927
378150000.0 -0.2343053287 -0.3224666257
388100000.0 -0.2878742391 0.0100633885
398050000.0 -0.0942338178 0.1951706697
408000000.0 0.1126178992 0.1447902686
417950000.0 0.1615819782 -0.019023145
427900000.0 0.0576841025 -0.1245893784
437850000.0 -0.0785245114 -0.096929745
447800000.0 -0.1341890815 0.0217803684
457750000.0 -0.0757704026 0.1355531992
467700000.0 0.045015421 0.1663937183
477650000.0 0.1426358771 0.1030277138
487600000.0 0.1595980118 -0.0054728929
497550000.0 0.1083982662 -0.0802867625
507500000.0 0.015783211 -0.109613702
517450000.0 -0.048100139 -0.070408701
527400000.0 -0.061393685 -0.0117588486
537350000.0 -0.0387851469 0.0234128667
547300000.0 -0.0144563319 0.0211335138
557250000.0 -0.0174901943 0.0006681191
567200000.0 -0.0441751122 0.0001614622
577150000.0 -0.0623046763 0.0351996109
587100000.0 -0.0411821472 0.0867960937
597050000.0 0.0236235667 0.113056423
607000000.0 0.1011427046 0.0797543257
616950000.0 0.1427475866 -0.011152698
626900000.0 0.1133952085 -0.1184337491
636850000.0 0.0149581444 -0.1844108433
646800000.0 -0.107891494 -0.1682529314
656750000.0 -0.1917483585 -0.0714575659
666700000.0 -0.1887252003 0.0575097428
676650000.0 -0.0980813418 0.1490424446
686600000.0 0.0319228988 0.1528885327
696550000.0 0.1288644346 0.0677836153
706500000.0 0.1399427495 -0.055449056
716450000.0 0.0643229547 -0.1449828728
726400000.0 -0.0458863078 -0.1484883587
736350000.0 -0.1097030812 -0.067750528
746300000.0 -0.072630474 0.0056575651
756250000.0 -0.0222121545 0.0424143959
766200000.0 0.0686654435 0.0156390627
776150000.0 0.1010172061 -0.0877798707
786100000.0 0.0294278975 -0.1870043546
796050000.0 -0.110290388 -0.1956367217
806000000.0 -0.2226013443 -0.0807666442
815950000.0 -0.2126088757 0.103404232
825900000.0 -0.0551245415 0.2409205775
835850000.0 0.1764299125 0.2282755252
845800000.0 0.3489418975 0.0459410234
855750000.0 0.3509259719 -0.2215560581
865700000.0 0.1597289117 -0.4308770522
875650000.0 -0.1370875303 -0.4563513256
885600000.0 -0.3840348588 -0.2633786503
895550000.0 -0.4356579285 0.0615046944
905500000.0 -0.2432685778 0.3464149516
915450000.0 0.1035235772 0.4236677541
925400000.0 0.412491533 0.2331742641
935350000.0 0.5004077135 -0.1243084699
945300000.0 0.3047455982 -0.4424295802
955250000.0 -0.068931716 -0.5213548917
965200000.0 -0.3905423004 -0.2898615413
975150000.0 -0.4262541349 0.127599877
985100000.0 -0.0985746416 0.4333637995
995050000.0 0.3745617621 0.3385303104
1005000000.0 0.5705742141 -0.1415713403
1014950000.0 0.2488507472 -0.598265708
1024900000.0 -0.3577114664 -0.5874118709
1034850000.0 -0.7098819487 -0.0327028241
1044800000.0 -0.4208169698 0.6366691039
1054750000.0 0.3374214942 0.7604892437
1064700000.0 0.8416291652 0.2029944165
1074650000.0 0.7351708668 -0.5260087012
1084600000.0 0.1062958334 -0.881221019
1094550000.0 -0.5516406479 -0.6468122205
1104500000.0 -0.8134308515 -0.0077183881
1114450000.0 -0.4965699479 0.6092957731
1124400000.0 0.1769362338 0.7434365358
1134350000.0 0.6700520218 0.3126426186
1144300000.0 0.641604401 -0.2900401704
1154250000.0 0.2067129528 -0.6296090519
1164200000.0 -0.2991836336 -0.5459284599
1174150000.0 -0.5758925063 -0.1393970908
1184100000.0 -0.4657575191 0.3368295171
1194050000.0 -0.0326616331 0.5643136717
1204000000.0 0.4113150484 0.3874025865
1213950000.0 0.5694817642 -0.0413878563
1223900000.0 0.3853234702 -0.4360477181
1233850000.0 -0.0013077134 -0.5966876821
1243800000.0 -0.3926591379 -0.4674470542
1253750000.0 -0.6084423208 -0.1109284355
1263700000.0 -0.5337080797 0.3108257844
1273650000.0 -0.1872225291 0.5806415609
1283600000.0 0.253666585 0.5455075901
1293550000.0 0.5558378688 0.2301294152
1303500000.0 0.5852278477 -0.1937819927
1313450000.0 0.3561725336 -0.5349268257
1323400000.0 -0.0229899882 -0.6695705657
1333350000.0 -0.4092776153 -0.5533646858
1343300000.0 -0.6563358795 -0.2220696294
1353250000.0 -0.6480264894 0.2041023459
1363200000.0 -0.363657933 0.5376950733
1373150000.0 0.0754118106 0.6111397133
1383100000.0 0.4571958561 0.3903208135
1393050000.0 0.6143261467 -0.005499459
1403000000.0 0.5042370339 -0.3990881622
1412950000.0 0.1922116333 -0.6446422895
1422900000.0 -0.198691482 -0.6635835309
1432850000.0 -0.5249800303 -0.4497647344
1442800000.0 -0.656514828 -0.077272094
1452750000.0 -0.5243093293 0.3056897423
1462700000.0 -0.1751037171 0.5235722075
1472650000.0 0.2278564756 0.4678075316
1482600000.0 0.4935816445 0.1711015236
1492550000.0 0.5114557834 -0.2143340254
1502500000.0 0.2964609459 -0.5122798819
1512450000.0 -0.0435908217 -0.6061214999
1522400000.0 -0.3618811624 -0.4664417532
1532350000.0 -0.5207579947 -0.1580594564
1542300000.0 -0.4439682907 0.177093759
1552250000.0 -0.1621698945 0.3742019645
1562200000.0 0.1798064409 0.330969911
1572150000.0 0.3978693702 0.0746385789
1582100000.0 0.3794301435 -0.2495493204
1592050000.0 0.1471453462 -0.4670171059
1602000000.0 -0.1674013686 -0.4729251553
1611950000.0 -0.403698243 -0.2658999123
1621900000.0 -0.4388081725 0.0530887703
1631850000.0 -0.2417052208 0.3239365872
1641800000.0 0.0969379119 0.3922918433
1651750000.0 0.3948740814 0.2034842898
1661700000.0 0.4802145946 -0.1446626053
1671650000.0 0.3073559874 -0.4580288236
1681600000.0 -0.02652608 -0.5760919014
1691550000.0 -0.3537837492 -0.4455475476
1701500000.0 -0.5283458207 -0.1782679952
1711450000.0 -0.5216317324 0.1949505304
1721400000.0 -0.2635990079 0.4837292921
1731350000.0 0.1325194783 0.5457603559
1741300000.0 0.48441891 0.3339385791
1751250000.0 0.6157923454 -0.0591492997
1761200000.0 0.4685921828 -0.4396821366
1771150000.0 0.127728434 -0.6422187729
1781100000.0 -0.255566601 -0.6047164777
1791050000.0 -0.5436721622 -0.3587090956
1801000000.0 -0.6434784317 0.0085346678
1810950000.0 -0.5131804368 0.3737495186
1820900000.0 -0.1805605789 0.5968929548
1830850000.0 0.2313328575 0.565679326
1840800000.0 0.5334238439 0.2804864413
1850750000.0 0.5847857488 -0.1214503004
1860700000.0 0.3860708295 -0.452262599
1870650000.0 0.0507485748 -0.5944714448
1880600000.0 -0.2852006989 -0.5284303905
1890550000.0 -0.5175099399 -0.3004113691
1900500000.0 -0.5828280059 0.0098360461
1910450000.0 -0.4630195309 0.3003416827
1920400000.0 -0.1989014661 0.4633333862
1930350000.0 0.1000041709 0.4317115049
1940300000.0 0.3033002166 0.2301974627
1950250000.0 0.3373676906 -0.0326165139
1960200000.0 0.2237515861 -0.2379672292
1970150000.0 0.0427255603 -0.3275557684
1980100000.0 -0.1267041886 -0.3070958982
1990050000.0 -0.2379790744 -0.2192971161
2000000000.0 -0.2802837881 -0.1143446052
