!Created with skrf (http://scikit-rf.org).
# GHz S RI R 50.0 
!freq ReS11 ImS11
10000000.0 -0.7409233619 0.6693728822
19950000.0 -0.1095821723 0.9794390755
29900000.0 0.574294776 0.792461067
39850000.0 0.9634480969 0.1764438407
49800000.0 0.8092032019 -0.5636907965
59750000.0 0.1369482882 -0.9836970095
69700000.0 -0.6634008968 -0.7339300326
79650000.0 -0.9626835936 0.1123158261
89600000.0 -0.3544266309 0.869950654
99550000.0 0.665417296 0.6344263858
109500000.0 0.8127186803 -0.4375405832
119450000.0 -0.1068330233 -0.92652986
129400000.0 -0.8603791839 -0.3502201889
139350000.0 -0.7715279268 0.499384693
149300000.0 -0.1012628193 0.9093146215
159250000.0 0.6074024018 0.6926750992
169200000.0 0.9329377131 0.0549422639
179150000.0 0.7236769254 -0.6106375436
189100000.0 0.1213509169 -0.940465236
199050000.0 -0.4726293417 -0.7992393621
209000000.0 -0.8900598684 -0.2807532462
218950000.0 -0.8494335398 0.3622231397
228900000.0 -0.4051942447 0.8238888522
238850000.0 0.2358204821 0.8890953756
248800000.0 0.7700361298 0.51577545
258750000.0 0.9238204977 -0.1275183387
268700000.0 0.5971213604 -0.7121759456
278650000.0 -0.0476486397 -0.9114155083
288600000.0 -0.6517985785 -0.5986050388
298550000.0 -0.8491315238 0.0589537349
308500000.0 -0.4857866164 0.6513808199
318450000.0 0.2090880799 0.7388527905
328400000.0 0.6728805178 0.2280819466
338350000.0 0.489464622 -0.3994925763
348300000.0 -0.0872729788 -0.5380973716
358250000.0 -0.4313100432 -0.1525777994
368200000.0 -0.311889467 0.2658703527
378150000.0 0.0553414214 0.3802253822
388100000.0 0.3252405915 0.1694738151
398050000.0 0.3197177841 -0.1373046324
408000000.0 0.1097381975 -0.2996522408
417950000.0 -0.1150546295 -0.253103774
427900000.0 -0.2183053971 -0.0939327832
437850000.0 -0.1898086877 0.0477123952
447800000.0 -0.1082724288 0.1094121071
457750000.0 -0.0483694446 0.1160982002
467700000.0 -0.018120644 0.1232677112
477650000.0 0.0248500789 0.1527052461
487600000.0 0.1323821496 0.1521187999
497550000.0 0.2333307961 0.0611736439
507500000.0 0.2626582381 -0.1055341074
517450000.0 0.1637476804 -0.2751226897
527400000.0 -0.04301484 -0.3491956583
537350000.0 -0.2649832282 -0.2685343467
547300000.0 -0.3911959929 -0.0543017711
557250000.0 -0.3504071571 0.1995097935
567200000.0 -0.1513943456 0.3744327285
577150000.0 0.1136151655 0.3853277468
587100000.0 0.3216530718 0.2227858647
597050000.0 0.3847909592 -0.0293329295
607000000.0 0.2804693989 -0.2533135632
616950000.0 0.0697775216 -0.3604341682
626900000.0 -0.1451107405 -0.3209734098
636850000.0 -0.2784680947 -0.1730984762
646800000.0 -0.2956283745 0.0070775948
656750000.0 -0.2191132087 0.1442302709
666700000.0 -0.0961351194 0.2061419658
676650000.0 0.0228030168 0.2011935023
686600000.0 0.1154813556 0.152250279
696550000.0 0.1787491144 0.0744861516
706500000.0 0.2086193992 -0.027253971
716450000.0 0.1890124015 -0.1447564963
726400000.0 0.101479768 -0.2464370142
736350000.0 -0.0450260691 -0.2879718251
746300000.0 -0.202302562 -0.2288713865
756250000.0 -0.2972395698 -0.0754130787
766200000.0 -0.2716619762 0.1156419521
776150000.0 -0.1241807635 0.2526346234
786100000.0 0.0806096243 0.2584420957
796050000.0 0.2371012085 0.1270494452
806000000.0 0.2623081694 -0.0719210888
815950000.0 0.1464373119 -0.2212742365
825900000.0 -0.0325116135 -0.2358385196
835850000.0 -0.1476300838 -0.1171802265
845800000.0 -0.1178970188 0.0368629612
855750000.0 0.0257938641 0.0897763135
865700000.0 0.1463437914 -0.0154481225
875650000.0 0.1138952035 -0.1924837923
885600000.0 -0.0849922334 -0.2732312366
895550000.0 -0.3001717528 -0.1402486532
905500000.0 -0.3354458436 0.154964134
915450000.0 -0.0997225768 0.4031621771
925400000.0 0.2877046089 0.3714949086
935350000.0 0.4770397574 -0.0306430439
945300000.0 0.2044440044 -0.0522220695
955250000.0 0.3629802198 -0.3552436899
965200000.0 -0.0489182291 -0.5318733046
975150000.0 -0.1581324542 -0.1325397859
985100000.0 -0.3878107823 -0.4896983466
995050000.0 -0.6825685989 0.0302319036
1005000000.0 -0.463270981 0.5133626209
1014950000.0 0.0108292984 0.7020880728
1024900000.0 0.4819841253 0.5327558953
1034850000.0 0.727480528 0.1062991892
1044800000.0 0.6471089496 -0.3682980839
1054750000.0 0.2969168134 -0.682524482
1064700000.0 -0.1650497775 -0.717719525
1074650000.0 -0.5529388633 -0.4690401801
1084600000.0 -0.7140343095 -0.031823796
1094550000.0 -0.5669867701 0.4190453529
1104500000.0 -0.1608957009 0.6788729487
1114450000.0 0.3190320509 0.6148077681
1124400000.0 0.6385085113 0.2569490202
1134350000.0 0.6463701379 -0.2125320276
1144300000.0 0.3571646953 -0.5636551943
1154250000.0 -0.0764022004 -0.6461589957
1164200000.0 -0.4562773109 -0.4330551167
1174150000.0 -0.599686647 -0.023953329
1184100000.0 -0.4235285328 0.3718772198
1194050000.0 -0.0211194986 0.525280031
1204000000.0 0.3569079354 0.3379692623
1213950000.0 0.468116664 -0.054605031
1223900000.0 0.2567940057 -0.3867562163
1233850000.0 -0.1179870439 -0.4484159333
1243800000.0 -0.408790815 -0.2121721157
1253750000.0 -0.4231766423 0.1640216892
1263700000.0 -0.1460051815 0.4262959014
1273650000.0 0.2407046962 0.3911371468
1283600000.0 0.4807063992 0.0794683415
1293550000.0 0.426990479 -0.3094263954
1303500000.0 0.1222678581 -0.5527806806
1313450000.0 -0.2640178302 -0.5293083865
1323400000.0 -0.5461204892 -0.2688221288
1333350000.0 -0.6056153934 0.1305290054
1343300000.0 -0.3776666434 0.4904125024
1353250000.0 0.0449521442 0.6135834875
1363200000.0 0.4508730619 0.4275756167
1373150000.0 0.6421236222 0.0266556309
1383100000.0 0.5423637036 -0.3979949272
1393050000.0 0.2097387922 -0.6685961495
1403000000.0 -0.214734793 -0.6862246092
1412950000.0 -0.56736127 -0.4468250292
1422900000.0 -0.7090733776 -0.0386284483
1432850000.0 -0.5693066186 0.3809882853
1442800000.0 -0.1927755589 0.6290017157
1452750000.0 0.2588228947 0.5861062218
1462700000.0 0.5803105007 0.27374763
1472650000.0 0.6352031118 -0.1579790995
1482600000.0 0.4211408285 -0.5157399125
1492550000.0 0.0570532582 -0.6610242287
1502500000.0 -0.3008233827 -0.5738976351
1512450000.0 -0.5463471289 -0.3086310639
1522400000.0 -0.5934590791 0.0645231631
1532350000.0 -0.3872164137 0.3970353559
1542300000.0 -0.0088091898 0.5144419925
1552250000.0 0.3420461533 0.3520925177
1562200000.0 0.4845046441 0.0127073892
1572150000.0 0.3689082555 -0.3083578046
1582100000.0 0.0913181759 -0.4528425464
1592050000.0 -0.1837347686 -0.3697470032
1602000000.0 -0.3064089277 -0.1360383862
1611950000.0 -0.2196629121 0.0872296768
1621900000.0 -0.0103420402 0.1457869021
1631850000.0 0.1398177142 0.0160605892
1641800000.0 0.1101831556 -0.1712132864
1651750000.0 -0.0716315194 -0.2463790139
1661700000.0 -0.2546195655 -0.1351904691
1671650000.0 -0.2900784717 0.102276448
1681600000.0 -0.1163300993 0.3073104891
1691550000.0 0.1784186237 0.3236526062
1701500000.0 0.4141609019 0.1112441678
1711450000.0 0.4349413907 -0.2177526906
1721400000.0 0.224850501 -0.4812450798
1731350000.0 -0.1109296364 -0.5477264835
1741300000.0 -0.41683645 -0.3868396239
1751250000.0 -0.5607637203 -0.0658889617
1761200000.0 -0.4701660318 0.2817809535
1771150000.0 -0.1768858531 0.4984701135
1781100000.0 0.1864130798 0.4733028747
1791050000.0 0.4340882387 0.2240341706
1801000000.0 0.4618705857 -0.1048950377
1810950000.0 0.2932858011 -0.3600460596
1820900000.0 0.0148233625 -0.4460642227
1830850000.0 -0.2191846725 -0.3253656126
1840800000.0 -0.2669281361 -0.1294714837
1850750000.0 -0.2000281373 -0.0608108245
1860700000.0 -0.2501596247 -0.0922646941
1870650000.0 -0.4030026236 0.0412766069
1880600000.0 -0.3614808186 0.3667451004
1890550000.0 -0.0085348927 0.583565661
1900500000.0 0.4333927421 0.4464552966
1910450000.0 0.6436249583 0.0162861004
1920400000.0 0.5065291377 -0.4262186752
1930350000.0 0.1471757412 -0.6761062504
1940300000.0 -0.2945394255 -0.6697318937
1950250000.0 -0.6505802825 -0.3834571035
1960200000.0 -0.7526154373 0.0667072284
1970150000.0 -0.5492611383 0.488733637
1980100000.0 -0.1134813211 0.6879179417
1990050000.0 0.3510949393 0.5502331298
2000000000.0 0.6024218649 0.1418478233
