!Created with skrf (http://scikit-rf.org).
# GHz S RI R 50.0 
!freq ReS11 ImS11
10000000.0 -0.7866344638 0.595106662
19950000.0 -0.2860236876 0.9397214201
29900000.0 0.3205382992 0.9301654964
39850000.0 0.8115745466 0.5629509353
49800000.0 0.9895650175 -0.0368606342
59750000.0 0.758987432 -0.6358663464
69700000.0 0.1891625921 -0.9677411146
79650000.0 -0.4801010053 -0.8532105031
89600000.0 -0.9221678503 -0.3085396589
99550000.0 -0.8753082027 0.4180972477
109500000.0 -0.3063040539 0.9221799105
119450000.0 0.4855979453 0.8446015219
129400000.0 0.9593464208 0.1667239467
139350000.0 0.7283533875 -0.6373123154
149300000.0 -0.0418243459 -0.9574890337
159250000.0 -0.7547726393 -0.5800483742
169200000.0 -0.9351883296 0.169300776
179150000.0 -0.5358323383 0.7858325906
189100000.0 0.1478784165 0.9396779432
199050000.0 0.7303465573 0.6056502817
209000000.0 0.9435262334 -0.0063374706
218950000.0 0.7279079912 -0.5911924295
228900000.0 0.2099477401 -0.9092316062
238850000.0 -0.3829319972 -0.8474977233
248800000.0 -0.8112274393 -0.4318645903
258750000.0 -0.918668227 0.1205480647
268700000.0 -0.6656292056 0.6412840559
278650000.0 -0.1534867126 0.9053021927
288600000.0 0.4126656971 0.8076830373
298550000.0 0.8016675295 0.3877951748
308500000.0 0.8492797235 -0.1803172284
318450000.0 0.5321975291 -0.6488223815
328400000.0 -0.004269166 -0.8021710117
338350000.0 -0.4950117828 -0.5686100852
348300000.0 -0.6865392945 -0.0873178499
358250000.0 -0.4995096803 0.3550961183
368200000.0 -0.0991586792 0.5098649629
378150000.0 0.2315688363 0.3458762061
388100000.0 0.3110023609 0.0491813357
398050000.0 0.1672867996 -0.1536493289
408000000.0 -0.0312676074 -0.165000641
417950000.0 -0.1337472285 -0.0413233098
427900000.0 -0.1011858522 0.0904268576
437850000.0 0.0101107066 0.1373281038
447800000.0 0.1125752929 0.0846681727
457750000.0 0.1399756354 -0.0237551337
467700000.0 0.0861677536 -0.1176150077
477650000.0 -0.0118555779 -0.1489794162
487600000.0 -0.1001382642 -0.1098379836
497550000.0 -0.1345516398 -0.0332043876
507500000.0 -0.1167707581 0.0420505418
517450000.0 -0.0597238729 0.0783831134
527400000.0 -0.0066721939 0.0682981092
537350000.0 0.0170449573 0.0327354319
547300000.0 0.0081297083 0.0021206121
557250000.0 -0.0142093805 -0.0030698439
567200000.0 -0.0228716285 0.0176514365
577150000.0 -0.0007040375 0.0423750221
587100000.0 0.0457131655 0.041479128
597050000.0 0.0887263096 0.0019168788
607000000.0 0.0989489059 -0.0674503826
616950000.0 0.0585679743 -0.1367959188
626900000.0 -0.0232193529 -0.1681524335
636850000.0 -0.1137193657 -0.1407190381
646800000.0 -0.1707483917 -0.0577823319
656750000.0 -0.1650153776 0.0497295402
666700000.0 -0.0918176016 0.1347827102
676650000.0 0.0206738364 0.1587603833
686600000.0 0.1245659174 0.1095577585
696550000.0 0.1751263832 0.0068670859
706500000.0 0.1517564981 -0.1002795239
716450000.0 0.0661105548 -0.1629473759
726400000.0 -0.0368548494 -0.152708204
736350000.0 -0.1037375068 -0.0750541884
746300000.0 -0.0978621832 0.0268218947
756250000.0 -0.0208813873 0.095237954
766200000.0 0.0825698896 0.08946155
776150000.0 0.1519179672 0.006409569
786100000.0 0.1384415907 -0.1057512059
796050000.0 0.0397611807 -0.1797249812
806000000.0 -0.0948307931 -0.1636201758
815950000.0 -0.1963842691 -0.0488111443
825900000.0 -0.1986651047 0.1207529881
835850000.0 -0.0802938938 0.2634390754
845800000.0 0.11541664 0.2992226815
855750000.0 0.2989938875 0.1958096466
865700000.0 0.3795808183 -0.0123040657
875650000.0 0.3064656111 -0.2366351559
885600000.0 0.095688582 -0.3736389714
895550000.0 -0.1697156504 -0.3431374439
905500000.0 -0.3629946403 -0.1397363259
915450000.0 -0.378293908 0.1496162726
925400000.0 -0.1959232094 0.3839234765
935350000.0 0.1025663324 0.4388264192
945300000.0 0.3679003453 0.2702908186
955250000.0 0.4463990087 -0.0520510274
965200000.0 0.2556471959 -0.3563536623
975150000.0 -0.1330867062 -0.4252624113
985100000.0 -0.4659856468 -0.1460562755
995050000.0 -0.4547277177 0.3277339082
1005000000.0 -0.0450564605 0.6360929456
1014950000.0 0.4951493917 0.4963081956
1024900000.0 0.7448003575 -0.0619892884
1034850000.0 0.4347467416 -0.6488233401
1044800000.0 -0.2468972892 -0.7689680446
1054750000.0 -0.7649909902 -0.3209192416
1064700000.0 -0.7714881951 0.3322173026
1074650000.0 -0.3192063652 0.7492227816
1084600000.0 0.1501906247 0.7303373116
1094550000.0 0.6368484748 0.4811247281
1104500000.0 0.7605796695 -0.1097292255
1114450000.0 0.4164165631 -0.5972208047
1124400000.0 -0.1491285282 -0.6823735397
1134350000.0 -0.5771928392 -0.3646695765
1144300000.0 -0.6611989083 0.1196747788
1154250000.0 -0.4135486258 0.5060670869
1164200000.0 0.0094828802 0.6209367967
1174150000.0 0.392748203 0.4285137428
1184100000.0 0.5458987603 0.0270950244
1194050000.0 0.3857619813 -0.3676478352
1204000000.0 0.0151247311 -0.544656841
1213950000.0 -0.3607829742 -0.4424934355
1223900000.0 -0.577510664 -0.1446248158
1233850000.0 -0.5694577186 0.2109360573
1243800000.0 -0.351256624 0.4895299464
1253750000.0 -0.0049636897 0.5848197053
1263700000.0 0.338976599 0.451536265
1273650000.0 0.5385127467 0.1338154245
1283600000.0 0.5111964205 -0.2401448613
1293550000.0 0.2792284125 -0.5208684651
1303500000.0 -0.0570710993 -0.6177775968
1313450000.0 -0.3795773501 -0.5194872159
1323400000.0 -0.5948913345 -0.2689390211
1333350000.0 -0.6436062287 0.0600536947
1343300000.0 -0.5044953941 0.372897913
1353250000.0 -0.2035692821 0.5652797248
1363200000.0 0.1643366991 0.5562434291
1373150000.0 0.4662968934 0.3379531951
1383100000.0 0.5903873718 -0.0059599677
1393050000.0 0.5076904213 -0.3461678937
1403000000.0 0.2660110086 -0.5772956862
1412950000.0 -0.0494079555 -0.641774464
1422900000.0 -0.3472690446 -0.5334396507
1432850000.0 -0.5447774765 -0.2801079451
1442800000.0 -0.5742774034 0.0489564509
1452750000.0 -0.4125812043 0.3485817415
1462700000.0 -0.103615496 0.5066495232
1472650000.0 0.235329614 0.4597530831
1482600000.0 0.4774768157 0.2365104595
1492550000.0 0.5466600599 -0.0675576071
1502500000.0 0.4403172994 -0.3437936755
1512450000.0 0.205206455 -0.5083321246
1522400000.0 -0.0802621818 -0.5116660806
1532350000.0 -0.3203139046 -0.3465026972
1542300000.0 -0.4172481751 -0.0639518889
1552250000.0 -0.3217203036 0.2230972318
1562200000.0 -0.0730901044 0.3864042297
1572150000.0 0.2125497593 0.3630048252
1582100000.0 0.4140214017 0.1776475657
1592050000.0 0.4597013701 -0.0811921748
1602000000.0 0.3421249791 -0.3134530816
1611950000.0 0.1024681045 -0.4319661742
1621900000.0 -0.1720580059 -0.3779553806
1631850000.0 -0.3649686079 -0.1567052129
1641800000.0 -0.3793095205 0.1456565345
1651750000.0 -0.2038927341 0.3945717033
1661700000.0 0.0820637039 0.4853027572
1671650000.0 0.3599745746 0.3929865547
1681600000.0 0.5345260287 0.1620554955
1691550000.0 0.5503145039 -0.1309560347
1701500000.0 0.3967775357 -0.3922915535
1711450000.0 0.1082122038 -0.5305878593
1721400000.0 -0.2245165191 -0.4767737429
1731350000.0 -0.4731564584 -0.2342315057
1741300000.0 -0.5383667477 0.1082248015
1751250000.0 -0.4028380774 0.4196105446
1761200000.0 -0.1308516775 0.599920582
1771150000.0 0.1825463606 0.6102839255
1781100000.0 0.4516363633 0.4616648719
1791050000.0 0.6087627588 0.1957715031
1801000000.0 0.6062568596 -0.1228956314
1810950000.0 0.4283748543 -0.403812862
1820900000.0 0.1153215151 -0.5481491937
1830850000.0 -0.2307689614 -0.4936430445
1840800000.0 -0.4819195812 -0.2601558287
1850750000.0 -0.5563428443 0.053711139
1860700000.0 -0.4673907946 0.3230518916
1870650000.0 -0.2871630175 0.5152621448
1880600000.0 -0.0294609453 0.5951782081
1890550000.0 0.2300159267 0.5289540557
1900500000.0 0.4184082845 0.3368908207
1910450000.0 0.4763863499 0.070763539
1920400000.0 0.3815936841 -0.1845832248
1930350000.0 0.1691434829 -0.3422278009
1940300000.0 -0.0781016088 -0.3572911388
1950250000.0 -0.2729345467 -0.2503885443
1960200000.0 -0.3678406067 -0.0830484079
1970150000.0 -0.3618130059 0.080206434
1980100000.0 -0.2840346658 0.1915495942
1990050000.0 -0.1816040766 0.2288577713
2000000000.0 -0.1035579879 0.2029132955
