!Created with skrf (http://scikit-rf.org).
# GHz S RI R 50.0 
!freq ReS11 ImS11
10000000.0 -0.771649744 0.6790526976
19950000.0 -0.1385755668 0.9899322132
29900000.0 0.536864757 0.8169248831
39850000.0 0.9418899761 0.2442891025
49800000.0 0.8715363512 -0.4654360069
59750000.0 0.3287819269 -0.959174135
69700000.0 -0.4280698252 -0.9398909945
79650000.0 -0.9596483016 -0.3709876319
89600000.0 -0.9083953313 0.4230166716
99550000.0 -0.2756253716 0.9301470609
109500000.0 0.5431747057 0.7874861609
119450000.0 0.9727426807 0.0408932948
129400000.0 0.630113434 -0.7809942038
139350000.0 -0.2691354757 -0.9829151791
149300000.0 -0.9332403599 -0.3504399862
159250000.0 -0.7989359195 0.5302558209
169200000.0 -0.0473664045 0.9383726371
179150000.0 0.7163621258 0.626162291
189100000.0 0.97177132 -0.1340317251
199050000.0 0.5848513597 -0.8140748604
209000000.0 -0.1576555447 -0.9856677847
218950000.0 -0.7757231393 -0.584502742
228900000.0 -0.9329645483 0.1138550713
238850000.0 -0.5760862772 0.719151317
248800000.0 0.0192751576 0.7236726458
258750000.0 0.6840856459 0.6527108704
268700000.0 0.9663080157 0.0234203769
278650000.0 0.7408213168 -0.6232974541
288600000.0 0.1374191498 -0.9338190559
298550000.0 -0.5046226318 -0.7458778549
308500000.0 -0.8356739651 -0.1751980124
318450000.0 -0.6784951987 0.4564068051
328400000.0 -0.1285358719 0.7850255587
338350000.0 0.4719675497 0.6133302338
348300000.0 0.7268952667 0.0750611112
358250000.0 0.495340652 -0.4253144031
368200000.0 0.0150689799 -0.5476832814
378150000.0 -0.3319173098 -0.2871672032
388100000.0 -0.3415602267 0.084722505
398050000.0 -0.0996307502 0.2827976393
408000000.0 0.1520351276 0.2206077666
417950000.0 0.233767177 0.0223637843
427900000.0 0.1402521772 -0.131970998
437850000.0 -0.0132345518 -0.1486830807
447800000.0 -0.1078321319 -0.0544940129
457750000.0 -0.0971342588 0.0600929748
467700000.0 -0.0163785787 0.1148848265
477650000.0 0.0606679975 0.0912326703
487600000.0 0.0795168992 0.0305162239
497550000.0 0.1216203231 0.018397031
507500000.0 0.0348862493 -0.0377818457
517450000.0 0.0067319174 -0.0164914936
527400000.0 0.0129738864 0.0004755809
537350000.0 0.0289428423 -0.0113749301
547300000.0 0.0218997783 -0.0492149021
557250000.0 -0.0304182425 -0.0730496002
567200000.0 -0.0968617056 -0.0467612256
577150000.0 -0.1319895245 0.0313934968
587100000.0 -0.0949099718 0.1277376161
597050000.0 0.0343131231 0.1623134042
607000000.0 0.079807135 0.1099524599
616950000.0 0.1584055377 0.0361138376
626900000.0 0.1549651509 -0.0898458206
636850000.0 0.0628982524 -0.1848390466
646800000.0 -0.0707499027 -0.1951694918
656750000.0 -0.1765571579 -0.1141382126
666700000.0 -0.1984192134 0.0147593244
676650000.0 -0.1274748313 0.1205381012
686600000.0 -0.006104407 0.1460699458
696550000.0 0.094503434 0.0821067405
706500000.0 0.1190222504 -0.0270847173
716450000.0 0.0622940887 -0.1121825731
726400000.0 -0.0299000272 -0.123440992
736350000.0 -0.0879920172 -0.0611731783
746300000.0 -0.0674318725 0.0202157962
756250000.0 0.0186452053 0.0496039615
766200000.0 0.1034510784 -0.0096111362
776150000.0 0.1119007672 -0.1291702929
786100000.0 0.0149995516 -0.226355676
796050000.0 -0.1425047017 -0.2195935802
806000000.0 -0.260148384 -0.0840158252
815950000.0 -0.2451004496 0.1189932561
825900000.0 -0.0761094221 0.2706231915
835850000.0 0.1716264854 0.2658664054
845800000.0 0.364043702 0.0833468222
855750000.0 0.3863475776 -0.1947999138
865700000.0 0.2097054582 -0.4264987996
875650000.0 -0.0871956051 -0.4825349497
885600000.0 -0.3549455131 -0.3179272079
895550000.0 -0.4449144594 -0.004503278
905500000.0 -0.2938089262 0.2964304973
915450000.0 0.0307013917 0.4150290535
925400000.0 0.3500588639 0.2720717453
935350000.0 0.4753622678 -0.0566666816
945300000.0 0.3240905662 -0.3754407933
955250000.0 -0.0180994149 -0.478910344
965200000.0 -0.3288150579 -0.2796707077
975150000.0 -0.3666353131 0.1085551567
985100000.0 -0.047892753 0.3837617525
995050000.0 0.3924202287 0.2532267113
1005000000.0 0.5217693999 -0.232636469
1014950000.0 0.1404871772 -0.6357760792
1024900000.0 -0.4609795045 -0.5236546389
1034850000.0 -0.7314522784 0.0922973948
1044800000.0 -0.3440860603 0.7139347904
1054750000.0 0.4255297214 0.7333723175
1064700000.0 0.827485505 0.1624368922
1074650000.0 0.733271952 -0.511051966
1084600000.0 0.1410524632 -0.8670300694
1094550000.0 -0.5081171342 -0.6706644935
1104500000.0 -0.7939596675 -0.0643292811
1114450000.0 -0.5222142571 0.5499116629
1124400000.0 0.1200975171 0.7147811488
1134350000.0 0.6096739161 0.3210230882
1144300000.0 0.5931143924 -0.2528914873
1154250000.0 0.1796098229 -0.5681207592
1164200000.0 -0.2874437858 -0.4684636858
1174150000.0 -0.5108103607 -0.0753598952
1184100000.0 -0.3615440303 0.3484618896
1194050000.0 0.0613071495 0.4990914966
1204000000.0 0.4373635391 0.2717951451
1213950000.0 0.5136787515 -0.145112849
1223900000.0 0.2806277956 -0.4797616338
1233850000.0 -0.107097784 -0.5678076297
1243800000.0 -0.4581204397 -0.3806307625
1253750000.0 -0.6069930165 -0.0022564277
1263700000.0 -0.4651473972 0.3930094925
1273650000.0 -0.0852359274 0.5980806295
1283600000.0 0.3378759605 0.4958855097
1293550000.0 0.588130793 0.1472690193
1303500000.0 0.5640333115 -0.2696234755
1313450000.0 0.300679937 -0.579018985
1323400000.0 -0.088891501 -0.6738424062
1333350000.0 -0.4624800122 -0.5229843344
1343300000.0 -0.6801010128 -0.1708542338
1353250000.0 -0.6360709729 0.2550909753
1363200000.0 -0.3249583622 0.5681279937
1373150000.0 0.1191092675 0.6122609969
1383100000.0 0.4864075741 0.3696107455
1393050000.0 0.6230800665 -0.0340268643
1403000000.0 0.4971953603 -0.4236690055
1412950000.0 0.178616165 -0.6595431396
1422900000.0 -0.2113496334 -0.6682515368
1432850000.0 -0.531335298 -0.4489440284
1442800000.0 -0.6600212826 -0.0780508079
1452750000.0 -0.5345804824 0.3003980985
1462700000.0 -0.1957863095 0.5224137502
1472650000.0 0.2079195113 0.4817253427
1482600000.0 0.4904674283 0.2000039449
1492550000.0 0.5315498049 -0.1839356682
1502500000.0 0.3330497831 -0.4979116996
1512450000.0 -0.0046294637 -0.6174789442
1522400000.0 -0.3363570132 -0.5045641942
1532350000.0 -0.5210742668 -0.2109768501
1542300000.0 -0.4745803318 0.1327081836
1552250000.0 -0.2137804203 0.3614391872
1562200000.0 0.1290572257 0.3566955458
1572150000.0 0.3707887601 0.1263761087
1582100000.0 0.3899191275 -0.1953050464
1592050000.0 0.1908813849 -0.4340033602
1602000000.0 -0.1096035797 -0.4733901414
1611950000.0 -0.3561997127 -0.2991349914
1621900000.0 -0.4221680023 0.0003911188
1631850000.0 -0.2633356477 0.2727686449
1641800000.0 0.048104706 0.3647759388
1651750000.0 0.3439213315 0.2117079162
1661700000.0 0.452357472 -0.1078665976
1671650000.0 0.3116374066 -0.4158255323
1681600000.0 0.0010841589 -0.5506168749
1691550000.0 -0.3253920938 -0.452376169
1701500000.0 -0.5209978128 -0.1662570555
1711450000.0 -0.4974410632 0.1892781447
1721400000.0 -0.2467291336 0.4640470529
1731350000.0 0.135654772 0.5196945316
1741300000.0 0.4728314376 0.3089307314
1751250000.0 0.5925014862 -0.0725674107
1761200000.0 0.4424200079 -0.4377795651
1771150000.0 0.1070236338 -0.6263468029
1781100000.0 -0.2646622917 -0.5803058771
1791050000.0 -0.5382016836 -0.3335951251
1801000000.0 -0.6240520779 0.0267348288
1810950000.0 -0.4842307885 0.3784203093
1820900000.0 -0.1513774145 0.5844058769
1830850000.0 0.2477805074 0.538774276
1840800000.0 0.5293090401 0.2482181501
1850750000.0 0.5619741857 -0.1460570309
1860700000.0 0.3543552274 -0.4610445751
1870650000.0 0.0210203807 -0.5854363226
1880600000.0 -0.3051084353 -0.5043766834
1890550000.0 -0.5228009956 -0.2671421982
1900500000.0 -0.5698114073 0.0437093193
1910450000.0 -0.4310625614 0.3223780039
1920400000.0 -0.1544056136 0.4616278805
1930350000.0 0.1416195308 0.3963326571
1940300000.0 0.3148877084 0.1664373708
1950250000.0 0.2927074804 -0.093051805
1960200000.0 0.1535252602 -0.2305339044
1970150000.0 0.0014044232 -0.2941630737
1980100000.0 -0.1481329728 -0.2557455683
1990050000.0 -0.2188789779 -0.1621611892
2000000000.0 -0.2172629036 -0.0914716986
