!Created with skrf (http://scikit-rf.org).
# GHz S RI R 50.0 
!freq ReS11 ImS11
10000000.0 -1.016512709 0.0152421986
19950000.0 -1.002835508 0.0240332895
29900000.0 -0.9890846692 0.033245867
39850000.0 -0.9778390618 0.047975951
49800000.0 -0.9725196385 0.0630475811
59750000.0 -0.9726836388 0.0778349681
69700000.0 -0.9787146592 0.0912842121
79650000.0 -0.9856674763 0.1004022514
89600000.0 -0.9914032479 0.1059990707
99550000.0 -0.9892582043 0.1087848527
109500000.0 -0.9800289057 0.1119515574
119450000.0 -0.9678071226 0.1173088571
129400000.0 -0.9559582509 0.1252495871
139350000.0 -0.9481236614 0.1367295419
149300000.0 -0.9438830255 0.1499545856
159250000.0 -0.9464022176 0.1636418285
169200000.0 -0.9525019047 0.1752037879
179150000.0 -0.9592941042 0.1829515264
189100000.0 -0.9620288096 0.187225654
199050000.0 -0.9587695866 0.1893019064
209000000.0 -0.9489138855 0.1899652798
218950000.0 -0.9367712822 0.1956924216
228900000.0 -0.9261630157 0.2035432469
238850000.0 -0.9183020687 0.2148808621
248800000.0 -0.9175760236 0.2261891409
258750000.0 -0.9209992215 0.2395005377
268700000.0 -0.9268657804 0.2500336894
278650000.0 -0.9322057627 0.2568481804
288600000.0 -0.9328326388 0.2605900381
298550000.0 -0.9268895924 0.2619125697
308500000.0 -0.9165976833 0.2636435321
318450000.0 -0.9044539216 0.2677955423
328400000.0 -0.8955165474 0.2755780047
338350000.0 -0.8902367744 0.2862148266
348300000.0 -0.8899017683 0.298164491
358250000.0 -0.8942671112 0.3101042978
368200000.0 -0.900055752 0.318475599
378150000.0 -0.9036317698 0.3246154529
388100000.0 -0.9017818875 0.3272077269
398050000.0 -0.8937695624 0.3285874629
408000000.0 -0.8824925526 0.3314699478
417950000.0 -0.8709155905 0.3370848223
427900000.0 -0.8620892732 0.345880337
437850000.0 -0.8584445589 0.3570247012
447800000.0 -0.8595938007 0.3688015674
457750000.0 -0.8643274978 0.379396448
467700000.0 -0.8693227676 0.3862031499
477650000.0 -0.8712436074 0.3896815032
487600000.0 -0.8672033505 0.3901554379
497550000.0 -0.8558204271 0.390123641
507500000.0 -0.8468483792 0.3918810572
517450000.0 -0.8349446522 0.3978043219
527400000.0 -0.827388598 0.4078704701
537350000.0 -0.8246148397 0.4212803337
547300000.0 -0.8260936992 0.432320767
557250000.0 -0.8306484703 0.4427452436
567200000.0 -0.8345283573 0.4492476945
577150000.0 -0.8339851809 0.4515064986
587100000.0 -0.8285793457 0.4506173493
597050000.0 -0.8178328549 0.4497140368
607000000.0 -0.8072627312 0.4516441251
616950000.0 -0.7975164634 0.4573629835
626900000.0 -0.791764391 0.4674013963
636850000.0 -0.7906552969 0.4786544238
646800000.0 -0.7931615311 0.4901182101
656750000.0 -0.7971218253 0.5000693541
666700000.0 -0.7987628772 0.5052471714
676650000.0 -0.7962646096 0.5071691069
686600000.0 -0.7885523032 0.5063632889
696550000.0 -0.7774986099 0.5065492307
706500000.0 -0.7650560225 0.5096566449
716450000.0 -0.7563984612 0.5174696608
726400000.0 -0.7521792927 0.5273198925
736350000.0 -0.7522410815 0.5394017704
746300000.0 -0.7560858672 0.5495743095
756250000.0 -0.7593819674 0.556992512
766200000.0 -0.7608996757 0.5602298639
776150000.0 -0.7558582023 0.5612312175
786100000.0 -0.7468661778 0.559121715
796050000.0 -0.7344456883 0.5599447387
806000000.0 -0.7221983082 0.5662633284
815950000.0 -0.7128872383 0.5752112157
825900000.0 -0.7090734795 0.5870959941
835850000.0 -0.7101285774 0.5991650296
845800000.0 -0.7139652747 0.6088977325
855750000.0 -0.717933968 0.6143874913
865700000.0 -0.7181868553 0.6145517753
875650000.0 -0.7130119919 0.6119538016
885600000.0 -0.7025127526 0.6094460247
895550000.0 -0.6896600352 0.6101894339
905500000.0 -0.6764823536 0.6164667706
915450000.0 -0.6684154319 0.626914386
925400000.0 -0.6648933484 0.6398266551
935350000.0 -0.6654833202 0.6527112379
945300000.0 -0.6680441095 0.6622534085
955250000.0 -0.6701084872 0.6671168791
965200000.0 -0.6683205301 0.6663761196
975150000.0 -0.6618470961 0.6625224128
985100000.0 -0.6512295885 0.6586100979
995050000.0 -0.6386219735 0.6584519897
1005000000.0 -0.6275294843 0.6650032034
1014950000.0 -0.6195643525 0.6761909668
1024900000.0 -0.6167827929 0.6902070638
1034850000.0 -0.6167472563 0.7036932731
1044800000.0 -0.6176109302 0.7138487835
1054750000.0 -0.6166943093 0.7173412684
1064700000.0 -0.6109296507 0.7135235511
1074650000.0 -0.6058659853 0.7072780965
1084600000.0 -0.5949328491 0.7047952098
1094550000.0 -0.5802716561 0.7009702604
1104500000.0 -0.5747092333 0.7051348825
1114450000.0 -0.5722258478 0.7192962071
1124400000.0 -0.5706760398 0.7330010578
1134350000.0 -0.5715010278 0.7453049897
1144300000.0 -0.5710546383 0.7553714552
1154250000.0 -0.5673972283 0.7585443817
1164200000.0 -0.5595469032 0.7570594317
1174150000.0 -0.5478872387 0.7528674224
1184100000.0 -0.5343920874 0.7500985724
1194050000.0 -0.5226523576 0.751440529
1204000000.0 -0.5151857291 0.7571279975
1213950000.0 -0.5131928259 0.7672013369
1223900000.0 -0.5151015307 0.7787008558
1233850000.0 -0.5185388213 0.7885080827
1243800000.0 -0.5205321581 0.7948575047
1253750000.0 -0.5176051993 0.7962691161
1263700000.0 -0.5084288417 0.7943905163
1273650000.0 -0.4945876156 0.7897417879
1283600000.0 -0.4787774429 0.7880514934
1293550000.0 -0.4651666916 0.7918524845
1303500000.0 -0.4558883834 0.8001991101
1313450000.0 -0.4524108186 0.8113264182
1323400000.0 -0.4535497211 0.8233756729
1333350000.0 -0.4565965822 0.8313589379
1343300000.0 -0.4565975485 0.835357572
1353250000.0 -0.4540506439 0.8344379223
1363200000.0 -0.4444405713 0.8306094517
1373150000.0 -0.4310033861 0.8258634302
1383100000.0 -0.4160474848 0.8258547691
1393050000.0 -0.4026540882 0.8303667802
1403000000.0 -0.3937866784 0.8393988709
1412950000.0 -0.3898832336 0.8497032821
1422900000.0 -0.3913966626 0.859201208
1432850000.0 -0.3943933444 0.863524005
1442800000.0 -0.3961606368 0.8650723021
1452750000.0 -0.3934923161 0.8622063516
1462700000.0 -0.3853893884 0.8569487559
1472650000.0 -0.3729356713 0.8535402355
1482600000.0 -0.3596488555 0.8556952436
1492550000.0 -0.3492770246 0.8632482254
1502500000.0 -0.3417561092 0.8740719017
1512450000.0 -0.3386024674 0.8867608903
1522400000.0 -0.3385065429 0.8964855946
1532350000.0 -0.3386527138 0.9007360616
1542300000.0 -0.3368701182 0.8990426477
1552250000.0 -0.3314235896 0.8915906596
1562200000.0 -0.321979314 0.8837923201
1572150000.0 -0.3112454185 0.8786616001
1582100000.0 -0.3007677051 0.8808131708
1592050000.0 -0.2924395437 0.8899531265
1602000000.0 -0.2846044093 0.9036140536
1611950000.0 -0.2824685795 0.9172305289
1621900000.0 -0.2793850149 0.9274428641
1631850000.0 -0.2764507446 0.9314944905
1641800000.0 -0.2708029023 0.9275559108
1651750000.0 -0.2621097889 0.9185779065
1661700000.0 -0.2506760268 0.9096346868
1671650000.0 -0.238689451 0.9046241259
1681600000.0 -0.2291784607 0.9077185808
1691550000.0 -0.2201975071 0.916298585
1701500000.0 -0.2162159176 0.930177011
1711450000.0 -0.2151710484 0.9430228123
1721400000.0 -0.2129260262 0.9524942814
1731350000.0 -0.2082658204 0.9548097965
1741300000.0 -0.200409843 0.9492578772
1751250000.0 -0.1892514533 0.9386220626
1761200000.0 -0.1756566542 0.9286572417
1771150000.0 -0.1619303052 0.9247390916
1781100000.0 -0.1511965471 0.9265395224
1791050000.0 -0.1457012432 0.9353563416
1801000000.0 -0.143357712 0.9484541284
1810950000.0 -0.1424168066 0.961165144
1820900000.0 -0.1429260626 0.9689944222
1830850000.0 -0.139714125 0.9690626125
1840800000.0 -0.1308523125 0.9629444273
1850750000.0 -0.1182298931 0.9539721201
1860700000.0 -0.1026392089 0.9433252049
1870650000.0 -0.0884612851 0.9390498446
1880600000.0 -0.0777230688 0.9401689987
1890550000.0 -0.073703832 0.9488201031
1900500000.0 -0.0735989367 0.9597850847
1910450000.0 -0.0750016193 0.9692623189
1920400000.0 -0.0771646486 0.974616459
1930350000.0 -0.0745072941 0.9737513255
1940300000.0 -0.0671430497 0.9684279664
1950250000.0 -0.0537236492 0.9608182194
1960200000.0 -0.0371801991 0.9542132261
1970150000.0 -0.0222773151 0.9523975185
1980100000.0 -0.0115561745 0.9567976049
1990050000.0 -0.0060586914 0.9659608978
2000000000.0 -0.0052575121 0.9758549515
