!Created with skrf (http://scikit-rf.org).
# GHz S RI R 50.0 
!freq ReS11 ImS11
10000000.0 -0.7697188776 0.6792674781
19950000.0 -0.1349405064 0.9899357973
29900000.0 0.5412639304 0.8144672687
39850000.0 0.9442349425 0.2376367376
49800000.0 0.8674239165 -0.4740541917
59750000.0 0.3165766222 -0.9631869138
69700000.0 -0.4432234043 -0.9314985274
79650000.0 -0.9660359237 -0.3490396535
89600000.0 -0.8942839745 0.4484138851
99550000.0 -0.2405037543 0.9391587359
109500000.0 0.5794176011 0.7617325745
119450000.0 0.9746475829 -0.0134907896
129400000.0 0.5783149767 -0.8221103344
139350000.0 -0.3363978349 -0.95957554
149300000.0 -0.9529173696 -0.2793283934
159250000.0 -0.7549388374 0.587070092
169200000.0 0.0204585379 0.9393592526
179150000.0 0.757267569 0.5785150369
189100000.0 0.9630876917 -0.1910590599
199050000.0 0.5406461905 -0.842924032
209000000.0 -0.2038540224 -0.9748226759
218950000.0 -0.7987613782 -0.5497415619
228900000.0 -0.9273671169 0.1497655438
238850000.0 -0.5509523281 0.7397862849
248800000.0 0.0383048811 0.9081398102
258750000.0 0.7032657448 0.6339737681
268700000.0 0.96645026 0.0016145482
278650000.0 0.7281846949 -0.6364523386
288600000.0 0.1231753652 -0.9345537371
298550000.0 -0.5118357419 -0.7395204128
308500000.0 -0.8346779326 -0.1709549713
318450000.0 -0.6769676097 0.4511044828
328400000.0 -0.1403880225 0.7764338357
338350000.0 0.4505434184 0.6218597451
348300000.0 0.7205761259 0.1025266176
358250000.0 0.5160269211 -0.4028278397
368200000.0 0.0450504118 -0.5505937135
378150000.0 -0.3150330548 -0.3098396594
388100000.0 -0.3441614208 0.0588324423
398050000.0 -0.1151611448 0.2656529276
408000000.0 0.1320556779 0.2147583458
417950000.0 0.2151318615 0.0266854034
427900000.0 0.1268979093 -0.1194948911
437850000.0 -0.0178660933 -0.1316318613
447800000.0 -0.1018369314 -0.0379850076
457750000.0 -0.0824439303 0.069755272
467700000.0 0.0013722648 0.1139185224
477650000.0 0.0741786556 0.0802801819
487600000.0 0.0823354022 0.0183611819
497550000.0 0.0878697716 -0.0479475726
507500000.0 0.0139440079 -0.0510533808
517450000.0 -0.0157896218 -0.017905406
527400000.0 -0.0059394787 0.0107013379
537350000.0 0.0194661512 0.0066824007
547300000.0 0.0227387025 -0.0282380371
557250000.0 -0.0153308785 -0.0558673975
567200000.0 -0.0728548099 -0.042274009
577150000.0 -0.1080864016 0.0186751883
587100000.0 -0.0858314633 0.0972358652
597050000.0 -0.0047067494 0.1422608112
607000000.0 0.0960214916 0.1156737778
616950000.0 0.1574139321 0.0196530414
626900000.0 0.138993566 -0.1001265562
636850000.0 0.0425899202 -0.1813146447
646800000.0 -0.0848581473 -0.1781779871
656750000.0 -0.17650876 -0.0902177448
666700000.0 -0.1823873383 0.0345188764
676650000.0 -0.1011257083 0.12608099
686600000.0 0.0190791697 0.1330097453
696550000.0 0.1046967806 0.0544335471
706500000.0 0.1062508211 -0.0542332012
716450000.0 0.0344893433 -0.1190388437
726400000.0 -0.0472858942 -0.1090425928
736350000.0 -0.0898462834 -0.0469813541
746300000.0 -0.0643319676 0.0287357195
756250000.0 0.0228084536 0.0550767565
766200000.0 0.108221422 -0.0063468425
776150000.0 0.1159732248 -0.1279432841
786100000.0 0.0182828347 -0.22651782
796050000.0 -0.139935387 -0.2202863973
806000000.0 -0.2581055577 -0.0845999774
815950000.0 -0.2430744745 0.1180216947
825900000.0 -0.0741561474 0.2680714142
835850000.0 0.1720926435 0.2611354157
845800000.0 0.3610069285 0.0774593755
855750000.0 0.3784938922 -0.1994743952
865700000.0 0.1982130733 -0.4258432479
875650000.0 -0.0985824509 -0.4744613834
885600000.0 -0.3607795326 -0.3034689182
895550000.0 -0.4417162202 0.0113713523
905500000.0 -0.2817831314 0.3074658691
915450000.0 0.0459291442 0.4161500218
925400000.0 0.3617843685 0.2638638266
935350000.0 0.4799068538 -0.0690477949
945300000.0 0.3227505364 -0.3873107974
955250000.0 -0.0225471431 -0.4901110538
965200000.0 -0.337457091 -0.2939819772
975150000.0 -0.3893653491 0.0925060385
985100000.0 -0.0912736466 0.3856254613
995050000.0 0.3508597919 0.2970704949
1005000000.0 0.5288610813 -0.1564148773
1014950000.0 0.215639432 -0.5898032522
1024900000.0 -0.3751730677 -0.5601967876
1034850000.0 -0.7128247619 0.0025807261
1044800000.0 -0.4010862397 0.6559918263
1054750000.0 0.3630356095 0.7421337799
1064700000.0 0.8441841608 0.1946634879
1074650000.0 0.7172819069 -0.5321485113
1084600000.0 0.0884105709 -0.8521686549
1094550000.0 -0.5306703774 -0.6200591641
1104500000.0 -0.7804258804 -0.0009773115
1114450000.0 -0.4523090572 0.5954980815
1124400000.0 0.2129635679 0.6849190992
1134350000.0 0.6451798263 0.2247042923
1144300000.0 0.5445977916 -0.3399590431
1154250000.0 0.0898688342 -0.591046377
1164200000.0 -0.3600497531 -0.4255902556
1174150000.0 -0.5318199738 -0.0003076918
1184100000.0 -0.3254396664 0.4090549955
1194050000.0 0.1207840053 0.5112079391
1204000000.0 0.4791690613 0.2430201258
1213950000.0 0.5224609906 -0.185407983
1223900000.0 0.2643268654 -0.5092821639
1233850000.0 -0.1333084447 -0.5779606053
1243800000.0 -0.4810998281 -0.3730706961
1253750000.0 -0.6175137363 0.0159814324
1263700000.0 -0.4608052141 0.4114734993
1273650000.0 -0.070801663 0.6071769137
1283600000.0 0.3529605984 0.4927349082
1293550000.0 0.5960164442 0.1350004038
1303500000.0 0.5617182356 -0.2835297152
1313450000.0 0.2896937442 -0.5875404485
1323400000.0 -0.1035001076 -0.6732000986
1333350000.0 -0.4742032557 -0.511973713
1343300000.0 -0.6824550154 -0.1529446841
1353250000.0 -0.6260411804 0.2720240163
1363200000.0 -0.3054431827 0.5757033416
1373150000.0 0.1397170515 0.6060018899
1383100000.0 0.4990807816 0.3514965527
1393050000.0 0.6218255142 -0.0564730501
1403000000.0 0.4819269268 -0.4418260799
1412950000.0 0.1535018405 -0.6657790888
1422900000.0 -0.2376747044 -0.6579712538
1432850000.0 -0.5503588964 -0.4223508505
1442800000.0 -0.660966843 -0.0406681484
1452750000.0 -0.5097066656 0.3350493812
1462700000.0 -0.1507210765 0.5338914146
1472650000.0 0.2504963497 0.4594039856
1482600000.0 0.507078012 0.1543297433
1492550000.0 0.5142084154 -0.2297676174
1502500000.0 0.289247896 -0.5221973219
1512450000.0 -0.0561598661 -0.6088109666
1522400000.0 -0.3731902209 -0.4646548279
1532350000.0 -0.5260535025 -0.1546495038
1542300000.0 -0.4418334999 0.1805108872
1552250000.0 -0.1583991889 0.3746838224
1562200000.0 0.1743177045 0.3311930193
1572150000.0 0.3878235081 0.0816692803
1582100000.0 0.3743911884 -0.2388358569
1592050000.0 0.1518148658 -0.4572156263
1602000000.0 -0.1540193046 -0.4665103459
1611950000.0 -0.3865053603 -0.2664723292
1621900000.0 -0.4256672354 0.0430998044
1631850000.0 -0.2406104041 0.3057561597
1641800000.0 0.0833846084 0.374420695
1651750000.0 0.3734759826 0.1961837382
1661700000.0 0.4616950624 -0.1361428519
1671650000.0 0.2994475365 -0.4402851884
1681600000.0 -0.0228598118 -0.5603055346
1691550000.0 -0.3487156029 -0.445217269
1701500000.0 -0.5343659982 -0.1477026481
1711450000.0 -0.4964725095 0.2108630489
1721400000.0 -0.233427119 0.4790336718
1731350000.0 0.1541947994 0.5211442377
1741300000.0 0.4860240961 0.2976290588
1751250000.0 0.5934510745 -0.0901946893
1761200000.0 0.430871805 -0.4514748156
1771150000.0 0.0889174473 -0.6296462744
1781100000.0 -0.2816752153 -0.5717334802
1791050000.0 -0.5473593048 -0.3156133191
1801000000.0 -0.6203492146 0.0480053769
1810950000.0 -0.4650735288 0.3951584152
1820900000.0 -0.1195090963 0.5842604488
1830850000.0 0.2777599395 0.5055842581
1840800000.0 0.4971588161 0.1863346387
1850750000.0 0.5247606968 -0.122474134
1860700000.0 0.3486451117 -0.4436633568
1870650000.0 0.0201741553 -0.5740912752
1880600000.0 -0.3030885148 -0.4939439396
1890550000.0 -0.5155901864 -0.2573805892
1900500000.0 -0.5571987468 0.048341955
1910450000.0 -0.417312207 0.3190380898
1920400000.0 -0.1466031802 0.4482997168
1930350000.0 0.1360540259 0.3825746783
1940300000.0 0.3017563274 0.1658690592
1950250000.0 0.2949430872 -0.0805819175
1960200000.0 0.1587863579 -0.2468678487
1970150000.0 -0.015856521 -0.2910585863
1980100000.0 -0.1482308357 -0.2387494325
1990050000.0 -0.2027597398 -0.1543714401
2000000000.0 -0.2018361022 -0.1027716194
