!Created with skrf (http://scikit-rf.org).
# GHz S RI R 50.0 
!freq ReS11 ImS11
10000000.0 -0.7705086995 0.5812673483
19950000.0 -0.2857072082 0.9115224207
29900000.0 0.2991750547 0.8944592039
39850000.0 0.7730560726 0.531316118
49800000.0 0.9462708124 -0.0583784149
59750000.0 0.7210566885 -0.6525834567
69700000.0 0.1582652828 -0.9837984516
79650000.0 -0.4991841275 -0.8627001698
89600000.0 -0.9193045087 -0.3129025293
99550000.0 -0.8574011566 0.4055248526
109500000.0 -0.2965214045 0.9036235703
119450000.0 0.4868421924 0.8452690101
129400000.0 0.9841371762 0.1867978429
139350000.0 0.7827553177 -0.6368224995
149300000.0 0.0176869361 -0.9814687593
159250000.0 -0.7050608149 -0.6179199699
169200000.0 -0.9074027814 0.1246487869
179150000.0 -0.5413949264 0.7511963438
189100000.0 0.1186147111 0.9345217862
199050000.0 0.7011471283 0.6280825912
209000000.0 0.9283234208 0.0271691724
218950000.0 0.7270119923 -0.5532861952
228900000.0 0.2237794496 -0.8681866672
238850000.0 -0.3537235737 -0.8086079673
248800000.0 -0.7595023364 -0.3954398558
258750000.0 -0.8806526298 0.1395331956
268700000.0 -0.6349479629 0.6539631799
278650000.0 -0.1352780892 0.910918891
288600000.0 0.4105703353 0.8045341319
298550000.0 0.7750593291 0.3819834456
308500000.0 0.8065298584 -0.1786327863
318450000.0 0.4881662319 -0.6379231896
328400000.0 -0.0417248724 -0.7905227664
338350000.0 -0.5287172751 -0.5607619031
348300000.0 -0.7179863135 -0.0784399233
358250000.0 -0.5259427015 0.3667471516
368200000.0 -0.1183991889 0.5224238011
378150000.0 0.2222272622 0.358613703
388100000.0 0.3169403315 0.0558849396
398050000.0 0.1863408241 -0.1624696317
408000000.0 -0.010200381 -0.1922769395
417950000.0 -0.1215250205 -0.0826344059
427900000.0 -0.1028240917 0.0433140243
437850000.0 -0.0059362352 0.0929720811
447800000.0 0.0868071991 0.0485713321
457750000.0 0.1113757547 -0.046807398
467700000.0 0.0627547732 -0.1269889144
477650000.0 -0.0220829918 -0.1468351345
487600000.0 -0.0926882007 -0.1009381579
497550000.0 -0.1107039048 -0.0236938167
507500000.0 -0.0837423042 0.0480404381
517450000.0 -0.0201241845 0.0807002618
527400000.0 0.0358289799 0.0668008219
537350000.0 0.05729856 0.0267592743
547300000.0 0.0414085187 -0.0065614608
557250000.0 0.0071642283 -0.0127232176
567200000.0 -0.0153157387 0.0111475091
577150000.0 -0.006100514 0.0427595062
587100000.0 0.031124996 0.0519095596
597050000.0 0.0710861562 0.0227140906
607000000.0 0.0832320865 -0.038486659
616950000.0 0.0479999842 -0.1026244027
626900000.0 -0.0258041406 -0.1329060321
636850000.0 -0.1081956464 -0.1082811072
646800000.0 -0.1595244404 -0.0320608673
656750000.0 -0.1523282402 0.0654196193
666700000.0 -0.0838046468 0.1402161669
676650000.0 0.0195512259 0.155910149
686600000.0 0.1133981553 0.1009156954
696550000.0 0.1546096383 -0.0052432388
706500000.0 0.1229122613 -0.1141156991
716450000.0 0.0319476039 -0.1767506309
726400000.0 -0.0737401555 -0.1646033411
736350000.0 -0.139137541 -0.0825656987
746300000.0 -0.1268300289 0.0249302064
756250000.0 -0.0391348223 0.0978901534
766200000.0 0.0781284411 0.0938293582
776150000.0 0.1619439106 0.009534263
786100000.0 0.1636174014 -0.1101249026
796050000.0 0.0742292381 -0.1981583474
806000000.0 -0.0641538881 -0.1952148582
815950000.0 -0.1736446372 -0.0853259696
825900000.0 -0.1851884656 0.0852611197
835850000.0 -0.0774672789 0.2333596755
845800000.0 0.1087106185 0.2796303908
855750000.0 0.2895253451 0.1906562409
865700000.0 0.3757567214 -0.0056009562
875650000.0 0.3113067384 -0.2238874391
885600000.0 0.1078595522 -0.355560764
895550000.0 -0.1490370865 -0.3198657087
905500000.0 -0.3336241159 -0.1137350675
915450000.0 -0.3414491871 0.1749476596
925400000.0 -0.155554492 0.4046138667
935350000.0 0.140520278 0.448661323
945300000.0 0.3904165369 0.2645617951
955250000.0 0.4375130406 -0.0629807878
965200000.0 0.2229734624 -0.3427123975
975150000.0 -0.1437336863 -0.3859056877
985100000.0 -0.4506202208 -0.1348472939
995050000.0 -0.4673495318 0.2974668142
1005000000.0 -0.1206871212 0.6168793801
1014950000.0 0.3961484554 0.5436625933
1024900000.0 0.69391963 0.0445025299
1034850000.0 0.4786913587 -0.5529347649
1044800000.0 -0.1489076891 -0.7680391582
1054750000.0 -0.7122439493 -0.4052668634
1064700000.0 -0.7906746177 0.2352089212
1074650000.0 -0.4474179904 0.6965672199
1084600000.0 0.1330752255 0.8066673935
1094550000.0 0.6200943459 0.4745524794
1104500000.0 0.7394987079 -0.1068130489
1114450000.0 0.4163247119 -0.6033508888
1124400000.0 -0.141141738 -0.7123123347
1134350000.0 -0.5768505617 -0.4071734324
1144300000.0 -0.6705687369 0.0786822783
1154250000.0 -0.4320353892 0.4760756288
1164200000.0 -0.0139478544 0.6140868513
1174150000.0 0.3855843445 0.4487276341
1184100000.0 0.5705516345 0.0540061691
1194050000.0 0.4359824952 -0.3559012533
1204000000.0 0.0749980949 -0.5567780043
1213950000.0 -0.30691385 -0.4734401343
1223900000.0 -0.5409308448 -0.1857332824
1233850000.0 -0.5584731361 0.1700609409
1243800000.0 -0.3671371928 0.4644517888
1253750000.0 -0.0351843688 0.588907301
1263700000.0 0.3133799658 0.4824987964
1273650000.0 0.5282220673 0.1775520923
1283600000.0 0.5160737047 -0.1938894194
1293550000.0 0.2963102921 -0.4779057999
1303500000.0 -0.0277934216 -0.5829132143
1313450000.0 -0.3406298642 -0.4993348019
1323400000.0 -0.5579662827 -0.2677759183
1333350000.0 -0.6253557144 0.0470236449
1343300000.0 -0.5119647073 0.3597493513
1353250000.0 -0.2302036287 0.5616153352
1363200000.0 0.129844602 0.5609334261
1373150000.0 0.427474941 0.3457734237
1383100000.0 0.548855713 0.0058771402
1393050000.0 0.4689090431 -0.3312170694
1403000000.0 0.23683459 -0.5622254627
1412950000.0 -0.0644419804 -0.6320964714
1422900000.0 -0.3487084556 -0.5338036512
1432850000.0 -0.5382059224 -0.2925330239
1442800000.0 -0.5695745727 0.0292707168
1452750000.0 -0.4107811315 0.326672216
1462700000.0 -0.1039305738 0.4825919469
1472650000.0 0.232124529 0.436907244
1482600000.0 0.4743699992 0.2170005357
1492550000.0 0.5477072501 -0.0865705082
1502500000.0 0.443624886 -0.36636978
1512450000.0 0.2073370033 -0.5336918799
1522400000.0 -0.0785624402 -0.5349017443
1532350000.0 -0.3142459146 -0.363974315
1542300000.0 -0.4075390999 -0.076576827
1552250000.0 -0.3118492104 0.216950007
1562200000.0 -0.063318882 0.3927437009
1572150000.0 0.2293766062 0.3831899618
1582100000.0 0.443641656 0.2043458296
1592050000.0 0.5017717525 -0.058824434
1602000000.0 0.3872892187 -0.3012653132
1611950000.0 0.1422527992 -0.4296832141
1621900000.0 -0.1419409189 -0.3844339984
1631850000.0 -0.3525329743 -0.1681225444
1641800000.0 -0.390925927 0.137451293
1651750000.0 -0.2358805454 0.4035171505
1661700000.0 0.0435003049 0.5169333598
1671650000.0 0.3292302508 0.4403341486
1681600000.0 0.5155438788 0.2135681262
1691550000.0 0.5419470147 -0.0814477484
1701500000.0 0.4001219498 -0.3495232609
1711450000.0 0.1258937807 -0.5007219623
1721400000.0 -0.1992566822 -0.4706786955
1731350000.0 -0.4584740714 -0.2524877818
1741300000.0 -0.5478476213 0.0791226488
1751250000.0 -0.4346438388 0.3952009579
1761200000.0 -0.1734045042 0.5850463608
1771150000.0 0.1374470921 0.6007405631
1781100000.0 0.4053838479 0.4560302567
1791050000.0 0.5632255209 0.195928834
1801000000.0 0.5702456989 -0.1143439354
1810950000.0 0.4143647617 -0.3936249313
1820900000.0 0.1272109226 -0.5494109824
1830850000.0 -0.205277457 -0.5149907213
1840800000.0 -0.4599790598 -0.2958297454
1850750000.0 -0.5493462278 0.0172472565
1860700000.0 -0.4658206922 0.3120812801
1870650000.0 -0.2582165394 0.5103944077
1880600000.0 0.0038220042 0.5745141516
1890550000.0 0.2514757345 0.5002402616
1900500000.0 0.4233694965 0.3089624333
1910450000.0 0.4702740067 0.049788127
1920400000.0 0.36975554 -0.1968411689
1930350000.0 0.1523091101 -0.3407862377
1940300000.0 -0.0937976127 -0.3314606896
1950250000.0 -0.2575990161 -0.1933456223
1960200000.0 -0.3263745798 -0.0485900414
1970150000.0 -0.325480151 0.1074389817
1980100000.0 -0.2423212893 0.2181123524
1990050000.0 -0.1335152607 0.2450400542
2000000000.0 -0.0636676693 0.1947540261
