!Created with skrf (http://scikit-rf.org).
# GHz S RI R 50.0 
!freq ReS11 ImS11
10000000.0 -0.9997583996 0.1636944131
19950000.0 -0.9442876018 0.312788144
29900000.0 -0.8663713201 0.4552021687
39850000.0 -0.7660162716 0.5952610015
49800000.0 -0.6450742924 0.7279527221
59750000.0 -0.4991712777 0.8464416818
69700000.0 -0.3212592191 0.9388815615
79650000.0 -0.1085031356 0.9875939532
89600000.0 0.1371769855 0.9762413623
99550000.0 0.4020353473 0.8875033979
109500000.0 0.664727114 0.7100774246
119450000.0 0.88693748 0.4318822462
129400000.0 1.005567549 0.0681583827
139350000.0 0.9665421059 -0.3391286717
149300000.0 0.7522717041 -0.6876146224
159250000.0 0.4218090814 -0.9058588543
169200000.0 0.0620674655 -0.9818847483
179150000.0 -0.2683097035 -0.9430293331
189100000.0 -0.5384702499 -0.8252051474
199050000.0 -0.7362339533 -0.6592126297
209000000.0 -0.8596955417 -0.4670442321
218950000.0 -0.9236876712 -0.268627689
228900000.0 -0.9400680615 -0.0741204426
238850000.0 -0.921734994 0.1147696905
248800000.0 -0.7763236885 0.1600401037
258750000.0 -0.8257581614 0.4248829277
268700000.0 -0.7388271716 0.5702089415
278650000.0 -0.6255622793 0.6874961086
288600000.0 -0.4853690505 0.7745433609
298550000.0 -0.3225312529 0.8280362407
308500000.0 -0.1423421353 0.8489359695
318450000.0 0.0483467746 0.8324848402
328400000.0 0.2392146287 0.7720511282
338350000.0 0.4082667292 0.6594196104
348300000.0 0.5307853826 0.4945146287
358250000.0 0.5815166779 0.2935835434
368200000.0 0.5532693243 0.0893606556
378150000.0 0.4599370737 -0.0825093725
388100000.0 0.3310152174 -0.2004925432
398050000.0 0.1955680152 -0.2591016246
408000000.0 0.0768005206 -0.2633857942
417950000.0 -0.0143069478 -0.2280234055
427900000.0 -0.0752749856 -0.1697992517
437850000.0 -0.1114547804 -0.1040244557
447800000.0 -0.1270643229 -0.0431532016
457750000.0 -0.1270902776 0.005180199
467700000.0 -0.115476028 0.0365513103
477650000.0 -0.0944718341 0.0486025808
487600000.0 -0.0651483331 0.0418148544
497550000.0 -0.0966880814 0.0288252404
507500000.0 -0.0288579796 0.0284477047
517450000.0 -0.0061660345 0.0083817449
527400000.0 0.0032699042 -0.0089912251
537350000.0 -0.0001505538 -0.0244653496
547300000.0 -0.0146953158 -0.043637897
557250000.0 -0.0453780946 -0.0572725193
567200000.0 -0.0769835458 -0.067481319
577150000.0 -0.1079295842 -0.0746950571
587100000.0 -0.1345675347 -0.0763063574
597050000.0 -0.154148263 -0.0696823678
607000000.0 -0.1671585717 -0.0528126884
616950000.0 -0.1748991096 -0.0263437973
626900000.0 -0.1790184812 0.0069887381
636850000.0 -0.1798177277 0.0422341496
646800000.0 -0.1768942919 0.0752433956
656750000.0 -0.1692961849 0.1027835974
666700000.0 -0.1537616581 0.1227533349
676650000.0 -0.1286196849 0.1334747278
686600000.0 -0.0937866654 0.1367211893
696550000.0 -0.0518607724 0.133403649
706500000.0 -0.0075166135 0.1240014836
716450000.0 0.0342699576 0.1093122175
726400000.0 0.0682550624 0.0867923474
736350000.0 0.090958701 0.0544778843
746300000.0 0.0994779001 0.0125081914
756250000.0 0.0949414816 -0.0407790883
766200000.0 0.0780488484 -0.0995880954
776150000.0 0.0502708651 -0.1588159852
786100000.0 0.0131732909 -0.2110677353
796050000.0 -0.0329893362 -0.2493816064
806000000.0 -0.0869499011 -0.2682780138
815950000.0 -0.1472230031 -0.2649287158
825900000.0 -0.2098683395 -0.2435983374
835850000.0 -0.2727951933 -0.2106970108
845800000.0 -0.3330189456 -0.1698428621
855750000.0 -0.3867358535 -0.1211348061
865700000.0 -0.4269230558 -0.06558979
875650000.0 -0.4484078041 -0.0027854188
885600000.0 -0.4478047304 0.0672855216
895550000.0 -0.4258836076 0.1430120099
905500000.0 -0.3839980944 0.2233785896
915450000.0 -0.325010163 0.3034175932
925400000.0 -0.2495047396 0.3750115276
935350000.0 -0.1561202929 0.4296433242
945300000.0 -0.0442529427 0.4552554687
955250000.0 0.0852636099 0.4394819553
965200000.0 0.224991887 0.3705589797
975150000.0 0.3599153333 0.2404769137
985100000.0 0.4603784296 0.045351253
995050000.0 0.4838428986 -0.1978678993
1005000000.0 0.400486266 -0.4495533771
1014950000.0 0.188341009 -0.6528463515
1024900000.0 -0.1170887418 -0.7344772828
1034850000.0 -0.4376978359 -0.6700350619
1044800000.0 -0.7000205709 -0.4809415105
1054750000.0 -0.8469653724 -0.2078591076
1064700000.0 -0.8442085371 0.0198186663
1074650000.0 -0.8291438797 0.2723194224
1084600000.0 -0.684191593 0.4246511443
1094550000.0 -0.5505763984 0.6191337062
1104500000.0 -0.3232639698 0.7421637306
1114450000.0 -0.0740167781 0.7848014237
1124400000.0 0.1694093893 0.7422587523
1134350000.0 0.3740522423 0.6171751409
1144300000.0 0.5152339402 0.4296044845
1154250000.0 0.5837590871 0.2118795709
1164200000.0 0.5838406442 -0.0060974608
1174150000.0 0.5345002342 -0.1986222832
1184100000.0 0.446979872 -0.3591992103
1194050000.0 0.3280248574 -0.4766864147
1204000000.0 0.1915795141 -0.544952587
1213950000.0 0.051646238 -0.5703245842
1223900000.0 -0.0817046867 -0.5653562209
1233850000.0 -0.2035287067 -0.5420652016
1243800000.0 -0.310641479 -0.5078560998
1253750000.0 -0.4029587872 -0.4659120625
1263700000.0 -0.4768016493 -0.416017218
1273650000.0 -0.533688076 -0.3577279081
1283600000.0 -0.5732714157 -0.2913066119
1293550000.0 -0.6004768941 -0.2176424057
1303500000.0 -0.6203837384 -0.140705488
1313450000.0 -0.6358366593 -0.0648564814
1323400000.0 -0.6496553077 0.0084323755
1333350000.0 -0.660005034 0.076398028
1343300000.0 -0.6629027423 0.1397113447
1353250000.0 -0.6559888301 0.1970963331
1363200000.0 -0.6350657032 0.2511384257
1373150000.0 -0.6009838367 0.3029433585
1383100000.0 -0.5582723679 0.3547173359
1393050000.0 -0.5114619695 0.4062217648
1403000000.0 -0.4641779483 0.4567499905
1412950000.0 -0.4178550034 0.5036430002
1422900000.0 -0.3718329711 0.5434408152
1432850000.0 -0.3250870035 0.5726980291
1442800000.0 -0.2743028695 0.5912847122
1452750000.0 -0.2184916367 0.601027629
1462700000.0 -0.1547990542 0.6041858493
1472650000.0 -0.0834525211 0.604059877
1482600000.0 -0.0070774188 0.6015399982
1492550000.0 0.0695189672 0.5952498802
1502500000.0 0.1438186741 0.5814942314
1512450000.0 0.2128325646 0.5564108762
1522400000.0 0.2739083002 0.5173914329
1532350000.0 0.3274811405 0.4613844667
1542300000.0 0.3738566411 0.3901597723
1552250000.0 0.4144978668 0.3072148118
1562200000.0 0.4504472625 0.2179904888
1572150000.0 0.4779616208 0.1265523028
1582100000.0 0.4925811942 0.0350161635
1592050000.0 0.4896424491 -0.0544491194
1602000000.0 0.4648723447 -0.1406903623
1611950000.0 0.4195966584 -0.2202827885
1621900000.0 0.3570678985 -0.2940971855
1631850000.0 0.2831077076 -0.3619236329
1641800000.0 0.2035240549 -0.4227365678
1651750000.0 0.1216009019 -0.4728620629
1661700000.0 0.0395363263 -0.5085654081
1671650000.0 -0.041010068 -0.524732309
1681600000.0 -0.1200694588 -0.5210540389
1691550000.0 -0.1970817811 -0.5012664707
1701500000.0 -0.2733666258 -0.468861122
1711450000.0 -0.347065689 -0.4299260886
1721400000.0 -0.4162692441 -0.3878541832
1731350000.0 -0.4790790556 -0.3447107593
1741300000.0 -0.5300663467 -0.2997081194
1751250000.0 -0.5673066643 -0.2503201792
1761200000.0 -0.5897353541 -0.1954836346
1771150000.0 -0.5992552467 -0.1351758782
1781100000.0 -0.6014684115 -0.0709563459
1791050000.0 -0.6003509938 -0.0060332065
1801000000.0 -0.5993813172 0.05676046
1810950000.0 -0.5983526635 0.1158171703
1820900000.0 -0.5940566927 0.1676818318
1830850000.0 -0.5805564066 0.2103340431
1840800000.0 -0.5563465908 0.2444825269
1850750000.0 -0.5249367605 0.2712432325
1860700000.0 -0.4894685343 0.2964767792
1870650000.0 -0.4507771256 0.3249204249
1880600000.0 -0.4094842605 0.3544302631
1890550000.0 -0.3699456003 0.3828502826
1900500000.0 -0.3336057975 0.4059133251
1910450000.0 -0.3005848765 0.4203802481
1920400000.0 -0.2661897764 0.4249439943
1930350000.0 -0.2280029071 0.416864566
1940300000.0 -0.1848214132 0.3966382745
1950250000.0 -0.1365568798 0.3653913784
1960200000.0 -0.0886171006 0.3270449151
1970150000.0 -0.0484940948 0.2822664904
1980100000.0 -0.0217600196 0.2318319475
1990050000.0 -0.0163497562 0.1725568979
2000000000.0 -0.0387050233 0.1044292903
