!Created with skrf (http://scikit-rf.org).
# GHz S RI R 50.0 
!freq ReS11 ImS11
10000000.0 -0.7737839718 0.5822922426
19950000.0 -0.2820644275 0.9177753576
29900000.0 0.3140201448 0.9025121665
39850000.0 0.7948209779 0.5330120073
49800000.0 0.9628921043 -0.0653582376
59750000.0 0.7226409287 -0.6581044456
69700000.0 0.1464334367 -0.9748304787
79650000.0 -0.5155778738 -0.8362561541
89600000.0 -0.9301561705 -0.2723426063
99550000.0 -0.846383672 0.4521243977
109500000.0 -0.2500235407 0.929430269
119450000.0 0.5436993591 0.8108751242
129400000.0 0.9842618775 0.0996576899
139350000.0 0.7009117364 -0.6969831379
149300000.0 -0.0898973043 -0.9638969093
159250000.0 -0.7717134738 -0.5423866801
169200000.0 -0.9079073456 0.207138573
179150000.0 -0.4893072605 0.7952433856
189100000.0 0.1846765453 0.9215583211
199050000.0 0.7427075156 0.5754538929
209000000.0 0.9312119326 -0.0310078712
218950000.0 0.7017450922 -0.5955437344
228900000.0 0.1858358228 -0.8897243371
238850000.0 -0.392313176 -0.8114530376
248800000.0 -0.7658037722 -0.4012726912
258750000.0 -0.893394727 0.1540767538
268700000.0 -0.6312191801 0.6610092125
278650000.0 -0.1208730316 0.90550166
288600000.0 0.4295678461 0.7907501935
298550000.0 0.7956787747 0.3656486601
308500000.0 0.8259307201 -0.1946696938
318450000.0 0.5030543168 -0.6516679853
328400000.0 -0.0319055331 -0.7971422053
338350000.0 -0.5197717702 -0.5590037372
348300000.0 -0.7054696606 -0.0723813227
358250000.0 -0.5090674969 0.3700831699
368200000.0 -0.1018729517 0.5198520491
378150000.0 0.2314291824 0.351115112
388100000.0 0.312745054 0.0504078207
398050000.0 0.1728404216 -0.155024379
408000000.0 -0.0215698654 -0.1704973087
417950000.0 -0.1212445083 -0.0538328985
427900000.0 -0.089826333 0.0692726219
437850000.0 0.0153356442 0.1074710191
447800000.0 0.1054896564 0.0515308496
457750000.0 0.1214866661 -0.0492693503
467700000.0 0.0624863704 -0.1302051665
477650000.0 -0.0312218098 -0.1468958457
487600000.0 -0.1087927522 -0.0971866032
497550000.0 -0.1394208565 -0.011059391
507500000.0 -0.0966738971 0.0619733434
517450000.0 -0.0293400641 0.0902556519
527400000.0 0.0279012555 0.0701829432
537350000.0 0.0486160464 0.0249052425
547300000.0 0.0302964941 -0.0119340119
557250000.0 -0.0016151631 -0.0179281112
567200000.0 -0.0210789844 0.004540511
577150000.0 -0.0086275528 0.0353550125
587100000.0 0.0316366183 0.0422679756
597050000.0 0.0725885268 0.0104837161
607000000.0 0.0823519105 -0.0511424144
616950000.0 0.0449023673 -0.1137680823
626900000.0 -0.0299891831 -0.1411021732
636850000.0 -0.1122788783 -0.1117322321
646800000.0 -0.1602330503 -0.0331639288
656750000.0 -0.1476258897 0.0632769633
666700000.0 -0.0757420856 0.135530521
676650000.0 0.0300125762 0.1484343737
686600000.0 0.1226989273 0.0906723282
696550000.0 0.1596195531 -0.0134725376
706500000.0 0.1244809772 -0.1165261963
716450000.0 0.0332347936 -0.1707321749
726400000.0 -0.0683826662 -0.1509064787
736350000.0 -0.1269232103 -0.0651884751
746300000.0 -0.1096710939 0.0381557782
756250000.0 -0.0220894637 0.1022536426
766200000.0 0.0876479017 0.088776375
776150000.0 0.1576373665 -0.0005053872
786100000.0 0.144113792 -0.1177310242
796050000.0 0.0435211472 -0.1928784487
806000000.0 -0.0936848271 -0.1742810986
815950000.0 -0.1921929942 -0.0544362201
825900000.0 -0.1872126648 0.1169071459
835850000.0 -0.0634912958 0.2533229382
845800000.0 0.1298521667 0.2799949641
855750000.0 0.3042208418 0.1723507876
865700000.0 0.3755428258 -0.0332796138
875650000.0 0.2937135264 -0.2500212661
885600000.0 0.0790377939 -0.372004867
895550000.0 -0.1791143449 -0.326311651
905500000.0 -0.3587449341 -0.1150876441
915450000.0 -0.3614918753 0.1721674433
925400000.0 -0.1738954735 0.3978667318
935350000.0 0.1202220784 0.4463845846
945300000.0 0.3779499046 0.280538979
955250000.0 0.4589481768 -0.0337123138
965200000.0 0.2874683186 -0.3369930314
975150000.0 -0.0778585011 -0.4363023197
985100000.0 -0.4268708344 -0.2170182319
995050000.0 -0.4935293579 0.2244344044
1005000000.0 -0.1726347111 0.5837188083
1014950000.0 0.3490711376 0.5578074874
1024900000.0 0.6862829025 0.09352662
1034850000.0 0.5164086799 -0.5137330293
1044800000.0 -0.1121676556 -0.7639472988
1054750000.0 -0.7068251995 -0.4015736596
1064700000.0 -0.7837797499 0.2733402369
1074650000.0 -0.342091795 0.7447495556
1084600000.0 0.1808393726 0.6603865036
1094550000.0 0.624083516 0.4519698125
1104500000.0 0.7339891494 -0.1554264255
1114450000.0 0.3578593033 -0.6235317062
1124400000.0 -0.2026438731 -0.670178026
1134350000.0 -0.6132032341 -0.325949706
1144300000.0 -0.6556865346 0.1793687287
1154250000.0 -0.3598620182 0.5504601972
1164200000.0 0.0875023287 0.6208482503
1174150000.0 0.458522886 0.3817145443
1184100000.0 0.5714371957 -0.0460419204
1194050000.0 0.3634593268 -0.4301327777
1204000000.0 -0.0345270594 -0.5667192412
1213950000.0 -0.4023990272 -0.4182751712
1223900000.0 -0.5879125826 -0.0918803094
1233850000.0 -0.5429992938 0.2659161443
1243800000.0 -0.2969277922 0.524897559
1253750000.0 0.0603195871 0.5887804166
1263700000.0 0.3927436798 0.4196072495
1273650000.0 0.5578223981 0.0786019282
1283600000.0 0.4853580561 -0.290211466
1293550000.0 0.2213552525 -0.5381697915
1303500000.0 -0.1188443732 -0.5924742196
1313450000.0 -0.420195606 -0.4588620629
1323400000.0 -0.6022245065 -0.1912067464
1333350000.0 -0.6164234701 0.135098393
1343300000.0 -0.4462649817 0.4289238893
1353250000.0 -0.1257712354 0.5815314628
1363200000.0 0.2349619556 0.5209702589
1373150000.0 0.4980262317 0.2609201807
1383100000.0 0.5652841364 -0.0937258252
1393050000.0 0.4326657181 -0.4121717056
1403000000.0 0.1632367345 -0.5991500752
1412950000.0 -0.1504787808 -0.6128044248
1422900000.0 -0.4202583615 -0.4603173277
1432850000.0 -0.5681413943 -0.1816679474
1442800000.0 -0.5400776194 0.1451804372
1452750000.0 -0.3254084337 0.4094468699
1462700000.0 0.0053001705 0.5036868226
1472650000.0 0.3261638509 0.3931116014
1482600000.0 0.5179088197 0.1312423609
1492550000.0 0.5274849534 -0.1796629745
1502500000.0 0.3673324011 -0.4305808401
1512450000.0 0.0990714659 -0.5436662307
1522400000.0 -0.1859183842 -0.4806924632
1532350000.0 -0.383013485 -0.2576355477
1542300000.0 -0.4093732883 0.0460988832
1552250000.0 -0.2465388384 0.3049082644
1562200000.0 0.0324420995 0.4079932734
1572150000.0 0.3047907995 0.3250312007
1582100000.0 0.464917982 0.104635073
1592050000.0 0.4595236092 -0.164759824
1602000000.0 0.2917666643 -0.3774861794
1611950000.0 0.0189416153 -0.4490858165
1621900000.0 -0.2542351893 -0.3370279988
1631850000.0 -0.4089901667 -0.0722852612
1641800000.0 -0.3705560164 0.2383788828
1651750000.0 -0.1509713108 0.4617029612
1661700000.0 0.1541568769 0.506451889
1671650000.0 0.422033922 0.3655569544
1681600000.0 0.5606525756 0.0990386607
1691550000.0 0.5269582943 -0.2027973175
1701500000.0 0.3274559442 -0.4434089688
1711450000.0 0.0171125986 -0.5360960622
1721400000.0 -0.3050020767 -0.4342253576
1731350000.0 -0.5177731013 -0.1602434392
1741300000.0 -0.5364138048 0.1870177159
1751250000.0 -0.3595341889 0.4767664927
1761200000.0 -0.0621738774 0.6151339747
1771150000.0 0.2525379944 0.5743133042
1781100000.0 0.4954905626 0.3781476178
1791050000.0 0.5988762839 0.0807282262
1801000000.0 0.5080323229 -0.2104364083
1810950000.0 0.3646490123 -0.4242258267
1820900000.0 0.0457862289 -0.5586160125
1830850000.0 -0.2930035724 -0.4711089303
1840800000.0 -0.5174418033 -0.2110326164
1850750000.0 -0.5604136397 0.1138838367
1860700000.0 -0.4333061098 0.3935240025
1870650000.0 -0.1970841382 0.5584627643
1880600000.0 0.075410933 0.5802384763
1890550000.0 0.3140062375 0.4644963859
1900500000.0 0.4588067453 0.2432670434
1910450000.0 0.4665749582 -0.0237912062
1920400000.0 0.3304456902 -0.2528421995
1930350000.0 0.0980333846 -0.3661758827
1940300000.0 -0.1431373871 -0.3353221636
1950250000.0 -0.3106115436 -0.1968037952
1960200000.0 -0.3717572531 -0.0175424268
1970150000.0 -0.3361170098 0.1399117738
1980100000.0 -0.2402103652 0.2334468929
1990050000.0 -0.1341280939 0.2500876144
2000000000.0 -0.0660760248 0.2092529161
