!Created with skrf (http://scikit-rf.org).
# GHz S RI R 50.0 
!freq ReS11 ImS11
10000000.0 -0.8012816606 0.6058441781
19950000.0 -0.2866697731 0.9485455927
29900000.0 0.3279278453 0.9272601528
39850000.0 0.8184269753 0.5472173579
49800000.0 0.9902419213 -0.0612780319
59750000.0 0.7506280882 -0.6639114259
69700000.0 0.1703339454 -0.991833192
79650000.0 -0.5027649523 -0.8642794126
89600000.0 -0.9353583116 -0.3094764664
99550000.0 -0.879634283 0.4124851642
109500000.0 -0.3213145232 0.9126620008
119450000.0 0.4579205545 0.8618188001
129400000.0 0.9620629146 0.2226154486
139350000.0 0.7965071245 -0.5874397655
149300000.0 0.0605807704 -0.9730993022
159250000.0 -0.68873882 -0.6630910129
169200000.0 -0.9446586122 0.0745915822
179150000.0 -0.5995587103 0.7405138553
189100000.0 0.0879554431 0.9600542333
199050000.0 0.714268316 0.6564332978
209000000.0 0.9636683455 0.0299009835
218950000.0 0.749962279 -0.5822026455
228900000.0 0.209788726 -0.9107910257
238850000.0 -0.4079077317 -0.8315604606
248800000.0 -0.6955647901 -0.4612877033
258750000.0 -0.9180875215 0.1704429109
268700000.0 -0.626443879 0.6994577923
278650000.0 -0.074468811 0.930620747
288600000.0 0.4974253822 0.7682235095
298550000.0 0.839512245 0.2880648866
308500000.0 0.803952957 -0.2957691871
318450000.0 0.4097745799 -0.7183111328
328400000.0 -0.1558267291 -0.7831450896
338350000.0 -0.6081535407 -0.4617733518
348300000.0 -0.709081441 0.0587620573
358250000.0 -0.433218658 0.4687326564
368200000.0 0.0080075984 0.5476595577
378150000.0 0.3280002038 0.3145476902
388100000.0 0.3708328299 -0.0247948513
398050000.0 0.1847030309 -0.245320047
408000000.0 -0.0544085597 -0.2531424546
417950000.0 -0.1901946864 -0.1098116956
427900000.0 -0.1763908598 0.0542909572
437850000.0 -0.0651660856 0.1387459915
447800000.0 0.053268688 0.1188067126
457750000.0 0.1115475031 0.0339903406
467700000.0 0.09369506 -0.0516649277
477650000.0 0.0326939722 -0.090423795
487600000.0 -0.0208167571 -0.0731618166
497550000.0 -0.0620490139 -0.0971902599
507500000.0 -0.0573565363 -0.0033192104
517450000.0 -0.0259926802 0.0108592833
527400000.0 -0.0087992245 -0.0026690894
537350000.0 -0.0191449238 -0.0213428264
547300000.0 -0.0510507979 -0.0189300542
557250000.0 -0.0732827682 0.0188898968
567200000.0 -0.0606292586 0.0710202935
577150000.0 -0.0074486461 0.1091283112
587100000.0 0.0681139412 0.103018059
597050000.0 0.1315815113 0.0439383268
607000000.0 0.1467540915 -0.0507994251
616950000.0 0.0983634366 -0.1423433115
626900000.0 0.0005261197 -0.1886750962
636850000.0 -0.1085144745 -0.1662487322
646800000.0 -0.1817167066 -0.0807783558
656750000.0 -0.1881795398 0.0331005479
666700000.0 -0.121383919 0.1263172068
676650000.0 -0.0107346296 0.1580434767
686600000.0 0.0940180703 0.1139727951
696550000.0 0.1463666734 0.0170401476
706500000.0 0.1246423992 -0.0842379308
716450000.0 0.0456304371 -0.140562056
726400000.0 -0.0445660356 -0.1251279163
736350000.0 -0.0933139117 -0.0496339914
746300000.0 -0.0698104447 0.0398964837
756250000.0 0.0176078934 0.0871194037
766200000.0 0.118772379 0.0557460231
776150000.0 0.1714618842 -0.0457459523
786100000.0 0.1340026583 -0.165518538
796050000.0 0.0112476325 -0.23252682
806000000.0 -0.1424414947 -0.1942773059
815950000.0 -0.2455463967 -0.0484426299
825900000.0 -0.2313951593 0.1480096045
835850000.0 -0.0873747557 0.3040564321
845800000.0 0.1329704986 0.3391896601
855750000.0 0.335956728 0.2258638012
865700000.0 0.4284309344 0.0025704031
875650000.0 0.358732561 -0.2399949679
885600000.0 0.1422015139 -0.3944495298
895550000.0 -0.1371588068 -0.3779237217
905500000.0 -0.3525621922 -0.1823476682
915450000.0 -0.3936477033 0.1148122842
925400000.0 -0.2268568608 0.369149351
935350000.0 0.0715266634 0.4403918981
945300000.0 0.3275332334 0.2795822211
955250000.0 0.4002752706 -0.0056633783
965200000.0 0.242846633 -0.2861908586
975150000.0 -0.1122700461 -0.3627834405
985100000.0 -0.4237075065 -0.10080807
995050000.0 -0.4007199074 0.3460216518
1005000000.0 0.0119679987 0.6233575855
1014950000.0 0.5343609431 0.4408282553
1024900000.0 0.7296775329 -0.1380352107
1034850000.0 0.3693815888 -0.6953821753
1044800000.0 -0.3207733723 -0.7647351558
1054750000.0 -0.8084201675 -0.2796896783
1064700000.0 -0.7752926254 0.3409601661
1074650000.0 -0.361270939 0.7762772802
1084600000.0 0.2320801532 0.7978458467
1094550000.0 0.6752413168 0.414031549
1104500000.0 0.7274059089 -0.1682846937
1114450000.0 0.3535708829 -0.6077607618
1124400000.0 -0.1964559598 -0.6376742272
1134350000.0 -0.5678374952 -0.2904171843
1144300000.0 -0.5841973268 0.1749756147
1154250000.0 -0.2961518673 0.4963622751
1164200000.0 0.1098152571 0.5302811846
1174150000.0 0.4251461762 0.2855655634
1184100000.0 0.4812698041 -0.112010987
1194050000.0 0.2464986041 -0.4303447797
1204000000.0 -0.1300122443 -0.498299868
1213950000.0 -0.4423678846 -0.3126404644
1223900000.0 -0.5656868272 0.0139888084
1233850000.0 -0.4693724296 0.3420488858
1243800000.0 -0.1943721256 0.550783477
1253750000.0 0.1599586818 0.5558576117
1263700000.0 0.4559672101 0.3419002447
1273650000.0 0.5675187233 -0.0130223338
1283600000.0 0.4488274111 -0.3643594548
1293550000.0 0.1606277373 -0.5795423225
1303500000.0 -0.1860525223 -0.6013360314
1313450000.0 -0.4824258848 -0.4399953887
1323400000.0 -0.6488424733 -0.150264568
1333350000.0 -0.6374825038 0.1881473886
1343300000.0 -0.4383567767 0.4783456557
1353250000.0 -0.0986926097 0.6155795164
1363200000.0 0.2702544628 0.5361635012
1373150000.0 0.5324036585 0.2618397971
1383100000.0 0.5969133959 -0.1027937614
1393050000.0 0.4611534322 -0.4300634118
1403000000.0 0.18592392 -0.627422348
1412950000.0 -0.140565343 -0.651451963
1422900000.0 -0.4289245125 -0.5040352125
1432850000.0 -0.5971874713 -0.2221298428
1442800000.0 -0.5868988357 0.1153789596
1452750000.0 -0.3873428886 0.399886415
1462700000.0 -0.0578359372 0.5283053275
1472650000.0 0.282885771 0.4517808729
1482600000.0 0.5147172471 0.2070077429
1492550000.0 0.5691827515 -0.1081599933
1502500000.0 0.44709634 -0.3871208636
1512450000.0 0.1985367853 -0.5470188552
1522400000.0 -0.0964784336 -0.5401184379
1532350000.0 -0.3385086509 -0.361606409
1542300000.0 -0.4323344973 -0.0687910299
1552250000.0 -0.3331669675 0.2237556449
1562200000.0 -0.0838671378 0.3931986133
1572150000.0 0.2036010191 0.3798775305
1582100000.0 0.4138924794 0.2049869527
1592050000.0 0.4727515415 -0.0514965309
1602000000.0 0.3655817314 -0.2880904133
1611950000.0 0.1326514098 -0.4136797032
1621900000.0 -0.139820386 -0.3718055504
1631850000.0 -0.3370803226 -0.1635218283
1641800000.0 -0.3648060334 0.1298221601
1651750000.0 -0.2043774695 0.3777992033
1661700000.0 0.0705068102 0.4728465554
1671650000.0 0.3409408735 0.3844681057
1681600000.0 0.5062947278 0.1560455341
1691550000.0 0.5109076894 -0.1300857652
1701500000.0 0.3460468452 -0.3757504489
1711450000.0 0.0586381678 -0.4858678703
1721400000.0 -0.2410742565 -0.4013379398
1731350000.0 -0.4327631255 -0.1885272487
1741300000.0 -0.508286017 0.1133306605
1751250000.0 -0.380346637 0.4145633817
1761200000.0 -0.1092520301 0.5823557743
1771150000.0 0.1993588228 0.5757783721
1781100000.0 0.4543286828 0.4120519092
1791050000.0 0.5896310826 0.1393543897
1801000000.0 0.5630147301 -0.17298508
1810950000.0 0.3663073725 -0.4331888523
1820900000.0 0.0484961149 -0.5452398698
1830850000.0 -0.2803153464 -0.4589800366
1840800000.0 -0.4994488968 -0.2089838481
1850750000.0 -0.5439135316 0.1049352796
1860700000.0 -0.4243971496 0.3757737869
1870650000.0 -0.1981324165 0.537769502
1880600000.0 0.0653577715 0.5628287708
1890550000.0 0.2994206078 0.4530241495
1900500000.0 0.4426858292 0.2372198446
1910450000.0 0.4455465146 -0.0231506963
1920400000.0 0.3039928354 -0.2387015944
1930350000.0 0.0763767548 -0.3319886313
1940300000.0 -0.1460823177 -0.2875260742
1950250000.0 -0.2846894292 -0.1477280295
1960200000.0 -0.3182592748 0.0123239071
1970150000.0 -0.2685416547 0.1325762521
1980100000.0 -0.1841593054 0.1785085811
1990050000.0 -0.1252986511 0.1556387035
2000000000.0 -0.1374040989 0.1162101909
