!Created with skrf (http://scikit-rf.org).
# GHz S RI R 50.0 
!freq ReS11 ImS11
10000000.0 -0.8659770746 0.5289081953
19950000.0 -0.4666401095 0.8865786002
29900000.0 0.0594023404 0.9885310451
39850000.0 0.5698967103 0.8017129992
49800000.0 0.9124326543 0.3660672735
59750000.0 0.9687770835 -0.2011571018
69700000.0 0.6927811002 -0.7215606287
79650000.0 0.1495599837 -0.9996842965
89600000.0 -0.4741471841 -0.8971625912
99550000.0 -0.918145529 -0.4163643538
109500000.0 -0.9581891426 0.2598838531
119450000.0 -0.5331756675 0.8172447577
129400000.0 0.1696842591 0.9298342169
139350000.0 0.8028707227 0.5419873576
149300000.0 0.9609594968 -0.1968659747
159250000.0 0.5542249945 -0.8237599698
169200000.0 -0.1489295691 -0.9822415005
179150000.0 -0.7422944085 -0.6432591222
189100000.0 -0.9645391126 -0.0384187332
199050000.0 -0.7794115895 0.5443155866
209000000.0 -0.3050432676 0.8929719215
218950000.0 0.26564602 0.9063744481
228900000.0 0.7376632387 0.6032300018
238850000.0 0.9589348103 0.086730885
248800000.0 0.6758971501 -0.2807412412
258750000.0 0.5045718306 -0.8238045114
268700000.0 -0.0195187308 -0.9543104839
278650000.0 -0.5165850176 -0.7795882058
288600000.0 -0.8338877325 -0.3689579884
298550000.0 -0.8766161678 0.1436373873
308500000.0 -0.6302160477 0.5932719355
318450000.0 -0.1735256962 0.8249949354
328400000.0 0.3305013085 0.7466672873
338350000.0 0.677808583 0.384797202
348300000.0 0.7190405499 -0.0958679051
358250000.0 0.4588658547 -0.4643769434
368200000.0 0.0611304443 -0.5616617073
378150000.0 -0.2587653917 -0.3945053745
388100000.0 -0.3687676194 -0.103809878
398050000.0 -0.2734549938 0.1406591823
408000000.0 -0.0779048728 0.2374470734
417950000.0 0.0945080266 0.1862977229
427900000.0 0.1691239045 0.0581349365
437850000.0 0.1415483585 -0.0624772522
447800000.0 0.0548359229 -0.1202723775
457750000.0 -0.0330501999 -0.1068927629
467700000.0 -0.0807074282 -0.0485672224
477650000.0 -0.0762576653 0.0148839875
487600000.0 -0.0339787581 0.0475275536
497550000.0 -0.0407301867 -0.0117389403
507500000.0 0.0232293499 0.0492026371
517450000.0 0.0264048032 0.0104890944
527400000.0 0.0034112755 -0.0058896302
537350000.0 -0.0222914265 0.0048419442
547300000.0 -0.0312714037 0.0404652557
557250000.0 -0.0015662175 0.0755780411
567200000.0 0.0503981637 0.0842773526
577150000.0 0.1056165092 0.0561959187
587100000.0 0.1386694124 -0.0071309818
597050000.0 0.1308017341 -0.0866657976
607000000.0 0.0764653377 -0.1542836045
616950000.0 -0.0119924575 -0.1838029183
626900000.0 -0.1058626812 -0.1602831599
636850000.0 -0.1743592242 -0.0867298405
646800000.0 -0.1910605814 0.0137826329
656750000.0 -0.1484609511 0.1078642851
666700000.0 -0.0583088834 0.1607121817
676650000.0 0.0459017757 0.1475923531
686600000.0 0.1034376824 0.0686861577
696550000.0 0.1083657628 0.0260693333
706500000.0 0.1155350511 -0.0490409071
716450000.0 0.061525905 -0.109330192
726400000.0 -0.0158056975 -0.1163533585
736350000.0 -0.0744446754 -0.0699997214
746300000.0 -0.083847722 0.0042618226
756250000.0 -0.0356965706 0.0666130201
766200000.0 0.05007892 0.0797113879
776150000.0 0.1323488545 0.0260132944
786100000.0 0.1663458861 -0.079901317
796050000.0 0.1241937738 -0.1984491402
806000000.0 0.0080296633 -0.2768146079
815950000.0 -0.1482529134 -0.2697342831
825900000.0 -0.285838147 -0.1610311879
835850000.0 -0.3444521752 0.0073536509
845800000.0 -0.2851773741 0.1895099815
855750000.0 -0.1395725321 0.3331724171
865700000.0 0.070600091 0.3757565224
875650000.0 0.2837522931 0.291322025
885600000.0 0.4240477355 0.0979159635
895550000.0 0.4374739589 -0.1485279428
905500000.0 0.3116352613 -0.3672025086
915450000.0 0.0811486858 -0.4824054142
925400000.0 -0.1806407468 -0.4481804441
935350000.0 -0.3806512009 -0.2660204041
945300000.0 -0.4376558576 0.0060685682
955250000.0 -0.3147670322 0.2663102783
965200000.0 -0.0447196582 0.3968449275
975150000.0 0.2619377736 0.3151764722
985100000.0 0.4425381621 0.0273133142
995050000.0 0.3636735248 -0.3301089181
1005000000.0 0.0255834971 -0.5407582823
1014950000.0 -0.4003907756 -0.4335812268
1024900000.0 -0.6429707378 -0.0117769201
1034850000.0 -0.4912658134 0.5048916933
1044800000.0 0.0339887008 0.7692206513
1054750000.0 0.6149471664 0.5422429402
1064700000.0 0.8040413698 0.021284233
1074650000.0 0.7033849746 -0.5217996759
1084600000.0 0.2146296279 -0.8605391247
1094550000.0 -0.3484743368 -0.7866043475
1104500000.0 -0.7324630425 -0.382722969
1114450000.0 -0.7588159892 0.1635351162
1124400000.0 -0.4295389775 0.5902112839
1134350000.0 0.097714236 0.6749319707
1144300000.0 0.5115181724 0.3827602302
1154250000.0 0.5996090953 -0.0760280761
1164200000.0 0.3777283787 -0.4391426793
1174150000.0 0.0072216601 -0.5595433969
1184100000.0 -0.3318126696 -0.430048684
1194050000.0 -0.5150683717 -0.1338296909
1204000000.0 -0.4824698386 0.2104016475
1213950000.0 -0.247296799 0.4640163632
1223900000.0 0.0906924414 0.5256376033
1233850000.0 0.3959689794 0.3803062141
1243800000.0 0.5616509919 0.0955435435
1253750000.0 0.5488601074 -0.2238760298
1263700000.0 0.3796298891 -0.4838657343
1273650000.0 0.1108680952 -0.6244078384
1283600000.0 -0.188965089 -0.6197276013
1293550000.0 -0.4524543791 -0.4746822347
1303500000.0 -0.6194468714 -0.2190524852
1313450000.0 -0.6457701216 0.0917149626
1323400000.0 -0.5156431172 0.3835916822
1333350000.0 -0.2551126527 0.5774237227
1343300000.0 0.0698934243 0.6182147051
1353250000.0 0.3715243646 0.494575928
1363200000.0 0.5723274983 0.2447091849
1373150000.0 0.6297553252 -0.0622259824
1383100000.0 0.5409567738 -0.3531742738
1393050000.0 0.3353327912 -0.5675118236
1403000000.0 0.059517228 -0.6653017223
1412950000.0 -0.2279658305 -0.6284579621
1422900000.0 -0.4666297152 -0.4660163381
1432850000.0 -0.6015081382 -0.2120888388
1442800000.0 -0.6032420281 0.0727532096
1452750000.0 -0.4748750892 0.3244477881
1462700000.0 -0.2441308993 0.4896490278
1472650000.0 0.0404510266 0.5263833756
1482600000.0 0.3078773618 0.4186862257
1492550000.0 0.4849014419 0.1944645703
1502500000.0 0.5265005527 -0.0842602554
1512450000.0 0.4253654778 -0.3424933461
1522400000.0 0.2120581885 -0.5140724319
1532350000.0 -0.0550050441 -0.5541738594
1542300000.0 -0.3023010126 -0.4528531337
1552250000.0 -0.458510693 -0.2378905301
1562200000.0 -0.4762355846 0.0237409264
1572150000.0 -0.3582615256 0.2512751707
1582100000.0 -0.1414746612 0.3853739554
1592050000.0 0.1153808451 0.3838892912
1602000000.0 0.3329145864 0.2441694572
1611950000.0 0.4376863205 0.0068678725
1621900000.0 0.3967846345 -0.2479237515
1631850000.0 0.2253069521 -0.4416015215
1641800000.0 -0.0213082357 -0.5157777662
1651750000.0 -0.2703333912 -0.451202717
1661700000.0 -0.4521212573 -0.2679000665
1671650000.0 -0.5179321277 -0.0161729513
1681600000.0 -0.4476240513 0.2368511138
1691550000.0 -0.2597378187 0.4201214372
1701500000.0 -0.0104229626 0.4798568126
1711450000.0 0.2280641964 0.4121907759
1721400000.0 0.436559364 0.2633964839
1731350000.0 0.5668933052 0.0359230522
1741300000.0 0.5381423067 -0.2591131082
1751250000.0 0.3532795483 -0.5143235099
1761200000.0 0.0748720952 -0.6457812343
1771150000.0 -0.2212496198 -0.6301554358
1781100000.0 -0.4700276798 -0.4844380453
1791050000.0 -0.6266296307 -0.2464491216
1801000000.0 -0.6646152473 0.0368592961
1810950000.0 -0.5750042303 0.3133475936
1820900000.0 -0.368875019 0.5262368596
1830850000.0 -0.0851763791 0.6248392121
1840800000.0 0.2155353758 0.5796308598
1850750000.0 0.458644278 0.396608078
1860700000.0 0.5830689168 0.1216114056
1870650000.0 0.5626744521 -0.1728660216
1880600000.0 0.4149633818 -0.4155070099
1890550000.0 0.1862946726 -0.5578555318
1900500000.0 -0.066922326 -0.5846488529
1910450000.0 -0.2943549454 -0.5041141845
1920400000.0 -0.456808237 -0.3422726336
1930350000.0 -0.5311947359 -0.1352927975
1940300000.0 -0.5074639648 0.0731789705
1950250000.0 -0.399042728 0.2407174038
1960200000.0 -0.2367198776 0.333429589
1970150000.0 -0.0668499255 0.3381741428
1980100000.0 0.066976065 0.2694743872
1990050000.0 0.1361287218 0.164754499
2000000000.0 0.1424280412 0.0698193698
