!Created with skrf (http://scikit-rf.org).
# GHz S RI R 50.0 
!freq ReS11 ImS11
10000000.0 -0.9640090877 0.1758728164
19950000.0 -0.9366462019 0.3406778462
29900000.0 -0.8847812384 0.4951228813
39850000.0 -0.7924954447 0.633385485
49800000.0 -0.6604540759 0.7489131196
59750000.0 -0.4905432849 0.8396849153
69700000.0 -0.2872018093 0.9070490645
79650000.0 -0.0555475796 0.9467411471
89600000.0 0.2023524966 0.942001514
99550000.0 0.4742022646 0.8630153947
109500000.0 0.726571354 0.6756715756
119450000.0 0.9055186729 0.3691386592
129400000.0 0.9576190593 -0.0238260134
139350000.0 0.8532356977 -0.4330081147
149300000.0 0.6030240339 -0.776023962
159250000.0 0.2569982481 -0.9801231726
169200000.0 -0.1054929876 -1.015161454
179150000.0 -0.416655704 -0.9095884847
189100000.0 -0.6496478855 -0.7234329065
199050000.0 -0.8103049785 -0.5070244479
209000000.0 -0.9126908862 -0.2881474507
218950000.0 -0.9699554257 -0.0804931858
228900000.0 -0.9794310084 0.1089655215
238850000.0 -0.9410840961 0.2765810261
248800000.0 -0.852507699 0.4041355975
258750000.0 -0.7562164846 0.5437457504
268700000.0 -0.6289449513 0.6554286523
278650000.0 -0.4896001671 0.7539983327
288600000.0 -0.3402355095 0.8346357792
298550000.0 -0.1810519517 0.8853860199
308500000.0 -0.0147182212 0.8914017381
318450000.0 0.1518333039 0.8408230418
328400000.0 0.3082527274 0.7337403676
338350000.0 0.439084357 0.5783081389
348300000.0 0.5289383188 0.3874167326
358250000.0 0.5556290719 0.1818638229
368200000.0 0.5052799208 -0.0037616609
378150000.0 0.3902927286 -0.1315951671
388100000.0 0.2422010767 -0.1868761594
398050000.0 0.0970003303 -0.1808915755
408000000.0 -0.0223260054 -0.1380928264
417950000.0 -0.1036092681 -0.0800175204
427900000.0 -0.1474312695 -0.0221775779
437850000.0 -0.1527368595 0.0279755039
447800000.0 -0.1314427517 0.0693784635
457750000.0 -0.0926499424 0.1026954156
467700000.0 -0.0485389147 0.1303702352
477650000.0 -0.0126823862 0.1482848251
487600000.0 0.0140313204 0.1528075897
497550000.0 0.0217587119 0.1458852079
507500000.0 0.0280695909 0.1190351901
517450000.0 0.0246631141 0.0831436828
527400000.0 0.0175551376 0.0445040386
537350000.0 0.0115649205 0.0092196008
547300000.0 0.0058790983 -0.0135095776
557250000.0 -0.0036086953 -0.0191823608
567200000.0 -0.0231834149 -0.0096667378
577150000.0 -0.0505789595 0.0097244798
587100000.0 -0.0838749027 0.033703
597050000.0 -0.1163572107 0.0571003922
607000000.0 -0.1407472192 0.0769186357
616950000.0 -0.1504702624 0.0938643574
626900000.0 -0.1409218587 0.1104601888
636850000.0 -0.1165882237 0.1301053071
646800000.0 -0.0802796334 0.1525653402
656750000.0 -0.0397181364 0.1785817036
666700000.0 -0.0046418147 0.1976110163
676650000.0 0.0245011929 0.2112588009
686600000.0 0.0471347005 0.2128957906
696550000.0 0.0687809635 0.1932933759
706500000.0 0.0901612735 0.1576047686
716450000.0 0.113599861 0.1087139627
726400000.0 0.1358803826 0.0545988087
736350000.0 0.1524733514 -0.0001645838
746300000.0 0.1585836386 -0.0485927211
756250000.0 0.1444275911 -0.088170499
766200000.0 0.1098613153 -0.1197576103
776150000.0 0.0519907614 -0.1436960822
786100000.0 -0.0195968212 -0.1607409597
796050000.0 -0.098225223 -0.1703180695
806000000.0 -0.175302079 -0.1688429779
815950000.0 -0.2386084075 -0.1523966916
825900000.0 -0.2864582728 -0.1141101735
835850000.0 -0.3150208867 -0.0562565216
845800000.0 -0.3279414833 0.0224313866
855750000.0 -0.3277754035 0.1129715216
865700000.0 -0.3166100011 0.2082655543
875650000.0 -0.2923524909 0.2975402938
885600000.0 -0.249714251 0.3714583388
895550000.0 -0.1853526257 0.4233289339
905500000.0 -0.0973898005 0.448579977
915450000.0 0.0110525069 0.4510164732
925400000.0 0.1334542126 0.4286606619
935350000.0 0.2647689528 0.3803305094
945300000.0 0.387578587 0.2996130904
955250000.0 0.4842361594 0.1791864619
965200000.0 0.5310216774 0.0140576024
975150000.0 0.5042256605 -0.1863120867
985100000.0 0.3906156051 -0.3984013432
995050000.0 0.1840794169 -0.5859042543
1005000000.0 -0.1032558954 -0.6876148273
1014950000.0 -0.421485061 -0.6474005906
1024900000.0 -0.6826646167 -0.447487143
1034850000.0 -0.8173997038 -0.1448734558
1044800000.0 -0.8212044393 0.1790549471
1054750000.0 -0.7206842071 0.4696535046
1064700000.0 -0.5426059744 0.6955165604
1074650000.0 -0.3071122739 0.8266198856
1084600000.0 -0.0774001188 0.8548922785
1094550000.0 0.1651194338 0.8116114042
1104500000.0 0.378788446 0.692236171
1114450000.0 0.5481049366 0.5302435421
1124400000.0 0.6671638572 0.3441222979
1134350000.0 0.7261863587 0.1466800027
1144300000.0 0.7145362524 -0.0499432882
1154250000.0 0.6372505843 -0.2252913153
1164200000.0 0.509514981 -0.3698728122
1174150000.0 0.3553546392 -0.4775421463
1184100000.0 0.1977467395 -0.5488029329
1194050000.0 0.0473539557 -0.5876123348
1204000000.0 -0.0888033757 -0.5892733344
1213950000.0 -0.2062452959 -0.5575820394
1223900000.0 -0.3076969117 -0.4905732463
1233850000.0 -0.3897510481 -0.4003750791
1243800000.0 -0.4603491487 -0.2983525926
1253750000.0 -0.5207244645 -0.1969221555
1263700000.0 -0.5674058339 -0.1035466322
1273650000.0 -0.6001541702 -0.0208164823
1283600000.0 -0.6115654852 0.0524157042
1293550000.0 -0.6014592611 0.1201707923
1303500000.0 -0.5706554376 0.1884605383
1313450000.0 -0.5259161818 0.2609453671
1323400000.0 -0.4749988891 0.3370625144
1333350000.0 -0.4251540458 0.4135800577
1343300000.0 -0.3792907649 0.4836303916
1353250000.0 -0.3345116432 0.5401924772
1363200000.0 -0.2893635449 0.578232773
1373150000.0 -0.2376294149 0.5970670718
1383100000.0 -0.1749960553 0.600036633
1393050000.0 -0.1034626709 0.5956275407
1403000000.0 -0.0232942516 0.5898563831
1412950000.0 0.0597777404 0.586535597
1422900000.0 0.1397641026 0.5856222565
1432850000.0 0.2104717626 0.5801509918
1442800000.0 0.2692366763 0.5646332766
1452750000.0 0.316037456 0.5330069503
1462700000.0 0.3542303947 0.4833593046
1472650000.0 0.3912158951 0.4193217226
1482600000.0 0.4294517287 0.3452877523
1492550000.0 0.4707342651 0.2686666762
1502500000.0 0.5100342642 0.1920165044
1512450000.0 0.5413301468 0.118357953
1522400000.0 0.5557829748 0.0449295941
1532350000.0 0.5463029414 -0.0264671608
1542300000.0 0.515633199 -0.0967753701
1552250000.0 0.4667098112 -0.1686060789
1562200000.0 0.409125567 -0.2411921944
1572150000.0 0.3464184912 -0.3148510087
1582100000.0 0.2804649905 -0.3827451561
1592050000.0 0.2088567049 -0.4370537796
1602000000.0 0.1312906769 -0.4709175975
1611950000.0 0.0478731008 -0.4775890725
1621900000.0 -0.0404315882 -0.4636816622
1631850000.0 -0.1298441038 -0.4351345283
1641800000.0 -0.218838428 -0.4010854593
1651750000.0 -0.3017122092 -0.3637340276
1661700000.0 -0.3769320909 -0.3239505948
1671650000.0 -0.4392668233 -0.2761240237
1681600000.0 -0.4832006682 -0.2146762333
1691550000.0 -0.5086669695 -0.1393646005
1701500000.0 -0.5181492332 -0.0542618443
1711450000.0 -0.5198612451 0.0344705714
1721400000.0 -0.5187862556 0.1170115455
1731350000.0 -0.518942806 0.191490753
1741300000.0 -0.5168189875 0.2545977136
1751250000.0 -0.5065814771 0.3079321974
1761200000.0 -0.4804491199 0.3532149519
1771150000.0 -0.4367319209 0.3928620209
1781100000.0 -0.3785459629 0.4310917505
1791050000.0 -0.3139759173 0.4694170737
1801000000.0 -0.2530840377 0.5089703678
1810950000.0 -0.2005632178 0.5450049341
1820900000.0 -0.1597928319 0.5741555889
1830850000.0 -0.1255092054 0.5895237526
1840800000.0 -0.0924195129 0.5883495581
1850750000.0 -0.0539425436 0.5709890791
1860700000.0 -0.0076712419 0.5417679827
1870650000.0 0.0441095117 0.510469721
1880600000.0 0.0997164799 0.4855752517
1890550000.0 0.1517958558 0.4699480629
1900500000.0 0.1945991073 0.4601396324
1910450000.0 0.2208164557 0.450996413
1920400000.0 0.2306696685 0.4345960708
1930350000.0 0.227121098 0.4062102927
1940300000.0 0.2197148373 0.3637778899
1950250000.0 0.2122868695 0.3092693804
1960200000.0 0.2112766082 0.2521653888
1970150000.0 0.2144519597 0.1976039613
1980100000.0 0.2147174787 0.1549342124
1990050000.0 0.203556683 0.1247189372
2000000000.0 0.1721802943 0.1105522789
