!Created with skrf (http://scikit-rf.org).
# GHz S RI R 50.0 
!freq ReS11 ImS11
10000000.0 -0.8143350546 0.6097745031
19950000.0 -0.2947234779 0.9520725231
29900000.0 0.3231185529 0.9277306059
39850000.0 0.8156720248 0.5449444796
49800000.0 0.9903530541 -0.0664529037
59750000.0 0.7523182465 -0.6746543184
69700000.0 0.1685935732 -1.007688942
79650000.0 -0.5098785943 -0.8787139465
89600000.0 -0.9429782917 -0.3181405719
99550000.0 -0.8837341082 0.4071089161
109500000.0 -0.323319814 0.9090560501
119450000.0 0.4597626851 0.8627390739
129400000.0 0.9728943408 0.2217595061
139350000.0 0.8132484178 -0.5934926426
149300000.0 0.0739038851 -0.9853219695
159250000.0 -0.680570311 -0.6768113751
169200000.0 -0.944301309 0.0621130784
179150000.0 -0.6069238405 0.7374104069
189100000.0 0.0836297237 0.9713539488
199050000.0 0.7221878292 0.6735147449
209000000.0 0.9802293379 0.0414258894
218950000.0 0.7674387098 -0.5771733382
228900000.0 0.2253351083 -0.9104592514
238850000.0 -0.3955722154 -0.8371441074
248800000.0 -0.7351315373 -0.2804217108
258750000.0 -0.9272245728 0.17049415
268700000.0 -0.6380518419 0.7103027889
278650000.0 -0.0798317137 0.9479414928
288600000.0 0.4989470977 0.78339109
298550000.0 0.8423234728 0.2983312575
308500000.0 0.8070494572 -0.2890180202
318450000.0 0.412792898 -0.7174349053
328400000.0 -0.1583289381 -0.7890108742
338350000.0 -0.6200170407 -0.467290307
348300000.0 -0.7252148303 0.0609665706
358250000.0 -0.4436323197 0.4764793799
368200000.0 0.0058326259 0.5537236836
378150000.0 0.3293137711 0.3139503447
388100000.0 0.3711385616 -0.0320840567
398050000.0 0.1815960437 -0.2562937232
408000000.0 -0.061024805 -0.2632236556
417950000.0 -0.1984330735 -0.1169686672
427900000.0 -0.1819601834 0.0507319015
437850000.0 -0.0659865971 0.1365750368
447800000.0 0.0564233972 0.1154513082
457750000.0 0.1162947778 0.0280067996
467700000.0 0.0985416337 -0.0602027481
477650000.0 0.0350350462 -0.0982662486
487600000.0 -0.0217426901 -0.0790006077
497550000.0 -0.0017594338 -0.0462077383
507500000.0 -0.0516661908 -0.0062502308
517450000.0 -0.0165308819 0.0097381563
527400000.0 0.0019100161 -0.0054599502
537350000.0 -0.0108242156 -0.0249707557
547300000.0 -0.0451448444 -0.0229867013
557250000.0 -0.0722365867 0.0164940293
567200000.0 -0.0638425521 0.0743182761
577150000.0 -0.0114732117 0.1188166934
587100000.0 0.0674455614 0.1185521553
597050000.0 0.1363457728 0.0610332483
607000000.0 0.1567155706 -0.0353353519
616950000.0 0.1105053178 -0.1323556677
626900000.0 0.0124956787 -0.1854828826
636850000.0 -0.1023265829 -0.1693905881
646800000.0 -0.183360798 -0.087932105
656750000.0 -0.198021788 0.0265636891
666700000.0 -0.1375114811 0.1245959724
676650000.0 -0.0295718392 0.1622845237
686600000.0 0.0777408489 0.1239062493
696550000.0 0.1346862663 0.0302760337
706500000.0 0.1193311945 -0.0727367753
716450000.0 0.0462878619 -0.1335651831
726400000.0 -0.042086632 -0.1246331029
736350000.0 -0.0912768286 -0.0550311915
746300000.0 -0.0702044043 0.0299852575
756250000.0 0.0132774422 0.0754144307
766200000.0 0.1118670102 0.0441708467
776150000.0 0.1631696155 -0.0557486739
786100000.0 0.1260832176 -0.1735338501
796050000.0 0.0037718553 -0.2382128142
806000000.0 -0.1484881672 -0.1968417275
815950000.0 -0.2486046663 -0.0489047173
825900000.0 -0.2319256273 0.149728559
835850000.0 -0.0844449857 0.3067859221
845800000.0 0.1410958461 0.3430118055
855750000.0 0.3489088922 0.2274499947
865700000.0 0.443790894 0.0007469272
875650000.0 0.3721967908 -0.2454189918
885600000.0 0.1566973521 -0.3986766741
895550000.0 -0.1196034062 -0.3896966421
905500000.0 -0.3421041103 -0.2073012279
915450000.0 -0.4059073151 0.0813822696
925400000.0 -0.2701568558 0.3488527724
935350000.0 0.0076459278 0.4645549599
945300000.0 0.2932793843 0.3624260064
955250000.0 0.4352446 0.0821725145
965200000.0 0.3294481694 -0.2316070089
975150000.0 0.0053555805 -0.382224149
985100000.0 -0.3478105617 -0.2241285411
995050000.0 -0.45454012 0.1800504166
1005000000.0 -0.1813708245 0.5399736931
1014950000.0 0.3137394342 0.547519545
1024900000.0 0.6647513856 0.1268793969
1034850000.0 0.5544894643 -0.4680712139
1044800000.0 -0.0200479996 -0.7872100411
1054750000.0 -0.6576361111 -0.5335475427
1064700000.0 -0.8517226897 0.1080015208
1074650000.0 -0.5901341672 0.6385674057
1084600000.0 -0.0062882703 0.8621465145
1094550000.0 0.5546892702 0.6218949411
1104500000.0 0.7994781616 0.0492013672
1114450000.0 0.5557173985 -0.5286294657
1124400000.0 -0.0217967594 -0.7320062574
1134350000.0 -0.5238073143 -0.4547127513
1144300000.0 -0.6480551711 0.0529670621
1154250000.0 -0.3957529759 0.4588519407
1164200000.0 0.0400904646 0.5604286654
1174150000.0 0.4050752149 0.3369089183
1184100000.0 0.5036409599 -0.0736064116
1194050000.0 0.280245987 -0.4241909837
1204000000.0 -0.1097684415 -0.510240464
1213950000.0 -0.4384243355 -0.3212892111
1223900000.0 -0.5655279338 0.0167518189
1233850000.0 -0.4642151112 0.3546747563
1243800000.0 -0.1779330375 0.5666024707
1253750000.0 0.1873716296 0.5638293616
1263700000.0 0.4848297458 0.3344105072
1273650000.0 0.5845669183 -0.0337636
1283600000.0 0.4469233486 -0.3870229842
1293550000.0 0.1429797173 -0.5919275666
1303500000.0 -0.2101929557 -0.5986113194
1313450000.0 -0.5054806417 -0.4234591263
1323400000.0 -0.6655764116 -0.1219230216
1333350000.0 -0.6415029465 0.2243769201
1343300000.0 -0.425683208 0.5137853606
1353250000.0 -0.0706779344 0.6372095268
1363200000.0 0.3010521527 0.5360384372
1373150000.0 0.5515458372 0.2435356726
1383100000.0 0.5988637361 -0.127973147
1393050000.0 0.4483886999 -0.4521589697
1403000000.0 0.1636723687 -0.6424964019
1412950000.0 -0.1695200868 -0.6564890891
1422900000.0 -0.4578823658 -0.4941200765
1432850000.0 -0.6156156444 -0.1985371316
1442800000.0 -0.5851847582 0.1427184323
1452750000.0 -0.3681720022 0.416260134
1462700000.0 -0.0338753597 0.5267715936
1472650000.0 0.3018246932 0.4369385364
1482600000.0 0.5248163325 0.1860666592
1492550000.0 0.5705456526 -0.1309980753
1502500000.0 0.4385806764 -0.408323038
1512450000.0 0.1798169181 -0.5596818078
1522400000.0 -0.1191920481 -0.5357177461
1532350000.0 -0.3520021541 -0.3374199359
1542300000.0 -0.4246277578 -0.0348039894
1552250000.0 -0.3008240168 0.2516401235
1562200000.0 -0.0360445181 0.4002684279
1572150000.0 0.250157782 0.3583981297
1582100000.0 0.4401884101 0.1605042687
1592050000.0 0.4658747539 -0.1029147311
1602000000.0 0.3241717696 -0.3253233306
1611950000.0 0.0685316123 -0.4161610178
1621900000.0 -0.2001833837 -0.3285197908
1631850000.0 -0.3650958973 -0.0858124205
1641800000.0 -0.3441007688 0.2130124378
1651750000.0 -0.1425167236 0.4335828803
1661700000.0 0.1460231186 0.4811091116
1671650000.0 0.396075789 0.3501039468
1681600000.0 0.5307716446 0.106325494
1691550000.0 0.5073183886 -0.1880133306
1701500000.0 0.3123258651 -0.4304202358
1711450000.0 -0.0004324356 -0.5255775963
1721400000.0 -0.3268646459 -0.4202349317
1731350000.0 -0.5379771838 -0.1394630652
1741300000.0 -0.5466258435 0.21179539
1751250000.0 -0.3572456457 0.4989342462
1761200000.0 -0.0510927677 0.6290867117
1771150000.0 0.268343946 0.5795865307
1781100000.0 0.5142049768 0.3771406391
1791050000.0 0.6259298324 0.0761347005
1801000000.0 0.5670483531 -0.2489818811
1810950000.0 0.3363637521 -0.5051241865
1820900000.0 -0.0088791192 -0.5954012378
1830850000.0 -0.348660787 -0.4747841532
1840800000.0 -0.5581124981 -0.1905672593
1850750000.0 -0.5784750487 0.1448558244
1860700000.0 -0.4310994395 0.423193251
1870650000.0 -0.1804229327 0.5815954719
1880600000.0 0.1028748778 0.5964377566
1890550000.0 0.3523055541 0.4718969666
1900500000.0 0.5044312272 0.2346948428
1910450000.0 0.5060726078 -0.0518987693
1920400000.0 0.3487496019 -0.2912308698
1930350000.0 0.0920676306 -0.3990321516
1940300000.0 -0.1628617062 -0.3511006202
1950250000.0 -0.3331116523 -0.1945608651
1960200000.0 -0.3891721496 -0.0017127158
1970150000.0 -0.3457549286 0.1623972529
1980100000.0 -0.2414992575 0.257633142
1990050000.0 -0.1295706271 0.2722506192
2000000000.0 -0.0582661081 0.2288691054
