!Created with skrf (http://scikit-rf.org).
# GHz S RI R 50.0 
!freq ReS11 ImS11
10000000.0 -0.9667449357 0.1728615281
19950000.0 -0.9383036807 0.3378272618
29900000.0 -0.8819293233 0.497722515
39850000.0 -0.7760147657 0.649284362
49800000.0 -0.6109967294 0.7827066711
59750000.0 -0.3750191349 0.8869387511
69700000.0 -0.0546379212 0.9363313557
79650000.0 0.3505172677 0.8653881429
89600000.0 0.7682184919 0.5547860671
99550000.0 0.9488596781 -0.0426438934
109500000.0 0.6701059929 -0.6424312256
119450000.0 0.1373027118 -0.9101863951
129400000.0 -0.339752972 -0.8782422308
139350000.0 -0.6630259112 -0.7113504426
149300000.0 -0.8485935796 -0.5044035697
159250000.0 -0.9328394439 -0.3010508376
169200000.0 -0.9538938372 -0.114617982
179150000.0 -0.9403269503 0.055410386
189100000.0 -0.909668716 0.209572828
199050000.0 -0.8716981154 0.3490965683
209000000.0 -0.8267705435 0.4742916404
218950000.0 -0.7695423354 0.5833946818
228900000.0 -0.6949984552 0.672712808
238850000.0 -0.600115125 0.7416661641
248800000.0 -0.485639209 0.7953738039
258750000.0 -0.3541603721 0.8393178117
268700000.0 -0.2068734142 0.8759482315
278650000.0 -0.044968808 0.9000256635
288600000.0 0.1307965485 0.8967303798
298550000.0 0.3140253244 0.8443713016
308500000.0 0.4899462927 0.7192899308
318450000.0 0.6288821995 0.507126438
328400000.0 0.6886498013 0.2191824365
338350000.0 0.6238180991 -0.0937958632
348300000.0 0.4267088326 -0.3418971116
358250000.0 0.1624311952 -0.4413647402
368200000.0 -0.0713688917 -0.3908280928
378150000.0 -0.2201555817 -0.2576115579
388100000.0 -0.2875513244 -0.1068347437
398050000.0 -0.2990699752 0.0216257453
408000000.0 -0.2755065768 0.1103468378
417950000.0 -0.232075348 0.1523776303
427900000.0 -0.1807798654 0.1570760484
437850000.0 -0.1338752239 0.1305106179
447800000.0 -0.0982899063 0.0918867404
457750000.0 -0.0828838954 0.0516379365
467700000.0 -0.0895544016 0.0197281709
477650000.0 -0.1191953134 0.0040023358
487600000.0 -0.1686842025 0.0006330363
497550000.0 -0.2229349348 0.0110935905
507500000.0 -0.2792116643 0.0314923322
517450000.0 -0.3231292069 0.0557532822
527400000.0 -0.3490434006 0.0874145571
537350000.0 -0.355650456 0.1263786314
547300000.0 -0.3454673963 0.171060604
557250000.0 -0.322782544 0.2209596544
567200000.0 -0.2943668928 0.2721606071
577150000.0 -0.2652390256 0.3201988906
587100000.0 -0.2374137812 0.3576037726
597050000.0 -0.2088069054 0.3797757229
607000000.0 -0.1775022087 0.3854247039
616950000.0 -0.1407746996 0.3751920084
626900000.0 -0.099199678 0.3543745381
636850000.0 -0.0555818767 0.3287384903
646800000.0 -0.0164589881 0.3041222423
656750000.0 0.0131792276 0.2829039166
666700000.0 0.027834041 0.267105057
676650000.0 0.0250310033 0.2527022959
686600000.0 0.0104722436 0.2373994167
696550000.0 -0.012398151 0.2228110387
706500000.0 -0.0335930969 0.206309639
716450000.0 -0.0478848836 0.1933250641
726400000.0 -0.0506540254 0.1880895506
736350000.0 -0.0415681872 0.195328926
746300000.0 -0.0238364196 0.2118296388
756250000.0 0.0006037877 0.2360748417
766200000.0 0.0266848819 0.2588750763
776150000.0 0.0526092862 0.2730307377
786100000.0 0.0783795407 0.2702904687
796050000.0 0.1059236924 0.245952985
806000000.0 0.1378803093 0.1999077998
815950000.0 0.1705679499 0.1365327848
825900000.0 0.2000373306 0.059549946
835850000.0 0.2151750108 -0.0216935052
845800000.0 0.2052986206 -0.1030236969
855750000.0 0.1603989487 -0.1747472003
865700000.0 0.079387528 -0.2328488172
875650000.0 -0.0346437432 -0.2655091355
885600000.0 -0.165004743 -0.2742481653
895550000.0 -0.2961461613 -0.2538979588
905500000.0 -0.409407709 -0.2012214545
915450000.0 -0.4894067612 -0.1178075812
925400000.0 -0.5163338085 -0.0064790539
935350000.0 -0.5031568084 0.0786758599
945300000.0 -0.4922969183 0.2219627717
955250000.0 -0.3594881111 0.3779737998
965200000.0 -0.0124025414 0.2833369878
975150000.0 -0.3939857966 -0.1527233883
985100000.0 -0.6499252869 0.1670623621
995050000.0 -0.6236582975 0.3702018821
1005000000.0 -0.5508107343 0.4870485888
1014950000.0 -0.4631305301 0.562378052
1024900000.0 -0.3706094569 0.6200238695
1034850000.0 -0.279075139 0.6676487381
1044800000.0 -0.1907874593 0.7109592379
1054750000.0 -0.1060796005 0.7452051855
1064700000.0 -0.0228464878 0.7658049456
1074650000.0 0.0593753283 0.7653870094
1084600000.0 0.1425825664 0.7416079784
1094550000.0 0.2271107037 0.6974445252
1104500000.0 0.3121877784 0.6408691881
1114450000.0 0.3963090731 0.5774135222
1124400000.0 0.4764220795 0.5082852231
1134350000.0 0.5434753766 0.4317226181
1144300000.0 0.5886299413 0.3485984507
1154250000.0 0.6196044519 0.2601953542
1164200000.0 0.6304763195 0.1438646533
1174150000.0 0.6091994794 0.0089503319
1184100000.0 0.560272178 -0.1304428592
1194050000.0 0.4898655042 -0.2640894357
1204000000.0 0.3975315965 -0.3804111069
1213950000.0 0.2853555808 -0.4665122551
1223900000.0 0.1526993864 -0.5129755574
1233850000.0 0.0081455003 -0.5125333084
1243800000.0 -0.1419292113 -0.4732658533
1253750000.0 -0.2826243892 -0.4053496994
1263700000.0 -0.4060283736 -0.3216742833
1273650000.0 -0.5040181303 -0.2304725211
1283600000.0 -0.5707577581 -0.1377147006
1293550000.0 -0.6051110199 -0.0430961691
1303500000.0 -0.6092506606 0.0542802231
1313450000.0 -0.5914704186 0.1550541331
1323400000.0 -0.5615941121 0.2578769749
1333350000.0 -0.5266409402 0.3579878807
1343300000.0 -0.4912912814 0.4502215747
1353250000.0 -0.4541121804 0.5281127617
1363200000.0 -0.4132649506 0.5871756564
1373150000.0 -0.3660646499 0.6267215137
1383100000.0 -0.3082761752 0.6496271203
1393050000.0 -0.2422119726 0.6644725671
1403000000.0 -0.1680680344 0.6782959216
1412950000.0 -0.091272327 0.6947422209
1422900000.0 -0.0160751513 0.7159064304
1432850000.0 0.0531130327 0.7346268934
1442800000.0 0.1153852866 0.7439926755
1452750000.0 0.1696859467 0.7379601045
1462700000.0 0.2190964313 0.7131983764
1472650000.0 0.2676275359 0.6731443117
1482600000.0 0.3189390557 0.6233296075
1492550000.0 0.3742194011 0.5705205699
1502500000.0 0.431327996 0.5186148603
1512450000.0 0.4863605735 0.469053707
1522400000.0 0.5342645059 0.416629073
1532350000.0 0.5655384075 0.3552885285
1542300000.0 0.5715116789 0.2847141905
1552250000.0 0.555009468 0.2098760135
1562200000.0 0.5307060541 0.1309017367
1572150000.0 0.5022124383 0.041265165
1582100000.0 0.4621638562 -0.0519621453
1592050000.0 0.4047148052 -0.1368121468
1602000000.0 0.3268396969 -0.2017926919
1611950000.0 0.2269536117 -0.2349035199
1621900000.0 0.1104329635 -0.2325242062
1631850000.0 -0.011550198 -0.1945487153
1641800000.0 -0.1250624349 -0.1306781928
1651750000.0 -0.2181482705 -0.0469964551
1661700000.0 -0.2798932401 0.0484053686
1671650000.0 -0.3037627208 0.1497111957
1681600000.0 -0.2885378125 0.2499369771
1691550000.0 -0.24507294 0.3431476056
1701500000.0 -0.1866288564 0.4276765764
1711450000.0 -0.1234980921 0.5007916483
1721400000.0 -0.0631376308 0.5602621337
1731350000.0 -0.0044347148 0.6029937471
1741300000.0 0.0542678335 0.6249506925
1751250000.0 0.1163597067 0.6245299882
1761200000.0 0.1829133589 0.6059626737
1771150000.0 0.2519951722 0.5754801699
1781100000.0 0.3196703023 0.5428573455
1791050000.0 0.3809631228 0.5125199448
1801000000.0 0.4307233822 0.4861391209
1810950000.0 0.4636785501 0.4579654832
1820900000.0 0.476322079 0.4234670456
1830850000.0 0.4672881248 0.3762104718
1840800000.0 0.4348787125 0.3205342252
1850750000.0 0.3806706314 0.2738538005
1860700000.0 0.3203894004 0.2701862387
1870650000.0 0.3038234439 0.3310401741
1880600000.0 0.3818834728 0.4081079905
1890550000.0 0.5058109695 0.421623822
1900500000.0 0.584936799 0.3846683789
1910450000.0 0.6054301716 0.3694723821
1920400000.0 0.6425212617 0.3825040821
1930350000.0 0.7015029614 0.3454998937
1940300000.0 0.7366929296 0.2597826737
1950250000.0 0.7547652937 0.1586968485
1960200000.0 0.7662407079 0.0521557559
1970150000.0 0.7746413498 -0.0479022556
1980100000.0 0.7776803598 -0.1357646648
1990050000.0 0.7683434722 -0.209630324
2000000000.0 0.739624811 -0.2695482982
