!Created with skrf (http://scikit-rf.org).
# GHz S RI R 50.0 
!freq ReS11 ImS11
10000000.0 -0.80337982 0.6036278949
19950000.0 -0.2909256552 0.9399803709
29900000.0 0.3169786608 0.9130217152
39850000.0 0.8013584739 0.5332180645
49800000.0 0.973449283 -0.071977523
59750000.0 0.7384873502 -0.6757833174
69700000.0 0.1603294867 -1.007955036
79650000.0 -0.5113762188 -0.8792881223
89600000.0 -0.9376435461 -0.3209415714
99550000.0 -0.8774135934 0.3990215609
109500000.0 -0.3254877536 0.900085392
119450000.0 0.4503516635 0.8663682383
129400000.0 0.9750516748 0.2434322031
139350000.0 0.838465408 -0.5759188056
149300000.0 0.1098883316 -0.9881725262
159250000.0 -0.6521974668 -0.6970308624
169200000.0 -0.932219482 0.0350945791
179150000.0 -0.614705867 0.7146519315
189100000.0 0.0614313677 0.9640574922
199050000.0 0.6991406973 0.6836759644
209000000.0 0.9671960954 0.0605856937
218950000.0 0.7645265936 -0.5573710063
228900000.0 0.2295498064 -0.8919310337
238850000.0 -0.3860356935 -0.8194247136
248800000.0 -0.6164406003 -0.3871450584
258750000.0 -0.9087062165 0.1740127354
268700000.0 -0.6249699173 0.707668603
278650000.0 -0.0769917815 0.9424158925
288600000.0 0.4905191706 0.7793748682
298550000.0 0.827101248 0.2989516921
308500000.0 0.7909161997 -0.2831905042
318450000.0 0.401571134 -0.708661422
328400000.0 -0.1617294378 -0.7844947504
338350000.0 -0.6220346053 -0.4735444466
348300000.0 -0.7357052312 0.0474303492
358250000.0 -0.467286898 0.4672916915
368200000.0 -0.0234154888 0.5596461234
378150000.0 0.3109934367 0.3364027049
388100000.0 0.3750812519 -0.0054877033
398050000.0 0.2046257182 -0.2427309525
408000000.0 -0.0331962534 -0.2704500566
417950000.0 -0.1781809406 -0.1400670096
427900000.0 -0.1764799932 0.021180902
437850000.0 -0.0743375394 0.1085407884
447800000.0 0.0386865915 0.0953646382
457750000.0 0.0960155037 0.018377604
467700000.0 0.0804028784 -0.0601468918
477650000.0 0.0239802269 -0.0916008789
487600000.0 -0.0247004309 -0.0664952612
497550000.0 0.0099899867 -0.0822915572
507500000.0 -0.040607219 0.0020578073
517450000.0 -0.0020100371 0.0186170084
527400000.0 0.0213088432 0.0022794413
537350000.0 0.0134678253 -0.0225454622
547300000.0 -0.0231390582 -0.0301625847
557250000.0 -0.0580681954 0.0047071892
567200000.0 -0.058955139 0.0590735977
577150000.0 -0.0178831247 0.1049005301
587100000.0 0.0503988481 0.1104826473
597050000.0 0.1136092101 0.0635749372
607000000.0 0.1342251247 -0.022790498
616950000.0 0.0943768472 -0.1109790364
626900000.0 0.0054146569 -0.1592593126
636850000.0 -0.097807758 -0.1442055719
646800000.0 -0.1698755835 -0.067955045
656750000.0 -0.1795524696 0.0373304683
666700000.0 -0.1189322904 0.1244803392
676650000.0 -0.0152594042 0.1526771054
686600000.0 0.0831792719 0.1069526107
696550000.0 0.1307401165 0.0088147716
706500000.0 0.105060005 -0.0928657746
716450000.0 0.0232296622 -0.149524113
726400000.0 -0.069975418 -0.1326836748
736350000.0 -0.1187630774 -0.053244058
746300000.0 -0.090433584 0.0410344482
756250000.0 0.0050752105 0.0915016042
766200000.0 0.1142295565 0.0621013388
776150000.0 0.1769243608 -0.0376422685
786100000.0 0.1544065193 -0.160418686
796050000.0 0.0455751409 -0.240364379
806000000.0 -0.1047894606 -0.2220165025
815950000.0 -0.2197880313 -0.0932407128
825900000.0 -0.2286630319 0.0978208593
835850000.0 -0.1091035825 0.2654077202
845800000.0 0.0972998301 0.326359816
855750000.0 0.3049073347 0.2429057401
865700000.0 0.4193768505 0.0408037877
875650000.0 0.3792746017 -0.1980582348
885600000.0 0.1877815414 -0.3654591336
895550000.0 -0.0809210551 -0.3743880315
905500000.0 -0.305611702 -0.205763661
915450000.0 -0.376220862 0.0761928978
925400000.0 -0.248109592 0.3408505607
935350000.0 0.0239618604 0.4539331245
945300000.0 0.3029689539 0.3468218535
955250000.0 0.4309926938 0.0608173738
965200000.0 0.3056540934 -0.2544686912
975150000.0 -0.0405404205 -0.3894909595
985100000.0 -0.4010856071 -0.1959308406
995050000.0 -0.4815965603 0.2449116323
1005000000.0 -0.1535774645 0.6072452244
1014950000.0 0.3802403909 0.5631722371
1024900000.0 0.7081762492 0.074187522
1034850000.0 0.5239126478 -0.5419712694
1044800000.0 -0.108804846 -0.8020576811
1054750000.0 -0.7164847188 -0.4571787582
1064700000.0 -0.7966757954 0.1876755629
1074650000.0 -0.5176762537 0.6500981241
1084600000.0 0.0294956381 0.7866817353
1094550000.0 0.5521444993 0.5563593621
1104500000.0 0.7517009288 -0.0107128696
1114450000.0 0.4790706583 -0.5446358128
1124400000.0 -0.0771334992 -0.6970417631
1134350000.0 -0.5280258404 -0.4076877707
1144300000.0 -0.6211709783 0.0735540604
1154250000.0 -0.3728272348 0.4500074534
1164200000.0 0.0388006329 0.5462156854
1174150000.0 0.3924767674 0.3483742872
1184100000.0 0.5156953009 -0.0391902413
1194050000.0 0.3298571355 -0.3986292092
1204000000.0 -0.0422936097 -0.5213571372
1213950000.0 -0.3837166066 -0.3725588749
1223900000.0 -0.5495537036 -0.0574628353
1233850000.0 -0.4963968703 0.2840030318
1243800000.0 -0.2526604398 0.528609382
1253750000.0 0.0965153979 0.581879169
1263700000.0 0.4175289304 0.4077538732
1273650000.0 0.570424518 0.0672593933
1283600000.0 0.48974432 -0.2965278285
1293550000.0 0.2229508578 -0.5400140827
1303500000.0 -0.1199909209 -0.5948157517
1313450000.0 -0.4287318521 -0.4643533779
1323400000.0 -0.6222314392 -0.1962962503
1333350000.0 -0.6490180338 0.1370386167
1343300000.0 -0.4872664874 0.443523559
1353250000.0 -0.1685203645 0.6131000986
1363200000.0 0.2030380952 0.5676788527
1373150000.0 0.4859992448 0.3162822272
1383100000.0 0.5795464903 -0.0429508889
1393050000.0 0.471366225 -0.3810065613
1403000000.0 0.2155341233 -0.6016177078
1412950000.0 -0.1035330328 -0.6540394128
1422900000.0 -0.3963207359 -0.5331858018
1432850000.0 -0.5801352554 -0.2707747728
1442800000.0 -0.5931259853 0.0588027673
1452750000.0 -0.4193047482 0.3486349149
1462700000.0 -0.1098698995 0.4987830418
1472650000.0 0.2292088456 0.4547073089
1482600000.0 0.4817638206 0.2373485759
1492550000.0 0.5686951474 -0.0694610604
1502500000.0 0.4753200219 -0.3600263748
1512450000.0 0.242591715 -0.5436445082
1522400000.0 -0.0511663795 -0.5614400273
1532350000.0 -0.3051029138 -0.4017852555
1542300000.0 -0.421061541 -0.1158396354
1552250000.0 -0.3465828869 0.1875373603
1562200000.0 -0.1106907593 0.3848847548
1572150000.0 0.1837684853 0.4013435469
1582100000.0 0.4156664198 0.2439245295
1592050000.0 0.4985685928 -0.0117830721
1602000000.0 0.4081564852 -0.2611251308
1611950000.0 0.1798343934 -0.4069715096
1621900000.0 -0.1009509006 -0.3862393532
1631850000.0 -0.321565056 -0.1930811249
1641800000.0 -0.3814980994 0.1011859835
1651750000.0 -0.247512348 0.3707678103
1661700000.0 0.0206448568 0.4975057612
1671650000.0 0.3048208231 0.4342484701
1681600000.0 0.4936654073 0.2154890831
1691550000.0 0.5216893649 -0.0749808318
1701500000.0 0.3749722573 -0.3363065307
1711450000.0 0.0983299127 -0.4538373849
1721400000.0 -0.1574681299 -0.4553678068
1731350000.0 -0.4493797124 -0.265590493
1741300000.0 -0.5523736032 0.0672614665
1751250000.0 -0.4407057037 0.3879224738
1761200000.0 -0.1757618197 0.5794847393
1771150000.0 0.1396104711 0.5947758453
1781100000.0 0.4109102794 0.4472900691
1791050000.0 0.5700897238 0.1836601791
1801000000.0 0.5743489421 -0.1302757189
1810950000.0 0.4107692507 -0.4099073942
1820900000.0 0.112022253 -0.5605291957
1830850000.0 -0.2257647675 -0.5142472327
1840800000.0 -0.4758308165 -0.2848380097
1850750000.0 -0.5539768143 0.0327261773
1860700000.0 -0.4575436268 0.3237762443
1870650000.0 -0.2421706234 0.5131702956
1880600000.0 0.022531252 0.5677635005
1890550000.0 0.2705071788 0.4861498323
1900500000.0 0.4396499711 0.2901103956
1910450000.0 0.479430186 0.0307567946
1920400000.0 0.3698377344 -0.2088397934
1930350000.0 0.1496163444 -0.3412314713
1940300000.0 -0.0911547791 -0.3277786891
1950250000.0 -0.2693901769 -0.1990932677
1960200000.0 -0.3384635599 -0.0234099378
1970150000.0 -0.3094040253 0.1308346827
1980100000.0 -0.2200562329 0.2177000869
1990050000.0 -0.1287485815 0.2238626483
2000000000.0 -0.0919557206 0.1786427176
