!Created with skrf (http://scikit-rf.org).
# GHz S RI R 50.0 
!freq ReS11 ImS11
10000000.0 -0.9990731359 0.1596589981
19950000.0 -0.9466709568 0.3053092927
29900000.0 -0.8726690586 0.4454336088
39850000.0 -0.7761615185 0.5842749234
49800000.0 -0.6584256666 0.7166860702
59750000.0 -0.5144908137 0.836536326
69700000.0 -0.3362428956 0.9322685353
79650000.0 -0.1195283989 0.9851107733
89600000.0 0.1352730023 0.9758692637
99550000.0 0.413551955 0.8827450054
109500000.0 0.6889892295 0.6884773486
119450000.0 0.9121230305 0.3793769032
129400000.0 1.009774088 -0.025269632
139350000.0 0.9211399337 -0.4444253676
149300000.0 0.6544601235 -0.7761237464
159250000.0 0.2948634461 -0.951354615
169200000.0 -0.0655457441 -0.9802378474
179150000.0 -0.3748068605 -0.90550598
189100000.0 -0.6148664504 -0.769081972
199050000.0 -0.7826812952 -0.6000741634
209000000.0 -0.8827311059 -0.416951093
218950000.0 -0.9319906715 -0.2347752412
228900000.0 -0.9424096686 -0.0601001281
238850000.0 -0.9261840284 0.1051970546
248800000.0 -0.8883771023 0.2528566433
258750000.0 -0.8414899321 0.4028576987
268700000.0 -0.7709682158 0.533559717
278650000.0 -0.677269291 0.6447880343
288600000.0 -0.5589461418 0.7331576926
298550000.0 -0.4182021099 0.7956573216
308500000.0 -0.2584996368 0.8331166721
318450000.0 -0.0845168531 0.8401428979
328400000.0 0.0974084714 0.810446709
338350000.0 0.270822985 0.7311702872
348300000.0 0.4126729068 0.5950539918
358250000.0 0.4930425175 0.4110076195
368200000.0 0.4952145218 0.2089346909
378150000.0 0.4243734667 0.0292359345
388100000.0 0.3079788213 -0.0995761543
398050000.0 0.1773894005 -0.1657325445
408000000.0 0.0603649621 -0.1747069096
417950000.0 -0.0289933906 -0.1412048152
427900000.0 -0.0874950205 -0.0846284488
437850000.0 -0.1200707094 -0.0212092736
447800000.0 -0.1327711032 0.0375833021
457750000.0 -0.130598365 0.0841326751
467700000.0 -0.1172117758 0.1145161572
477650000.0 -0.0949065471 0.1281052744
487600000.0 -0.0667113469 0.1271459164
497550000.0 -0.0373403363 0.1172955252
507500000.0 -0.0058681387 0.1013336988
517450000.0 0.017720007 0.0817701481
527400000.0 0.0311638606 0.0615696369
537350000.0 0.0307093426 0.0415123159
547300000.0 0.0184002413 0.0226216899
557250000.0 -0.0036254636 0.0026406779
567200000.0 -0.0326164869 -0.01540958
577150000.0 -0.0631681938 -0.0292894276
587100000.0 -0.0905702974 -0.0365679122
597050000.0 -0.1124927577 -0.0344262658
607000000.0 -0.1286249632 -0.0214822881
616950000.0 -0.1395597758 0.001572654
626900000.0 -0.1469424888 0.0320674032
636850000.0 -0.150635061 0.0654677286
646800000.0 -0.1500079162 0.0974089984
656750000.0 -0.1439051109 0.1243491484
666700000.0 -0.129884614 0.143851436
676650000.0 -0.1066402074 0.1553083273
686600000.0 -0.0744846679 0.1594634089
696550000.0 -0.0354302208 0.1580278414
706500000.0 0.0062616933 0.1508933832
716450000.0 0.0468527925 0.1384753876
726400000.0 0.0802645608 0.1184732149
736350000.0 0.103989794 0.0886703591
746300000.0 0.1148477257 0.0484042009
756250000.0 0.1141827153 -0.0021555347
766200000.0 0.1013612637 -0.0592231829
776150000.0 0.0785235161 -0.1171535446
786100000.0 0.0455572985 -0.1700949029
796050000.0 0.0025750032 -0.2107578946
806000000.0 -0.0492485246 -0.2343111619
815950000.0 -0.1104074734 -0.2375641127
825900000.0 -0.1772766124 -0.2220163917
835850000.0 -0.2464834871 -0.1903688097
845800000.0 -0.3121706219 -0.1465550785
855750000.0 -0.3684568049 -0.0925967836
865700000.0 -0.4086485435 -0.0309607999
875650000.0 -0.4276836362 0.0389592315
885600000.0 -0.4218228235 0.114872933
895550000.0 -0.3919318971 0.195697633
905500000.0 -0.3386553692 0.2787161225
915450000.0 -0.2642855468 0.3577775105
925400000.0 -0.1697674374 0.4239749393
935350000.0 -0.0639438738 0.467706352
945300000.0 0.031219419 0.4750829652
955250000.0 0.1205093609 0.4359246156
965200000.0 0.2335318583 0.3546754539
975150000.0 0.3612413212 0.251401033
985100000.0 0.4729535514 0.1081885474
995050000.0 0.5323394074 -0.0956832345
1005000000.0 0.4980494931 -0.3384931863
1014950000.0 0.3416676066 -0.5653548873
1024900000.0 0.0737754872 -0.7092573014
1034850000.0 -0.2516312073 -0.7226896768
1044800000.0 -0.5598772314 -0.594867202
1054750000.0 -0.7829902479 -0.3523649216
1064700000.0 -0.8611347326 -0.0608726843
1074650000.0 -0.8440640575 0.2149493931
1084600000.0 -0.6823266921 0.4334961129
1094550000.0 -0.5780858805 0.6232981633
1104500000.0 -0.3247643702 0.7717787593
1114450000.0 -0.0555889487 0.8210141883
1124400000.0 0.2031684649 0.7793699587
1134350000.0 0.4201955643 0.6533658985
1144300000.0 0.5718142707 0.4648774972
1154250000.0 0.6496256878 0.2473169562
1164200000.0 0.662236432 0.0321589335
1174150000.0 0.6310520478 -0.1639477593
1184100000.0 0.5583329738 -0.3365088679
1194050000.0 0.4511155757 -0.4699470153
1204000000.0 0.3216490127 -0.5588702481
1213950000.0 0.1825408664 -0.6057436827
1223900000.0 0.0445182392 -0.6201742351
1233850000.0 -0.0854529057 -0.6134476797
1243800000.0 -0.2032933168 -0.5922268082
1253750000.0 -0.3065945769 -0.5597227405
1263700000.0 -0.3936038501 -0.516673114
1273650000.0 -0.4646642128 -0.4632024504
1283600000.0 -0.5185727688 -0.3987450441
1293550000.0 -0.5589599633 -0.3256387651
1303500000.0 -0.5906037171 -0.2476708829
1313450000.0 -0.6165142803 -0.1692859031
1323400000.0 -0.6395377885 -0.0935655733
1333350000.0 -0.6574818856 -0.0218012407
1343300000.0 -0.6673287034 0.0463785781
1353250000.0 -0.6666033361 0.1099812684
1363200000.0 -0.6516519003 0.1708620454
1373150000.0 -0.6224821419 0.2308796506
1383100000.0 -0.5835890001 0.2904533895
1393050000.0 -0.5391274788 0.350127676
1403000000.0 -0.493706764 0.4078100102
1412950000.0 -0.44696632 0.4615325512
1422900000.0 -0.399596159 0.508906633
1432850000.0 -0.3485360979 0.5459968299
1442800000.0 -0.2913689257 0.572112897
1452750000.0 -0.226744605 0.5867006502
1462700000.0 -0.1533170398 0.5921041496
1472650000.0 -0.073331327 0.5907862166
1482600000.0 0.0090312793 0.5851570845
1492550000.0 0.0905314612 0.5740848583
1502500000.0 0.168969818 0.5554499315
1512450000.0 0.2410885818 0.5249148594
1522400000.0 0.3051187867 0.4788062304
1532350000.0 0.3598803258 0.4154709566
1542300000.0 0.4058009375 0.3367626645
1552250000.0 0.4438610435 0.247156029
1562200000.0 0.47509282 0.1519377111
1572150000.0 0.4960154166 0.0545956226
1582100000.0 0.5019354404 -0.0422632233
1592050000.0 0.4896713224 -0.1347398355
1602000000.0 0.4554631917 -0.2210086604
1611950000.0 0.4009933573 -0.2986357931
1621900000.0 0.3310982127 -0.3687296605
1631850000.0 0.2521706696 -0.4310819461
1641800000.0 0.168820102 -0.484918624
1651750000.0 0.0845790234 -0.5277003967
1661700000.0 0.0015098017 -0.5564194639
1671650000.0 -0.0791109656 -0.5673918879
1681600000.0 -0.1565183278 -0.5595000213
1691550000.0 -0.2314348766 -0.5369154688
1701500000.0 -0.3050734972 -0.5032443617
1711450000.0 -0.3760401398 -0.4640645863
1721400000.0 -0.4429837046 -0.4223649465
1731350000.0 -0.5037773123 -0.3807581455
1741300000.0 -0.5544105112 -0.3365693766
1751250000.0 -0.5914508963 -0.2884004373
1761200000.0 -0.6147318034 -0.2350966469
1771150000.0 -0.6262275036 -0.1767996991
1781100000.0 -0.6308044328 -0.1143641171
1791050000.0 -0.6323815792 -0.0518298104
1801000000.0 -0.6340039855 0.0083168312
1810950000.0 -0.6363528037 0.0648345102
1820900000.0 -0.6348465425 0.114744791
1830850000.0 -0.6229993664 0.1546125211
1840800000.0 -0.5943801142 0.1855658295
1850750000.0 -0.5488471621 0.2095894336
1860700000.0 -0.5187593777 0.2354587809
1870650000.0 -0.5130467237 0.2693394187
1880600000.0 -0.4905521613 0.306045088
1890550000.0 -0.4581532017 0.3421851874
1900500000.0 -0.4252929702 0.3727706307
1910450000.0 -0.3934306706 0.3950426241
1920400000.0 -0.3609214023 0.4077238348
1930350000.0 -0.3244878321 0.4091939909
1940300000.0 -0.2832191331 0.4006324403
1950250000.0 -0.2373180353 0.3831044713
1960200000.0 -0.1892537766 0.3609708524
1970150000.0 -0.1448843363 0.3344606756
1980100000.0 -0.10857232 0.3041708274
1990050000.0 -0.0842730827 0.2667217547
2000000000.0 -0.0752570252 0.2182093471
