!Created with skrf (http://scikit-rf.org).
# GHz S RI R 50.0 
!freq ReS11 ImS11
10000000.0 -0.8725868368 0.4369474705
19950000.0 -0.5928203979 0.7703638257
29900000.0 -0.1947247254 0.9513900829
39850000.0 0.2513107983 0.9390342585
49800000.0 0.6558257681 0.7205601966
59750000.0 0.9223755577 0.3244631007
69700000.0 0.9669011941 -0.1713224761
79650000.0 0.7472382843 -0.6432410966
89600000.0 0.2924659653 -0.9433016405
99550000.0 -0.2795795086 -0.9438992901
109500000.0 -0.7731593458 -0.5974160589
119450000.0 -0.9701700082 0.0069940016
129400000.0 -0.7351292759 0.6296545638
139350000.0 -0.1415701466 0.958696312
149300000.0 0.5232616978 0.8158419927
159250000.0 0.9212884037 0.2932381181
169200000.0 0.9043562282 -0.3252718096
179150000.0 0.5501522184 -0.7779407242
189100000.0 0.0408922667 -0.9418153808
199050000.0 -0.447428389 -0.8199297082
209000000.0 -0.7928818549 -0.4839806991
218950000.0 -0.9260504741 -0.0427987646
228900000.0 -0.83908913 0.3985680016
238850000.0 -0.5636153226 0.742943435
248800000.0 -0.1707052771 0.9130454426
258750000.0 0.2550412024 0.8958929689
268700000.0 0.6195862568 0.6844598732
278650000.0 0.8480609243 0.3343090679
288600000.0 0.8945954624 -0.0801646755
298550000.0 0.7484482254 -0.4705275589
308500000.0 0.4364994473 -0.7488945855
318450000.0 0.0277666902 -0.8435972112
328400000.0 -0.373504031 -0.7210841144
338350000.0 -0.647993494 -0.4087304318
348300000.0 -0.7030879042 -0.0087988499
358250000.0 -0.5284261936 0.3291962556
368200000.0 -0.2182939558 0.48035486
378150000.0 0.0757454613 0.4189043666
388100000.0 0.2367466914 0.2235866714
398050000.0 0.2364621405 0.0164091331
408000000.0 0.1271088714 -0.109378939
417950000.0 -0.0068439314 -0.1256651814
427900000.0 -0.0986130059 -0.0596050812
437850000.0 -0.1193387085 0.0371455586
447800000.0 -0.0763803355 0.1163517165
457750000.0 0.0013364008 0.1492238766
467700000.0 0.0793616595 0.1303458309
477650000.0 0.130835714 0.0730174712
487600000.0 0.1420204474 0.0006714124
497550000.0 0.1174425255 -0.0653711283
507500000.0 0.0629828917 -0.1000120299
517450000.0 0.0077583285 -0.1028051436
527400000.0 -0.0330454667 -0.0791681787
537350000.0 -0.0488739033 -0.0441285935
547300000.0 -0.0405985249 -0.0152426717
557250000.0 -0.0177936809 -0.0026679962
567200000.0 0.0055552972 -0.012940999
577150000.0 0.0145305111 -0.040114952
587100000.0 0.000932477 -0.0718088552
597050000.0 -0.0341945401 -0.0919796777
607000000.0 -0.0812094177 -0.0890516316
616950000.0 -0.1248945456 -0.0577626748
626900000.0 -0.1487831236 -0.0030167227
636850000.0 -0.1424129321 0.0626109285
646800000.0 -0.1020382782 0.1211838693
656750000.0 -0.0346629947 0.1556844191
666700000.0 0.0450761732 0.1538545698
676650000.0 0.1166702724 0.1135185406
686600000.0 0.161634476 0.0430601493
696550000.0 0.1680482604 -0.0404522918
706500000.0 0.1330911848 -0.115205715
716450000.0 0.0661692848 -0.1610089543
726400000.0 -0.0141344211 -0.1645015396
736350000.0 -0.0825380053 -0.1233433446
746300000.0 -0.1169753276 -0.0497793285
756250000.0 -0.10352748 0.0338053609
766200000.0 -0.043549325 0.0981497404
776150000.0 0.0463808549 0.1194660061
786100000.0 0.1372931599 0.0858109314
796050000.0 0.1974668029 0.0031979698
806000000.0 0.2023526781 -0.1049285067
815950000.0 0.1416015687 -0.2052337304
825900000.0 0.0271213889 -0.2618702695
835850000.0 -0.1122036805 -0.2489470874
845800000.0 -0.2358619526 -0.159713822
855750000.0 -0.3038708248 -0.0096206693
865700000.0 -0.2883552406 0.1644475151
875650000.0 -0.1849989163 0.3156939178
885600000.0 -0.0153945412 0.398777892
895550000.0 0.1792897986 0.3864468853
905500000.0 0.3471768191 0.2750350891
915450000.0 0.4404332522 0.0860956969
925400000.0 0.4245049156 -0.1356348466
935350000.0 0.2877713875 -0.3283969778
945300000.0 0.0541730079 -0.4254119872
955250000.0 -0.2130916368 -0.3730150739
965200000.0 -0.4167915473 -0.1609880149
975150000.0 -0.4566989024 0.1552691792
985100000.0 -0.277608368 0.4516182445
995050000.0 0.0766667095 0.5763586072
1005000000.0 0.4633450078 0.4293768128
1014950000.0 0.679168873 0.023689748
1024900000.0 0.5579182476 -0.4674731053
1034850000.0 0.1043884848 -0.7676089544
1044800000.0 -0.4512898665 -0.6763586075
1054750000.0 -0.8046224621 -0.2394564399
1064700000.0 -0.7943150354 0.298736496
1074650000.0 -0.4675352622 0.6937148849
1084600000.0 -0.063266774 0.8003249915
1094550000.0 0.3916853513 0.714501347
1104500000.0 0.6980795671 0.3606600767
1114450000.0 0.7408598005 -0.0980340484
1124400000.0 0.5156331391 -0.4877943766
1134350000.0 0.1223797331 -0.6684548877
1144300000.0 -0.27971453 -0.5948530259
1154250000.0 -0.5515968383 -0.3282685488
1164200000.0 -0.6308282055 0.0156101756
1174150000.0 -0.5297882002 0.3293850612
1184100000.0 -0.2948218151 0.5408042136
1194050000.0 0.0069950881 0.602696467
1204000000.0 0.2952640012 0.5066664821
1213950000.0 0.4963060169 0.2820390557
1223900000.0 0.56081047 -0.0099802484
1233850000.0 0.4775614001 -0.2919647473
1243800000.0 0.2770588382 -0.4956039537
1253750000.0 0.0158772583 -0.5825431735
1263700000.0 -0.245686082 -0.547540602
1273650000.0 -0.45914898 -0.4115032925
1283600000.0 -0.596303604 -0.2062818236
1293550000.0 -0.6373218397 0.0316662739
1303500000.0 -0.5812876173 0.2656725435
1313450000.0 -0.4349754747 0.460291778
1323400000.0 -0.2179049862 0.5818141502
1333350000.0 0.0363165592 0.6042745926
1343300000.0 0.2830618835 0.5184252353
1353250000.0 0.4746528726 0.3369187105
1363200000.0 0.5756032547 0.0948639032
1373150000.0 0.5711682033 -0.1618347004
1383100000.0 0.4693168166 -0.3882864312
1393050000.0 0.2948764696 -0.5510110052
1403000000.0 0.0796464415 -0.6315833194
1412950000.0 -0.1433688213 -0.6235944628
1422900000.0 -0.3435370298 -0.5321020999
1432850000.0 -0.4932746845 -0.3686187137
1442800000.0 -0.5686489147 -0.1550383598
1452750000.0 -0.5530086534 0.076951721
1462700000.0 -0.4410778331 0.2884120085
1472650000.0 -0.2481603298 0.4370556867
1482600000.0 -0.0098603333 0.4903546105
1492550000.0 0.2247163358 0.4379472422
1502500000.0 0.4082179555 0.2937014982
1512450000.0 0.5072034388 0.0926063718
1522400000.0 0.5098328494 -0.1230816882
1532350000.0 0.4207013756 -0.3120335255
1542300000.0 0.2602473222 -0.4407835718
1552250000.0 0.0587398628 -0.4837920211
1562200000.0 -0.1420807746 -0.431554242
1572150000.0 -0.3017807553 -0.2928138965
1582100000.0 -0.3849202416 -0.0912669943
1592050000.0 -0.3651657441 0.1308650837
1602000000.0 -0.2454184654 0.3192361478
1611950000.0 -0.0517703862 0.4282055483
1621900000.0 0.16539568 0.4350752091
1631850000.0 0.357764524 0.3446037713
1641800000.0 0.4879868125 0.1801571292
1651750000.0 0.5335600218 -0.023862066
1661700000.0 0.4875419433 -0.2304141973
1671650000.0 0.3566860907 -0.4034604072
1681600000.0 0.1589463408 -0.5094703926
1691550000.0 -0.0730728895 -0.5245369674
1701500000.0 -0.2973443008 -0.4383538641
1711450000.0 -0.468587754 -0.2625306431
1721400000.0 -0.5526788509 -0.0291904948
1731350000.0 -0.5327069856 0.2154188945
1741300000.0 -0.417962797 0.4265601
1751250000.0 -0.2343693118 0.5711195595
1761200000.0 -0.01561733 0.6325066382
1771150000.0 0.2053622788 0.6088051882
1781100000.0 0.3993140094 0.5078575686
1791050000.0 0.5436452859 0.3451674814
1801000000.0 0.6198542236 0.1397805459
1810950000.0 0.6167230608 -0.082535195
1820900000.0 0.5307315865 -0.2917743798
1830850000.0 0.3697789814 -0.4561452794
1840800000.0 0.1562700271 -0.5467338592
1850750000.0 -0.0754609489 -0.5472787686
1860700000.0 -0.2865817324 -0.4590582415
1870650000.0 -0.4434578882 -0.3004116343
1880600000.0 -0.5247334341 -0.1033300038
1890550000.0 -0.5265638864 0.0976698681
1900500000.0 -0.4593824344 0.2725387102
1910450000.0 -0.3420669416 0.4009886764
1920400000.0 -0.1971444002 0.4716290397
1930350000.0 -0.0482369674 0.4820504045
1940300000.0 0.0832796675 0.4375772923
1950250000.0 0.1792392941 0.3518364596
1960200000.0 0.2276172549 0.2431756228
1970150000.0 0.2267444402 0.1360781863
1980100000.0 0.1860162752 0.0532370757
1990050000.0 0.1271289564 0.0115915063
2000000000.0 0.0794689454 0.0141709671
