!Created with skrf (http://scikit-rf.org).
# GHz S RI R 50.0 
!freq ReS11 ImS11
10000000.0 -0.7910989045 0.5977886839
19950000.0 -0.28653984 0.9385570207
29900000.0 0.3195501449 0.921461109
39850000.0 0.8065236659 0.5487802143
49800000.0 0.9808795314 -0.0520365805
59750000.0 0.7495894235 -0.6504490336
69700000.0 0.181534289 -0.9821737409
79650000.0 -0.4829118051 -0.868729721
89600000.0 -0.9212637041 -0.3324188463
99550000.0 -0.8883133618 0.3812336493
109500000.0 -0.357199458 0.8964046253
119450000.0 0.4138203738 0.8824206713
129400000.0 0.945888684 0.2796820656
139350000.0 0.832063232 -0.535281714
149300000.0 0.1271446102 -0.9667735876
159250000.0 -0.6397060881 -0.7075966255
169200000.0 -0.9426558877 0.0126512724
179150000.0 -0.6387606601 0.698267117
189100000.0 0.0333244588 0.955085809
199050000.0 0.6712449324 0.6845786573
209000000.0 0.949825829 0.0726266139
218950000.0 0.764549523 -0.5462247555
228900000.0 0.2409815647 -0.8947978218
238850000.0 -0.3753468633 -0.8372997588
248800000.0 -0.7799298595 -0.2819205123
258750000.0 -0.909963168 0.1397052145
268700000.0 -0.6345244248 0.675983576
278650000.0 -0.0932772075 0.9193193551
288600000.0 0.4759778048 0.7717887835
298550000.0 0.8252192278 0.302968184
308500000.0 0.8022223436 -0.2787783449
318450000.0 0.4169661136 -0.7075822067
328400000.0 -0.145674234 -0.7807752174
338350000.0 -0.5999346824 -0.4659203423
348300000.0 -0.7061695253 0.0518780321
358250000.0 -0.435572558 0.4643013164
368200000.0 0.0050157586 0.5484875912
378150000.0 0.328479187 0.3176071456
388100000.0 0.3740525851 -0.0222918095
398050000.0 0.189598994 -0.2451951596
408000000.0 -0.050257207 -0.2560542114
417950000.0 -0.1895046439 -0.1142074022
427900000.0 -0.1800231433 0.0512834845
437850000.0 -0.0711337209 0.1390173247
447800000.0 0.0477749206 0.1222781686
457750000.0 0.1084901457 0.0379852405
467700000.0 0.0913614715 -0.0497626587
477650000.0 0.0293627494 -0.0892795349
487600000.0 -0.028029517 -0.0706968598
497550000.0 -0.0059088811 -0.019340544
507500000.0 -0.0563993224 -0.0135488107
517450000.0 -0.0264065403 0.0078850004
527400000.0 -0.0079169774 -0.0025816583
537350000.0 -0.0154731093 -0.0204092987
547300000.0 -0.0463518406 -0.0259330167
557250000.0 -0.0768909832 0.0126980777
567200000.0 -0.067704846 0.0682275509
577150000.0 -0.016331082 0.1102107608
587100000.0 0.0601589626 0.1081950209
597050000.0 0.1271521827 0.0522099666
607000000.0 0.1476213162 -0.0420458011
616950000.0 0.1046919142 -0.1356803071
626900000.0 0.0104374179 -0.1869688625
636850000.0 -0.0977671742 -0.170105369
646800000.0 -0.1737482626 -0.0889621636
656750000.0 -0.185291562 0.0226003547
666700000.0 -0.124756702 0.1171829623
676650000.0 -0.0188749809 0.154676027
686600000.0 0.0854593357 0.1172108151
696550000.0 0.1412934069 0.0243420585
706500000.0 0.1242298684 -0.0764567189
716450000.0 0.0491822224 -0.1358095302
726400000.0 -0.0405071698 -0.1246163215
736350000.0 -0.0910282141 -0.0528847883
746300000.0 -0.0715699659 0.0354531671
756250000.0 0.0127481815 0.0856766853
766200000.0 0.1143185396 0.0589503202
776150000.0 0.1711860433 -0.0387501878
786100000.0 0.1401318899 -0.1594114099
796050000.0 0.0218049042 -0.2311564848
806000000.0 -0.1316667038 -0.1998073797
815950000.0 -0.239953632 -0.0607821554
825900000.0 -0.235480902 0.1332592049
835850000.0 -0.1022365985 0.2935540738
845800000.0 0.1119620268 0.339056631
855750000.0 0.3169420274 0.2381413563
865700000.0 0.4205998979 0.0242235764
875650000.0 0.3671740863 -0.2189409295
885600000.0 0.1648230092 -0.3827167865
895550000.0 -0.1074887072 -0.3842673199
905500000.0 -0.3296950734 -0.2087840432
915450000.0 -0.3914645448 0.076876428
925400000.0 -0.2518382445 0.3372295624
935350000.0 0.026172103 0.4393392583
945300000.0 0.3026549396 0.3212520212
955250000.0 0.420070954 0.0297019797
965200000.0 0.2774784368 -0.2782878185
975150000.0 -0.079050802 -0.3810853854
985100000.0 -0.4101451934 -0.1431056482
995050000.0 -0.4197790256 0.2997326311
1005000000.0 -0.0422687387 0.5894916559
1014950000.0 0.4482146388 0.4589905228
1024900000.0 0.6782330708 -0.0329310057
1034850000.0 0.437441282 -0.5763106709
1044800000.0 -0.1765214562 -0.7521147508
1054750000.0 -0.7135768377 -0.3707965198
1064700000.0 -0.7295474813 0.2456104473
1074650000.0 -0.3722475275 0.6355497143
1084600000.0 -0.0791289596 0.619742735
1094550000.0 0.4413133645 0.6362427237
1104500000.0 0.7561354414 0.1148668352
1114450000.0 0.5667932293 -0.4621591668
1124400000.0 0.0298075346 -0.6988678976
1134350000.0 -0.4711848122 -0.4760730013
1144300000.0 -0.6394934354 -0.0024003836
1154250000.0 -0.4403243832 0.4150148844
1164200000.0 -0.0338854834 0.5632346909
1174150000.0 0.3455223719 0.3939427809
1184100000.0 0.4953425676 0.0094618562
1194050000.0 0.3276170267 -0.360468685
1204000000.0 -0.0366575025 -0.5000574625
1213950000.0 -0.3811198977 -0.3643747298
1223900000.0 -0.5502829434 -0.0550963585
1233850000.0 -0.4954260895 0.2820070775
1243800000.0 -0.248830053 0.5183672812
1253750000.0 0.0990076054 0.5609204825
1263700000.0 0.4124204854 0.3775004376
1273650000.0 0.5541450673 0.0356574901
1283600000.0 0.4660763355 -0.3223109844
1293550000.0 0.1952485269 -0.5575165482
1303500000.0 -0.1464586868 -0.6010942188
1313450000.0 -0.4475512129 -0.4594084733
1323400000.0 -0.6275066297 -0.1845765028
1333350000.0 -0.637634895 0.148437026
1343300000.0 -0.4623737368 0.4463256525
1353250000.0 -0.1384479335 0.6039383397
1363200000.0 0.2303503158 0.549623848
1373150000.0 0.5074496086 0.2943278226
1383100000.0 0.5931424229 -0.064978372
1393050000.0 0.4761654733 -0.3982438473
1403000000.0 0.2140262985 -0.6087995997
1412950000.0 -0.1061240972 -0.6494448127
1422900000.0 -0.3947960255 -0.5197415346
1432850000.0 -0.5731951682 -0.2545742532
1442800000.0 -0.5838564467 0.0734196145
1452750000.0 -0.4112079902 0.3630770407
1462700000.0 -0.1018020969 0.5138613784
1472650000.0 0.238970441 0.4674497661
1482600000.0 0.4886493052 0.2446602427
1492550000.0 0.5684920366 -0.065612733
1502500000.0 0.4683338585 -0.3546532879
1512450000.0 0.2325534445 -0.5342647428
1522400000.0 -0.0610136795 -0.5504956994
1532350000.0 -0.3140151643 -0.3937082043
1542300000.0 -0.4322696755 -0.1124081669
1552250000.0 -0.3610090135 0.1889389881
1562200000.0 -0.1257071322 0.3844131388
1572150000.0 0.1679300352 0.3963520936
1582100000.0 0.3958887951 0.2369827473
1592050000.0 0.4755298953 -0.0162030661
1602000000.0 0.3886496653 -0.2599335137
1611950000.0 0.1696040823 -0.4047702899
1621900000.0 -0.1027802108 -0.387811358
1631850000.0 -0.3177141532 -0.2002027389
1641800000.0 -0.3716697634 0.0894592302
1651750000.0 -0.2332005729 0.3506788851
1661700000.0 0.0325977966 0.4680046778
1671650000.0 0.3088875369 0.4027890317
1681600000.0 0.492118384 0.1909246269
1691550000.0 0.5224156746 -0.0909065253
1701500000.0 0.3848576408 -0.3489350693
1711450000.0 0.11369619 -0.4912917953
1721400000.0 -0.2050372314 -0.4507417477
1731350000.0 -0.4498632964 -0.224810176
1741300000.0 -0.5194013326 0.1031949077
1751250000.0 -0.3908906073 0.4055387831
1761200000.0 -0.1252697317 0.5782530359
1771150000.0 0.1809542202 0.5804796165
1781100000.0 0.4387305311 0.4262627602
1791050000.0 0.5818283234 0.1610785694
1801000000.0 0.5674600889 -0.1480154353
1810950000.0 0.3867599779 -0.4129930222
1820900000.0 0.0813447193 -0.5404316894
1830850000.0 -0.2485356293 -0.4741084175
1840800000.0 -0.4819500224 -0.2375987302
1850750000.0 -0.5454418921 0.0744643196
1860700000.0 -0.4411948045 0.354107555
1870650000.0 -0.2236175554 0.5292270634
1880600000.0 0.0382738867 0.5688059864
1890550000.0 0.2766056128 0.4736781254
1900500000.0 0.4315791433 0.2693430346
1910450000.0 0.4558913868 0.0117647281
1920400000.0 0.3375721027 -0.2187357069
1930350000.0 0.1176976165 -0.3421859749
1940300000.0 -0.1197570866 -0.3239872576
1950250000.0 -0.2889690962 -0.1937172135
1960200000.0 -0.3517757616 -0.0203110066
1970150000.0 -0.3164933204 0.1308145309
1980100000.0 -0.223135273 0.2153645669
1990050000.0 -0.1269355891 0.2199235184
2000000000.0 -0.0800345738 0.1727627244
