!Created with skrf (http://scikit-rf.org).
# GHz S RI R 50.0 
!freq ReS11 ImS11
10000000.0 -0.7736276432 0.5924349389
19950000.0 -0.2747468322 0.9319740297
29900000.0 0.3274236542 0.9152055604
39850000.0 0.8097486624 0.5413715384
49800000.0 0.9753375562 -0.05953692
59750000.0 0.7341047062 -0.6509437701
69700000.0 0.163302229 -0.9689426682
79650000.0 -0.4931400125 -0.8439186394
89600000.0 -0.9187909222 -0.3044468534
99550000.0 -0.8740735734 0.4046309406
109500000.0 -0.3347429922 0.9070161472
119450000.0 0.4327360088 0.8729128324
129400000.0 0.943875253 0.2565087293
139350000.0 0.8082313503 -0.5467603166
149300000.0 0.1000336557 -0.958629192
159250000.0 -0.6551478578 -0.686860749
169200000.0 -0.9413463206 0.0339281885
179150000.0 -0.6238760865 0.7066441354
189100000.0 0.046940884 0.9427052082
199050000.0 0.6689895492 0.6595094
209000000.0 0.9304710508 0.0501165409
218950000.0 0.7381799012 -0.5579268694
228900000.0 0.2156545111 -0.8937801743
238850000.0 -0.3924817094 -0.8246991285
248800000.0 -0.6589174207 -0.2657033837
258750000.0 -0.8947538449 0.15720163
268700000.0 -0.6074508927 0.6774717298
278650000.0 -0.0681558273 0.9034589784
288600000.0 0.4897460848 0.7456575391
298550000.0 0.8249782024 0.2756315643
308500000.0 0.7909738394 -0.2985921292
318450000.0 0.4021265591 -0.7143075754
328400000.0 -0.1546682215 -0.7753587322
338350000.0 -0.5982122554 -0.456549045
348300000.0 -0.6981017211 0.0577548878
358250000.0 -0.4271980924 0.4668202442
368200000.0 0.0106949197 0.5514333976
378150000.0 0.3327634859 0.3239880942
388100000.0 0.3814820724 -0.012245867
398050000.0 0.2003528235 -0.2351503208
408000000.0 -0.037020953 -0.2496732499
417950000.0 -0.1770150263 -0.113552312
427900000.0 -0.1722084385 0.0479049381
437850000.0 -0.0702261115 0.1348204662
447800000.0 0.0427646999 0.11859127
457750000.0 0.0969733908 0.0377782817
467700000.0 0.0783055509 -0.0432846434
477650000.0 0.019407542 -0.0790062024
487600000.0 -0.0329415828 -0.0611068746
497550000.0 -0.0226839419 -0.019114447
507500000.0 -0.0631635683 -0.0017502961
517450000.0 -0.0252300166 0.0161419568
527400000.0 -0.005030259 -0.0006766978
537350000.0 -0.0138622608 -0.0243349474
547300000.0 -0.0473371678 -0.0289369473
557250000.0 -0.0747326853 0.005465281
567200000.0 -0.0677825084 0.0565139749
577150000.0 -0.0204200901 0.0955224199
587100000.0 0.0521304795 0.094002828
597050000.0 0.115889149 0.0407205922
607000000.0 0.1361039454 -0.0487496339
616950000.0 0.0946362756 -0.137281957
626900000.0 0.0045624544 -0.18375497
636850000.0 -0.0966590501 -0.1635317606
646800000.0 -0.1663189555 -0.0828487158
656750000.0 -0.1712315651 0.0266187133
666700000.0 -0.1068694408 0.118058149
676650000.0 -0.0001958674 0.149217794
686600000.0 0.101031131 0.1066616849
696550000.0 0.1501555708 0.0119368274
706500000.0 0.1273486831 -0.0868532215
716450000.0 0.0469864164 -0.1408320167
726400000.0 -0.0445213977 -0.1240537548
736350000.0 -0.0947647242 -0.0463515024
746300000.0 -0.0725309932 0.0471163913
756250000.0 0.0138631636 0.0983437815
766200000.0 0.1172912804 0.0726578791
776150000.0 0.1759563065 -0.0259382155
786100000.0 0.14620443 -0.1463777317
796050000.0 0.0298092378 -0.2206118069
806000000.0 -0.1248391119 -0.1934296117
815950000.0 -0.2362630638 -0.0567853862
825900000.0 -0.2343583492 0.1358669475
835850000.0 -0.1028214615 0.2949033175
845800000.0 0.1105128666 0.3380514536
855750000.0 0.3141186204 0.2328776884
865700000.0 0.4125496995 0.0091238629
875650000.0 0.3370348468 -0.2354957039
885600000.0 0.1294507629 -0.3607589926
895550000.0 -0.1148084453 -0.3604563993
905500000.0 -0.3246723734 -0.1942530378
915450000.0 -0.3798350759 0.0753803193
925400000.0 -0.2513993652 0.3264151218
935350000.0 0.0144264331 0.4331179784
945300000.0 0.2881145286 0.3296220953
955250000.0 0.4207144462 0.0548392277
965200000.0 0.3120100862 -0.2531409147
975150000.0 -0.0140330384 -0.3947579383
985100000.0 -0.3634554804 -0.2218901043
995050000.0 -0.453296529 0.1932740464
1005000000.0 -0.1617178565 0.5497136584
1014950000.0 0.3450150859 0.5406012169
1024900000.0 0.6872794326 0.0939993177
1034850000.0 0.536168115 -0.5077313889
1044800000.0 -0.0696907159 -0.7746725489
1054750000.0 -0.6660655454 -0.456529825
1064700000.0 -0.7841762359 0.1820045
1074650000.0 -0.4791363219 0.6348079604
1084600000.0 0.0146055429 0.7620770345
1094550000.0 0.541171711 0.5846199661
1104500000.0 0.7594846761 0.0235612919
1114450000.0 0.496703642 -0.5123791018
1124400000.0 -0.0520773732 -0.6745905583
1134350000.0 -0.5091322374 -0.4041880927
1144300000.0 -0.6245869336 0.0682561123
1154250000.0 -0.3937148148 0.4528548223
1164200000.0 0.0139386047 0.5589143976
1174150000.0 0.3654714008 0.3616571825
1184100000.0 0.4837916934 -0.0201107108
1194050000.0 0.3012119701 -0.3726458516
1204000000.0 -0.0615720863 -0.4947238885
1213950000.0 -0.3955395803 -0.352080532
1223900000.0 -0.5554905831 -0.0447637643
1233850000.0 -0.4948841049 0.2874117288
1243800000.0 -0.2455310063 0.5144107312
1253750000.0 0.0979874538 0.5476350729
1263700000.0 0.4027716135 0.361162303
1273650000.0 0.5376312025 0.0233428899
1283600000.0 0.4481755511 -0.3270156278
1293550000.0 0.1815781224 -0.5554540719
1303500000.0 -0.1536073639 -0.5947556346
1313450000.0 -0.446557767 -0.4507708932
1323400000.0 -0.6167963758 -0.1762658772
1333350000.0 -0.6177340224 0.1511419935
1343300000.0 -0.4377579068 0.438767431
1353250000.0 -0.1159939743 0.5857215436
1363200000.0 0.244433887 0.5234057449
1373150000.0 0.5096904079 0.2669636182
1383100000.0 0.5844363511 -0.0868723196
1393050000.0 0.4603399347 -0.4092418354
1403000000.0 0.1967169568 -0.6066382314
1412950000.0 -0.1184849402 -0.6350316029
1422900000.0 -0.3977673619 -0.4963052864
1432850000.0 -0.5645289977 -0.2270746637
1442800000.0 -0.5624438468 0.0998913572
1452750000.0 -0.3777516814 0.3803770856
1462700000.0 -0.0651343059 0.5131020851
1472650000.0 0.2660663704 0.4498244627
1482600000.0 0.4975885488 0.2187972097
1492550000.0 0.5581110998 -0.0884877917
1502500000.0 0.4432048882 -0.3649305821
1512450000.0 0.203754 -0.5274713879
1522400000.0 -0.0842683524 -0.5296972307
1532350000.0 -0.326335011 -0.3652871677
1542300000.0 -0.4318185706 -0.0820065795
1552250000.0 -0.3463846778 0.2133638968
1562200000.0 -0.1022855814 0.3938462403
1572150000.0 0.1886390929 0.3886931502
1582100000.0 0.40546387 0.218602376
1592050000.0 0.4748279486 -0.0357018597
1602000000.0 0.379834833 -0.2777551888
1611950000.0 0.1542771214 -0.4175182782
1621900000.0 -0.1202839239 -0.3918584128
1631850000.0 -0.3295187515 -0.1944558326
1641800000.0 -0.3727426849 0.0963963074
1651750000.0 -0.227290877 0.3510085518
1661700000.0 0.0391805719 0.4620349127
1671650000.0 0.3132041314 0.3919573658
1681600000.0 0.490774917 0.1771861765
1691550000.0 0.5101236586 -0.1008282645
1701500000.0 0.3625755191 -0.3314741221
1711450000.0 0.1389901266 -0.456492211
1721400000.0 -0.1661135014 -0.4496032979
1731350000.0 -0.4235455666 -0.2391505558
1741300000.0 -0.5048876049 0.0866134248
1751250000.0 -0.3860893783 0.3899752556
1761200000.0 -0.1292795796 0.5672900762
1771150000.0 0.1718510252 0.5778346407
1781100000.0 0.4286895492 0.4320376775
1791050000.0 0.5735519689 0.1728445943
1801000000.0 0.5629124486 -0.1331959197
1810950000.0 0.3840692977 -0.3952153812
1820900000.0 0.0820529028 -0.5202583443
1830850000.0 -0.2419334439 -0.4539325053
1840800000.0 -0.4709936008 -0.2222278775
1850750000.0 -0.5345564028 0.0820206473
1860700000.0 -0.4347293957 0.3554380767
1870650000.0 -0.2228232709 0.5278991971
1880600000.0 0.0343803297 0.5660380563
1890550000.0 0.269093184 0.4688248659
1900500000.0 0.4181255893 0.263528414
1910450000.0 0.4360490857 0.0078182653
1920400000.0 0.3144192125 -0.2163667569
1930350000.0 0.0958800547 -0.332353175
1940300000.0 -0.1333163116 -0.3103636447
1950250000.0 -0.2926577148 -0.1836638598
1960200000.0 -0.3502255351 -0.0166732836
1970150000.0 -0.3150637971 0.1264677598
1980100000.0 -0.2248904688 0.205699753
1990050000.0 -0.132965305 0.2116549979
2000000000.0 -0.0863960115 0.1708901739
