!Created with skrf (http://scikit-rf.org).
# GHz S RI R 50.0 
!freq ReS11 ImS11
10000000.0 -1.000977981 0.1628036814
19950000.0 -0.9457829299 0.3106517689
29900000.0 -0.8684534439 0.4525330805
39850000.0 -0.7687501932 0.5928136839
49800000.0 -0.6486619441 0.7258496143
59750000.0 -0.5034629298 0.8452636864
69700000.0 -0.3255836316 0.9393449236
79650000.0 -0.1119271785 0.989151918
89600000.0 0.1355893725 0.9778270494
99550000.0 0.4030217084 0.8878981329
109500000.0 0.6679579149 0.7076348281
119450000.0 0.8908357892 0.4254177479
129400000.0 1.003908198 0.0663252488
139350000.0 0.9641698049 -0.3495444103
149300000.0 0.7454653165 -0.6961050108
159250000.0 0.413818125 -0.9101385667
169200000.0 0.0556315911 -0.9829110708
179150000.0 -0.2716549247 -0.9434602901
189100000.0 -0.5394334467 -0.8273893292
199050000.0 -0.7357901771 -0.6638187884
209000000.0 -0.8593650388 -0.4739842614
218950000.0 -0.9240475263 -0.2771041226
228900000.0 -0.9415205388 -0.0828019219
238850000.0 -0.9243865434 0.1074711738
248800000.0 -0.7113309682 0.1554036455
258750000.0 -0.8323139493 0.4167262506
268700000.0 -0.7447102586 0.5661232805
278650000.0 -0.6296835642 0.6867547709
288600000.0 -0.4854724974 0.77557362
298550000.0 -0.3171636597 0.829730318
308500000.0 -0.1301464449 0.8491810652
318450000.0 0.0676297556 0.8281822897
328400000.0 0.2643112032 0.7597427914
338350000.0 0.435561416 0.635311432
348300000.0 0.5537154755 0.4579543654
358250000.0 0.5940083756 0.24752935
368200000.0 0.5513171942 0.0404208551
378150000.0 0.4452003101 -0.128013026
388100000.0 0.3088288715 -0.2392891905
398050000.0 0.1710197085 -0.2898438371
408000000.0 0.0520802457 -0.2874475856
417950000.0 -0.0367354783 -0.246663599
427900000.0 -0.0948895453 -0.1853576549
437850000.0 -0.1279565531 -0.1177433517
447800000.0 -0.1410824561 -0.0561284332
457750000.0 -0.1391002942 -0.00794878
467700000.0 -0.1259955022 0.0222581735
477650000.0 -0.1038992898 0.032229748
487600000.0 -0.0747625316 0.0212206629
497550000.0 -0.1062426125 0.0314665539
507500000.0 -0.0349673537 0.0114774269
517450000.0 -0.012780618 -0.0115798062
527400000.0 -0.0039813952 -0.0310800168
537350000.0 -0.0094653799 -0.0483117442
547300000.0 -0.0280642806 -0.0656851966
557250000.0 -0.0576029366 -0.0780000121
567200000.0 -0.0890366115 -0.0889624729
577150000.0 -0.1200518326 -0.0963232745
587100000.0 -0.1463870782 -0.0983239858
597050000.0 -0.1654637416 -0.0916918175
607000000.0 -0.1772993876 -0.0750384483
616950000.0 -0.1842737223 -0.0487120807
626900000.0 -0.1877327766 -0.0156096292
636850000.0 -0.1878431152 0.0190626226
646800000.0 -0.1846400302 0.0509806735
656750000.0 -0.1769323983 0.0772739933
666700000.0 -0.1608470875 0.0951200679
676650000.0 -0.1352838953 0.1036093182
686600000.0 -0.1002647931 0.1037700471
696550000.0 -0.0583716468 0.0974104485
706500000.0 -0.0145766896 0.0848126285
716450000.0 0.0256374892 0.066603432
726400000.0 0.0566502808 0.0407853395
736350000.0 0.0746809797 0.0057814219
746300000.0 0.0779457235 -0.0385676633
756250000.0 0.0667092326 -0.0917990896
766200000.0 0.043169719 -0.1494244708
776150000.0 0.0100660402 -0.2059777719
786100000.0 -0.0310816666 -0.2535779976
796050000.0 -0.0789089423 -0.2866136995
806000000.0 -0.1323030876 -0.3012364171
815950000.0 -0.1911091081 -0.2951118247
825900000.0 -0.2533524101 -0.2718573479
835850000.0 -0.3166279134 -0.2350484058
845800000.0 -0.3761789676 -0.1891155661
855750000.0 -0.4274632158 -0.1369569971
865700000.0 -0.4638414811 -0.0791369181
875650000.0 -0.4808701278 -0.0156181352
885600000.0 -0.4760120902 0.0541412717
895550000.0 -0.4496588866 0.1297574613
905500000.0 -0.4031717162 0.2094810743
915450000.0 -0.3386030093 0.2882449347
925400000.0 -0.2558753963 0.3579995771
935350000.0 -0.1535330254 0.4081234656
945300000.0 -0.0309829783 0.4233470465
955250000.0 0.1085159885 0.3890405387
965200000.0 0.2525400113 0.2907010854
975150000.0 0.3767934321 0.120858827
985100000.0 0.4402546823 -0.1140286041
995050000.0 0.3976028684 -0.3790348639
1005000000.0 0.2266737408 -0.6076648604
1014950000.0 -0.0421331468 -0.7260166863
1024900000.0 -0.3377504665 -0.7090185342
1034850000.0 -0.5989659349 -0.5776645127
1044800000.0 -0.7883291604 -0.3702014886
1054750000.0 -0.8800523197 -0.1180411021
1064700000.0 -0.8615341673 0.0784035226
1074650000.0 -0.8341057756 0.303265712
1084600000.0 -0.697785724 0.4920862558
1094550000.0 -0.51676138 0.6458539786
1104500000.0 -0.2861063306 0.740801306
1114450000.0 -0.0336461566 0.7617126029
1124400000.0 0.2139423043 0.693640684
1134350000.0 0.4150006329 0.5357519819
1144300000.0 0.5367053907 0.3143093685
1154250000.0 0.5690320179 0.0722584893
1164200000.0 0.5268415172 -0.1494187306
1174150000.0 0.4414688142 -0.3317636351
1184100000.0 0.3227083041 -0.4733484914
1194050000.0 0.1823283476 -0.5601949482
1204000000.0 0.0386289485 -0.59498598
1213950000.0 -0.0973692015 -0.5908797773
1223900000.0 -0.2202272311 -0.563344921
1233850000.0 -0.3285166279 -0.5243670935
1243800000.0 -0.4221797564 -0.4797985512
1253750000.0 -0.5006867762 -0.4320338368
1263700000.0 -0.5616790929 -0.3791572377
1273650000.0 -0.6070419676 -0.3205172949
1283600000.0 -0.635557152 -0.2553327786
1293550000.0 -0.6533229356 -0.1851454817
1303500000.0 -0.6653419162 -0.1131350199
1313450000.0 -0.6750365286 -0.0427979239
1323400000.0 -0.6843736275 0.0237947
1333350000.0 -0.6917823825 0.0850267502
1343300000.0 -0.693282313 0.1416373698
1353250000.0 -0.6859653949 0.1926203476
1363200000.0 -0.6665653037 0.2409159616
1373150000.0 -0.6340371724 0.2883717674
1383100000.0 -0.5935465995 0.3365543059
1393050000.0 -0.5486465548 0.3859654688
1403000000.0 -0.5036907863 0.4348254072
1412950000.0 -0.4592359159 0.4805867857
1422900000.0 -0.4155358602 0.5197273783
1432850000.0 -0.3705586434 0.5476856392
1442800000.0 -0.3223818051 0.5639194443
1452750000.0 -0.2697105706 0.5722481907
1462700000.0 -0.2091738001 0.5759703346
1472650000.0 -0.1389127722 0.5775047732
1482600000.0 -0.0619827232 0.5769316748
1492550000.0 0.0163955284 0.5714891442
1502500000.0 0.0934499244 0.5577535896
1512450000.0 0.1651059769 0.5310402447
1522400000.0 0.228673018 0.4870964008
1532350000.0 0.2832936888 0.4239360655
1542300000.0 0.3280260795 0.3432572445
1552250000.0 0.3639574096 0.2499085696
1562200000.0 0.3915887774 0.1505392632
1572150000.0 0.408338604 0.0509009431
1582100000.0 0.4095688992 -0.0473540522
1592050000.0 0.3895673198 -0.1400113464
1602000000.0 0.3456002515 -0.2237790234
1611950000.0 0.2806557945 -0.295987832
1621900000.0 0.2011196016 -0.3576663882
1631850000.0 0.1134898815 -0.4101165536
1641800000.0 0.0230307859 -0.4533888785
1651750000.0 -0.0649051632 -0.48402095
1661700000.0 -0.1481513286 -0.4985831625
1671650000.0 -0.2250164265 -0.493792234
1681600000.0 -0.2952605374 -0.4704063381
1691550000.0 -0.3611417799 -0.434661103
1701500000.0 -0.4238972915 -0.3899594738
1711450000.0 -0.4836695455 -0.3423158282
1721400000.0 -0.5389158231 -0.29453484
1731350000.0 -0.5883774142 -0.2494170391
1741300000.0 -0.6259929052 -0.2039575336
1751250000.0 -0.6501276581 -0.1558368348
1761200000.0 -0.659744281 -0.1048610299
1771150000.0 -0.6583203267 -0.050354646
1781100000.0 -0.6520550214 0.0069515282
1791050000.0 -0.6453657086 0.064142151
1801000000.0 -0.6415987373 0.1191667602
1810950000.0 -0.6405853596 0.1705091619
1820900000.0 -0.6383791836 0.2169067296
1830850000.0 -0.6299609839 0.2558729579
1840800000.0 -0.610631108 0.2907707154
1850750000.0 -0.5788013857 0.3211678735
1860700000.0 -0.5360744753 0.3478791776
1870650000.0 -0.4888937144 0.3743906841
1880600000.0 -0.4422283109 0.3992374034
1890550000.0 -0.4003489707 0.4223736492
1900500000.0 -0.3640202452 0.4392830485
1910450000.0 -0.3310151905 0.4492701929
1920400000.0 -0.2972615212 0.4470018826
1930350000.0 -0.2604438447 0.4320137478
1940300000.0 -0.2189805185 0.4036343922
1950250000.0 -0.1740086357 0.3638078238
1960200000.0 -0.1306878654 0.3170800531
1970150000.0 -0.0983377322 0.2640123065
1980100000.0 -0.087931189 0.2053390448
1990050000.0 -0.1116421339 0.144390513
2000000000.0 -0.1582885499 0.0904339426
