!Created with skrf (http://scikit-rf.org).
# GHz S RI R 50.0 
!freq ReS11 ImS11
10000000.0 -0.8055762066 0.6075347418
19950000.0 -0.2881015081 0.9503751569
29900000.0 0.3291311824 0.9267303936
39850000.0 0.8202261958 0.5426058634
49800000.0 0.9898397298 -0.0698188605
59750000.0 0.7452722419 -0.673863198
69700000.0 0.1597997846 -0.9984841204
79650000.0 -0.5144174571 -0.8634136901
89600000.0 -0.9414009895 -0.3014732669
99550000.0 -0.8758464921 0.4222283902
109500000.0 -0.3080304865 0.9167903816
119450000.0 0.4751104185 0.853630344
129400000.0 0.9698039046 0.1971005756
139350000.0 0.7862087792 -0.6104402209
149300000.0 0.0371380485 -0.9784138871
159250000.0 -0.7055932109 -0.6470076791
169200000.0 -0.9422547502 0.0995665253
179150000.0 -0.5780447109 0.7589349588
189100000.0 0.1194244209 0.9604958822
199050000.0 0.739945713 0.6359515924
209000000.0 0.969159904 -0.0016045353
218950000.0 0.7334441973 -0.6075566898
228900000.0 0.1808263811 -0.9179970709
238850000.0 -0.4381395186 -0.8157864162
248800000.0 -0.7130328015 -0.4773512863
258750000.0 -0.9169546035 0.1936036564
268700000.0 -0.6105016004 0.7207134864
278650000.0 -0.0492230534 0.9382222153
288600000.0 0.5195218471 0.7590423886
298550000.0 0.8482193928 0.2699199561
308500000.0 0.7998391243 -0.3118524305
318450000.0 0.3982662709 -0.727809179
328400000.0 -0.1701647285 -0.7849285507
338350000.0 -0.6208518863 -0.4556615386
348300000.0 -0.7156226314 0.0696231528
358250000.0 -0.4322016872 0.4778306469
368200000.0 0.0123775794 0.5508661698
378150000.0 0.3292143556 0.3130129005
388100000.0 0.366937048 -0.0257252753
398050000.0 0.1800072806 -0.2421528355
408000000.0 -0.0543664279 -0.2452323362
417950000.0 -0.1833824623 -0.1024095363
427900000.0 -0.1629763969 0.0560355074
437850000.0 -0.0501904851 0.1304868894
447800000.0 0.0618464153 0.1018898081
457750000.0 0.1087681089 0.0143379385
467700000.0 0.0801067962 -0.0666302939
477650000.0 0.0134066451 -0.0927452818
487600000.0 -0.0341077742 -0.0564863911
497550000.0 -0.0805792757 -0.0780429837
507500000.0 -0.0602345023 0.0095430288
517450000.0 -0.0201346998 0.0251262665
527400000.0 0.0043146383 0.0064488287
537350000.0 -0.0035745109 -0.0191290865
547300000.0 -0.0390332714 -0.0223700548
557250000.0 -0.0628515275 0.0116941371
567200000.0 -0.0548000567 0.0614426277
577150000.0 -0.0077756179 0.0986073098
587100000.0 0.0624860215 0.0950757943
597050000.0 0.121439784 0.0391436067
607000000.0 0.1346326886 -0.0492474301
616950000.0 0.0855500516 -0.1338157725
626900000.0 -0.007748724 -0.173686176
636850000.0 -0.1092975148 -0.1474838322
646800000.0 -0.1749875673 -0.0636513432
656750000.0 -0.173768728 0.0434407142
666700000.0 -0.1044337246 0.127089845
676650000.0 0.0023264646 0.1478583795
686600000.0 0.098158551 0.0966718812
696550000.0 0.1382778532 -0.0002495005
706500000.0 0.1063478714 -0.0958940525
716450000.0 0.0235346665 -0.1411654426
726400000.0 -0.0633814928 -0.114509543
736350000.0 -0.1016906418 -0.0326327678
746300000.0 -0.0665403856 0.0554647308
756250000.0 0.028614874 0.0939810327
766200000.0 0.1309557408 0.0505380024
776150000.0 0.1761535309 -0.0594986515
786100000.0 0.1281791591 -0.1809791236
796050000.0 -0.0031259671 -0.2413153653
806000000.0 -0.158847175 -0.1912496787
815950000.0 -0.2548199255 -0.0356896987
825900000.0 -0.2281809003 0.1644314467
835850000.0 -0.0715617059 0.3139432552
845800000.0 0.1557630396 0.3358011303
855750000.0 0.3552378412 0.2069281913
865700000.0 0.4355162656 -0.0269169609
875650000.0 0.3449536699 -0.2700267971
885600000.0 0.1112765529 -0.4072286877
895550000.0 -0.1625421582 -0.3637944476
905500000.0 -0.3561550272 -0.1628754441
915450000.0 -0.3877473707 0.1239648729
925400000.0 -0.2236740564 0.3699976034
935350000.0 0.0663685435 0.4474460181
945300000.0 0.3352918822 0.3047166164
955250000.0 0.4324328568 0.0003554457
965200000.0 0.2703012609 -0.2977663529
975150000.0 -0.0913530131 -0.3856435492
985100000.0 -0.4188807483 -0.1415143875
995050000.0 -0.4268694477 0.3059361304
1005000000.0 -0.0404426803 0.6075691272
1014950000.0 0.4818834549 0.4692694508
1024900000.0 0.7173548923 -0.0796461672
1034850000.0 0.4041653957 -0.6553464438
1044800000.0 -0.2858797371 -0.7667315319
1054750000.0 -0.7878206606 -0.2760816679
1064700000.0 -0.7576940745 0.2937754897
1074650000.0 -0.3788189903 0.7673009298
1084600000.0 0.2302681953 0.8027809236
1094550000.0 0.6890571405 0.408294912
1104500000.0 0.7330918438 -0.1954519237
1114450000.0 0.3293641788 -0.6372950037
1124400000.0 -0.2425175313 -0.6372172364
1134350000.0 -0.5994198103 -0.2485909717
1144300000.0 -0.5710793831 0.2296005078
1154250000.0 -0.2435902332 0.5247025695
1164200000.0 0.166821364 0.511295134
1174150000.0 0.4531301247 0.2361727076
1184100000.0 0.4705017603 -0.1678000741
1194050000.0 0.1988878476 -0.4640874751
1204000000.0 -0.1878744034 -0.4902067749
1213950000.0 -0.4817023709 -0.2657554065
1223900000.0 -0.5673957975 0.0774424139
1233850000.0 -0.4311299211 0.3971970049
1243800000.0 -0.1291105619 0.5750225877
1253750000.0 0.2295288158 0.5372502477
1263700000.0 0.5013675516 0.2846394759
1273650000.0 0.5685914381 -0.0859847953
1283600000.0 0.4058638256 -0.4224213969
1293550000.0 0.0909442006 -0.601699066
1303500000.0 -0.2572985601 -0.5805364416
1313450000.0 -0.5339795069 -0.3829293718
1323400000.0 -0.6652987264 -0.0715862077
1333350000.0 -0.6105648576 0.2686293925
1343300000.0 -0.3700010505 0.5349629937
1353250000.0 -0.0085484506 0.6248665771
1363200000.0 0.3492193677 0.4918189122
1373150000.0 0.5698388097 0.181480462
1383100000.0 0.5817564148 -0.1878968842
1393050000.0 0.4027244669 -0.4915372081
1403000000.0 0.1036492059 -0.6486850701
1412950000.0 -0.2236915525 -0.6263780961
1422900000.0 -0.4879710389 -0.4367488197
1432850000.0 -0.6101144654 -0.1323092025
1442800000.0 -0.548000504 0.1955994541
1452750000.0 -0.3140595317 0.4430353856
1462700000.0 0.0214247541 0.5240216023
1472650000.0 0.3437039655 0.4083783616
1482600000.0 0.5415008405 0.1418383627
1492550000.0 0.5585923645 -0.1758209249
1502500000.0 0.4032296143 -0.4392832858
1512450000.0 0.1321207229 -0.5688272868
1522400000.0 -0.1650376334 -0.5213594787
1532350000.0 -0.3845617196 -0.3067995055
1542300000.0 -0.4382266035 0.0018595428
1552250000.0 -0.2966685562 0.2811969014
1562200000.0 -0.0237102304 0.4155447998
1572150000.0 0.2619060656 0.3610489533
1582100000.0 0.4473864392 0.1545935654
1592050000.0 0.4675969177 -0.1119418389
1602000000.0 0.3227749345 -0.3339249062
1611950000.0 0.0677318196 -0.4246584913
1621900000.0 -0.1995377369 -0.3399091121
1631850000.0 -0.3649905467 -0.1010048264
1641800000.0 -0.3473548 0.1948017373
1651750000.0 -0.1506826713 0.4156454867
1661700000.0 0.1357982067 0.467430804
1671650000.0 0.3893793223 0.3372506346
1681600000.0 0.5148231231 0.0851805869
1691550000.0 0.472157276 -0.1907939954
1701500000.0 0.2889094068 -0.3975966091
1711450000.0 0.0106909261 -0.4884535515
1721400000.0 -0.2982269034 -0.3975248688
1731350000.0 -0.5016067952 -0.129597022
1741300000.0 -0.5066974456 0.2084227583
1751250000.0 -0.3193282839 0.4812588849
1761200000.0 -0.0219218744 0.5986436045
1771150000.0 0.2832404327 0.5402759182
1781100000.0 0.5102804746 0.3343923293
1791050000.0 0.5994611925 0.0384354875
1801000000.0 0.5180679596 -0.2698038252
1810950000.0 0.2745940196 -0.4943577659
1820900000.0 -0.0624136397 -0.5466944566
1830850000.0 -0.3710539315 -0.3987047748
1840800000.0 -0.5380854097 -0.11111024
1850750000.0 -0.5224949567 0.2038357032
1860700000.0 -0.3555696886 0.4468304808
1870650000.0 -0.1037011415 0.564476095
1880600000.0 0.1617259785 0.5403025685
1890550000.0 0.3741511 0.3858134195
1900500000.0 0.473950676 0.1418111837
1910450000.0 0.4237313041 -0.117917981
1920400000.0 0.2391686286 -0.3030292881
1930350000.0 -0.0045710301 -0.3508476668
1940300000.0 -0.2162622032 -0.2603959357
1950250000.0 -0.3273798737 -0.0968831032
1960200000.0 -0.3303544299 0.0703555184
1970150000.0 -0.2559077314 0.1842815955
1980100000.0 -0.1571184856 0.2179441545
1990050000.0 -0.0925768112 0.1849672121
2000000000.0 -0.0955643922 0.142963788
