!Created with skrf (http://scikit-rf.org).
# GHz S RI R 50.0 
!freq ReS11 ImS11
10000000.0 -0.7439274531 0.6724220299
19950000.0 -0.1113656375 0.9815588806
29900000.0 0.5680761342 0.7973642515
39850000.0 0.9592450011 0.1992560343
49800000.0 0.8416122254 -0.5189866306
59750000.0 0.2497000045 -0.9685177609
69700000.0 -0.5020817441 -0.8705657711
79650000.0 -0.9650568724 -0.2518846825
89600000.0 -0.8264840147 0.5272059239
99550000.0 -0.1305794862 0.9556619502
109500000.0 0.675745171 0.6825290886
119450000.0 0.9572175611 -0.1614278072
129400000.0 0.406509768 -0.8959062654
139350000.0 -0.5158341455 -0.8362565721
149300000.0 -0.9628130541 -0.0475257866
159250000.0 -0.5836706685 0.7425956936
169200000.0 0.2465770728 0.9060887081
179150000.0 0.8710979446 0.3744472612
189100000.0 0.8649490695 -0.4202397307
199050000.0 0.2851478626 -0.9236919223
209000000.0 -0.4502762252 -0.8459679943
218950000.0 -0.8957834935 -0.2914727158
228900000.0 -0.8380512422 0.3974292371
238850000.0 -0.337311366 0.8572547837
248800000.0 0.3360080229 0.829814778
258750000.0 0.8366096638 0.4176565855
268700000.0 0.9066867443 -0.2526914038
278650000.0 0.5040254356 -0.7878926514
288600000.0 -0.1479096928 -0.9045189999
298550000.0 -0.6962108861 -0.5517214337
308500000.0 -0.8548740472 0.0725512575
318450000.0 -0.5407501939 0.6272126748
328400000.0 0.0661729393 0.7953751405
338350000.0 0.5908883022 0.4749201011
348300000.0 0.6909530892 -0.102309411
358250000.0 0.3409193905 -0.5124206518
368200000.0 -0.135658844 -0.4963651598
378150000.0 -0.3733185597 -0.1658412061
388100000.0 -0.2709610279 0.1536524222
398050000.0 -0.0137878488 0.2322822203
408000000.0 0.1484740526 0.0945210072
417950000.0 0.1180432812 -0.0735981592
427900000.0 -0.0185250251 -0.1250131637
437850000.0 -0.1203442464 -0.0432646412
447800000.0 -0.1132321498 0.0815413818
457750000.0 -0.0122767233 0.1488706604
467700000.0 0.1015218002 0.1144136341
477650000.0 0.1483092203 0.0113227713
487600000.0 0.1076339784 -0.086057359
497550000.0 0.0220987555 -0.1205280329
507500000.0 -0.058423213 -0.0955521491
517450000.0 -0.0862276074 -0.0316692868
527400000.0 -0.0659931745 0.0172756527
537350000.0 -0.0315109184 0.0273639373
547300000.0 -0.0167400915 0.0129590263
557250000.0 -0.0284162813 0.0050163221
567200000.0 -0.0443111266 0.0246216783
577150000.0 -0.0317042294 0.0611433729
587100000.0 0.0214598631 0.0810654212
597050000.0 0.0868201619 0.0539506267
607000000.0 0.120880309 -0.0262671165
616950000.0 0.0893133576 -0.1222810719
626900000.0 -0.0070319807 -0.1765516884
636850000.0 -0.122927996 -0.1501447024
646800000.0 -0.1953873734 -0.0466827989
656750000.0 -0.1772288883 0.0834968237
666700000.0 -0.0727227454 0.1696547773
676650000.0 0.0645520471 0.159898472
686600000.0 0.1591637283 0.0592499559
696550000.0 0.1590702139 -0.0772050498
706500000.0 0.0679811714 -0.1716195406
716450000.0 -0.0601310759 -0.1683405947
726400000.0 -0.1360986525 -0.0810773829
736350000.0 -0.1175798209 0.0206408937
746300000.0 -0.039088867 0.0795639919
756250000.0 0.0612918197 0.051412131
766200000.0 0.0995316236 -0.0487529195
776150000.0 0.038594039 -0.145287758
786100000.0 -0.0845160679 -0.1547279755
796050000.0 -0.1789181991 -0.0543750217
806000000.0 -0.1610351836 0.1016413986
815950000.0 -0.018467355 0.2045258361
825900000.0 0.1749508209 0.1665513284
835850000.0 0.2918946102 -0.0124215562
845800000.0 0.2460294366 -0.2377192805
855750000.0 0.0413156108 -0.3732069995
865700000.0 -0.2148482067 -0.3228887915
875650000.0 -0.3718391856 -0.0975380797
885600000.0 -0.3221796166 0.1898917531
895550000.0 -0.0751465299 0.3671545621
905500000.0 0.2385149111 0.3145594865
915450000.0 0.4232707424 0.0466502658
925400000.0 0.3563733122 -0.2800283984
935350000.0 0.0635233307 -0.4574852373
945300000.0 -0.2766905242 -0.3531423317
955250000.0 -0.4230076401 -0.0093357067
965200000.0 -0.2292109602 0.3421972953
975150000.0 0.2041601248 0.389136206
985100000.0 0.5049362475 0.0189864893
995050000.0 0.3306417374 -0.4771532546
1005000000.0 -0.2363237148 -0.595813316
1014950000.0 -0.676297007 -0.1307409935
1024900000.0 -0.5032151819 0.5425535163
1034850000.0 0.2000101819 0.7683467912
1044800000.0 0.7861293438 0.2936248465
1054750000.0 0.7357000395 -0.4446175811
1064700000.0 0.1449851995 -0.8341075368
1074650000.0 -0.5016248728 -0.6283441542
1084600000.0 -0.7644027898 -0.0960851812
1094550000.0 -0.5644217634 0.5239051648
1104500000.0 0.0515484813 0.7457198916
1114450000.0 0.5918244826 0.4174496471
1124400000.0 0.6771371916 -0.1752137928
1134350000.0 0.3075353803 -0.5961770352
1144300000.0 -0.2203205276 -0.6027562978
1154250000.0 -0.5647655512 -0.2336156755
1164200000.0 -0.5231816577 0.2531263178
1174150000.0 -0.1401046028 0.5398083886
1184100000.0 0.3162217415 0.4415048346
1194050000.0 0.5387388887 0.0478620786
1204000000.0 0.4075530977 -0.3686586339
1213950000.0 0.03265511 -0.5609320628
1223900000.0 -0.3618506886 -0.4453836229
1233850000.0 -0.5713453383 -0.0931048938
1243800000.0 -0.4863195625 0.30828971
1253750000.0 -0.1493095586 0.5497778533
1263700000.0 0.2641496279 0.4985509244
1273650000.0 0.5360139324 0.185472956
1283600000.0 0.537588838 -0.2219068173
1293550000.0 0.2852271797 -0.5317210417
1303500000.0 -0.1003731359 -0.6142472038
1313450000.0 -0.4530857478 -0.4420891963
1323400000.0 -0.6260116798 -0.0850266346
1333350000.0 -0.5360484713 0.3071472647
1343300000.0 -0.2101293322 0.5573829948
1353250000.0 0.2034092802 0.5408195152
1363200000.0 0.5099031223 0.2650930963
1373150000.0 0.5724236831 -0.1353178506
1383100000.0 0.3787566562 -0.4790663411
1393050000.0 0.0227100245 -0.6294573169
1403000000.0 -0.3464425836 -0.5340998035
1412950000.0 -0.5794129667 -0.2334351389
1422900000.0 -0.5776254236 0.149598211
1432850000.0 -0.3302971655 0.4491889509
1442800000.0 0.0519817344 0.5223105827
1452750000.0 0.3897772561 0.3333311131
1462700000.0 0.5225521524 -0.019744661
1472650000.0 0.4045192408 -0.3655801873
1482600000.0 0.1032038814 -0.5519188886
1492550000.0 -0.2395061681 -0.5048926844
1502500000.0 -0.4698979608 -0.251846995
1512450000.0 -0.4797170261 0.0887179599
1522400000.0 -0.2599499329 0.3508063082
1532350000.0 0.0757824764 0.395334737
1542300000.0 0.3484902477 0.2026767202
1552250000.0 0.4139521197 -0.1148151735
1562200000.0 0.2509779181 -0.3843259631
1572150000.0 -0.0433382458 -0.4697102066
1582100000.0 -0.3155691288 -0.3366977408
1592050000.0 -0.4281998477 -0.0535628329
1602000000.0 -0.3175281444 0.2382372345
1611950000.0 -0.0312139828 0.3780364587
1621900000.0 0.2798091465 0.2789293616
1631850000.0 0.4361625681 -0.0106985497
1641800000.0 0.3520499006 -0.3295035124
1651750000.0 0.0756168301 -0.5097346094
1661700000.0 -0.2539611185 -0.463580471
1671650000.0 -0.4808186581 -0.2117897841
1681600000.0 -0.4950145716 0.1370704369
1691550000.0 -0.2741353475 0.4240471244
1701500000.0 0.0915283258 0.5008840625
1711450000.0 0.4244896762 0.3154235254
1721400000.0 0.5561804352 -0.0451702509
1731350000.0 0.4258711561 -0.4019911193
1741300000.0 0.1047796365 -0.5951754231
1751250000.0 -0.2636094717 -0.5525274954
1761200000.0 -0.5322654002 -0.2992966606
1771150000.0 -0.5996940588 0.0672637654
1781100000.0 -0.4307954669 0.4073142001
1791050000.0 -0.0827646253 0.5751110537
1801000000.0 0.3000448794 0.4889354216
1810950000.0 0.5422236251 0.1804385864
1820900000.0 0.5367514154 -0.2045026654
1830850000.0 0.3007699338 -0.4938945186
1840800000.0 -0.0475893281 -0.5812079501
1850750000.0 -0.3707312699 -0.4521997639
1860700000.0 -0.5556444521 -0.1658034005
1870650000.0 -0.5381571017 0.1715144743
1880600000.0 -0.3232169603 0.4296102188
1890550000.0 0.0010496351 0.5026687467
1900500000.0 0.2933194968 0.3605250121
1910450000.0 0.4259520786 0.0780317721
1920400000.0 0.3585405392 -0.2079126805
1930350000.0 0.1488877648 -0.3787585767
1940300000.0 -0.0971947849 -0.3881172852
1950250000.0 -0.2791805391 -0.2638464192
1960200000.0 -0.3422850719 -0.0797046116
1970150000.0 -0.2877222876 0.0775978381
1980100000.0 -0.1741366734 0.1456794028
1990050000.0 -0.0844295261 0.1267357738
2000000000.0 -0.0645831686 0.0850768656
