!Created with skrf (http://scikit-rf.org).
# GHz S RI R 50.0 
!freq ReS11 ImS11
10000000.0 -0.7707549391 0.6794749641
19950000.0 -0.1366349098 0.9893750069
29900000.0 0.5380950321 0.8145681689
39850000.0 0.9410255281 0.2412696828
49800000.0 0.868725565 -0.46734489
59750000.0 0.3256410289 -0.9583663449
69700000.0 -0.4288640767 -0.9372382807
79650000.0 -0.9572459114 -0.3702192137
89600000.0 -0.9070640495 0.4195254975
99550000.0 -0.2799151886 0.9267743212
109500000.0 0.5358127278 0.79089934
119450000.0 0.971308779 0.0511337539
129400000.0 0.6334315569 -0.7791463919
139350000.0 -0.2589601423 -0.9855872829
149300000.0 -0.9295528321 -0.3569214589
159250000.0 -0.7976690687 0.5267147652
169200000.0 -0.0441214083 0.9346409684
179150000.0 0.7187746065 0.6171063796
189100000.0 0.9647921181 -0.1464777987
199050000.0 0.5664956152 -0.8188325508
209000000.0 -0.1767887824 -0.9742549934
218950000.0 -0.7809663055 -0.5611235281
228900000.0 -0.9183399966 0.1353752014
238850000.0 -0.5493521636 0.725135653
248800000.0 0.0355206856 0.7413730433
258750000.0 0.6961236351 0.6296749329
268700000.0 0.9590931229 0.0002081417
278650000.0 0.7212531561 -0.6343874056
288600000.0 0.1184075243 -0.9292767727
298550000.0 -0.5125609331 -0.7327631218
308500000.0 -0.8322375556 -0.1646765149
318450000.0 -0.6724617225 0.45898719
328400000.0 -0.1278074747 0.7847667368
338350000.0 0.4691253499 0.6187032657
348300000.0 0.7304149373 0.08651116
358250000.0 0.5095860357 -0.4178225161
368200000.0 0.0326901171 -0.5521484135
378150000.0 -0.3208190743 -0.3019687011
388100000.0 -0.3416187683 0.0667888022
398050000.0 -0.1095039372 0.2683922787
408000000.0 0.1358764183 0.2138793231
417950000.0 0.2158119992 0.0253496191
427900000.0 0.1260101067 -0.1185607333
437850000.0 -0.0176799509 -0.1282920247
447800000.0 -0.0993569436 -0.0337379254
457750000.0 -0.0777170761 0.0730319412
467700000.0 0.0067581666 0.1150506863
477650000.0 0.0787810503 0.0790497408
487600000.0 0.087518558 0.0135582109
497550000.0 0.1270203576 -0.0130675472
507500000.0 0.0142747988 -0.0483204893
517450000.0 0.0084328602 -0.0184686993
527400000.0 -0.0274303484 -0.0071499711
537350000.0 0.0019196943 0.0137528844
547300000.0 0.0167837594 -0.0128054729
557250000.0 -0.0113641756 -0.0417949926
567200000.0 -0.062638456 -0.0335258279
577150000.0 -0.0964294207 0.0205352626
587100000.0 -0.0765943982 0.0932477481
597050000.0 -0.000219162 0.1353829477
607000000.0 0.0956896042 0.1085423278
616950000.0 0.1539655376 0.0142561914
626900000.0 0.1341824766 -0.1035119917
636850000.0 0.0372336421 -0.1830164222
646800000.0 -0.0905604904 -0.1784350336
656750000.0 -0.1830037581 -0.0884816067
666700000.0 -0.1891387173 0.039997046
676650000.0 -0.1056757294 0.1367022045
686600000.0 0.0207458967 0.1480370944
696550000.0 0.1180059359 0.069785041
706500000.0 0.1321803941 -0.0494708484
716450000.0 0.0621234806 -0.1382939753
726400000.0 -0.0431547466 -0.1461185176
736350000.0 -0.1112631126 -0.0742727535
746300000.0 -0.0941182553 0.0208019203
756250000.0 -0.0040796037 0.0646902626
766200000.0 0.0923938404 0.0158237026
776150000.0 0.1165758086 -0.100660313
786100000.0 0.0350982274 -0.2043554314
796050000.0 -0.1126477286 -0.2116249921
806000000.0 -0.2301534475 -0.092970154
815950000.0 -0.2242320747 0.0958104737
825900000.0 -0.0700727132 0.2396306993
835850000.0 0.1614944968 0.2356081867
845800000.0 0.3399710349 0.0612775005
855750000.0 0.3524174249 -0.202655985
865700000.0 0.1733520107 -0.4149614037
875650000.0 -0.1146487874 -0.4464293347
885600000.0 -0.3472921051 -0.2672717822
895550000.0 -0.409445174 0.0265156732
905500000.0 -0.24768209 0.3029696234
915450000.0 0.0718408835 0.393996539
925400000.0 0.3695352617 0.2314504671
935350000.0 0.4664829607 -0.0990469588
945300000.0 0.2943353387 -0.4014634665
955250000.0 -0.0516930759 -0.4818297676
965200000.0 -0.3512493162 -0.2663957187
975150000.0 -0.3760500898 0.124621272
985100000.0 -0.0533060321 0.3991451631
995050000.0 0.3920776568 0.2743542306
1005000000.0 0.5353002193 -0.2143364359
1014950000.0 0.1585560773 -0.63021007
1024900000.0 -0.4514275563 -0.5226529199
1034850000.0 -0.7183285447 0.1073287997
1044800000.0 -0.2969323277 0.7236441507
1054750000.0 0.4846038163 0.6911500562
1064700000.0 0.8508201338 0.0388161436
1074650000.0 0.6003098872 -0.6020352284
1084600000.0 0.067206657 -0.7790375192
1094550000.0 -0.5592340308 -0.5944806434
1104500000.0 -0.7756322898 0.0450275088
1114450000.0 -0.4243996905 0.6116734429
1124400000.0 0.221730648 0.6839406029
1134350000.0 0.6458103453 0.2418634113
1144300000.0 0.5713732698 -0.3144216278
1154250000.0 0.1416297857 -0.5929194136
1164200000.0 -0.3175654973 -0.4700134588
1174150000.0 -0.5290515624 -0.0689700656
1184100000.0 -0.3775436098 0.3539467014
1194050000.0 0.0447155419 0.5121265534
1204000000.0 0.4293281559 0.2943452818
1213950000.0 0.5193753755 -0.1211895999
1223900000.0 0.2976118405 -0.4638753384
1233850000.0 -0.0861688104 -0.5627119474
1243800000.0 -0.4391706271 -0.3849919556
1253750000.0 -0.5920873008 -0.0120851717
1263700000.0 -0.4528857417 0.3785409205
1273650000.0 -0.0794702549 0.5766841179
1283600000.0 0.3318924452 0.4713483142
1293550000.0 0.5685876274 0.126542139
1303500000.0 0.5345288517 -0.2790731149
1313450000.0 0.2681639566 -0.5720743748
1323400000.0 -0.1155204906 -0.6491318404
1333350000.0 -0.4731575622 -0.4835196348
1343300000.0 -0.6651459585 -0.1263611821
1353250000.0 -0.5932513979 0.2869625224
1363200000.0 -0.2667988125 0.5684771073
1373150000.0 0.1679707277 0.5755174839
1383100000.0 0.503333294 0.3090953377
1393050000.0 0.6010778506 -0.0947455308
1403000000.0 0.4452313203 -0.4628788595
1412950000.0 0.1135858103 -0.6643560243
1422900000.0 -0.2685532787 -0.6359388892
1432850000.0 -0.5615619946 -0.3869594873
1442800000.0 -0.648106043 -0.006255147
1452750000.0 -0.4794548198 0.3536689016
1462700000.0 -0.1183603522 0.531217662
1472650000.0 0.2730101824 0.4414457465
1482600000.0 0.5164668739 0.1304481008
1492550000.0 0.5130587602 -0.2524468677
1502500000.0 0.2827900412 -0.5417949367
1512450000.0 -0.0659176536 -0.6262710984
1522400000.0 -0.3881695334 -0.4798275309
1532350000.0 -0.5481506614 -0.1645183194
1542300000.0 -0.4713881714 0.1832285298
1552250000.0 -0.1859860973 0.399026855
1562200000.0 0.1676486347 0.3725771594
1572150000.0 0.407871227 0.122692004
1582100000.0 0.4200289605 -0.2136077002
1592050000.0 0.211543339 -0.4637001482
1602000000.0 -0.1021942921 -0.510951696
1611950000.0 -0.367301275 -0.3398882977
1621900000.0 -0.4552830659 -0.0333067819
1631850000.0 -0.3141435933 0.2611143053
1641800000.0 -0.0048904202 0.3869253474
1651750000.0 0.3127716184 0.2642234585
1661700000.0 0.4597009321 -0.0452325022
1671650000.0 0.3552098701 -0.3704476305
1681600000.0 0.0617912457 -0.5400576061
1691550000.0 -0.2709784342 -0.4778045947
1701500000.0 -0.4911922375 -0.2160498694
1711450000.0 -0.4997998796 0.1335022369
1721400000.0 -0.2785839911 0.4209356342
1731350000.0 0.0880383759 0.5031677434
1741300000.0 0.4273747236 0.3212621396
1751250000.0 0.5642494477 -0.0416132275
1761200000.0 0.4350091777 -0.40177931
1771150000.0 0.1164155234 -0.5949930048
1781100000.0 -0.2446439665 -0.5571440399
1791050000.0 -0.5112818454 -0.3197495066
1801000000.0 -0.5926125329 0.029219108
1810950000.0 -0.4514006677 0.3666047997
1820900000.0 -0.1255848593 0.5542123284
1830850000.0 0.2548112267 0.4940933238
1840800000.0 0.5085539976 0.2039247796
1850750000.0 0.5178985291 -0.1727336488
1860700000.0 0.3025152556 -0.4591772943
1870650000.0 -0.0216281859 -0.5559197379
1880600000.0 -0.3260950289 -0.4558800834
1890550000.0 -0.5149319682 -0.2118298241
1900500000.0 -0.5315773042 0.0887135267
1910450000.0 -0.3716267516 0.3405757138
1920400000.0 -0.0936913171 0.4396266524
1930350000.0 0.1764398655 0.3422779672
1940300000.0 0.3115551674 0.1065005663
1950250000.0 0.2671342734 -0.133961607
1960200000.0 0.1127350672 -0.2771168925
1970150000.0 -0.071312228 -0.2983261685
1980100000.0 -0.2040351949 -0.2179822279
1990050000.0 -0.2445987936 -0.1037527018
2000000000.0 -0.211294954 -0.0287631528
