!Created with skrf (http://scikit-rf.org).
# GHz S RI R 50.0 
!freq ReS11 ImS11
10000000.0 -0.7652910781 0.6778041199
19950000.0 -0.1324543861 0.9884837597
29900000.0 0.5428402802 0.8140461818
39850000.0 0.9452762066 0.2386301445
49800000.0 0.8683531656 -0.4721582473
59750000.0 0.3177740651 -0.9595108852
69700000.0 -0.4397629765 -0.9264806621
79650000.0 -0.959496361 -0.3454121746
89600000.0 -0.8895068492 0.4479950332
99550000.0 -0.2421102377 0.9378803309
109500000.0 0.5744955985 0.7663964338
119450000.0 0.9741697173 -0.0019616147
129400000.0 0.5851771729 -0.8124667619
139350000.0 -0.3251165565 -0.9557209515
149300000.0 -0.9448625542 -0.2812630044
159250000.0 -0.7548627789 0.5831212298
169200000.0 0.0143168335 0.9385463738
179150000.0 0.7519451837 0.5833115661
189100000.0 0.9609318589 -0.1838141741
199050000.0 0.5403423468 -0.8359037561
209000000.0 -0.2033941899 -0.9668892513
218950000.0 -0.7955563397 -0.5395712608
228900000.0 -0.9212407068 0.1585067146
238850000.0 -0.5417523142 0.7428613286
248800000.0 0.0187336147 0.8997127024
258750000.0 0.6970617581 0.6343229189
268700000.0 0.9618608813 0.0057823616
278650000.0 0.7267658653 -0.6307230618
288600000.0 0.1244988859 -0.9301780167
298550000.0 -0.5104783836 -0.7369646282
308500000.0 -0.8361538848 -0.1692033557
318450000.0 -0.681714926 0.4547356253
328400000.0 -0.1409346399 0.7824555678
338350000.0 0.4559018134 0.6226999584
348300000.0 0.722715978 0.0971530873
358250000.0 0.5099982006 -0.4065067996
368200000.0 0.0388244403 -0.5450468176
378150000.0 -0.3124315233 -0.3006053927
388100000.0 -0.3340360686 0.0607164341
398050000.0 -0.1079881834 0.256322161
408000000.0 0.1295086699 0.2016183848
417950000.0 0.2044937861 0.0191097144
427900000.0 0.1155676479 -0.1173076386
437850000.0 -0.0229794944 -0.1221890418
447800000.0 -0.0975810071 -0.0280189707
457750000.0 -0.071037083 0.0738308783
467700000.0 0.014196487 0.1083521096
477650000.0 0.0821253343 0.0656186483
487600000.0 0.0733541265 -0.00323154
497550000.0 0.0940494768 -0.0406674682
507500000.0 0.0167768294 -0.0536017034
517450000.0 -0.0131206106 -0.0198747877
527400000.0 -0.0004839283 0.0076351932
537350000.0 0.0263794713 -0.0005725787
547300000.0 0.0266089752 -0.0471167888
557250000.0 -0.0571089688 -0.0803859156
567200000.0 -0.0336606158 0.0037817325
577150000.0 -0.0795965565 0.0112987856
587100000.0 -0.0729195213 0.081336896
597050000.0 -0.0024503259 0.1285063983
607000000.0 0.0945707168 0.1077220748
616950000.0 0.1571483245 0.017242632
626900000.0 0.1424213323 -0.1005852045
636850000.0 0.0490522019 -0.1830732032
646800000.0 -0.0785110729 -0.1829086147
656750000.0 -0.1736280539 -0.097289659
666700000.0 -0.18470119 0.0289997454
676650000.0 -0.1070454456 0.1272055264
686600000.0 0.0157238049 0.1434683092
696550000.0 0.1129839547 0.0719530604
706500000.0 0.1310608103 -0.0410691327
716450000.0 0.0674996086 -0.12700853
726400000.0 -0.030782437 -0.1363526086
736350000.0 -0.0938239655 -0.0703584164
746300000.0 -0.0767755972 0.0168518244
756250000.0 0.0082576833 0.0533489424
766200000.0 0.0956445507 0.0020748732
776150000.0 0.1110574978 -0.1110496592
786100000.0 0.0243458759 -0.2066740112
796050000.0 -0.1226915487 -0.2046283789
806000000.0 -0.2341318889 -0.0793019618
815950000.0 -0.2197364695 0.1100863833
825900000.0 -0.0591957713 0.2493194293
835850000.0 0.1744032713 0.2387823824
845800000.0 0.351346913 0.0599865358
855750000.0 0.361661646 -0.2063588045
865700000.0 0.1809145301 -0.4209965104
875650000.0 -0.1103529804 -0.4599990448
885600000.0 -0.362517094 -0.2841627495
895550000.0 -0.4320306614 0.028072478
905500000.0 -0.2655515799 0.3143488606
915450000.0 0.0608684365 0.4123604901
925400000.0 0.3703745987 0.2556880479
935350000.0 0.4847241238 -0.0759014281
945300000.0 0.3293982032 -0.3935019094
955250000.0 -0.0136072786 -0.5030689909
965200000.0 -0.3354064464 -0.3196658887
975150000.0 -0.4111283825 0.0588084067
985100000.0 -0.1462274339 0.3697746615
995050000.0 0.2867700484 0.336331041
1005000000.0 0.5213031086 -0.0634952637
1014950000.0 0.29855367 -0.5187205709
1024900000.0 -0.2560673501 -0.5891270791
1034850000.0 -0.6651150858 -0.1181460085
1044800000.0 -0.4664846696 0.5478776856
1054750000.0 0.2299534101 0.6986061004
1064700000.0 0.7682593803 0.3084394418
1074650000.0 0.7740016897 -0.4308020434
1084600000.0 0.1803524462 -0.8532565869
1094550000.0 -0.4789249707 -0.6941299896
1104500000.0 -0.7994982292 -0.0772915723
1114450000.0 -0.5195627412 0.5570365539
1124400000.0 0.14431845 0.7104258587
1134350000.0 0.6314089462 0.291155179
1144300000.0 0.5911306136 -0.2923455678
1154250000.0 0.1557927945 -0.5955312612
1164200000.0 -0.3140218953 -0.4755510079
1174150000.0 -0.5327249109 -0.0679951774
1184100000.0 -0.3648040645 0.3621109928
1194050000.0 0.0706070034 0.5014598215
1204000000.0 0.4455057772 0.2632862087
1213950000.0 0.5153249636 -0.1564697873
1223900000.0 0.2763513031 -0.4891890708
1233850000.0 -0.1145937976 -0.5704446588
1243800000.0 -0.4619099463 -0.3734873418
1253750000.0 -0.5976238475 0.0096800491
1263700000.0 -0.4405435196 0.3958643776
1273650000.0 -0.0557516868 0.57972007
1283600000.0 0.3551319819 0.4587480277
1293550000.0 0.5835365332 0.1051475884
1303500000.0 0.5384203795 -0.3023014301
1313450000.0 0.2613070634 -0.5910109075
1323400000.0 -0.1286487286 -0.65816177
1333350000.0 -0.4862257791 -0.4822559937
1343300000.0 -0.671771223 -0.1167282966
1353250000.0 -0.5886695145 0.2978505643
1363200000.0 -0.2524817279 0.5725368157
1373150000.0 0.1847561895 0.5689992437
1383100000.0 0.5151961613 0.2953401382
1393050000.0 0.6035801324 -0.1094396067
1403000000.0 0.438794365 -0.4724695462
1412950000.0 0.1026879798 -0.6635995802
1422900000.0 -0.2745334593 -0.624446496
1432850000.0 -0.5557040944 -0.3727630775
1442800000.0 -0.6345469838 -0.0010646821
1452750000.0 -0.4681290795 0.3491774853
1462700000.0 -0.1103652356 0.5224087574
1472650000.0 0.2782175631 0.4296464015
1482600000.0 0.5153800154 0.1175459138
1492550000.0 0.5027614552 -0.2617271415
1502500000.0 0.2644432458 -0.5418688331
1512450000.0 -0.0864325765 -0.6129748475
1522400000.0 -0.4005591022 -0.4531241466
1532350000.0 -0.542110468 -0.1309967456
1542300000.0 -0.4423033762 0.2076985271
1552250000.0 -0.1449477943 0.3962441534
1562200000.0 0.1977049199 0.3398471488
1572150000.0 0.4093153794 0.0740111229
1582100000.0 0.3868317008 -0.2547292028
1592050000.0 0.1552107266 -0.4751171673
1602000000.0 -0.1586476874 -0.4841546239
1611950000.0 -0.3991347869 -0.2820435928
1621900000.0 -0.445815322 0.0334508506
1631850000.0 -0.263988699 0.3052218174
1641800000.0 0.0635040135 0.3830290765
1651750000.0 0.3617479236 0.2124691289
1661700000.0 0.4613040884 -0.1172772339
1671650000.0 0.3091299345 -0.4265384987
1681600000.0 -0.0083869324 -0.5573368477
1691550000.0 -0.3361446299 -0.453444501
1701500000.0 -0.5278570721 -0.1618015357
1711450000.0 -0.4950108602 0.1957872042
1721400000.0 -0.2331981552 0.4617831857
1731350000.0 0.1529030933 0.4940516404
1741300000.0 0.4633504573 0.2462768136
1751250000.0 0.4662633292 -0.064868
1761200000.0 0.4416234854 -0.3919562131
1771150000.0 0.1147532967 -0.6112327804
1781100000.0 -0.2601456547 -0.5747288404
1791050000.0 -0.5352108354 -0.3296837569
1801000000.0 -0.6171211822 0.0295481388
1810950000.0 -0.4696793551 0.3755015998
1820900000.0 -0.1332100168 0.5675594795
1830850000.0 0.2571356055 0.5054926905
1840800000.0 0.5184290816 0.2093637052
1850750000.0 0.5312101975 -0.1750195489
1860700000.0 0.3144774371 -0.470243435
1870650000.0 -0.0151313839 -0.5746690882
1880600000.0 -0.3277792534 -0.478431907
1890550000.0 -0.5250875354 -0.2343072036
1900500000.0 -0.549937531 0.0706319643
1910450000.0 -0.3961177732 0.3307119723
1920400000.0 -0.1199723883 0.4437548766
1930350000.0 0.158949765 0.3620208391
1940300000.0 0.3149995214 0.1353051386
1950250000.0 0.2949973521 -0.1156447918
1960200000.0 0.1436441712 -0.2810722042
1970150000.0 -0.0479885125 -0.3178507733
1980100000.0 -0.1947841354 -0.2478672604
1990050000.0 -0.2536629212 -0.134454746
2000000000.0 -0.2357979222 -0.0466579667
