!Created with skrf (http://scikit-rf.org).
# GHz S RI R 50.0 
!freq ReS11 ImS11
10000000.0 -0.8625075107 0.5261933389
19950000.0 -0.4661412945 0.8830403078
29900000.0 0.0569902648 0.9870109375
39850000.0 0.5667937225 0.8033454544
49800000.0 0.9109371494 0.3695276495
59750000.0 0.9682552778 -0.1986741859
69700000.0 0.6893903057 -0.7210350935
79650000.0 0.1381792643 -0.9963597724
89600000.0 -0.4929572519 -0.8800254652
99550000.0 -0.9301483977 -0.3732378184
109500000.0 -0.9335053592 0.324219455
119450000.0 -0.4491085859 0.8638851933
129400000.0 0.3005361278 0.9181678391
139350000.0 0.8762530097 0.4160555504
149300000.0 0.9158614057 -0.3504077799
159250000.0 0.411390086 -0.8987462696
169200000.0 -0.2943311852 -0.9409788988
179150000.0 -0.8159014028 -0.5326309639
189100000.0 -0.9572079405 0.0718269886
199050000.0 -0.7247758765 0.6118409622
209000000.0 -0.2446021898 0.911185288
218950000.0 0.3031988019 0.8943787134
228900000.0 0.7464448094 0.5889334335
238850000.0 0.9541342492 0.0977343042
248800000.0 0.852998176 -0.4215161404
258750000.0 0.5221821317 -0.8094424863
268700000.0 0.0281091465 -0.9545409163
278650000.0 -0.461324057 -0.8186303258
288600000.0 -0.8023938621 -0.4498013701
298550000.0 -0.8976746437 0.0392136865
308500000.0 -0.7173386603 0.5026711534
318450000.0 -0.3128710439 0.7919560744
328400000.0 0.1831508819 0.8013389768
338350000.0 0.5832980506 0.5193647364
348300000.0 0.7189755649 0.0670715951
358250000.0 0.5449880983 -0.3379094681
368200000.0 0.1880951936 -0.5079187589
378150000.0 -0.137606644 -0.4097129177
388100000.0 -0.2785103588 -0.1645710393
398050000.0 -0.2209099496 0.0556184378
408000000.0 -0.0637989918 0.1430460812
417950000.0 0.0716954144 0.0959338129
427900000.0 0.1139514316 -0.015053981
437850000.0 0.0633332439 -0.1070433287
447800000.0 -0.032193641 -0.1309402278
457750000.0 -0.1151103871 -0.0840418713
467700000.0 -0.1465732209 0.00340009
477650000.0 -0.1181531622 0.0890201211
487600000.0 -0.0465622273 0.137108814
497550000.0 0.029628794 0.1326904724
507500000.0 0.0912087755 0.0891979677
517450000.0 0.1083406814 0.0261944805
527400000.0 0.0876647178 -0.02622909
537350000.0 0.0467752859 -0.049475402
547300000.0 0.0103509437 -0.0406077954
557250000.0 -0.002996403 -0.013926872
567200000.0 0.0116968414 0.0087746967
577150000.0 0.0422884134 0.0080695238
587100000.0 0.0670080591 -0.0222164141
597050000.0 0.0644458527 -0.0705796348
607000000.0 0.0268743982 -0.1148916991
616950000.0 -0.0382918667 -0.1310481005
626900000.0 -0.1082371261 -0.1045930304
636850000.0 -0.1552540791 -0.0376599028
646800000.0 -0.1567073091 0.0501521741
656750000.0 -0.1060616439 0.1277994108
666700000.0 -0.0139856044 0.164814824
676650000.0 0.0779248239 0.1352914975
686600000.0 0.1373495485 0.0758218664
696550000.0 0.1631038047 -0.0122477053
706500000.0 0.1334836327 -0.10178617
716450000.0 0.0575376356 -0.1574954753
726400000.0 -0.0354829753 -0.1568498573
736350000.0 -0.1065259818 -0.1006034197
746300000.0 -0.1266467017 -0.0131265767
756250000.0 -0.0846273975 0.0668286298
766200000.0 0.0021543712 0.1016360156
776150000.0 0.09598092 0.0698495163
786100000.0 0.1516686017 -0.0218141185
796050000.0 0.1355498638 -0.1378518541
806000000.0 0.0431134581 -0.227348959
815950000.0 -0.0976895415 -0.2426601107
825900000.0 -0.2316111451 -0.1643329461
835850000.0 -0.3000945822 -0.0094024378
845800000.0 -0.2641497382 0.170546908
855750000.0 -0.1224010601 0.3080105472
865700000.0 0.0848678681 0.3451638555
875650000.0 0.2886333464 0.2552174594
885600000.0 0.4141280505 0.0591019772
895550000.0 0.4102773083 -0.1841468559
905500000.0 0.2671038833 -0.3915072487
915450000.0 0.0248543715 -0.4873109359
925400000.0 -0.2378232389 -0.4284337543
935350000.0 -0.4267678198 -0.2230427925
945300000.0 -0.4631349972 0.0644496686
955250000.0 -0.3153198471 0.3294104744
965200000.0 -0.0225878497 0.4548199481
975150000.0 0.302016364 0.3627868578
985100000.0 0.5000827799 0.0628112132
995050000.0 0.4416966915 -0.3173654152
1005000000.0 0.115597541 -0.5718751254
1014950000.0 -0.3305428427 -0.5243326067
1024900000.0 -0.6413684783 -0.141756412
1034850000.0 -0.5777758896 0.3998722897
1044800000.0 -0.0946234552 0.7526995467
1054750000.0 0.5306176952 0.6228900414
1064700000.0 0.8582767597 0.0613278103
1074650000.0 0.6973336282 -0.5491110432
1084600000.0 0.1641449483 -0.8719788663
1094550000.0 -0.3864070541 -0.753861577
1104500000.0 -0.7683867523 -0.3344154692
1114450000.0 -0.7666137845 0.2342063591
1124400000.0 -0.3945858766 0.6510390042
1134350000.0 0.1448199886 0.7096156701
1144300000.0 0.5623481619 0.4078744086
1154250000.0 0.6688937837 -0.058672634
1164200000.0 0.4710465908 -0.4508806211
1174150000.0 0.1078653229 -0.6266385189
1184100000.0 -0.2685442391 -0.5624730921
1194050000.0 -0.5306803689 -0.2974312155
1204000000.0 -0.5880360642 0.065691874
1213950000.0 -0.4242368048 0.3915100643
1223900000.0 -0.1036966559 0.5599668165
1233850000.0 0.2500190997 0.5135038164
1243800000.0 0.5083452985 0.2812429979
1253750000.0 0.5954754659 -0.042626279
1263700000.0 0.5036837762 -0.3527984569
1273650000.0 0.2768441756 -0.5677638634
1283600000.0 -0.0189149935 -0.6438825369
1293550000.0 -0.3138751143 -0.5706348803
1303500000.0 -0.5393383747 -0.3659095218
1313450000.0 -0.6420535204 -0.0736001792
1323400000.0 -0.589402138 0.2383720038
1333350000.0 -0.3868070712 0.4880420363
1343300000.0 -0.0833034879 0.6058412298
1353250000.0 0.2389187077 0.5568457043
1363200000.0 0.4914362821 0.3585161057
1373150000.0 0.6147537943 0.0689729602
1383100000.0 0.5869039322 -0.2362758494
1393050000.0 0.4254420263 -0.4884275481
1403000000.0 0.1710081657 -0.6367372602
1412950000.0 -0.120570415 -0.6530466138
1422900000.0 -0.3876007137 -0.5353226532
1432850000.0 -0.5709630578 -0.3055299712
1442800000.0 -0.6246130884 -0.013547394
1452750000.0 -0.5308048579 0.2699906404
1462700000.0 -0.3094606954 0.4723135841
1472650000.0 -0.0180886759 0.5383092792
1482600000.0 0.2637359597 0.4520866953
1492550000.0 0.4611020658 0.2412655039
1502500000.0 0.5263481472 -0.0332428819
1512450000.0 0.4479337958 -0.297221848
1522400000.0 0.2534309325 -0.4836719003
1532350000.0 -0.0044509264 -0.5477327758
1542300000.0 -0.2574032552 -0.4733046404
1552250000.0 -0.4354289555 -0.2801883736
1562200000.0 -0.4871340428 -0.0235536612
1572150000.0 -0.3956214378 0.2226473522
1582100000.0 -0.1864345816 0.3824784211
1592050000.0 0.0757095916 0.4045879601
1602000000.0 0.3089007107 0.2820624116
1611950000.0 0.4368771508 0.0508821843
1621900000.0 0.4194431943 -0.2116638647
1631850000.0 0.2643438225 -0.4244084949
1641800000.0 0.0205721207 -0.5234148881
1651750000.0 -0.2393591726 -0.4813450745
1661700000.0 -0.4435495049 -0.3121550639
1671650000.0 -0.5368344079 -0.0602831143
1681600000.0 -0.4917884557 0.208948146
1691550000.0 -0.3150477876 0.4252449334
1701500000.0 -0.0466740833 0.5264690479
1711450000.0 0.2417091586 0.4789290146
1721400000.0 0.4722794468 0.2877121648
1731350000.0 0.5762712586 0.0040318111
1741300000.0 0.5247651231 -0.2934157267
1751250000.0 0.3368402435 -0.5252740196
1761200000.0 0.0661638221 -0.6383984369
1771150000.0 -0.2202629197 -0.6152621318
1781100000.0 -0.4623355249 -0.4692396605
1791050000.0 -0.6146335476 -0.2347418284
1801000000.0 -0.6497225157 0.0426364075
1810950000.0 -0.5598174118 0.309394188
1820900000.0 -0.3578000424 0.5116586029
1830850000.0 -0.081323737 0.6012326206
1840800000.0 0.2085745227 0.5522732977
1850750000.0 0.4408783671 0.37144106
1860700000.0 0.5580027036 0.1056790461
1870650000.0 0.5367023675 -0.1760534828
1880600000.0 0.3935991044 -0.4061698733
1890550000.0 0.1738057951 -0.540582238
1900500000.0 -0.0688261014 -0.5633868288
1910450000.0 -0.2857924182 -0.4838674993
1920400000.0 -0.4405540076 -0.3274341124
1930350000.0 -0.5103844239 -0.1294152302
1940300000.0 -0.4866908218 0.0697163146
1950250000.0 -0.3833100986 0.2299667025
1960200000.0 -0.2269441478 0.3197018744
1970150000.0 -0.0601623831 0.3249128649
1980100000.0 0.0736838261 0.2565681638
1990050000.0 0.1448737241 0.1475352784
2000000000.0 0.1469878458 0.0436237731
