!Created with skrf (http://scikit-rf.org).
# GHz S RI R 50.0 
!freq ReS11 ImS11
10000000.0 -0.7504477625 0.6794777505
19950000.0 -0.1090369155 0.9856542931
29900000.0 0.572775793 0.7919442466
39850000.0 0.9584871574 0.186350668
49800000.0 0.8329514809 -0.5330413035
59750000.0 0.235362157 -0.9788517876
69700000.0 -0.5171124711 -0.8749523533
79650000.0 -0.9761342927 -0.2530639961
89600000.0 -0.8371894566 0.5216611994
99550000.0 -0.1546460843 0.9516391036
109500000.0 0.6439154831 0.7083831107
119450000.0 0.9667913623 -0.0992550976
129400000.0 0.4911362914 -0.8629672538
139350000.0 -0.4200082957 -0.9039373045
149300000.0 -0.958313842 -0.1799131346
159250000.0 -0.6851287037 0.6538609757
169200000.0 0.1231814594 0.9274172559
179150000.0 0.8199906937 0.4724554698
189100000.0 0.906767124 -0.3354819878
199050000.0 0.3634415688 -0.9070764365
209000000.0 -0.3973755242 -0.8823282431
218950000.0 -0.883343435 -0.3358443951
228900000.0 -0.8450913538 0.373187817
238850000.0 -0.3334918593 0.8519894829
248800000.0 0.2951385145 0.6391769278
258750000.0 0.8439752817 0.4040081606
268700000.0 0.9009782139 -0.2880442039
278650000.0 0.4648772106 -0.8153382775
288600000.0 -0.2046429427 -0.8898477568
298550000.0 -0.7307122804 -0.4893019767
308500000.0 -0.8317117204 0.1549308602
318450000.0 -0.4561971686 0.6801926379
328400000.0 0.1747256953 0.7781125252
338350000.0 0.6617103448 0.386446553
348300000.0 0.6829857638 -0.2108636221
358250000.0 0.2697856654 -0.5770991692
368200000.0 -0.2225135017 -0.4962483096
378150000.0 -0.4376962781 -0.1176674219
388100000.0 -0.2950704172 0.227529745
398050000.0 0.0112025841 0.3102583661
408000000.0 0.2141683413 0.1499894896
417950000.0 0.2003318469 -0.0646058903
427900000.0 0.0479606395 -0.1640737205
437850000.0 -0.0923471139 -0.1104479112
447800000.0 -0.126996008 0.015533293
457750000.0 -0.0601041262 0.1073171203
467700000.0 0.036862922 0.109004254
477650000.0 0.088555993 0.0455195674
487600000.0 0.0702399251 -0.0232196784
497550000.0 0.0242307203 -0.0105024644
507500000.0 -0.010313114 -0.059645717
517450000.0 -0.028687674 -0.0181771281
527400000.0 -0.0135732416 -0.0027933514
537350000.0 -0.0028668394 -0.0179870769
547300000.0 -0.0216104033 -0.044855388
557250000.0 -0.070584913 -0.037519351
567200000.0 -0.1042094936 0.0157760239
577150000.0 -0.0888267948 0.0858888509
587100000.0 -0.0123090599 0.1290087901
597050000.0 0.0847594775 0.1107710205
607000000.0 0.1452908782 0.0179565556
616950000.0 0.1299862256 -0.1024397758
626900000.0 0.0343710317 -0.1845933768
636850000.0 -0.0961741704 -0.1802310115
646800000.0 -0.193794738 -0.0885724383
656750000.0 -0.2014198797 0.0431300973
666700000.0 -0.1154918987 0.1471282782
676650000.0 0.0148288592 0.162503802
686600000.0 0.1180392966 0.0835628309
696550000.0 0.1383448263 -0.0404995085
706500000.0 0.0696519919 -0.1351588603
716450000.0 -0.0378597519 -0.1468812714
726400000.0 -0.111768962 -0.0796735794
736350000.0 -0.1003077307 0.0136170864
746300000.0 -0.0186637702 0.0573690789
756250000.0 0.069509903 0.0148558905
766200000.0 0.0862222364 -0.0881815204
776150000.0 0.0050541822 -0.175906139
786100000.0 -0.1276623664 -0.1664047509
796050000.0 -0.2193482953 -0.0453439052
806000000.0 -0.1883942493 0.1274966811
815950000.0 -0.0282523387 0.2385408882
825900000.0 0.1866749497 0.2005917649
835850000.0 0.3272002476 0.0128283609
845800000.0 0.2973306427 -0.2375217295
855750000.0 0.0939590178 -0.4079015072
865700000.0 -0.1835245783 -0.3932222566
875650000.0 -0.3873763815 -0.1849683171
885600000.0 -0.3931162231 0.1198503279
895550000.0 -0.1836339691 0.3569151731
905500000.0 0.1412990117 0.3858976175
915450000.0 0.4014737843 0.1777655577
925400000.0 0.4417647254 -0.1576121544
935350000.0 0.2310353304 -0.4232978105
945300000.0 -0.1120203615 -0.456662594
955250000.0 -0.3738373627 -0.2248459312
965200000.0 -0.3735864199 0.1375667548
975150000.0 -0.07933486 0.3741181996
985100000.0 0.3063661153 0.2732398674
995050000.0 0.44601075 -0.1308566948
1005000000.0 0.1578295905 -0.4943997616
1014950000.0 -0.3499336967 -0.437741108
1024900000.0 -0.6039361112 0.0695437507
1034850000.0 -0.282669102 0.6133825907
1044800000.0 0.4044062753 0.6391012789
1054750000.0 0.8179427773 0.0457702903
1064700000.0 0.5422786109 -0.610249529
1074650000.0 -0.0469164067 -0.8178651196
1084600000.0 -0.6579845127 -0.4964218583
1094550000.0 -0.7770850478 0.1523701366
1104500000.0 -0.3646180581 0.7012956162
1114450000.0 0.3234243105 0.6957447037
1124400000.0 0.7129619276 0.1627024057
1134350000.0 0.5339780773 -0.4259657533
1144300000.0 0.0067038926 -0.6330334909
1154250000.0 -0.4511764003 -0.3743559148
1164200000.0 -0.534596673 0.1136168682
1174150000.0 -0.2172035784 0.4665083548
1184100000.0 0.2372536654 0.4332285222
1194050000.0 0.4826221607 0.068247734
1204000000.0 0.3647955839 -0.3346477403
1213950000.0 0.0009318489 -0.5153801181
1223900000.0 -0.3741530062 -0.3840174253
1233850000.0 -0.5523341421 -0.0316816342
1243800000.0 -0.4371579187 0.3514085432
1253750000.0 -0.0853806572 0.5537943233
1263700000.0 0.3132764505 0.4609077107
1273650000.0 0.5474092349 0.1251406908
1283600000.0 0.5053070155 -0.2771976686
1293550000.0 0.2240947518 -0.5584442003
1303500000.0 -0.1680509716 -0.6033509066
1313450000.0 -0.5050868113 -0.3992552596
1323400000.0 -0.6477023016 -0.025125433
1333350000.0 -0.5218892388 0.36320928
1343300000.0 -0.1727202422 0.5894124404
1353250000.0 0.2451611674 0.5398117627
1363200000.0 0.5368336476 0.2383431742
1373150000.0 0.5756738914 -0.1716971753
1383100000.0 0.3610178267 -0.5117381215
1393050000.0 -0.0084842027 -0.6503721445
1403000000.0 -0.3823215754 -0.539379356
1412950000.0 -0.6118060774 -0.226237577
1422900000.0 -0.6019370996 0.1653348288
1432850000.0 -0.3474626469 0.465696673
1442800000.0 0.0394696285 0.5411486681
1452750000.0 0.3835118669 0.3598301918
1462700000.0 0.5374848517 0.0100054313
1472650000.0 0.4420335118 -0.3518271697
1482600000.0 0.14873786 -0.5691540132
1492550000.0 -0.2082959307 -0.5565594938
1502500000.0 -0.4757145183 -0.3228155452
1512450000.0 -0.5306945004 0.0253185321
1522400000.0 -0.3461086623 0.3269671995
1532350000.0 -0.0103662286 0.4324749918
1542300000.0 0.3054950225 0.2896615625
1552250000.0 0.4411993947 -0.0191808163
1562200000.0 0.3372035532 -0.3289271632
1572150000.0 0.0617998619 -0.4840445491
1582100000.0 -0.2396291461 -0.4152283392
1592050000.0 -0.4158275859 -0.164566306
1602000000.0 -0.3753095219 0.1439682307
1611950000.0 -0.1332043843 0.3418636944
1621900000.0 0.1809369827 0.3171771392
1631850000.0 0.3908683943 0.0797780243
1641800000.0 0.3752056104 -0.2368906175
1651750000.0 0.1476706993 -0.4523271452
1661700000.0 -0.1672567832 -0.4561285503
1671650000.0 -0.4027018167 -0.2462741472
1681600000.0 -0.4392180339 0.0394596899
1691550000.0 -0.3152942024 0.3411185872
1701500000.0 0.0213707785 0.4712212971
1711450000.0 0.360488581 0.337899768
1721400000.0 0.5260505968 0.0088302266
1731350000.0 0.4334873403 -0.3467303165
1741300000.0 0.1357461433 -0.5566326304
1751250000.0 -0.2241169769 -0.5349981096
1761200000.0 -0.4961253024 -0.3006183956
1771150000.0 -0.5727192238 0.0533618002
1781100000.0 -0.418372398 0.3867513196
1791050000.0 -0.0851063705 0.5594514154
1801000000.0 0.2888922183 0.4842780706
1810950000.0 0.531072207 0.18559754
1820900000.0 0.5278222117 -0.1942907308
1830850000.0 0.2939458274 -0.4820065249
1840800000.0 -0.0561276086 -0.5652279161
1850750000.0 -0.375615912 -0.4290616263
1860700000.0 -0.5517230074 -0.1377186589
1870650000.0 -0.5240178585 0.1962973099
1880600000.0 -0.3043217929 0.4455131433
1890550000.0 0.0199941913 0.5078358203
1900500000.0 0.3068191436 0.3570504836
1910450000.0 0.4333722643 0.069946138
1920400000.0 0.356739643 -0.2187180943
1930350000.0 0.1365757189 -0.3893430938
1940300000.0 -0.1205790286 -0.3942895855
1950250000.0 -0.3148436336 -0.2584560616
1960200000.0 -0.3814145563 -0.0547473136
1970150000.0 -0.318591146 0.1258741315
1980100000.0 -0.178216428 0.2148782171
1990050000.0 -0.0438343335 0.1940903415
2000000000.0 0.0227359838 0.1209262054
