!Created with skrf (http://scikit-rf.org).
# GHz S RI R 50.0 
!freq ReS11 ImS11
10000000.0 -0.7791159042 0.583417483
19950000.0 -0.2836949967 0.915808398
29900000.0 0.3128116221 0.8944775493
39850000.0 0.7908681232 0.5205007035
49800000.0 0.9563495997 -0.0787950647
59750000.0 0.7152169983 -0.6712253255
69700000.0 0.1397216812 -0.987449496
79650000.0 -0.518874086 -0.8489164963
89600000.0 -0.9305995184 -0.2920766988
99550000.0 -0.859537244 0.4208206369
109500000.0 -0.2969979741 0.9090709545
119450000.0 0.4804793462 0.8494271275
129400000.0 0.973788697 0.2161239813
139350000.0 0.8047280972 -0.6078065204
149300000.0 0.0645449337 -0.9836743301
159250000.0 -0.6764025266 -0.6661791776
169200000.0 -0.9256193599 0.0654237253
179150000.0 -0.5886746477 0.7214552658
189100000.0 0.0803663327 0.9418414173
199050000.0 0.6924054592 0.6520734173
209000000.0 0.9411051932 0.0440029439
218950000.0 0.7391149484 -0.5537100729
228900000.0 0.216240455 -0.8769662955
238850000.0 -0.386292554 -0.802141046
248800000.0 -0.5591719511 -0.3063723677
258750000.0 -0.8867140952 0.1730102276
268700000.0 -0.6013782009 0.6934572972
278650000.0 -0.0619946974 0.9162531402
288600000.0 0.491636425 0.7513099206
298550000.0 0.8179484507 0.2777929711
308500000.0 0.7766580246 -0.29512373
318450000.0 0.3835915562 -0.710825203
328400000.0 -0.1801615316 -0.771166979
338350000.0 -0.6291642831 -0.4428858663
348300000.0 -0.7190019774 0.0834684724
358250000.0 -0.427966501 0.4890664838
368200000.0 0.0199746754 0.5556051055
378150000.0 0.3380406945 0.3114305924
388100000.0 0.3773264306 -0.033044078
398050000.0 0.1908623951 -0.2563844144
408000000.0 -0.04876904 -0.2680878613
417950000.0 -0.1881033016 -0.1286411716
427900000.0 -0.1799836153 0.0328881076
437850000.0 -0.0757499703 0.1188557
447800000.0 0.0353125186 0.1038809091
457750000.0 0.0902950682 0.0285447587
467700000.0 0.07607055 -0.0453556254
477650000.0 0.0247258686 -0.0740817026
487600000.0 -0.0156632403 -0.0508902868
497550000.0 0.0155378561 -0.0952290195
507500000.0 -0.0287464837 0.0003871276
517450000.0 0.0059654592 0.0065130998
527400000.0 0.0191782451 -0.0159719323
537350000.0 0.0004778884 -0.0397282054
547300000.0 -0.0456123751 -0.0389807904
557250000.0 -0.0796247085 0.0071696877
567200000.0 -0.0745723224 0.0702349976
577150000.0 -0.0243955593 0.1195440286
587100000.0 0.0543331093 0.1241228954
597050000.0 0.1248517878 0.0706198447
607000000.0 0.1510065426 -0.0246084042
616950000.0 0.1089952519 -0.1202287358
626900000.0 0.0162922039 -0.1730447419
636850000.0 -0.0922275636 -0.159105245
646800000.0 -0.1683916814 -0.0825459782
656750000.0 -0.1815408816 0.0233336229
666700000.0 -0.1259697074 0.113237173
676650000.0 -0.0278432832 0.1464093727
686600000.0 0.0676924529 0.1098035612
696550000.0 0.1160124691 0.0220416637
706500000.0 0.0970691562 -0.0708744918
716450000.0 0.0260333486 -0.1200567478
726400000.0 -0.0523937264 -0.103896739
736350000.0 -0.0884758294 -0.0340153131
746300000.0 -0.0557746256 0.044147144
756250000.0 0.0332213547 0.0766405157
766200000.0 0.1286211355 0.0330124984
776150000.0 0.1702699796 -0.0743247095
786100000.0 0.1213272192 -0.1907816188
796050000.0 -0.0084535043 -0.246489645
806000000.0 -0.1607893964 -0.1934315709
815950000.0 -0.2533967054 -0.0363554553
825900000.0 -0.2240674809 0.1625391542
835850000.0 -0.0681265241 0.3108425738
845800000.0 0.1559556247 0.3314464583
855750000.0 0.348182254 0.2053727071
865700000.0 0.4263205163 -0.0138048081
875650000.0 0.35429544 -0.2444674389
885600000.0 0.1437857506 -0.3920312846
895550000.0 -0.1258557837 -0.3754208298
905500000.0 -0.3389943073 -0.1883839874
915450000.0 -0.3877260332 0.0990245509
925400000.0 -0.2408881021 0.3537631751
935350000.0 0.0370237915 0.4501736656
945300000.0 0.3094396383 0.3303506756
955250000.0 0.4240481865 0.0401433314
965200000.0 0.2860062195 -0.2640157312
975150000.0 -0.0613783808 -0.3751335812
985100000.0 -0.4002080462 -0.1584914809
995050000.0 -0.4358259692 0.2815190262
1005000000.0 -0.0733606922 0.5998466621
1014950000.0 0.4443753148 0.4900687348
1024900000.0 0.7002789408 -0.0324598186
1034850000.0 0.4359298229 -0.6059907159
1044800000.0 -0.210234886 -0.7706650368
1054750000.0 -0.7504072851 -0.3626932347
1064700000.0 -0.7599094692 0.2350340406
1074650000.0 -0.4650449656 0.6994875827
1084600000.0 0.1228196758 0.8202400512
1094550000.0 0.619500934 0.4936707375
1104500000.0 0.7477943208 -0.0869281609
1114450000.0 0.4223114696 -0.5833745289
1124400000.0 -0.1437334173 -0.6753396452
1134350000.0 -0.5604367071 -0.3387462614
1144300000.0 -0.5949382557 0.1522113097
1154250000.0 -0.2945536025 0.4917753593
1164200000.0 0.1311194284 0.5188021139
1174150000.0 0.4421083079 0.2528254596
1184100000.0 0.4772095374 -0.1530601858
1194050000.0 0.2151536684 -0.4584122273
1204000000.0 -0.1701759871 -0.4913223609
1213950000.0 -0.4648135188 -0.2722701867
1223900000.0 -0.5552948036 0.0685765667
1233850000.0 -0.4254914245 0.3886305975
1243800000.0 -0.1294138906 0.5712034199
1253750000.0 0.2275717321 0.5397168374
1263700000.0 0.5015549446 0.2915672594
1273650000.0 0.5721032753 -0.0765097301
1283600000.0 0.4135281707 -0.4117495454
1293550000.0 0.1041097569 -0.5917244001
1303500000.0 -0.238131706 -0.575934446
1313450000.0 -0.5125120491 -0.3890800153
1323400000.0 -0.6509470208 -0.0899708551
1333350000.0 -0.6144531212 0.2445511469
1343300000.0 -0.3948715566 0.5189494071
1353250000.0 -0.0437310616 0.6277776046
1363200000.0 0.3180488127 0.5136251032
1373150000.0 0.5523305175 0.2139937599
1383100000.0 0.5816855429 -0.1545541821
1393050000.0 0.4183728912 -0.4665469851
1403000000.0 0.1316348604 -0.6391140161
1412950000.0 -0.1904405958 -0.6379265391
1422900000.0 -0.4610031462 -0.4719338147
1432850000.0 -0.6052462357 -0.1828350349
1442800000.0 -0.5713577969 0.149874789
1452750000.0 -0.3543829744 0.4173305311
1462700000.0 -0.0214436167 0.5222681971
1472650000.0 0.3101891906 0.4268941061
1482600000.0 0.5262940967 0.1723008623
1492550000.0 0.5637214265 -0.1449328943
1502500000.0 0.4249836368 -0.4180253907
1512450000.0 0.1637878 -0.5624321935
1522400000.0 -0.1314896388 -0.5316921857
1532350000.0 -0.3577706398 -0.3316138302
1542300000.0 -0.4260324506 -0.0298562297
1552250000.0 -0.3018658074 0.2560130184
1562200000.0 -0.0360754357 0.4067125238
1572150000.0 0.2534928802 0.3662964315
1582100000.0 0.4472615924 0.1675278189
1592050000.0 0.4758008773 -0.0991790745
1602000000.0 0.3340089305 -0.325261623
1611950000.0 0.0770838608 -0.4191604686
1621900000.0 -0.1935162212 -0.3335550172
1631850000.0 -0.3609488006 -0.0919533534
1641800000.0 -0.3431683272 0.2060973562
1651750000.0 -0.1436256238 0.426969269
1661700000.0 0.1420636294 0.4730733842
1671650000.0 0.3859714016 0.3472352691
1681600000.0 0.5270138778 0.1034852783
1691550000.0 0.4960445496 -0.1925091546
1701500000.0 0.2964700659 -0.4231602101
1711450000.0 -0.0055566499 -0.5082739559
1721400000.0 -0.3197311266 -0.402419516
1731350000.0 -0.5211231499 -0.1264724056
1741300000.0 -0.5250626921 0.2163446802
1751250000.0 -0.3344445383 0.4932412026
1761200000.0 -0.0314972343 0.611995472
1771150000.0 0.2783347181 0.5512197644
1781100000.0 0.508326014 0.3426559369
1791050000.0 0.6012211862 0.0453345643
1801000000.0 0.5280698312 -0.264685336
1810950000.0 0.2967401116 -0.4982400353
1820900000.0 -0.0336927472 -0.570266488
1830850000.0 -0.3525501843 -0.4423058532
1840800000.0 -0.5425878662 -0.161695212
1850750000.0 -0.5488787736 0.1622998423
1860700000.0 -0.3951818526 0.4243822814
1870650000.0 -0.1464485962 0.5649840004
1880600000.0 0.125049458 0.5632935511
1890550000.0 0.3527014989 0.4292706832
1900500000.0 0.4785487294 0.197013128
1910450000.0 0.4627971732 -0.0698916245
1920400000.0 0.3034975877 -0.2851155866
1930350000.0 0.0577114465 -0.3709347785
1940300000.0 -0.1781555423 -0.3103268052
1950250000.0 -0.3248041099 -0.1507007026
1960200000.0 -0.3583805726 0.0330902389
1970150000.0 -0.2992794329 0.177104892
1980100000.0 -0.1943268218 0.2436000417
1990050000.0 -0.1033773447 0.231057292
2000000000.0 -0.0741708252 0.1804510892
