!Created with skrf (http://scikit-rf.org).
# GHz S RI R 50.0 
!freq ReS11 ImS11
10000000.0 -0.7719448671 0.5818475081
19950000.0 -0.2804501137 0.9168541299
29900000.0 0.3155902975 0.9008496845
39850000.0 0.7961420934 0.5300906757
49800000.0 0.9626647743 -0.0697939078
59750000.0 0.7194171528 -0.6627781982
69700000.0 0.1404036973 -0.9770405125
79650000.0 -0.5215048024 -0.8339708295
89600000.0 -0.9325774996 -0.2669063057
99550000.0 -0.844380269 0.4568055191
109500000.0 -0.2467695793 0.9308621103
119450000.0 0.5448443874 0.8112091231
129400000.0 0.9853899402 0.1031737489
139350000.0 0.7057219527 -0.6944341419
149300000.0 -0.0823201381 -0.9661170074
159250000.0 -0.7678141162 -0.5498506782
169200000.0 -0.910664136 0.1998320271
179150000.0 -0.495531595 0.7929152171
189100000.0 0.1796845481 0.9242321094
199050000.0 0.7414186429 0.5798912392
209000000.0 0.9329279015 -0.0282898116
218950000.0 0.7035709073 -0.5956260919
228900000.0 0.1857522668 -0.8910434605
238850000.0 -0.3943324426 -0.8117280873
248800000.0 -0.7775930975 -0.4106986688
258750000.0 -0.8940305891 0.1588437877
268700000.0 -0.628737585 0.665436375
278650000.0 -0.1166427682 0.9075773534
288600000.0 0.4335785865 0.7898650116
298550000.0 0.7976537558 0.3628154232
308500000.0 0.8257793552 -0.1977167026
318450000.0 0.5016442513 -0.6536526301
328400000.0 -0.0330099392 -0.7982695097
338350000.0 -0.5201242148 -0.5608789923
348300000.0 -0.7072790012 -0.07616023
358250000.0 -0.5147850099 0.3666293566
368200000.0 -0.1102793306 0.5207416945
378150000.0 0.2247738507 0.3575872228
388100000.0 0.3117968987 0.059998898
398050000.0 0.1778236185 -0.1469621978
408000000.0 -0.0132771558 -0.1667850055
417950000.0 -0.1125822179 -0.054660808
427900000.0 -0.0827144645 0.0646035081
437850000.0 0.0194490813 0.1001054604
447800000.0 0.1059782935 0.0431884636
457750000.0 0.1183213864 -0.0569701231
467700000.0 0.0563240774 -0.1358465077
477650000.0 -0.039353672 -0.1492335102
487600000.0 -0.117166608 -0.0949916859
497550000.0 -0.1427690536 -0.0095081515
507500000.0 -0.1030269315 0.0697624378
517450000.0 -0.0307449216 0.1018150174
527400000.0 0.0328099151 0.0823900775
537350000.0 0.0595621918 0.0343238383
547300000.0 0.0462805923 -0.0093316869
557250000.0 0.0132944107 -0.0240647813
567200000.0 -0.0112881609 -0.0084082935
577150000.0 -0.00710917 0.0188938891
587100000.0 0.0240612969 0.0270109084
597050000.0 0.0577540892 0.0010693849
607000000.0 0.0642451313 -0.0516198643
616950000.0 0.0286149989 -0.1048745326
626900000.0 -0.0397471094 -0.1248545371
636850000.0 -0.1126616144 -0.0923339268
646800000.0 -0.1514277118 -0.0161821719
656750000.0 -0.1306347548 0.0736588384
666700000.0 -0.0556480456 0.1358539317
676650000.0 0.0476867896 0.1382618743
686600000.0 0.1326680289 0.0726554212
696550000.0 0.159002156 -0.0344795264
706500000.0 0.1133158932 -0.1346379921
716450000.0 0.014379115 -0.18092138
726400000.0 -0.0896781026 -0.1503754908
736350000.0 -0.1447469051 -0.0541732452
746300000.0 -0.1191674592 0.0564505931
756250000.0 -0.0207308119 0.1224054341
766200000.0 0.0991104262 0.1053140872
776150000.0 0.1757602651 0.007883557
786100000.0 0.1641681706 -0.1195759136
796050000.0 0.0599248486 -0.2045992731
806000000.0 -0.0858581691 -0.1925568078
815950000.0 -0.1953672193 -0.072822079
825900000.0 -0.1991765287 0.1042613965
835850000.0 -0.0789197578 0.2500426207
845800000.0 0.1171318755 0.2855984941
855750000.0 0.2981318839 0.1823857005
865700000.0 0.3759267991 -0.0238503149
875650000.0 0.2975211123 -0.2440968264
885600000.0 0.0825668148 -0.37005552
895550000.0 -0.178290075 -0.325391013
905500000.0 -0.3596456823 -0.111308193
915450000.0 -0.3595384838 0.1802846226
925400000.0 -0.1635035916 0.4068489779
935350000.0 0.1394148481 0.4468859408
945300000.0 0.3971825333 0.2642766687
955250000.0 0.4623362669 -0.0660579374
965200000.0 0.2617033613 -0.3690368699
975150000.0 -0.1276091637 -0.4402527387
985100000.0 -0.4690098566 -0.1753016077
995050000.0 -0.4840956685 0.2929744407
1005000000.0 -0.1024524381 0.6105643773
1014950000.0 0.3930147699 0.5061495741
1024900000.0 0.6702760258 0.0528839137
1034850000.0 0.4923236355 -0.5272083274
1044800000.0 -0.1350436683 -0.7620835499
1054750000.0 -0.7199872636 -0.3898851529
1064700000.0 -0.7942144869 0.2837669305
1074650000.0 -0.3568263958 0.7609585483
1084600000.0 0.2129940536 0.7537865136
1094550000.0 0.6786061857 0.4104955114
1104500000.0 0.7388375731 -0.1979536561
1114450000.0 0.3431934496 -0.6563671613
1124400000.0 -0.2369390866 -0.6836668423
1134350000.0 -0.6341015621 -0.3136792763
1144300000.0 -0.6622175398 0.1884384148
1154250000.0 -0.3684070996 0.5546187592
1164200000.0 0.0735020543 0.6322063977
1174150000.0 0.4510896228 0.4077807568
1184100000.0 0.5844505075 -0.0140340935
1194050000.0 0.3984965337 -0.4106024696
1204000000.0 0.0081560142 -0.5737502833
1213950000.0 -0.3716030058 -0.4506876759
1223900000.0 -0.5812955587 -0.1374024065
1233850000.0 -0.5639265235 0.2240185578
1243800000.0 -0.3393005848 0.5019610105
1253750000.0 0.0109103404 0.5952298362
1263700000.0 0.3556315154 0.4551179071
1273650000.0 0.5488249555 0.1295228249
1283600000.0 0.5071181557 -0.2448562248
1293550000.0 0.2628652911 -0.5144611696
1303500000.0 -0.0739517098 -0.5952598624
1313450000.0 -0.3855092998 -0.4839342399
1323400000.0 -0.5862903235 -0.2297368688
1333350000.0 -0.6229942646 0.0940572652
1343300000.0 -0.4743436513 0.3977399039
1353250000.0 -0.1666268922 0.5713108055
1363200000.0 0.1955551304 0.5354883011
1373150000.0 0.474629437 0.2939107249
1383100000.0 0.5639395306 -0.0556357718
1393050000.0 0.4510948087 -0.3814682009
1403000000.0 0.1937499871 -0.5838854175
1412950000.0 -0.1172789281 -0.6159416937
1422900000.0 -0.3937654643 -0.4808595043
1432850000.0 -0.5567729845 -0.2136944342
1442800000.0 -0.5486256616 0.1118610531
1452750000.0 -0.3516406082 0.3872116897
1462700000.0 -0.0281734737 0.5012166256
1472650000.0 0.2986641865 0.4106326652
1482600000.0 0.5061714227 0.1605946178
1492550000.0 0.5348822935 -0.1493930265
1502500000.0 0.3908961083 -0.4095800519
1512450000.0 0.1316075937 -0.5396715041
1522400000.0 -0.1550134525 -0.4971706376
1532350000.0 -0.366850007 -0.2917852256
1542300000.0 -0.4185548289 0.0066640491
1552250000.0 -0.2809574902 0.2799787386
1562200000.0 -0.0102501827 0.4127699637
1572150000.0 0.2762348191 0.3547977426
1582100000.0 0.4583268277 0.1443631295
1592050000.0 0.4761198925 -0.1264588784
1602000000.0 0.3283017811 -0.3531505711
1611950000.0 0.0649099627 -0.4496509871
1621900000.0 -0.2154845626 -0.3654260286
1631850000.0 -0.3943722624 -0.1198659122
1641800000.0 -0.3880426454 0.1905212054
1651750000.0 -0.1937698137 0.4336556805
1661700000.0 0.1035944646 0.5082862494
1671650000.0 0.3816346361 0.3947353711
1681600000.0 0.5425184397 0.1446057919
1691550000.0 0.5354788264 -0.1549540756
1701500000.0 0.3602381679 -0.4076392019
1711450000.0 0.0643286709 -0.5245344089
1721400000.0 -0.2594127528 -0.4519913425
1731350000.0 -0.4908688385 -0.200856212
1741300000.0 -0.5375873109 0.1394374933
1751250000.0 -0.3861098141 0.4392049855
1761200000.0 -0.1033484823 0.5984426221
1771150000.0 0.2096668434 0.5817480233
1781100000.0 0.4626842517 0.4083585894
1791050000.0 0.5914596115 0.1300457041
1801000000.0 0.5580103976 -0.1812242002
1810950000.0 0.3614969013 -0.4367971731
1820900000.0 0.0490822265 -0.5483603299
1830850000.0 -0.2781221531 -0.4647180246
1840800000.0 -0.4997043712 -0.2147442533
1850750000.0 -0.546670701 0.1015265503
1860700000.0 -0.426763412 0.3767623759
1870650000.0 -0.1983576041 0.5410787267
1880600000.0 0.0671424722 0.5652592393
1890550000.0 0.299788955 0.4540929503
1900500000.0 0.4406262841 0.2398729677
1910450000.0 0.4478463099 -0.0177363806
1920400000.0 0.3159022947 -0.2380685835
1930350000.0 0.0908262988 -0.3458690111
1940300000.0 -0.1392120737 -0.3122711119
1950250000.0 -0.2950940845 -0.1762093583
1960200000.0 -0.3465940896 -0.0051413686
1970150000.0 -0.3049046141 0.1392448714
1980100000.0 -0.2090439059 0.2158006715
1990050000.0 -0.1130227502 0.2130440619
2000000000.0 -0.0701651122 0.1578017523
