!Created with skrf (http://scikit-rf.org).
# GHz S RI R 50.0 
!freq ReS11 ImS11
10000000.0 -0.8880794681 0.4805024234
19950000.0 -0.5575935467 0.8261750989
29900000.0 -0.1111183125 0.9800873447
39850000.0 0.3545391034 0.9146974523
49800000.0 0.7394743213 0.6450290617
59750000.0 0.9596352036 0.2279576098
69700000.0 0.9635786426 -0.2453201193
79650000.0 0.7464603923 -0.6671899623
89600000.0 0.3569421443 -0.9376539248
99550000.0 -0.1124370263 -0.9923578934
109500000.0 -0.5500959774 -0.8213424883
119450000.0 -0.8559210347 -0.4695078965
129400000.0 -0.9659031555 -0.0195852162
139350000.0 -0.8601307886 0.4292553741
149300000.0 -0.5614667081 0.7815463734
159250000.0 -0.1344338293 0.9597524825
169200000.0 0.3281312134 0.9214625478
179150000.0 0.7203321947 0.6724754212
189100000.0 0.949993987 0.2687128115
199050000.0 0.9626998223 -0.1936579917
209000000.0 0.7575790674 -0.6077484682
218950000.0 0.3909059117 -0.8767382585
228900000.0 -0.0580937576 -0.9491455642
238850000.0 -0.4911054111 -0.8096286366
248800000.0 -0.8140095918 -0.4888221755
258750000.0 -0.9558276547 -0.0540376014
268700000.0 -0.881286077 0.3978410992
278650000.0 -0.6045956345 0.7634240905
288600000.0 -0.1896356932 0.9562963557
298550000.0 0.2648246489 0.9324962015
308500000.0 0.6546534092 0.7015194611
318450000.0 0.8934954744 0.3190760156
328400000.0 0.9315189764 -0.1298118162
338350000.0 0.7609045351 -0.5474643236
348300000.0 0.4171549265 -0.8421252824
358250000.0 -0.024750524 -0.9469151472
368200000.0 -0.4658238917 -0.8345444968
378150000.0 -0.8028529083 -0.5299032494
388100000.0 -0.9572950875 -0.1047127418
398050000.0 -0.8959051095 0.3406391278
408000000.0 -0.6381827925 0.7046559404
417950000.0 -0.2450087359 0.9098724449
427900000.0 0.1985384254 0.9146558674
437850000.0 0.5979654281 0.7167394095
447800000.0 0.8647306201 0.3558393374
457750000.0 0.9358966133 -0.0902093541
467700000.0 0.7899733553 -0.5193786564
477650000.0 0.4605298388 -0.8292271038
487600000.0 0.0270165025 -0.9475771632
497550000.0 -0.4070050477 -0.8520616185
507500000.0 -0.7458102597 -0.5719496123
517450000.0 -0.9200032509 -0.1708358792
527400000.0 -0.8949407096 0.2658171151
537350000.0 -0.6739095666 0.6461203516
547300000.0 -0.2994176733 0.8857366126
557250000.0 0.1480591275 0.9249613772
567200000.0 0.5645032281 0.7483612132
577150000.0 0.8475584049 0.3955921752
587100000.0 0.930595822 -0.0456092791
597050000.0 0.8012398214 -0.4696403053
607000000.0 0.4962234625 -0.783697997
616950000.0 0.0864660774 -0.9246965057
626900000.0 -0.341281295 -0.8669418315
636850000.0 -0.6991958913 -0.6219781446
646800000.0 -0.9076726814 -0.2372760899
656750000.0 -0.915208905 0.2057847669
666700000.0 -0.7115447747 0.604587493
676650000.0 -0.3412352962 0.8610130979
686600000.0 0.105302644 0.9117295875
696550000.0 0.5206543365 0.7492229893
706500000.0 0.8104974108 0.418755297
716450000.0 0.918133715 -0.0016094821
726400000.0 0.8250121751 -0.4214395374
736350000.0 0.5537855074 -0.7533933516
746300000.0 0.1601745166 -0.9268747571
756250000.0 -0.2730128405 -0.8997532456
766200000.0 -0.6479243181 -0.6719470709
776150000.0 -0.8747068697 -0.2904662024
786100000.0 -0.8954382265 0.1552626395
796050000.0 -0.7055859641 0.5587077976
806000000.0 -0.3530856836 0.8286306323
815950000.0 0.0789149696 0.9041163903
825900000.0 0.4924608379 0.7761127074
835850000.0 0.8000955797 0.4775232258
845800000.0 0.9371274199 0.0745382962
855750000.0 0.8753362489 -0.346706915
865700000.0 0.6259073469 -0.6946211794
875650000.0 0.2402604098 -0.8899124345
885600000.0 -0.1973342435 -0.884856676
895550000.0 -0.5873041624 -0.6760062866
905500000.0 -0.8373989317 -0.3076546677
915450000.0 -0.8871637346 0.1349317948
925400000.0 -0.7262515718 0.5464215585
935350000.0 -0.3973558198 0.8331527361
945300000.0 0.0200912845 0.9333042938
955250000.0 0.4305342191 0.8324164926
965200000.0 0.7471605931 0.5586777437
975150000.0 0.9063551063 0.1714851626
985100000.0 0.8742663397 -0.2498263453
995050000.0 0.6513763595 -0.617200332
1005000000.0 0.2770741406 -0.8470468247
1014950000.0 -0.1693197526 -0.875453058
1024900000.0 -0.5795589537 -0.6874157632
1034850000.0 -0.8489604276 -0.3280775829
1044800000.0 -0.9134162756 0.1080527021
1054750000.0 -0.7699372204 0.5124016667
1064700000.0 -0.4657501607 0.7978735268
1074650000.0 -0.0750102081 0.9155210881
1084600000.0 0.326528507 0.8508577569
1094550000.0 0.6623131085 0.6141121075
1104500000.0 0.8641294293 0.2445634478
1114450000.0 0.8749575185 -0.1915579429
1124400000.0 0.6727072186 -0.5928913188
1134350000.0 0.2948911024 -0.8505562756
1144300000.0 -0.1584470271 -0.8900510759
1154250000.0 -0.5639286078 -0.7103983103
1164200000.0 -0.8280319786 -0.37405021
1174150000.0 -0.9087963834 0.0293459974
1184100000.0 -0.808513152 0.4169289398
1194050000.0 -0.5534623528 0.7219434759
1204000000.0 -0.1865284433 0.8897053105
1213950000.0 0.2304817838 0.8772822979
1223900000.0 0.6117485672 0.6651828873
1233850000.0 0.8532150196 0.2822262452
1243800000.0 0.8754150749 -0.1786984927
1253750000.0 0.6680248254 -0.5874619086
1263700000.0 0.3002073467 -0.8365911578
1273650000.0 -0.1216962849 -0.8848417502
1283600000.0 -0.5035980431 -0.7466058679
1293550000.0 -0.7806768907 -0.466308062
1303500000.0 -0.9110032724 -0.0969124662
1313450000.0 -0.8687908074 0.3001146039
1323400000.0 -0.6455763998 0.6505729015
1333350000.0 -0.2676275056 0.8663398395
1343300000.0 0.1860368445 0.8727787093
1353250000.0 0.5912982102 0.6494028429
1363200000.0 0.831485301 0.2588441638
1373150000.0 0.8548301474 -0.1844484837
1383100000.0 0.6781627515 -0.5701675915
1393050000.0 0.3624607585 -0.8251607411
1403000000.0 -0.0213359864 -0.9154149512
1412950000.0 -0.4041083602 -0.8317593512
1422900000.0 -0.7171164159 -0.585363619
1432850000.0 -0.8915987044 -0.2117382592
1442800000.0 -0.8721703193 0.2181576773
1452750000.0 -0.6417892556 0.5999533619
1462700000.0 -0.2477532141 0.8269983022
1472650000.0 0.2048216584 0.8357835991
1482600000.0 0.5963710171 0.6337310819
1492550000.0 0.8402361805 0.2873342944
1502500000.0 0.8999011636 -0.1155733571
1512450000.0 0.7793863578 -0.4923417178
1522400000.0 0.5094738334 -0.77594465
1532350000.0 0.1389620415 -0.9126273293
1542300000.0 -0.2640331831 -0.8694294616
1552250000.0 -0.6164393844 -0.6383374698
1562200000.0 -0.8289035886 -0.2563915079
1572150000.0 -0.8346845498 0.1922623488
1582100000.0 -0.6222717837 0.5917857713
1592050000.0 -0.2475218395 0.8361581051
1602000000.0 0.1850325384 0.8739840005
1611950000.0 0.5720870445 0.7078550291
1621900000.0 0.8306129259 0.3958578096
1631850000.0 0.9199500252 0.0108855209
1641800000.0 0.8331125846 -0.3714213421
1651750000.0 0.5858206208 -0.6808301903
1661700000.0 0.2178194678 -0.8554975984
1671650000.0 -0.2057453781 -0.8455834275
1681600000.0 -0.5904817872 -0.63132097
1691550000.0 -0.8313406241 -0.2475487665
1701500000.0 -0.8532949769 0.2081449052
1711450000.0 -0.651508618 0.6066951788
1721400000.0 -0.2960236872 0.8502887817
1731350000.0 0.1120392137 0.8979269203
1741300000.0 0.4826087018 0.7647267793
1751250000.0 0.7535674515 0.4926346439
1761200000.0 0.8840967132 0.1313739828
1771150000.0 0.8473021321 -0.2612482166
1781100000.0 0.6309119082 -0.6135645596
1791050000.0 0.2561192944 -0.8369578688
1801000000.0 -0.200278511 -0.8498993516
1810950000.0 -0.6093850149 -0.6264404859
1820900000.0 -0.8452655498 -0.2329166651
1830850000.0 -0.8566870137 0.2051476881
1840800000.0 -0.6747292766 0.5746747686
1850750000.0 -0.3678331331 0.8116244793
1860700000.0 -0.0043352552 0.89531375
1870650000.0 0.3587296124 0.8230852986
1880600000.0 0.6667173516 0.6000120242
1890550000.0 0.8575771455 0.2458240751
1900500000.0 0.8632570743 -0.1873372316
1910450000.0 0.6406506997 -0.5902338962
1920400000.0 0.2304035525 -0.8286537376
1930350000.0 -0.2373739129 -0.8224141443
1940300000.0 -0.6194833662 -0.5977801953
1950250000.0 -0.836483156 -0.2484465093
1960200000.0 -0.8771130961 0.1319084047
1970150000.0 -0.7626945068 0.478108531
1980100000.0 -0.5206581991 0.7451764663
1990050000.0 -0.1790764969 0.892753615
2000000000.0 0.216984747 0.8762890417
