!Created with skrf (http://scikit-rf.org).
# GHz S RI R 50.0 
!freq ReS11 ImS11
10000000.0 -0.9710880634 0.0682759442
19950000.0 -0.9618207634 0.1328642488
29900000.0 -0.9472879949 0.2013647708
39850000.0 -0.9259472369 0.2750782616
49800000.0 -0.8946250163 0.3563520823
59750000.0 -0.8504382243 0.4465024895
69700000.0 -0.7882117542 0.5458231294
79650000.0 -0.7010151384 0.6549534592
89600000.0 -0.5773201193 0.7691939516
99550000.0 -0.4050318935 0.8771145717
109500000.0 -0.174609986 0.95588268
119450000.0 0.1107962619 0.9697283411
129400000.0 0.4194523696 0.8842623739
139350000.0 0.6898464099 0.695624634
149300000.0 0.8799776841 0.426687023
159250000.0 0.9651521685 0.13698563
169200000.0 0.9606304001 -0.1273776446
179150000.0 0.8981860564 -0.34147732
189100000.0 0.808667129 -0.5029287707
199050000.0 0.7126710311 -0.6207325174
209000000.0 0.6194671583 -0.7056422463
218950000.0 0.5333416861 -0.7673817014
228900000.0 0.4549858754 -0.8126326467
238850000.0 0.3816753087 -0.8456907718
248800000.0 0.3136467532 -0.8663908856
258750000.0 0.2444218069 -0.8843253378
268700000.0 0.1768816009 -0.8943068621
278650000.0 0.1078697818 -0.8978898285
288600000.0 0.0359787419 -0.8950179809
298550000.0 -0.0400475083 -0.8830742476
308500000.0 -0.1225287778 -0.8591948239
318450000.0 -0.2106860341 -0.8174594557
328400000.0 -0.3002867065 -0.7515388048
338350000.0 -0.3840456352 -0.6569811944
348300000.0 -0.4494254644 -0.5327412218
358250000.0 -0.4807565142 -0.3851969569
368200000.0 -0.4676581438 -0.2305704214
378150000.0 -0.4104428616 -0.0908949424
388100000.0 -0.3214996159 0.0170713153
398050000.0 -0.2195570995 0.0863535206
408000000.0 -0.1197399142 0.1218038918
417950000.0 -0.0327040882 0.1311963078
427900000.0 0.0371492371 0.1236231832
437850000.0 0.0891338568 0.1055976302
447800000.0 0.1244368663 0.0827641801
457750000.0 0.1457639436 0.0587035066
467700000.0 0.1557303176 0.0365302389
477650000.0 0.1561969816 0.0168973875
487600000.0 0.1497315486 0.001425881
497550000.0 0.1377944846 -0.0121360042
507500000.0 0.120443786 -0.0181047815
517450000.0 0.1000938009 -0.0201115553
527400000.0 0.077424766 -0.0179185648
537350000.0 0.0540614353 -0.0114647651
547300000.0 0.0321260393 -0.0010536481
557250000.0 0.0101226417 0.0119989551
567200000.0 -0.009567279 0.0285831666
577150000.0 -0.0264669193 0.0473811753
587100000.0 -0.0403746246 0.0679702608
597050000.0 -0.0509553554 0.0887205184
607000000.0 -0.0581373377 0.1094873077
616950000.0 -0.0623206017 0.1285377473
626900000.0 -0.0628698348 0.1460791151
636850000.0 -0.0593340087 0.1615852588
646800000.0 -0.0524054338 0.1744057246
656750000.0 -0.0427117979 0.1848776899
666700000.0 -0.0299551845 0.1925939375
676650000.0 -0.0159345447 0.1969173088
686600000.0 0.0001969948 0.197603875
696550000.0 0.0178467898 0.1940787641
706500000.0 0.0367486503 0.1851092548
716450000.0 0.0570547326 0.170947571
726400000.0 0.0783421067 0.1515933411
736350000.0 0.0991042573 0.1270211509
746300000.0 0.1181770563 0.098577665
756250000.0 0.1344947733 0.0651687244
766200000.0 0.1463395223 0.0277155583
776150000.0 0.1526624217 -0.0138388078
786100000.0 0.1527886932 -0.0583070869
796050000.0 0.1463211767 -0.1050091878
806000000.0 0.1336255036 -0.1528565215
815950000.0 0.11517438 -0.1988121579
825900000.0 0.0909399145 -0.2411176439
835850000.0 0.0611361868 -0.2780516457
845800000.0 0.0257769544 -0.308066562
855750000.0 -0.0152755436 -0.3310987935
865700000.0 -0.0612723478 -0.3474424507
875650000.0 -0.1114000617 -0.355778668
885600000.0 -0.1644440537 -0.3558010776
895550000.0 -0.2192620777 -0.345878856
905500000.0 -0.2743536659 -0.3241048138
915450000.0 -0.3282518078 -0.2883033468
925400000.0 -0.3796791928 -0.2355119113
935350000.0 -0.4258304202 -0.1623304049
945300000.0 -0.4617447574 -0.0667051363
955250000.0 -0.4793329732 0.054952018
965200000.0 -0.4641035974 0.2017414353
975150000.0 -0.3981815082 0.3658070146
985100000.0 -0.2637216592 0.5244076494
995050000.0 -0.0568668309 0.6444913787
1005000000.0 0.2072921463 0.6830441105
1014950000.0 0.4775822173 0.6105269833
1024900000.0 0.6965338005 0.4393821856
1034850000.0 0.8261666604 0.2115303827
1044800000.0 0.8649658527 -0.025869031
1054750000.0 0.8313254525 -0.2391524703
1064700000.0 0.7545759572 -0.4157667042
1074650000.0 0.6424770023 -0.5561824535
1084600000.0 0.5117143371 -0.6559558259
1094550000.0 0.3719488448 -0.7225747353
1104500000.0 0.2276138837 -0.7581038992
1114450000.0 0.0825940982 -0.7656422473
1124400000.0 -0.0580441885 -0.7462139575
1134350000.0 -0.1867161082 -0.7011050128
1144300000.0 -0.2984423744 -0.6359468091
1154250000.0 -0.3902000345 -0.556088815
1164200000.0 -0.4606644662 -0.4688949668
1174150000.0 -0.515976466 -0.3799773142
1184100000.0 -0.558567376 -0.2882469121
1194050000.0 -0.5872044399 -0.1973661274
1204000000.0 -0.6027001608 -0.1123434747
1213950000.0 -0.6073112853 -0.0353816313
1223900000.0 -0.6041223623 0.0321855104
1233850000.0 -0.5954022707 0.090511577
1243800000.0 -0.5830979609 0.140449391
1253750000.0 -0.5698031091 0.1845547812
1263700000.0 -0.5555139477 0.2258335552
1273650000.0 -0.541760898 0.2623228346
1283600000.0 -0.5282385494 0.2951407366
1293550000.0 -0.5158569898 0.322672046
1303500000.0 -0.5046749232 0.3448212077
1313450000.0 -0.4947178176 0.3625414241
1323400000.0 -0.4854753577 0.3765895507
1333350000.0 -0.4759452312 0.3887353641
1343300000.0 -0.4667444485 0.4016555431
1353250000.0 -0.4577210464 0.4147528125
1363200000.0 -0.4483044174 0.4287900409
1373150000.0 -0.4375360092 0.4415445671
1383100000.0 -0.4260595173 0.4527139408
1393050000.0 -0.4143124786 0.46129234
1403000000.0 -0.4011917869 0.4669825248
1412950000.0 -0.3875448141 0.4705989887
1422900000.0 -0.3728579127 0.47354262
1432850000.0 -0.3573108849 0.4768130552
1442800000.0 -0.3404870852 0.4819699895
1452750000.0 -0.3225891112 0.4888528675
1462700000.0 -0.3017391655 0.4967046075
1472650000.0 -0.2786267557 0.5041873886
1482600000.0 -0.2532425102 0.510493407
1492550000.0 -0.2252770892 0.5145835878
1502500000.0 -0.1944723773 0.5171064244
1512450000.0 -0.161272631 0.518060859
1522400000.0 -0.1256344493 0.5178057351
1532350000.0 -0.0879906373 0.5159527925
1542300000.0 -0.0476888857 0.512648324
1552250000.0 -0.0057755063 0.5072865737
1562200000.0 0.0365500454 0.4999168186
1572150000.0 0.0786227614 0.491094558
1582100000.0 0.1213690249 0.4805647333
1592050000.0 0.16411106 0.4684211455
1602000000.0 0.2055973687 0.4543907765
1611950000.0 0.2463660112 0.4388658589
1621900000.0 0.2855056948 0.4213748928
1631850000.0 0.3223862255 0.401539702
1641800000.0 0.3568299635 0.3797974829
1651750000.0 0.3889528125 0.3564147587
1661700000.0 0.418578433 0.333138498
1671650000.0 0.4460056244 0.3111959719
1681600000.0 0.4703298993 0.2914339272
1691550000.0 0.4920634985 0.2740676141
1701500000.0 0.5109331101 0.2590557602
1711450000.0 0.5271813656 0.2457115931
1721400000.0 0.5408490214 0.2336255329
1731350000.0 0.5520089474 0.2219547229
1741300000.0 0.5618952009 0.2112880479
1751250000.0 0.5700633819 0.2021852791
1761200000.0 0.5763349644 0.1944267363
1771150000.0 0.5801189805 0.1891548968
1781100000.0 0.5816068437 0.1856111861
1791050000.0 0.5807584835 0.1845105336
1801000000.0 0.5784234582 0.1841188476
1810950000.0 0.5749493962 0.1837306603
1820900000.0 0.5710632229 0.1827850932
1830850000.0 0.5672606752 0.18052418
1840800000.0 0.5630139735 0.1778636795
1850750000.0 0.556609922 0.1744646726
1860700000.0 0.5466766989 0.1707727869
1870650000.0 0.5326244559 0.1673389288
1880600000.0 0.5139555229 0.1643173459
1890550000.0 0.4908233311 0.1614204035
1900500000.0 0.4643052694 0.1576489157
1910450000.0 0.4355294234 0.1519897681
1920400000.0 0.4051885392 0.1448176985
1930350000.0 0.3735777611 0.1355252275
1940300000.0 0.3382362331 0.1237988411
1950250000.0 0.2982374286 0.1099764615
1960200000.0 0.2508582407 0.0947025371
1970150000.0 0.1939133862 0.0778875482
1980100000.0 0.1243916989 0.061244624
1990050000.0 0.0380123261 0.0457558758
2000000000.0 -0.0731748196 0.0379102125
