!Created with skrf (http://scikit-rf.org).
# GHz S RI R 50.0 
!freq ReS11 ImS11
10000000.0 -0.8118659568 0.6097887667
19950000.0 -0.2915506202 0.9518890996
29900000.0 0.3267324752 0.9260757288
39850000.0 0.8180815113 0.5410916523
49800000.0 0.9892906238 -0.0716965678
59750000.0 0.7466836566 -0.6780220983
69700000.0 0.1605532503 -1.006169198
79650000.0 -0.516232517 -0.871643129
89600000.0 -0.9442626616 -0.3078038861
99550000.0 -0.8784212407 0.4168489951
109500000.0 -0.3122494731 0.9131552325
119450000.0 0.4711627888 0.8566510672
129400000.0 0.9728303442 0.2191253278
139350000.0 0.8018491181 -0.6052640742
149300000.0 0.0560992466 -0.9844205195
159250000.0 -0.6925495578 -0.6630980349
169200000.0 -0.9425598432 0.0800535132
179150000.0 -0.5922761515 0.7479194601
189100000.0 0.101494136 0.9672498931
199050000.0 0.7320704139 0.6572099482
209000000.0 0.9768641168 0.0225187455
218950000.0 0.7535960349 -0.5897684153
228900000.0 0.2076396997 -0.9125166491
238850000.0 -0.4107086586 -0.8282530435
248800000.0 -0.6291347779 -0.348527869
258750000.0 -0.9231018911 0.1805993984
268700000.0 -0.6286857861 0.7146115658
278650000.0 -0.0712784191 0.9456674685
288600000.0 0.5030101984 0.7783466162
298550000.0 0.8431412527 0.2952334774
308500000.0 0.8085199594 -0.2887787947
318450000.0 0.4180485338 -0.716758249
328400000.0 -0.1493700327 -0.7923458694
338350000.0 -0.6127408939 -0.4786622724
348300000.0 -0.7277021292 0.0444451654
358250000.0 -0.458539771 0.4651433032
368200000.0 -0.0146685131 0.5564763336
378150000.0 0.3154027894 0.3305095032
388100000.0 0.3697321737 -0.0106209709
398050000.0 0.1911271653 -0.2382308161
408000000.0 -0.0446732653 -0.2525829311
417950000.0 -0.1803426306 -0.1150610611
427900000.0 -0.1662307636 0.0444483159
437850000.0 -0.0558526501 0.1237910429
447800000.0 0.0581445201 0.0996677375
457750000.0 0.1096651475 0.0135647767
467700000.0 0.0851161023 -0.0696524306
477650000.0 0.0182001382 -0.1000822193
487600000.0 -0.0381345144 -0.0710972127
497550000.0 0.0103239405 -0.0517081366
507500000.0 -0.0589971841 0.0066470968
517450000.0 -0.0167146626 0.0260074202
527400000.0 0.009647947 0.0087249808
537350000.0 0.0040572823 -0.0170714094
547300000.0 -0.029891196 -0.0254912627
557250000.0 -0.0597146625 0.008110964
567200000.0 -0.0558715509 0.0599620076
577150000.0 -0.0111584703 0.1016073301
587100000.0 0.0596742229 0.102942084
597050000.0 0.1222970152 0.0505614633
607000000.0 0.140255708 -0.0385015602
616950000.0 0.0951021932 -0.1275467781
626900000.0 0.0015019665 -0.1745560998
636850000.0 -0.1061725431 -0.1542202291
646800000.0 -0.1798246854 -0.07305349
656750000.0 -0.1872591968 0.0377743737
666700000.0 -0.1225817622 0.1297353014
676650000.0 -0.0139601653 0.1606033202
686600000.0 0.0906025269 0.1159322873
696550000.0 0.1429630045 0.0179042464
706500000.0 0.1213998962 -0.0859028658
716450000.0 0.0421252964 -0.1455818469
726400000.0 -0.0508391691 -0.1331021476
736350000.0 -0.1025580828 -0.0587828684
746300000.0 -0.0830493791 0.0320934232
756250000.0 0.0024026302 0.0833128111
766200000.0 0.1051888561 0.0571059016
776150000.0 0.1626340755 -0.0405450919
786100000.0 0.1324072631 -0.1595956917
796050000.0 0.0157762991 -0.2291142447
806000000.0 -0.1342953066 -0.194974483
815950000.0 -0.2370712244 -0.0537005854
825900000.0 -0.2243891473 0.1410964896
835850000.0 -0.0812897374 0.2970768028
845800000.0 0.1407738022 0.332501131
855750000.0 0.3451295293 0.2166194918
865700000.0 0.4343073912 -0.0099238523
875650000.0 0.3582003573 -0.2477078639
885600000.0 0.1460256233 -0.3973991273
895550000.0 -0.1290368506 -0.3868074983
905500000.0 -0.3511877904 -0.2006706046
915450000.0 -0.4114438766 0.0917044362
925400000.0 -0.2715280257 0.3601910301
935350000.0 0.0108326872 0.4769717271
945300000.0 0.3030078606 0.3767525353
955250000.0 0.4549531446 0.0948652558
965200000.0 0.3639890713 -0.2284398621
975150000.0 0.0492840303 -0.4040028562
985100000.0 -0.3195584796 -0.2835693136
995050000.0 -0.4787140178 0.1030341902
1005000000.0 -0.2606008772 0.4986421522
1014950000.0 0.2257713999 0.5774098379
1024900000.0 0.628802219 0.2100519089
1034850000.0 0.5900883451 -0.3960215622
1044800000.0 0.0385100287 -0.7720736696
1054750000.0 -0.6283806614 -0.5468386509
1064700000.0 -0.8212720166 0.0958779339
1074650000.0 -0.5867778492 0.6268356319
1084600000.0 0.0101801263 0.856161626
1094550000.0 0.5635792318 0.6017017874
1104500000.0 0.795765515 0.0196190261
1114450000.0 0.5294910201 -0.5492658158
1124400000.0 -0.0526814839 -0.7281749394
1134350000.0 -0.5388068895 -0.4359317219
1144300000.0 -0.6479041854 0.0660492118
1154250000.0 -0.397726103 0.4563521244
1164200000.0 0.0149465419 0.569610594
1174150000.0 0.3944018446 0.3701231921
1184100000.0 0.5160167162 -0.038431552
1194050000.0 0.3124034531 -0.4021986227
1204000000.0 -0.0707869751 -0.5127549214
1213950000.0 -0.4095358867 -0.3450963567
1223900000.0 -0.5556735469 -0.0172886183
1233850000.0 -0.4724414101 0.3222377661
1243800000.0 -0.20130952 0.5432369517
1253750000.0 0.1570397104 0.5566204885
1263700000.0 0.4579080608 0.3423487451
1273650000.0 0.5676107415 -0.0163158717
1283600000.0 0.4410991617 -0.3675784118
1293550000.0 0.144285213 -0.5762245216
1303500000.0 -0.2049486749 -0.5857780865
1313450000.0 -0.4972019211 -0.4123276128
1323400000.0 -0.6531584431 -0.113122308
1333350000.0 -0.62517362 0.22908791
1343300000.0 -0.4056946668 0.5115203972
1353250000.0 -0.0516985951 0.625220154
1363200000.0 0.3137428602 0.5148283743
1373150000.0 0.5525873338 0.2172899151
1383100000.0 0.5863737286 -0.1519886615
1393050000.0 0.4251615423 -0.4677061224
1403000000.0 0.1343884807 -0.6445013172
1412950000.0 -0.1969115772 -0.6433138896
1422900000.0 -0.476713994 -0.4684226817
1432850000.0 -0.6196254305 -0.1654562421
1442800000.0 -0.5724592235 0.1742848977
1452750000.0 -0.3420187402 0.4374178489
1462700000.0 -0.0019621921 0.5319463161
1472650000.0 0.3302273512 0.42649668
1482600000.0 0.5430176941 0.1646643823
1492550000.0 0.5761240434 -0.1569217455
1502500000.0 0.4330527962 -0.432696054
1512450000.0 0.1655599596 -0.5797605527
1522400000.0 -0.1398584571 -0.5494670465
1532350000.0 -0.3768499185 -0.3451094771
1542300000.0 -0.4533036215 -0.0343469641
1552250000.0 -0.3323142223 0.2631707038
1562200000.0 -0.0638741311 0.4276870677
1572150000.0 0.2368879786 0.4000937333
1582100000.0 0.4503755099 0.207000361
1592050000.0 0.5016117302 -0.0644732735
1602000000.0 0.3794750801 -0.3091505644
1611950000.0 0.1310216274 -0.4335457704
1621900000.0 -0.1515269849 -0.3831126752
1631850000.0 -0.3539138404 -0.165276905
1641800000.0 -0.3813984345 0.1368494885
1651750000.0 -0.2171876046 0.3917541538
1661700000.0 0.0639490704 0.4887884481
1671650000.0 0.3385898638 0.3963880999
1681600000.0 0.5003114441 0.1649859194
1691550000.0 0.5066273888 -0.1103092644
1701500000.0 0.3614320729 -0.3638321105
1711450000.0 0.0774318172 -0.4996144285
1721400000.0 -0.2503485793 -0.4413765519
1731350000.0 -0.4881120018 -0.194734881
1741300000.0 -0.534362534 0.1450783983
1751250000.0 -0.3778534669 0.4426297507
1761200000.0 -0.0905926299 0.5948704134
1771150000.0 0.2234522269 0.5687690312
1781100000.0 0.4734840774 0.3866843999
1791050000.0 0.5956778009 0.1006248581
1801000000.0 0.5506979235 -0.2157277585
1810950000.0 0.3354847815 -0.4689368767
1820900000.0 0.0049289563 -0.5630936664
1830850000.0 -0.3235617584 -0.4520619343
1840800000.0 -0.5272979437 -0.1803613907
1850750000.0 -0.5470972222 0.1425325398
1860700000.0 -0.4034767533 0.4093039784
1870650000.0 -0.1595215624 0.5578609753
1880600000.0 0.1139154274 0.5644585321
1890550000.0 0.3487940103 0.434286957
1900500000.0 0.4816982042 0.1991135743
1910450000.0 0.466070441 -0.0728919613
1920400000.0 0.3014660825 -0.2897317192
1930350000.0 0.0515998406 -0.3735520731
1940300000.0 -0.1848460613 -0.310525449
1950250000.0 -0.3328665115 -0.149895958
1960200000.0 -0.3677442688 0.0361166756
1970150000.0 -0.308341123 0.1856852415
1980100000.0 -0.1976602376 0.2599245161
1990050000.0 -0.0907807668 0.2526258885
2000000000.0 -0.0344188718 0.1939598224
