!Created with skrf (http://scikit-rf.org).
# GHz S RI R 50.0 
!freq ReS11 ImS11
10000000.0 -0.7388134602 0.6747374435
19950000.0 -0.1015690767 0.981302728
29900000.0 0.5788926513 0.7897300331
39850000.0 0.9627294125 0.1842396302
49800000.0 0.8321582755 -0.5332372393
59750000.0 0.2322885976 -0.9712748817
69700000.0 -0.5144167723 -0.8598772248
79650000.0 -0.9649003492 -0.2394578508
89600000.0 -0.8230806939 0.5292768035
99550000.0 -0.1416341978 0.9540196321
109500000.0 0.6528882367 0.7050405067
119450000.0 0.9646298044 -0.1035591029
129400000.0 0.4820819117 -0.8557256207
139350000.0 -0.42109694 -0.8874354922
149300000.0 -0.9510291385 -0.1682075381
159250000.0 -0.6795520846 0.6590912501
169200000.0 0.1243310425 0.9309305437
179150000.0 0.8168296565 0.4763607545
189100000.0 0.8999714755 -0.3266821699
199050000.0 0.3594529494 -0.893098698
209000000.0 -0.3961428393 -0.8689843827
218950000.0 -0.8810317548 -0.3260692775
228900000.0 -0.8431309177 0.3809469233
238850000.0 -0.3311432584 0.8563787466
248800000.0 0.3733776458 0.6840342366
258750000.0 0.8397766395 0.3950318819
268700000.0 0.8845149878 -0.2937191119
278650000.0 0.4419264377 -0.811206461
288600000.0 -0.2262846999 -0.8744256569
298550000.0 -0.743986757 -0.4620257814
308500000.0 -0.8255019277 0.1860544091
318450000.0 -0.428381125 0.695815977
328400000.0 0.2050577239 0.7610408447
338350000.0 0.6652241922 0.3448340738
348300000.0 0.6497881973 -0.246559201
358250000.0 0.2173601385 -0.5809469449
368200000.0 -0.2621161497 -0.4658710339
378150000.0 -0.4440101488 -0.0749769444
388100000.0 -0.2720398926 0.2534356358
398050000.0 0.0396806426 0.3072966063
408000000.0 0.2287479477 0.1272206244
417950000.0 0.1969924322 -0.0909823166
427900000.0 0.0326502674 -0.1835178602
437850000.0 -0.1115019817 -0.1198167061
447800000.0 -0.1446369188 0.0143047786
457750000.0 -0.0729245714 0.1115792194
467700000.0 0.0300338992 0.1160713645
477650000.0 0.0889482357 0.0531087207
487600000.0 0.0775098994 -0.0178681241
497550000.0 0.0936647653 -0.011868904
507500000.0 -0.0014579687 -0.0657707927
517450000.0 -0.0212320915 -0.0338962678
527400000.0 -0.0137453198 -0.0214139499
537350000.0 -0.0106102643 -0.0329843973
547300000.0 -0.0340835973 -0.0507537187
557250000.0 -0.0782018277 -0.0327542858
567200000.0 -0.1026177861 0.0254709413
577150000.0 -0.0765549934 0.0933135658
587100000.0 0.0066238263 0.1283538928
597050000.0 0.1028558432 0.1003096344
607000000.0 0.1558902267 0.0017627817
616950000.0 0.1311505348 -0.1172866535
626900000.0 0.0297519479 -0.1911670947
636850000.0 -0.0997256814 -0.1766451648
646800000.0 -0.1895949282 -0.0781439933
656750000.0 -0.1859662552 0.0528660464
666700000.0 -0.0938395039 0.1485609438
676650000.0 0.0346088798 0.1538372264
686600000.0 0.1281129065 0.0694555862
696550000.0 0.1366845752 -0.0509466973
706500000.0 0.0617844253 -0.134073655
716450000.0 -0.0422172326 -0.1323331791
726400000.0 -0.1038837981 -0.0580533992
736350000.0 -0.0778673673 0.0315441389
746300000.0 0.0114960994 0.0622126693
756250000.0 0.0937739454 0.0037836045
766200000.0 0.0948362885 -0.1078430922
776150000.0 -0.0038254735 -0.1890085601
786100000.0 -0.1456365237 -0.1625193382
796050000.0 -0.2327116417 -0.0223204482
806000000.0 -0.1852547784 0.1605444923
815950000.0 -0.0052371508 0.2661766347
825900000.0 0.2191814981 0.2093268785
835850000.0 0.3513002328 0.0010308276
845800000.0 0.3003801455 -0.2569240905
855750000.0 0.0769881969 -0.4176075832
865700000.0 -0.207094001 -0.3813125988
875650000.0 -0.4002976668 -0.1527217473
885600000.0 -0.381186551 0.1580649231
895550000.0 -0.1471687133 0.3782646487
905500000.0 0.1829074066 0.3714705618
915450000.0 0.4143321081 0.1294463255
925400000.0 0.4006074208 -0.2093739891
935350000.0 0.1381993846 -0.4280206443
945300000.0 -0.2030431647 -0.3621691956
955250000.0 -0.3391201858 -0.0662630168
965200000.0 -0.2293791306 0.2120713915
975150000.0 0.1007505272 0.3197167904
985100000.0 0.4035816118 0.0540552909
995050000.0 0.3016065886 -0.3963042914
1005000000.0 -0.204989301 -0.5418170055
1014950000.0 -0.6338672495 -0.1270394196
1024900000.0 -0.4896025165 0.5176887289
1034850000.0 0.1777400416 0.7567408828
1044800000.0 0.7629835192 0.3238019398
1054750000.0 0.7514165567 -0.3954688575
1064700000.0 0.2056051612 -0.7797412271
1074650000.0 -0.382773358 -0.7142423179
1084600000.0 -0.781993936 -0.1942955943
1094550000.0 -0.6310641029 0.4488901019
1104500000.0 -0.0502069042 0.738240335
1114450000.0 0.5194270776 0.4771534219
1124400000.0 0.6626659308 -0.0954263361
1134350000.0 0.334451484 -0.5338141812
1144300000.0 -0.1740234103 -0.5631547842
1154250000.0 -0.5040209261 -0.2140304088
1164200000.0 -0.4489197176 0.2426048638
1174150000.0 -0.0709139234 0.4783199063
1184100000.0 0.33604172 0.3370219777
1194050000.0 0.4828510778 -0.0549758905
1204000000.0 0.2935759786 -0.41105679
1213950000.0 -0.08488085 -0.5212092821
1223900000.0 -0.4275799362 -0.3348167651
1233850000.0 -0.5505688503 0.0361608415
1243800000.0 -0.3844620114 0.3976320401
1253750000.0 -0.0128963457 0.5522480919
1263700000.0 0.369166331 0.4160803677
1273650000.0 0.56605082 0.0631285257
1283600000.0 0.4899651097 -0.3285593094
1293550000.0 0.190969726 -0.5835230611
1303500000.0 -0.1998990935 -0.6001563168
1313450000.0 -0.5208439462 -0.3742764934
1323400000.0 -0.6383488172 0.0079671894
1333350000.0 -0.4883864913 0.3866051066
1343300000.0 -0.1261466355 0.5910264039
1353250000.0 0.2866027128 0.5174987227
1363200000.0 0.5589170444 0.2023824129
1373150000.0 0.5750110679 -0.2040259872
1383100000.0 0.345916882 -0.5290740192
1393050000.0 -0.0248591469 -0.6479337546
1403000000.0 -0.388403437 -0.5219550277
1412950000.0 -0.6024753348 -0.2025483537
1422900000.0 -0.5768969687 0.1835481635
1432850000.0 -0.3137386471 0.4706914319
1442800000.0 0.0704363562 0.529117944
1452750000.0 0.399935085 0.3365114294
1462700000.0 0.5349178175 -0.010834391
1472650000.0 0.427342339 -0.3582431167
1482600000.0 0.1343920008 -0.5573061254
1492550000.0 -0.2109812919 -0.531903263
1502500000.0 -0.4617091401 -0.2965724517
1512450000.0 -0.5031441221 0.0425258189
1522400000.0 -0.3126052391 0.3278613877
1532350000.0 0.0170190093 0.4134997485
1542300000.0 0.3118967322 0.2574601273
1552250000.0 0.420899556 -0.0456805119
1562200000.0 0.3004552195 -0.3324924444
1572150000.0 0.0282340218 -0.4587795947
1582100000.0 -0.2527812055 -0.3705877418
1592050000.0 -0.3990562381 -0.117883352
1602000000.0 -0.3318604636 0.1719598033
1611950000.0 -0.0791092362 0.334381313
1621900000.0 0.2177278799 0.2718701434
1631850000.0 0.3849057172 0.0184747382
1641800000.0 0.3279516691 -0.2797670318
1651750000.0 0.0827143024 -0.4567502719
1661700000.0 -0.2213347683 -0.4242641026
1671650000.0 -0.433395547 -0.1950401804
1681600000.0 -0.4436489022 0.1275505527
1691550000.0 -0.2315012101 0.3874648353
1701500000.0 0.1113432666 0.440189711
1711450000.0 0.4038159239 0.2434619564
1721400000.0 0.4693408963 -0.0929119493
1731350000.0 0.378618868 -0.3544762357
1741300000.0 0.0838375077 -0.5608472554
1751250000.0 -0.2706904588 -0.5130481658
1761200000.0 -0.5193449597 -0.2595589997
1771150000.0 -0.5642232868 0.0974551776
1781100000.0 -0.3792379902 0.41306895
1791050000.0 -0.0309736799 0.5492012082
1801000000.0 0.3292753072 0.4339207336
1810950000.0 0.5336115739 0.1164238858
1820900000.0 0.4927247663 -0.2512520588
1830850000.0 0.2410329647 -0.5070866092
1840800000.0 -0.1026209535 -0.5586943804
1850750000.0 -0.4004897866 -0.4022050258
1860700000.0 -0.5480082766 -0.1063452429
1870650000.0 -0.4932382098 0.2148907801
1880600000.0 -0.2579477921 0.4364257224
1890550000.0 0.0598261311 0.4659508438
1900500000.0 0.3173893529 0.2945048594
1910450000.0 0.407630058 0.0132978548
1920400000.0 0.3087664827 -0.2454149011
1930350000.0 0.0930246833 -0.3778593011
1940300000.0 -0.1348088361 -0.3554575183
1950250000.0 -0.2844271773 -0.2179967751
1960200000.0 -0.3131956774 -0.0451529833
1970150000.0 -0.2425224903 0.0781488441
1980100000.0 -0.1445216799 0.1123324785
1990050000.0 -0.0962236933 0.0836391346
2000000000.0 -0.1109658493 0.0814230591
