!Created with skrf (http://scikit-rf.org).
# GHz S RI R 50.0 
!freq ReS11 ImS11
10000000.0 -1.015410603 0.0153143137
19950000.0 -1.001991277 0.0239626327
29900000.0 -0.9891542858 0.0333431569
39850000.0 -0.9786643831 0.0477435597
49800000.0 -0.9735943927 0.0624055272
59750000.0 -0.9735459677 0.0767033941
69700000.0 -0.9790344699 0.0897904538
79650000.0 -0.9856157249 0.0987986373
89600000.0 -0.9907132934 0.1044436222
99550000.0 -0.9886196798 0.1076521011
109500000.0 -0.9800023946 0.1110845478
119450000.0 -0.968400982 0.1164853428
129400000.0 -0.9572881262 0.1244663201
139350000.0 -0.949859984 0.1356490093
149300000.0 -0.9457531772 0.1483856711
159250000.0 -0.9478926949 0.1618051175
169200000.0 -0.9536035166 0.1730926672
179150000.0 -0.9599641619 0.1807726777
189100000.0 -0.9623368592 0.1854725875
199050000.0 -0.9590794005 0.187561471
209000000.0 -0.9496555793 0.1887064328
218950000.0 -0.9384752194 0.1944074193
228900000.0 -0.9283903161 0.2021126766
238850000.0 -0.9211208499 0.2125160338
248800000.0 -0.9201140108 0.2244297708
258750000.0 -0.9228580613 0.2370965796
268700000.0 -0.9285373968 0.2472335515
278650000.0 -0.9331290846 0.2541782064
288600000.0 -0.9336596847 0.2581519268
298550000.0 -0.9277624786 0.259999919
308500000.0 -0.9178398218 0.2621530195
318450000.0 -0.9065433602 0.266591542
328400000.0 -0.8981908959 0.2741118744
338350000.0 -0.8931783316 0.2842600077
348300000.0 -0.8927684215 0.2955716415
358250000.0 -0.8964238381 0.3072928606
368200000.0 -0.9018418209 0.3153907893
378150000.0 -0.9051010179 0.3214227261
388100000.0 -0.9030798562 0.3240318537
398050000.0 -0.8955569607 0.3259966608
408000000.0 -0.8849081135 0.3291570606
417950000.0 -0.8740052559 0.3346246347
427900000.0 -0.8655850325 0.3431081868
437850000.0 -0.8623555983 0.3538057479
447800000.0 -0.8631530569 0.3650392542
457750000.0 -0.8676751568 0.375079147
467700000.0 -0.8721721996 0.3814445685
477650000.0 -0.8737482888 0.3850903702
487600000.0 -0.869836782 0.3856303094
497550000.0 -0.8607657047 0.3861817607
507500000.0 -0.8503658632 0.3886360945
517450000.0 -0.8391756554 0.3944582388
527400000.0 -0.8320508088 0.4039542486
537350000.0 -0.8294687254 0.4173063015
547300000.0 -0.8307762494 0.4278947357
557250000.0 -0.8343589937 0.4378878992
567200000.0 -0.8379109449 0.4440931119
577150000.0 -0.8373388275 0.4466229343
587100000.0 -0.8317531176 0.4462534623
597050000.0 -0.8217369231 0.4456328892
607000000.0 -0.811721076 0.4478403269
616950000.0 -0.8024544624 0.4534655435
626900000.0 -0.7970486212 0.4630935933
636850000.0 -0.7956914743 0.4738140652
646800000.0 -0.7977745134 0.4848334503
656750000.0 -0.8014315811 0.4945741198
666700000.0 -0.8029006747 0.4998659511
676650000.0 -0.8001484724 0.5020530271
686600000.0 -0.7928431219 0.5017736588
696550000.0 -0.781906154 0.5027981994
706500000.0 -0.7699342067 0.5059460514
716450000.0 -0.7619524159 0.5136348848
726400000.0 -0.7578254923 0.5231365539
736350000.0 -0.7576024576 0.5343671246
746300000.0 -0.7607562348 0.5444119026
756250000.0 -0.7639317017 0.5515179589
766200000.0 -0.7653190494 0.5551756187
776150000.0 -0.7601896171 0.5565743434
786100000.0 -0.7514964269 0.5547127255
796050000.0 -0.7394946566 0.5560486118
806000000.0 -0.727709385 0.5625760581
815950000.0 -0.7186001218 0.5714707299
825900000.0 -0.7152812729 0.5831211057
835850000.0 -0.7159174553 0.5947366762
845800000.0 -0.7190891007 0.604056467
855750000.0 -0.7226456867 0.6095301862
865700000.0 -0.7227960314 0.610197978
875650000.0 -0.7175056718 0.6083388422
885600000.0 -0.7075158177 0.6063764257
895550000.0 -0.6955920207 0.6076844522
905500000.0 -0.6827327857 0.6140730646
915450000.0 -0.674740808 0.6246771698
925400000.0 -0.6710908948 0.6373288458
935350000.0 -0.6709232648 0.6496200966
945300000.0 -0.6731892491 0.6589498214
955250000.0 -0.6745288402 0.6635146793
965200000.0 -0.6723900755 0.6628853323
975150000.0 -0.6667066256 0.6593290841
985100000.0 -0.6565011015 0.6556998507
995050000.0 -0.6445009894 0.6556838318
1005000000.0 -0.6348733956 0.6620659909
1014950000.0 -0.6266332706 0.6722742893
1024900000.0 -0.6246245529 0.6854952353
1034850000.0 -0.6244009832 0.6979650644
1044800000.0 -0.6255389034 0.7074239772
1054750000.0 -0.6255812623 0.7109400512
1064700000.0 -0.6218276246 0.7088395871
1074650000.0 -0.6136313433 0.704777761
1084600000.0 -0.6036210026 0.7005883457
1094550000.0 -0.5930141764 0.6994485471
1104500000.0 -0.5842218099 0.7050542589
1114450000.0 -0.5801016728 0.7158896494
1124400000.0 -0.5790333094 0.7285486088
1134350000.0 -0.5795156743 0.7398109994
1144300000.0 -0.5785762182 0.7493891224
1154250000.0 -0.5752435293 0.7534912499
1164200000.0 -0.5671978122 0.7522126676
1174150000.0 -0.5556515565 0.7488842808
1184100000.0 -0.5430302367 0.7466111766
1194050000.0 -0.5313058577 0.7477921625
1204000000.0 -0.5243945816 0.7533112487
1213950000.0 -0.522187321 0.7631469315
1223900000.0 -0.5239109131 0.7740555323
1233850000.0 -0.5271460487 0.7834256488
1243800000.0 -0.5283246667 0.7899771095
1253750000.0 -0.5260567872 0.7916821908
1263700000.0 -0.5170053671 0.7900193866
1273650000.0 -0.5038950717 0.7859804105
1283600000.0 -0.4888453341 0.7846661848
1293550000.0 -0.4761553642 0.7879952282
1303500000.0 -0.4677513474 0.7958465432
1313450000.0 -0.4646387497 0.8061328033
1323400000.0 -0.4659220916 0.8175523541
1333350000.0 -0.4690345123 0.825005028
1343300000.0 -0.4688000463 0.8292304448
1353250000.0 -0.4666008974 0.828839075
1363200000.0 -0.4579628539 0.8256945672
1373150000.0 -0.4450773426 0.8218527228
1383100000.0 -0.4312609156 0.8226654955
1393050000.0 -0.4181092961 0.8274279762
1403000000.0 -0.4100675539 0.8367807155
1412950000.0 -0.4064463842 0.8476129032
1422900000.0 -0.4071390613 0.8581474196
1432850000.0 -0.4087196171 0.8632260866
1442800000.0 -0.4085845202 0.8648990922
1452750000.0 -0.4044960827 0.8626683242
1462700000.0 -0.3955911131 0.8576572182
1472650000.0 -0.3830170754 0.8539183423
1482600000.0 -0.3699281689 0.8559017687
1492550000.0 -0.3599300413 0.8630883604
1502500000.0 -0.352259069 0.8731142275
1512450000.0 -0.3492299094 0.8847582413
1522400000.0 -0.3488544975 0.893297558
1532350000.0 -0.3489571143 0.8973378352
1542300000.0 -0.3476240922 0.8962829744
1552250000.0 -0.3428137086 0.8895357227
1562200000.0 -0.3343969216 0.883111284
1572150000.0 -0.3235782614 0.8793094305
1582100000.0 -0.3120645377 0.8812790578
1592050000.0 -0.3038371259 0.8895581305
1602000000.0 -0.2962244627 0.9024695516
1611950000.0 -0.2932505085 0.9146275433
1621900000.0 -0.2908945612 0.9249166296
1631850000.0 -0.2886801331 0.9283650467
1641800000.0 -0.2830542022 0.9243536212
1651750000.0 -0.2747251182 0.9162181883
1661700000.0 -0.2636593614 0.9078790304
1671650000.0 -0.2520615455 0.9032834317
1681600000.0 -0.2428796371 0.9063850157
1691550000.0 -0.234200961 0.9142463628
1701500000.0 -0.2306590288 0.9277352104
1711450000.0 -0.2289348571 0.939942553
1721400000.0 -0.2265820001 0.9495157938
1731350000.0 -0.2221069874 0.9517042912
1741300000.0 -0.2145356127 0.9469370528
1751250000.0 -0.2038779179 0.9369463732
1761200000.0 -0.1908528253 0.928243273
1771150000.0 -0.177969993 0.9240051367
1781100000.0 -0.1673911863 0.9254957384
1791050000.0 -0.1618928363 0.9340217245
1801000000.0 -0.1600405976 0.9467125428
1810950000.0 -0.1590175213 0.9587227061
1820900000.0 -0.1591853823 0.9669005098
1830850000.0 -0.1558009014 0.9675079098
1840800000.0 -0.1474622935 0.962820047
1850750000.0 -0.1354649657 0.9542439515
1860700000.0 -0.1201841525 0.9448290339
1870650000.0 -0.1065682263 0.9410901471
1880600000.0 -0.0963562507 0.9425988335
1890550000.0 -0.0917462984 0.9514679649
1900500000.0 -0.0912725914 0.9620255641
1910450000.0 -0.0928292897 0.9707469152
1920400000.0 -0.0929234229 0.9772990197
1930350000.0 -0.0893039762 0.9773104739
1940300000.0 -0.0810190009 0.9732028028
1950250000.0 -0.0675966243 0.9660353757
1960200000.0 -0.0509568835 0.9600319712
1970150000.0 -0.0363454631 0.9579250932
1980100000.0 -0.026426089 0.9613313571
1990050000.0 -0.020943743 0.9697701351
2000000000.0 -0.0203774801 0.9794423109
