!Created with skrf (http://scikit-rf.org).
# GHz S RI R 50.0 
!freq ReS11 ImS11
10000000.0 -0.7488957345 0.5780955773
19950000.0 -0.2675204698 0.9094190755
29900000.0 0.317121282 0.890877253
39850000.0 0.7866392537 0.520181058
49800000.0 0.9443710769 -0.075199861
59750000.0 0.699540409 -0.6601384427
69700000.0 0.1307682587 -0.9688747792
79650000.0 -0.5132926517 -0.8313009788
89600000.0 -0.9166102045 -0.2829003259
99550000.0 -0.8494407206 0.4229367082
109500000.0 -0.2975643624 0.9103224713
119450000.0 0.4685664452 0.8551244661
129400000.0 0.9627839734 0.2200183987
139350000.0 0.8005254132 -0.5829446122
149300000.0 0.0779896063 -0.968624519
159250000.0 -0.6621755521 -0.668161878
169200000.0 -0.9216561801 0.0559325893
179150000.0 -0.5952344724 0.7102116233
189100000.0 0.0601049986 0.9290244994
199050000.0 0.6591341685 0.6430028575
209000000.0 0.9074847407 0.042953896
218950000.0 0.7158737413 -0.5509107039
228900000.0 0.2045628538 -0.8739760459
238850000.0 -0.3869180493 -0.7984636231
248800000.0 -0.6579958001 -0.4374751454
258750000.0 -0.8626827679 0.1757970792
268700000.0 -0.5746978162 0.6821851243
278650000.0 -0.0473282388 0.896211978
288600000.0 0.4907242756 0.7317595229
298550000.0 0.8079247307 0.2631822545
308500000.0 0.7638656581 -0.3046823108
318450000.0 0.3727167765 -0.7133257216
328400000.0 -0.180624021 -0.7683401119
338350000.0 -0.617200029 -0.4442580386
348300000.0 -0.7070298097 0.0730227091
358250000.0 -0.4271880521 0.4787646542
368200000.0 0.0156013117 0.5559425981
378150000.0 0.3385712676 0.3216446648
388100000.0 0.385255451 -0.0182682189
398050000.0 0.2062496743 -0.2427015908
408000000.0 -0.0297855728 -0.2596536237
417950000.0 -0.1725665143 -0.1250678263
427900000.0 -0.1714230699 0.0349590182
437850000.0 -0.0737992623 0.1186159973
447800000.0 0.0299814271 0.1034000886
457750000.0 0.0795581294 0.0285954731
467700000.0 0.0617378474 -0.0460537914
477650000.0 0.010641222 -0.0744392866
487600000.0 -0.0290342581 -0.0531630205
497550000.0 -0.0560768006 -0.0767557001
507500000.0 -0.0387500137 0.0121131981
517450000.0 0.0001223254 0.0196756653
527400000.0 0.0200045924 -0.0025847943
537350000.0 0.006989287 -0.0297843263
547300000.0 -0.0315919497 -0.0339294708
557250000.0 -0.0656733551 -0.0018678653
567200000.0 -0.068391386 0.0505118613
577150000.0 -0.0276914475 0.0926152067
587100000.0 0.0386130025 0.0950985776
597050000.0 0.1006675518 0.0466994425
607000000.0 0.1206471884 -0.0390752337
616950000.0 0.0821991916 -0.1231682141
626900000.0 -0.0002578856 -0.1661152112
636850000.0 -0.0936438943 -0.144959791
646800000.0 -0.1535399993 -0.0668175958
656750000.0 -0.1523539074 0.0351763735
666700000.0 -0.0892562567 0.1160002291
676650000.0 0.0074897193 0.1396258715
686600000.0 0.0983551666 0.0931778396
696550000.0 0.137095976 -0.0023260732
706500000.0 0.1044567992 -0.0977188373
716450000.0 0.020969873 -0.1468396136
726400000.0 -0.0715351329 -0.1236209557
736350000.0 -0.1159257076 -0.0398725624
746300000.0 -0.083513515 0.0552261345
756250000.0 0.0137384254 0.1047717436
766200000.0 0.1264308615 0.0726930549
776150000.0 0.1885343685 -0.0322775621
786100000.0 0.1585920123 -0.1574827318
796050000.0 0.0387748864 -0.2318528457
806000000.0 -0.1156589462 -0.2017276118
815950000.0 -0.2246400001 -0.0643297754
825900000.0 -0.2228645706 0.1259752825
835850000.0 -0.0960576246 0.2798253387
845800000.0 0.1063099004 0.3199222193
855750000.0 0.296313153 0.2190005746
865700000.0 0.3885974199 0.0117086367
875650000.0 0.3325356674 -0.2188237976
885600000.0 0.1334535752 -0.3677877449
895550000.0 -0.1269906609 -0.3519533674
905500000.0 -0.3242474476 -0.1627021191
915450000.0 -0.3557450935 0.1205802001
925400000.0 -0.1934957249 0.360672682
935350000.0 0.0897204824 0.42709445
945300000.0 0.3429876431 0.2685956165
955250000.0 0.4102920958 -0.0369718165
965200000.0 0.2084602652 -0.3121765759
975150000.0 -0.151158156 -0.3551019665
985100000.0 -0.4314503352 -0.0883921293
995050000.0 -0.3970181342 0.3421968787
1005000000.0 -0.0072032938 0.6122789632
1014950000.0 0.4977901676 0.4459347344
1024900000.0 0.7004203981 -0.1129901003
1034850000.0 0.3681461301 -0.6575862795
1044800000.0 -0.2825155465 -0.7340104696
1054750000.0 -0.7509630024 -0.2755939965
1064700000.0 -0.7300324766 0.3238791816
1074650000.0 -0.3374530317 0.7465786834
1084600000.0 0.2305381293 0.7662678763
1094550000.0 0.6501135607 0.3877281009
1104500000.0 0.6852572023 -0.18055117
1114450000.0 0.3119511801 -0.6010888973
1124400000.0 -0.2183235267 -0.6199138914
1134350000.0 -0.5719893071 -0.274688725
1144300000.0 -0.5808004043 0.186252363
1154250000.0 -0.2907372783 0.5031938581
1164200000.0 0.1146759447 0.5361981734
1174150000.0 0.4313334835 0.2914954001
1184100000.0 0.4908910602 -0.1063310678
1194050000.0 0.2611267796 -0.4263387287
1204000000.0 -0.1084160024 -0.4989415476
1213950000.0 -0.4198129216 -0.3222110961
1223900000.0 -0.551294034 -0.0039897082
1233850000.0 -0.4691318556 0.3191489749
1243800000.0 -0.2135731973 0.5286722363
1253750000.0 0.1252955122 0.5440367816
1263700000.0 0.4187741131 0.343414878
1273650000.0 0.5349728701 -0.0002597698
1283600000.0 0.4283466895 -0.3424661876
1293550000.0 0.1560421731 -0.5522829095
1303500000.0 -0.1698403607 -0.5733306479
1313450000.0 -0.4439889046 -0.4203106983
1323400000.0 -0.5970693768 -0.148367253
1333350000.0 -0.5920826241 0.1691913694
1343300000.0 -0.416894247 0.4467632226
1353250000.0 -0.1022026315 0.5840955285
1363200000.0 0.2487913307 0.5113022803
1373150000.0 0.4991381576 0.2457456806
1383100000.0 0.5567554462 -0.1080699137
1393050000.0 0.4193617195 -0.4222587809
1403000000.0 0.1526542783 -0.605399593
1412950000.0 -0.1521837529 -0.6182175919
1422900000.0 -0.409340724 -0.4713768036
1432850000.0 -0.5552954479 -0.2043818675
1442800000.0 -0.5422062565 0.1152925877
1452750000.0 -0.3518928407 0.3875247043
1462700000.0 -0.0351112918 0.5084413482
1472650000.0 0.2919862081 0.4282960384
1482600000.0 0.5082210243 0.1835314419
1492550000.0 0.5479844323 -0.1270726985
1502500000.0 0.4148548786 -0.3962406942
1512450000.0 0.1649514093 -0.5431877417
1522400000.0 -0.1201919086 -0.5250391248
1532350000.0 -0.3459749402 -0.3415826477
1542300000.0 -0.4251463824 -0.0516004185
1552250000.0 -0.3175451827 0.2349004055
1562200000.0 -0.0652876847 0.3990144833
1572150000.0 0.2213181792 0.3800032127
1582100000.0 0.4278084496 0.2014713266
1592050000.0 0.4838899187 -0.0557103108
1602000000.0 0.3748231588 -0.2931135504
1611950000.0 0.1397840301 -0.4212119476
1621900000.0 -0.1353486538 -0.3809913454
1631850000.0 -0.3391691844 -0.1743100985
1641800000.0 -0.3747159071 0.1198325917
1651750000.0 -0.2210412209 0.3718437831
1661700000.0 0.049519425 0.4729349584
1671650000.0 0.3205204708 0.3911544863
1681600000.0 0.4909484436 0.1692789606
1691550000.0 0.5044586316 -0.1116929676
1701500000.0 0.3530855521 -0.3544935635
1711450000.0 0.0841713171 -0.4689909866
1721400000.0 -0.211946675 -0.4027944553
1731350000.0 -0.4184642859 -0.1847100395
1741300000.0 -0.4658439234 0.1125137642
1751250000.0 -0.3474588764 0.3850394384
1761200000.0 -0.1167438307 0.5478899173
1771150000.0 0.1704914229 0.5527246254
1781100000.0 0.415547969 0.400334398
1791050000.0 0.5451566846 0.139901648
1801000000.0 0.5203254858 -0.1562984305
1810950000.0 0.3415895735 -0.4015347794
1820900000.0 0.0531373541 -0.5100279115
1830850000.0 -0.2510865189 -0.432593096
1840800000.0 -0.4589859516 -0.1969994927
1850750000.0 -0.5038200816 0.10271823
1860700000.0 -0.3910252746 0.3637157547
1870650000.0 -0.1745114419 0.5173270964
1880600000.0 0.074104806 0.5349586544
1890550000.0 0.2856042869 0.4236914028
1900500000.0 0.4054199719 0.2168472472
1910450000.0 0.3986170063 -0.0255055426
1920400000.0 0.2658779085 -0.2244046947
1930350000.0 0.0556379115 -0.3101875689
1940300000.0 -0.149954093 -0.2645053658
1950250000.0 -0.2783113091 -0.1281992323
1960200000.0 -0.3029545456 0.0287466872
1970150000.0 -0.2449748947 0.1434817211
1980100000.0 -0.1556728443 0.1823812063
1990050000.0 -0.0960166765 0.1507443517
2000000000.0 -0.1140902814 0.1012875407
