!Created with skrf (http://scikit-rf.org).
# GHz S RI R 50.0 
!freq ReS11 ImS11
10000000.0 -0.7795989481 0.5864581277
19950000.0 -0.2855221966 0.9215357488
29900000.0 0.3113314772 0.9028880632
39850000.0 0.792094222 0.5299254643
49800000.0 0.9600696965 -0.0726002965
59750000.0 0.716977963 -0.6710800236
69700000.0 0.1328145955 -0.9893888555
79650000.0 -0.5354031898 -0.8396552153
89600000.0 -0.9410855818 -0.2562291038
99550000.0 -0.831214201 0.4771400438
109500000.0 -0.2080124184 0.9378422342
119450000.0 0.589822326 0.7824573761
129400000.0 0.9988589363 0.0407148637
139350000.0 0.6692446602 -0.744430867
149300000.0 -0.1367346357 -0.9647057414
159250000.0 -0.7920963799 -0.5084856963
169200000.0 -0.8962527916 0.2411398798
179150000.0 -0.4655155592 0.8128702802
189100000.0 0.2048543639 0.9266391139
199050000.0 0.7559767568 0.5748520686
209000000.0 0.9395752383 -0.03376983
218950000.0 0.7074866397 -0.5976336575
228900000.0 0.1914601013 -0.8906399972
238850000.0 -0.3868469578 -0.8127504227
248800000.0 -0.7758720292 -0.4032480146
258750000.0 -0.8948702813 0.15881353
268700000.0 -0.6314647342 0.6724363418
278650000.0 -0.1150256769 0.9189192695
288600000.0 0.4403219001 0.7950217007
298550000.0 0.8009607708 0.3541689368
308500000.0 0.8131598005 -0.2174801579
318450000.0 0.4656190795 -0.6699313611
328400000.0 -0.0868236791 -0.7895394408
338350000.0 -0.5656627856 -0.5120491239
348300000.0 -0.7079614757 -0.0006420611
358250000.0 -0.4576598944 0.423019653
368200000.0 -0.0277360696 0.5181845085
378150000.0 0.2826240876 0.2982842469
388100000.0 0.320348961 -0.0196176584
398050000.0 0.1445877177 -0.2122428948
408000000.0 -0.0666563293 -0.2023886013
417950000.0 -0.1670343026 -0.0612280201
427900000.0 -0.1281458684 0.0796916971
437850000.0 -0.0120535136 0.1287941869
447800000.0 0.0904655587 0.0805286287
457750000.0 0.1209522142 -0.0170582115
467700000.0 0.0780394912 -0.099638587
477650000.0 0.0011325243 -0.123810283
487600000.0 -0.0630214831 -0.0879204299
497550000.0 -0.0777025506 -0.0285256413
507500000.0 -0.0519604322 0.0250425912
517450000.0 -0.0031678484 0.0375480307
527400000.0 0.0253199563 0.0133011049
537350000.0 0.0165572171 -0.0190405736
547300000.0 -0.0209974621 -0.0295363197
557250000.0 -0.0574803664 -0.0027657023
567200000.0 -0.064527325 0.0494894859
577150000.0 -0.027199769 0.0986833004
587100000.0 0.042808457 0.1076684228
597050000.0 0.1096007068 0.0625206545
607000000.0 0.1348213987 -0.0227672752
616950000.0 0.1001389019 -0.1127824223
626900000.0 0.0166496542 -0.1644755885
636850000.0 -0.0830545834 -0.1528282172
646800000.0 -0.1540451948 -0.083834183
656750000.0 -0.1657045733 0.0140985572
666700000.0 -0.1164020556 0.0972815216
676650000.0 -0.0277303989 0.1293684614
686600000.0 0.0566251965 0.0962226874
696550000.0 0.0964961829 0.0189478892
706500000.0 0.0782917141 -0.0595633466
716450000.0 0.0164377438 -0.0977231277
726400000.0 -0.0464677553 -0.0776849406
736350000.0 -0.0658013691 -0.0120865975
746300000.0 -0.0218890065 0.049727711
756250000.0 0.0672284742 0.0601341222
766200000.0 0.1475626746 -0.0011974334
776150000.0 0.1644567084 -0.1148164983
786100000.0 0.0916413773 -0.2211686753
796050000.0 -0.0527523837 -0.2510620995
806000000.0 -0.2004768101 -0.1696890414
815950000.0 -0.2715947066 0.0070966014
825900000.0 -0.2154411789 0.2081755174
835850000.0 -0.0388371184 0.3395516449
845800000.0 0.1908443088 0.3361853753
855750000.0 0.3730197474 0.1880220651
865700000.0 0.4339853172 -0.0514167142
875650000.0 0.3277122898 -0.2831156665
885600000.0 0.0971610439 -0.3952670992
895550000.0 -0.1514566092 -0.3453014593
905500000.0 -0.332731125 -0.1540158804
915450000.0 -0.3597011146 0.1215219227
925400000.0 -0.1999196025 0.3553361122
935350000.0 0.0747153084 0.4237325771
945300000.0 0.3225885055 0.2792830694
955250000.0 0.3964489847 -0.013973898
965200000.0 0.222357583 -0.2871144145
975150000.0 -0.1258390862 -0.3442293724
985100000.0 -0.4165200815 -0.0907818179
995050000.0 -0.396039806 0.3281260233
1005000000.0 -0.0255053659 0.5900800953
1014950000.0 0.4472828538 0.4592730856
1024900000.0 0.6776504675 -0.0231655081
1034850000.0 0.458080542 -0.5579360665
1044800000.0 -0.1187431789 -0.7643431053
1054750000.0 -0.6772452163 -0.4630390639
1064700000.0 -0.8356428516 0.1508272003
1074650000.0 -0.5269154284 0.6829394849
1084600000.0 0.0668507327 0.843971522
1094550000.0 0.5961236379 0.5515174392
1104500000.0 0.7741798324 -0.0608452382
1114450000.0 0.4228597415 -0.6127792085
1124400000.0 -0.2119789762 -0.6824445142
1134350000.0 -0.6272770525 -0.2533555426
1144300000.0 -0.5667463096 0.2901473672
1154250000.0 -0.1572549745 0.5796663728
1164200000.0 0.3064382222 0.4792841433
1174150000.0 0.5460024277 0.0917063555
1184100000.0 0.4403254885 -0.3468716968
1194050000.0 0.0633559494 -0.572536582
1204000000.0 -0.3457528435 -0.4843807429
1213950000.0 -0.5898102558 -0.1733107234
1223900000.0 -0.6010341385 0.204491868
1233850000.0 -0.3986861671 0.5140081361
1243800000.0 -0.0511033863 0.6530110655
1253750000.0 0.3253125685 0.5622998891
1263700000.0 0.5851422606 0.257595841
1273650000.0 0.6180327029 -0.1437528112
1283600000.0 0.4188050606 -0.4842270869
1293550000.0 0.0802140399 -0.6493817224
1303500000.0 -0.2755063488 -0.6118775479
1313450000.0 -0.5507810133 -0.4047199166
1323400000.0 -0.6851495799 -0.0903492223
1333350000.0 -0.6440824182 0.2546808837
1343300000.0 -0.4216432163 0.5384624098
1353250000.0 -0.0640509067 0.6571487243
1363200000.0 0.3083367078 0.5507364729
1373150000.0 0.5596917499 0.2527459412
1383100000.0 0.6044699778 -0.1229853126
1393050000.0 0.451785173 -0.4487825623
1403000000.0 0.1682129029 -0.6369247731
1412950000.0 -0.1545149994 -0.6499613317
1422900000.0 -0.4314282829 -0.4959484745
1432850000.0 -0.58670159 -0.2123481117
1442800000.0 -0.564088759 0.1212677553
1452750000.0 -0.353074057 0.3923588769
1462700000.0 -0.024774009 0.4923087853
1472650000.0 0.2920683661 0.3878643541
1482600000.0 0.4786143924 0.1344056548
1492550000.0 0.4838048346 -0.1618355887
1502500000.0 0.3238933153 -0.3895977725
1512450000.0 0.0705167404 -0.4713954049
1522400000.0 -0.1737015426 -0.3771379007
1532350000.0 -0.2995778914 -0.1474774587
1542300000.0 -0.245510744 0.1098857634
1552250000.0 -0.0395619952 0.264812101
1562200000.0 0.2075721991 0.2431533261
1572150000.0 0.369935866 0.0651488673
1582100000.0 0.3655285902 -0.171363221
1592050000.0 0.1999589419 -0.3503967714
1602000000.0 -0.0578266112 -0.3807264412
1611950000.0 -0.2950253623 -0.2322374978
1621900000.0 -0.3980435765 0.0487881327
1631850000.0 -0.3046510553 0.3450652879
1641800000.0 -0.0472111953 0.5254649799
1651750000.0 0.2686228652 0.5162055513
1661700000.0 0.5217998432 0.3247567343
1671650000.0 0.6270796645 0.0221781317
1681600000.0 0.5518035809 -0.2955633932
1691550000.0 0.3120104058 -0.5336996371
1701500000.0 -0.0306326104 -0.6109841296
1711450000.0 -0.3722959902 -0.4865376677
1721400000.0 -0.5994969164 -0.1864948745
1731350000.0 -0.6284375324 0.1919367533
1741300000.0 -0.4514160022 0.5183252474
1751250000.0 -0.1381829223 0.6927955037
1761200000.0 0.2086231016 0.6806577027
1771150000.0 0.4948818439 0.5023605334
1781100000.0 0.6625090964 0.2165505664
1791050000.0 0.6763110032 -0.127555545
1801000000.0 0.5138437884 -0.4450666355
1810950000.0 0.2032063434 -0.6428746309
1820900000.0 -0.1754535807 -0.6445340258
1830850000.0 -0.4981817331 -0.4364657857
1840800000.0 -0.6563295444 -0.0936455687
1850750000.0 -0.6162657374 0.2625532031
1860700000.0 -0.4179729769 0.5337906752
1870650000.0 -0.1316948072 0.6699179285
1880600000.0 0.171859692 0.6553452629
1890550000.0 0.4268188327 0.5002297726
1900500000.0 0.5766745192 0.2361663397
1910450000.0 0.575478813 -0.0761794315
1920400000.0 0.4114136999 -0.3469378685
1930350000.0 0.1327202569 -0.4848039473
1940300000.0 -0.1593292781 -0.4541757475
1950250000.0 -0.3736851542 -0.2936183106
1960200000.0 -0.4700388679 -0.0779076862
1970150000.0 -0.4562833815 0.1270691997
1980100000.0 -0.3651022964 0.2785162094
1990050000.0 -0.2394993691 0.3575473554
2000000000.0 -0.1208080554 0.3734277285
