!Created with skrf (http://scikit-rf.org).
# GHz S RI R 50.0 
!freq ReS11 ImS11
10000000.0 -0.764745296 0.5802585403
19950000.0 -0.2822640523 0.9136342691
29900000.0 0.303494128 0.9001602306
39850000.0 0.7791506905 0.5374263124
49800000.0 0.9511199908 -0.0537205961
59750000.0 0.7225333402 -0.6464957366
69700000.0 0.1590126508 -0.97421784
79650000.0 -0.4968413808 -0.8524731932
89600000.0 -0.9175326675 -0.303563571
99550000.0 -0.8550392985 0.4166954215
109500000.0 -0.2866966038 0.9126982553
119450000.0 0.5001635764 0.8378602632
129400000.0 0.9791585416 0.1610555672
139350000.0 0.7530649886 -0.6502379302
149300000.0 -0.0186293981 -0.9717985156
159250000.0 -0.7285100772 -0.5903956944
169200000.0 -0.909016742 0.1548258548
179150000.0 -0.5248278868 0.7675868157
189100000.0 0.1381382293 0.9284108948
199050000.0 0.7084124811 0.6070730185
209000000.0 0.918695816 0.0064597522
218950000.0 0.7125643013 -0.5671662155
228900000.0 0.2100017709 -0.876487591
238850000.0 -0.3650586129 -0.8123302721
248800000.0 -0.7276930662 -0.4174216126
258750000.0 -0.879311593 0.1362104728
268700000.0 -0.6306744237 0.6469204061
278650000.0 -0.1334413955 0.9013954755
288600000.0 0.4102677879 0.8033735585
298550000.0 0.7803777881 0.3849016226
308500000.0 0.8189704594 -0.1763501648
318450000.0 0.5038714103 -0.6392648513
328400000.0 -0.0251031435 -0.7953648234
338350000.0 -0.5135373566 -0.570109175
348300000.0 -0.7079757699 -0.0909958546
358250000.0 -0.5248959717 0.3564757188
368200000.0 -0.1219005214 0.5195886875
378150000.0 0.2194056762 0.3639091554
388100000.0 0.3163169173 0.0663185966
398050000.0 0.1894876518 -0.1501884803
408000000.0 -0.0033639416 -0.1800616136
417950000.0 -0.1131346898 -0.0756937804
427900000.0 -0.0974398111 0.0483755059
437850000.0 -0.0026361328 0.0961633433
447800000.0 0.0838680397 0.0507537282
457750000.0 0.1058994208 -0.0427815495
467700000.0 0.0550029166 -0.1206677542
477650000.0 -0.0298292791 -0.1382988501
487600000.0 -0.0992083635 -0.0914568823
497550000.0 -0.1092343618 -0.0105602119
507500000.0 -0.0832822361 0.0545716261
517450000.0 -0.0200858449 0.0828193099
527400000.0 0.0350682016 0.0642280087
537350000.0 0.0538403123 0.0213268101
547300000.0 0.0359983059 -0.0142078812
557250000.0 -0.0022187467 -0.0196382251
567200000.0 -0.0266449072 0.0067635941
577150000.0 -0.0162539497 0.041258488
587100000.0 0.0235597527 0.0520406885
597050000.0 0.0678855566 0.0221002528
607000000.0 0.0836004349 -0.0411531222
616950000.0 0.0514109252 -0.1079638468
626900000.0 -0.0213505316 -0.1413736647
636850000.0 -0.1038008306 -0.1177666283
646800000.0 -0.156172388 -0.0416775199
656750000.0 -0.1509624858 0.0568637328
666700000.0 -0.0839846483 0.1349224881
676650000.0 0.0195844069 0.1546747231
686600000.0 0.1153330719 0.1021094159
696550000.0 0.1592685557 -0.0009069723
706500000.0 0.1296945427 -0.1092383407
716450000.0 0.0406318144 -0.1745377331
726400000.0 -0.0658974194 -0.1643776532
736350000.0 -0.1335697661 -0.0847361916
746300000.0 -0.1250752844 0.0219201189
756250000.0 -0.0416286747 0.0976557859
766200000.0 0.0730054987 0.0973106656
776150000.0 0.157067323 0.0183235475
786100000.0 0.1603195328 -0.0979348061
796050000.0 0.0733264905 -0.1850961809
806000000.0 -0.0613392678 -0.1827906283
815950000.0 -0.169410232 -0.0771033829
825900000.0 -0.1813887022 0.0890708531
835850000.0 -0.0744048366 0.2314950074
845800000.0 0.1061629182 0.2697365365
855750000.0 0.2759252667 0.1764094899
865700000.0 0.3514258768 -0.0149222278
875650000.0 0.2856387815 -0.220575555
885600000.0 0.091346621 -0.3433320607
895550000.0 -0.1527453435 -0.3069776213
905500000.0 -0.3265778003 -0.1092119401
915450000.0 -0.3336250468 0.1679624759
925400000.0 -0.1553493579 0.389610107
935350000.0 0.1298975297 0.436742972
945300000.0 0.3785747371 0.2694546369
955250000.0 0.4475886976 -0.0471727272
965200000.0 0.2606549442 -0.3490883513
975150000.0 -0.1196481078 -0.4336281842
985100000.0 -0.4679915621 -0.1852476392
995050000.0 -0.5079509287 0.2786973152
1005000000.0 -0.1496020562 0.6298974231
1014950000.0 0.387462802 0.5693596679
1024900000.0 0.7079357731 0.0729439717
1034850000.0 0.5125451136 -0.5381039288
1044800000.0 -0.1162757767 -0.7728988231
1054750000.0 -0.6932250393 -0.4126217046
1064700000.0 -0.7732485386 0.2364017382
1074650000.0 -0.3893232914 0.6908618566
1084600000.0 0.1145153538 0.7801890482
1094550000.0 0.6200469745 0.4673990093
1104500000.0 0.729945524 -0.1237395293
1114450000.0 0.3840778703 -0.6081363961
1124400000.0 -0.1772671576 -0.6853793259
1134350000.0 -0.5903427724 -0.3543244038
1144300000.0 -0.6487615225 0.1336896203
1154250000.0 -0.3836216787 0.5057046335
1164200000.0 0.0338858809 0.6060534901
1174150000.0 0.4112536018 0.4174532079
1184100000.0 0.5681741364 0.016725951
1194050000.0 0.4094931104 -0.3811382339
1204000000.0 0.0373930682 -0.559886242
1213950000.0 -0.3380732371 -0.4570844172
1223900000.0 -0.5581379996 -0.1589159213
1233850000.0 -0.5588111668 0.1964663415
1243800000.0 -0.3540895812 0.4809910553
1253750000.0 -0.0176160745 0.5897411906
1263700000.0 0.3257052127 0.4692130356
1273650000.0 0.5306449229 0.1581618149
1283600000.0 0.5091302714 -0.2130371112
1293550000.0 0.2834599227 -0.4920576997
1303500000.0 -0.0411273046 -0.5892404351
1313450000.0 -0.350786964 -0.4973163846
1323400000.0 -0.5606554265 -0.2597269965
1333350000.0 -0.6179452711 0.0567764521
1343300000.0 -0.4961152775 0.3654913251
1353250000.0 -0.2119482368 0.5587295644
1363200000.0 0.1455554173 0.5499596752
1373150000.0 0.436639925 0.3319719211
1383100000.0 0.5498550848 -0.0097808201
1393050000.0 0.4610304345 -0.3430513827
1403000000.0 0.2205909552 -0.562364538
1412950000.0 -0.0794253303 -0.6184157977
1422900000.0 -0.3523141286 -0.5078401921
1432850000.0 -0.5279833236 -0.262205449
1442800000.0 -0.5465696634 0.0547968754
1452750000.0 -0.3807938194 0.340119922
1462700000.0 -0.0765322795 0.4834597813
1472650000.0 0.2522988983 0.4256760428
1482600000.0 0.4806023785 0.1962956299
1492550000.0 0.534690041 -0.1081871701
1502500000.0 0.4127704713 -0.3800195649
1512450000.0 0.1669812907 -0.5313719722
1522400000.0 -0.1174929865 -0.5122664538
1532350000.0 -0.3403427138 -0.3253966844
1542300000.0 -0.4120684361 -0.031480727
1552250000.0 -0.2919339339 0.2531669315
1562200000.0 -0.028792137 0.4049743203
1572150000.0 0.2584834823 0.3683435202
1582100000.0 0.4573995815 0.1740295378
1592050000.0 0.495635899 -0.095003765
1602000000.0 0.3632458244 -0.3331135052
1611950000.0 0.1071815635 -0.4494293142
1621900000.0 -0.1805792661 -0.3867547568
1631850000.0 -0.3821277325 -0.1546006236
1641800000.0 -0.4024557296 0.1611445804
1651750000.0 -0.2279523585 0.4237401332
1661700000.0 0.0643501328 0.5248647343
1671650000.0 0.3525081943 0.4345931435
1681600000.0 0.5346409236 0.1979725757
1691550000.0 0.5556443195 -0.1039915187
1701500000.0 0.4051416898 -0.3743637764
1711450000.0 0.1213883395 -0.5237556495
1721400000.0 -0.2117623821 -0.4845544868
1731350000.0 -0.469572861 -0.2546100811
1741300000.0 -0.5520704288 0.0848086338
1751250000.0 -0.432397779 0.4042127401
1761200000.0 -0.1676893507 0.5955688681
1771150000.0 0.1458989374 0.6133553091
1781100000.0 0.416849946 0.4694195048
1791050000.0 0.5784895252 0.2078774766
1801000000.0 0.586917135 -0.1076065008
1810950000.0 0.4293300828 -0.3931704574
1820900000.0 0.1368988009 -0.5540959616
1830850000.0 -0.2014853135 -0.5224639094
1840800000.0 -0.4634527948 -0.3050026473
1850750000.0 -0.5608370488 0.0108017242
1860700000.0 -0.4822677999 0.3125636417
1870650000.0 -0.2766158454 0.518683553
1880600000.0 -0.0124345299 0.5902855739
1890550000.0 0.2417057852 0.5222158944
1900500000.0 0.4233112089 0.3326519472
1910450000.0 0.4812025836 0.0701402677
1920400000.0 0.3915758639 -0.1871716006
1930350000.0 0.1786036645 -0.3496563222
1940300000.0 -0.0747339466 -0.3633364564
1950250000.0 -0.2750064663 -0.2463418985
1960200000.0 -0.3687697826 -0.0644017088
1970150000.0 -0.3537137392 0.1110617515
1980100000.0 -0.2614710967 0.2284884329
1990050000.0 -0.1447523911 0.2604736815
2000000000.0 -0.063675051 0.2179892906
