!Created with skrf (http://scikit-rf.org).
# GHz S RI R 50.0 
!freq ReS11 ImS11
10000000.0 -0.7673696756 0.6756147538
19950000.0 -0.1376403506 0.9880164208
29900000.0 0.5376023628 0.8177158238
39850000.0 0.9434841258 0.2445381996
49800000.0 0.8706565896 -0.4675380626
59750000.0 0.3199220811 -0.958848904
69700000.0 -0.4435912194 -0.9258083775
79650000.0 -0.9659102254 -0.3328474141
89600000.0 -0.8759922305 0.4756586714
99550000.0 -0.1873775939 0.9502141547
109500000.0 0.6428736706 0.7112539206
119450000.0 0.9683550927 -0.1263133893
129400000.0 0.4466493989 -0.8984011638
139350000.0 -0.4909030468 -0.8813932506
149300000.0 -0.9780066996 -0.0983327934
159250000.0 -0.6317724187 0.7115296877
169200000.0 0.177414551 0.9244962494
179150000.0 0.8348134869 0.4669301697
189100000.0 0.934687567 -0.3011106919
199050000.0 0.4597909971 -0.884501153
209000000.0 -0.2678954311 -0.9531053588
218950000.0 -0.8199535818 -0.5109601028
228900000.0 -0.9248813117 0.169223368
238850000.0 -0.560830854 0.7370977349
248800000.0 0.0685002955 0.9255372852
258750000.0 0.6819832643 0.6585051016
268700000.0 0.9645747728 0.0568509926
278650000.0 0.7766312455 -0.5803184972
288600000.0 0.2136752755 -0.9268382718
298550000.0 -0.4298398453 -0.8082541046
308500000.0 -0.8225851583 -0.2933130203
318450000.0 -0.7618328723 0.3443921895
328400000.0 -0.2826070511 0.7566214543
338350000.0 0.3320231535 0.7039050955
348300000.0 0.6894476393 0.2365026651
358250000.0 0.5759968189 -0.2927700006
368200000.0 0.1500528538 -0.5080228345
378150000.0 -0.2161833705 -0.3364601069
388100000.0 -0.2836217265 -0.0152322982
398050000.0 -0.1067719463 0.1721388722
408000000.0 0.088844884 0.1329387577
417950000.0 0.1353908764 -0.0163147298
427900000.0 0.0385218241 -0.1104243698
437850000.0 -0.084153955 -0.0774128614
447800000.0 -0.1244841133 0.0405057003
457750000.0 -0.0555409824 0.1450326811
467700000.0 0.0661525851 0.1606111082
477650000.0 0.1556089411 0.0830909258
487600000.0 0.1617677181 -0.0309014973
497550000.0 0.0908679097 -0.1131760036
507500000.0 -0.0054521936 -0.1194855146
517450000.0 -0.0694775018 -0.065498538
527400000.0 -0.0763653156 0.0026003289
537350000.0 -0.0411950843 0.0396320218
547300000.0 -0.0051853816 0.0337673573
557250000.0 0.001296506 0.0070014594
567200000.0 -0.0227745715 -0.0034292274
577150000.0 -0.0474082406 0.0216395766
587100000.0 -0.0371405957 0.0671287062
597050000.0 0.0177111185 0.0940733034
607000000.0 0.08975621 0.0680323814
616950000.0 0.1304736227 -0.0125883261
626900000.0 0.1040675755 -0.1103928962
636850000.0 0.0115531735 -0.1715169202
646800000.0 -0.103934147 -0.1554441253
656750000.0 -0.1806208335 -0.0627643953
666700000.0 -0.1731586473 0.0597168639
676650000.0 -0.0824859455 0.1446368464
686600000.0 0.0421065345 0.1440612657
696550000.0 0.1317497689 0.0585318268
706500000.0 0.1373562768 -0.061418177
716450000.0 0.061646598 -0.1469826688
726400000.0 -0.0463003164 -0.1504544886
736350000.0 -0.1146934809 -0.0749700755
746300000.0 -0.0981728648 0.0219797009
756250000.0 -0.0087576052 0.0679768539
766200000.0 0.0867305653 0.0221160652
776150000.0 0.1118266866 -0.0903886742
786100000.0 0.0335074252 -0.1903073398
796050000.0 -0.1089996074 -0.1958268079
806000000.0 -0.2203419277 -0.0776528137
815950000.0 -0.2076014866 0.106353877
825900000.0 -0.0495944389 0.2405018677
835850000.0 0.1789572999 0.2234428229
845800000.0 0.3450430075 0.0388345227
855750000.0 0.3393497538 -0.2257424942
865700000.0 0.1440447854 -0.4260438588
875650000.0 -0.1511474319 -0.4398990366
885600000.0 -0.3879908426 -0.2380954727
895550000.0 -0.4241170389 0.086708496
905500000.0 -0.2183283406 0.3600344445
915450000.0 0.1313978136 0.4171305851
925400000.0 0.4282174874 0.2081251586
935350000.0 0.4927782932 -0.1552555804
945300000.0 0.2756859903 -0.4616960284
955250000.0 -0.1058448773 -0.5180661068
965200000.0 -0.4181166924 -0.2644545058
975150000.0 -0.4315001526 0.1625774895
985100000.0 -0.0811619422 0.4583517985
995050000.0 0.3979149242 0.3384654269
1005000000.0 0.5759031448 -0.1612902095
1014950000.0 0.2278585553 -0.613035273
1024900000.0 -0.387898329 -0.5515267451
1034850000.0 -0.6605633131 0.0550224295
1044800000.0 -0.2590246103 0.5534238607
1054750000.0 0.2225133733 0.5667156432
1064700000.0 0.7162390382 0.2592573054
1074650000.0 0.7170382894 -0.4640380751
1084600000.0 0.0856342062 -0.8446542376
1094550000.0 -0.5610773939 -0.615036039
1104500000.0 -0.7998247765 0.0587204073
1114450000.0 -0.409065176 0.6571548462
1124400000.0 0.2884867421 0.6939488971
1134350000.0 0.7032291802 0.1855256446
1144300000.0 0.5708618713 -0.3989133528
1154250000.0 0.0873660533 -0.654761056
1164200000.0 -0.3929296902 -0.4863497482
1174150000.0 -0.6004189598 -0.0405455795
1184100000.0 -0.4147423381 0.4177796138
1194050000.0 0.0525224595 0.5806563214
1204000000.0 0.4742953768 0.3447969244
1213950000.0 0.5857251764 -0.1032233491
1223900000.0 0.3651089952 -0.484487904
1233850000.0 -0.0374704855 -0.6189213114
1243800000.0 -0.4260936179 -0.4636808785
1253750000.0 -0.6259801302 -0.0900719987
1263700000.0 -0.5317242862 0.3345192696
1273650000.0 -0.1711021383 0.5940033756
1283600000.0 0.272687468 0.5442143472
1293550000.0 0.5692019791 0.2185887365
1303500000.0 0.5898862103 -0.20696624
1313450000.0 0.3527228895 -0.5438815593
1323400000.0 -0.0299600705 -0.6701240404
1333350000.0 -0.4138366338 -0.547101407
1343300000.0 -0.653500328 -0.2127302516
1353250000.0 -0.6353159224 0.2113005021
1363200000.0 -0.34374965 0.5376305658
1373150000.0 0.0941905719 0.6015785503
1383100000.0 0.4659046687 0.3727622048
1393050000.0 0.6078648943 -0.0254252606
1403000000.0 0.4848129096 -0.4130176016
1412950000.0 0.166950703 -0.6436558089
1422900000.0 -0.218902111 -0.6432425385
1432850000.0 -0.5288586796 -0.4128467982
1442800000.0 -0.6372994177 -0.0355841315
1452750000.0 -0.4826626692 0.3318335173
1462700000.0 -0.1232833436 0.5159684589
1472650000.0 0.2677444531 0.4246365846
1482600000.0 0.5007671846 0.1115565099
1492550000.0 0.4781393672 -0.2626191681
1502500000.0 0.2332639136 -0.5273860896
1512450000.0 -0.1115906291 -0.5784122788
1522400000.0 -0.4045900754 -0.401913018
1532350000.0 -0.5136760413 -0.077146044
1542300000.0 -0.3822056848 0.2425063316
1552250000.0 -0.0697165048 0.3910068586
1562200000.0 0.2582760817 0.2848573832
1572150000.0 0.4224501455 -0.0126679899
1582100000.0 0.3416456891 -0.3396677557
1592050000.0 0.0589372817 -0.5068500434
1602000000.0 -0.2576338134 -0.4468181019
1611950000.0 -0.4580693481 -0.1898787774
1621900000.0 -0.4365653315 0.143680651
1631850000.0 -0.188469448 0.3890419863
1641800000.0 0.1720511745 0.4056869862
1651750000.0 0.4540200451 0.1675562246
1661700000.0 0.5004528641 -0.2025565833
1671650000.0 0.2915007793 -0.5092965759
1681600000.0 -0.0616165308 -0.6082244503
1691550000.0 -0.3998796873 -0.4648287718
1701500000.0 -0.584560847 -0.1408317407
1711450000.0 -0.5365948519 0.2378875619
1721400000.0 -0.2555080702 0.5188676389
1731350000.0 0.1551990185 0.5642656797
1741300000.0 0.5094880312 0.3331005836
1751250000.0 0.6320261946 -0.0723144918
1761200000.0 0.473705726 -0.4566471196
1771150000.0 0.1251792673 -0.6576753198
1781100000.0 -0.2621012404 -0.6181466526
1791050000.0 -0.5525941342 -0.3714985444
1801000000.0 -0.6549214297 -0.0030330442
1810950000.0 -0.5277644612 0.3659291473
1820900000.0 -0.1978761936 0.5963725049
1830850000.0 0.2157336849 0.5750622039
1840800000.0 0.5264219533 0.296389204
1850750000.0 0.5904638196 -0.1070153197
1860700000.0 0.4015313664 -0.4469627923
1870650000.0 0.0688478647 -0.6007407273
1880600000.0 -0.270917255 -0.543747712
1890550000.0 -0.5116341973 -0.3205035432
1900500000.0 -0.5864936127 -0.0102697874
1910450000.0 -0.4756774078 0.2834337379
1920400000.0 -0.216706314 0.4540951107
1930350000.0 0.0834267618 0.432017626
1940300000.0 0.2942139056 0.2387345095
1950250000.0 0.3380311562 -0.0201761709
1960200000.0 0.2310506878 -0.2277278765
1970150000.0 0.0520325576 -0.3206629014
1980100000.0 -0.1148795555 -0.3023513007
1990050000.0 -0.2186139751 -0.2189777114
2000000000.0 -0.2525619321 -0.130302865
