!Created with skrf (http://scikit-rf.org).
# GHz S RI R 50.0 
!freq ReS11 ImS11
10000000.0 -0.7884241786 0.5975726262
19950000.0 -0.2837040403 0.9369263291
29900000.0 0.3216310901 0.9174358127
39850000.0 0.8064895336 0.542455458
49800000.0 0.9772433174 -0.059644668
59750000.0 0.7410761288 -0.6571123604
69700000.0 0.1689209073 -0.9839676283
79650000.0 -0.4953562728 -0.8615401296
89600000.0 -0.9256873006 -0.3162753041
99550000.0 -0.8782853601 0.3992183854
109500000.0 -0.3330771186 0.9043176474
119450000.0 0.4410891258 0.8693949139
129400000.0 0.9533121194 0.2526354782
139350000.0 0.8126648869 -0.5668555993
149300000.0 0.0896779011 -0.9708414034
159250000.0 -0.6651617178 -0.6805988403
169200000.0 -0.9385317833 0.0487697692
179150000.0 -0.6111753514 0.7192448612
189100000.0 0.0643336707 0.9514144593
199050000.0 0.688613684 0.6630799472
209000000.0 0.947221746 0.0479127126
218950000.0 0.7483559995 -0.5616088811
228900000.0 0.221463712 -0.895376676
238850000.0 -0.38806695 -0.8263993016
248800000.0 -0.7109838853 -0.457164456
258750000.0 -0.9034589198 0.1620443029
268700000.0 -0.620657697 0.6866124418
278650000.0 -0.079746913 0.9198870264
288600000.0 0.4835779039 0.7654558223
298550000.0 0.8255919489 0.2951318584
308500000.0 0.7976484437 -0.2838023099
318450000.0 0.4115891551 -0.7090775437
328400000.0 -0.1492988046 -0.7802980571
338350000.0 -0.6018220408 -0.4658291414
348300000.0 -0.7077898597 0.0507292803
358250000.0 -0.4377189082 0.462740493
368200000.0 0.0028103282 0.5458919839
378150000.0 0.3237639595 0.3134596259
388100000.0 0.3650817704 -0.0228501543
398050000.0 0.1814089711 -0.2391343553
408000000.0 -0.0525290078 -0.2458978213
417950000.0 -0.1842884102 -0.1034188236
427900000.0 -0.1673084377 0.057442473
437850000.0 -0.0564709404 0.1347585183
447800000.0 0.056925651 0.1104129426
457750000.0 0.1103863347 0.023273962
467700000.0 0.0854768487 -0.063433832
477650000.0 0.0206107307 -0.0964497711
487600000.0 -0.0319887702 -0.0698084098
497550000.0 -0.0766168706 -0.0565082829
507500000.0 -0.0587124366 0.0038090633
517450000.0 -0.0242136373 0.0211492624
527400000.0 -0.0018363808 0.006903482
537350000.0 -0.0079188762 -0.0138000543
547300000.0 -0.0357413555 -0.016963045
557250000.0 -0.0613240451 0.0131156145
567200000.0 -0.0542337938 0.0627289584
577150000.0 -0.0064363297 0.0971674205
587100000.0 0.061929293 0.0921739458
597050000.0 0.1212810156 0.0368681876
607000000.0 0.1337665946 -0.0534941611
616950000.0 0.0854640685 -0.1392323143
626900000.0 -0.0083117965 -0.1801788419
636850000.0 -0.111149319 -0.1538797734
646800000.0 -0.1777738004 -0.0674235953
656750000.0 -0.176296801 0.0430948328
666700000.0 -0.1060639654 0.1298632739
676650000.0 0.0019623889 0.1564425532
686600000.0 0.1044109105 0.1067408546
696550000.0 0.150373026 0.0052815894
706500000.0 0.1225427905 -0.0959544381
716450000.0 0.0386337049 -0.153194828
726400000.0 -0.058375488 -0.1339821821
736350000.0 -0.1086282319 -0.0518924517
746300000.0 -0.0849419457 0.0430695238
756250000.0 0.0054444015 0.0971726733
766200000.0 0.1139996027 0.0698183218
776150000.0 0.1750289401 -0.0309859114
786100000.0 0.1468047704 -0.1535938996
796050000.0 0.0298386205 -0.2275168476
806000000.0 -0.1230512917 -0.1985232596
815950000.0 -0.2308546072 -0.0610334727
825900000.0 -0.2249113504 0.1315237869
835850000.0 -0.0902811777 0.2861960593
845800000.0 0.1209830846 0.3236451898
855750000.0 0.3161212716 0.2181317755
865700000.0 0.4082914848 0.0059444024
875650000.0 0.3456900658 -0.2297339006
885600000.0 0.1355614053 -0.3790140274
895550000.0 -0.1316419798 -0.3606070609
905500000.0 -0.3352738771 -0.1718223846
915450000.0 -0.3742697284 0.1136924972
925400000.0 -0.2142362182 0.3600279772
935350000.0 0.0714050512 0.4337581588
945300000.0 0.3329064462 0.2893431021
955250000.0 0.4217238283 -0.0136843621
965200000.0 0.2487694182 -0.3113465742
975150000.0 -0.1229543917 -0.383959408
985100000.0 -0.4427757088 -0.1158728438
995050000.0 -0.4260782266 0.3411901341
1005000000.0 -0.0161298039 0.6292265321
1014950000.0 0.5091490135 0.4633691921
1024900000.0 0.7229439907 -0.1014957954
1034850000.0 0.392330478 -0.6638728398
1044800000.0 -0.2807360173 -0.7606829175
1054750000.0 -0.7712644247 -0.3007956543
1064700000.0 -0.7861673484 0.3064681212
1074650000.0 -0.378602216 0.7580404684
1084600000.0 0.202584875 0.8001464398
1094550000.0 0.6567015626 0.4365910216
1104500000.0 0.7317591612 -0.1417259597
1114450000.0 0.3787274417 -0.5976849447
1124400000.0 -0.1683132501 -0.6590472658
1134350000.0 -0.5660672233 -0.3336299851
1144300000.0 -0.6156345137 0.1394750799
1154250000.0 -0.3485554074 0.4892049223
1164200000.0 0.0635180432 0.5634196397
1174150000.0 0.4127446648 0.3414862959
1184100000.0 0.507631985 -0.0608726951
1194050000.0 0.2985905382 -0.4072777253
1204000000.0 -0.0743106645 -0.5118265051
1213950000.0 -0.4082237614 -0.3544215336
1223900000.0 -0.5605192506 -0.0344354082
1233850000.0 -0.4892035802 0.2995498928
1243800000.0 -0.2367579168 0.5252440985
1253750000.0 0.1114254477 0.5589070095
1263700000.0 0.4199752051 0.3670029771
1273650000.0 0.550700162 0.0226829029
1283600000.0 0.4535093384 -0.330334559
1293550000.0 0.178981534 -0.5558932365
1303500000.0 -0.1606680043 -0.5888710383
1313450000.0 -0.453150518 -0.4388935246
1323400000.0 -0.6203087804 -0.1620061017
1333350000.0 -0.61949567 0.1659913198
1343300000.0 -0.4351503235 0.4537071465
1353250000.0 -0.107315489 0.5939746364
1363200000.0 0.2519974969 0.5204688897
1373150000.0 0.5086370812 0.25458917
1383100000.0 0.572159325 -0.1009023501
1393050000.0 0.4377706634 -0.419576304
1403000000.0 0.1685386298 -0.6085909589
1412950000.0 -0.1458631056 -0.6262437318
1422900000.0 -0.4179616369 -0.4784872074
1432850000.0 -0.5706461814 -0.2055235876
1442800000.0 -0.5539034264 0.1157913963
1452750000.0 -0.3601977456 0.3850446584
1462700000.0 -0.0422521188 0.503646395
1472650000.0 0.2859173911 0.4235024613
1482600000.0 0.5038268319 0.1794744123
1492550000.0 0.5451345781 -0.1299667496
1502500000.0 0.4144879149 -0.3968500324
1512450000.0 0.1629955883 -0.5434914584
1522400000.0 -0.1280858327 -0.5199003786
1532350000.0 -0.3530473546 -0.3266063754
1542300000.0 -0.4251673395 -0.0322739128
1552250000.0 -0.3078395495 0.2506921303
1562200000.0 -0.0463605988 0.4031322756
1572150000.0 0.2393364663 0.3676673648
1582100000.0 0.4355105484 0.1775840334
1592050000.0 0.4771639162 -0.0839500948
1602000000.0 0.3506658954 -0.3153441478
1611950000.0 0.105685588 -0.4249834904
1621900000.0 -0.1638991692 -0.3648696373
1631850000.0 -0.3510861754 -0.1458151351
1641800000.0 -0.3654485221 0.1482454865
1651750000.0 -0.1982092473 0.3862454966
1661700000.0 0.0690505863 0.4781679679
1671650000.0 0.3408881088 0.3961076535
1681600000.0 0.5137335076 0.1690456103
1691550000.0 0.526301062 -0.1198244532
1701500000.0 0.3701581699 -0.3723616891
1711450000.0 0.0889517336 -0.5008466269
1721400000.0 -0.2315931948 -0.4430554053
1731350000.0 -0.4662632446 -0.2024196548
1741300000.0 -0.5175803004 0.1292470718
1751250000.0 -0.3754507396 0.4229139176
1761200000.0 -0.104597746 0.5824130299
1771150000.0 0.200027904 0.5716129224
1781100000.0 0.4493360431 0.4064290987
1791050000.0 0.5787038666 0.1365317722
1801000000.0 0.5507009654 -0.16885392
1810950000.0 0.3589409853 -0.4226853969
1820900000.0 0.0504688576 -0.5318926147
1830850000.0 -0.267726711 -0.4476196817
1840800000.0 -0.4813441147 -0.2046439346
1850750000.0 -0.52575635 0.1017243052
1860700000.0 -0.407928932 0.3665900389
1870650000.0 -0.1867403405 0.5218865094
1880600000.0 0.0679792562 0.5421056186
1890550000.0 0.2904906191 0.4317214427
1900500000.0 0.4192983437 0.220393908
1910450000.0 0.4132122477 -0.0253128055
1920400000.0 0.2762078621 -0.2240453173
1930350000.0 0.0609927117 -0.3075552159
1940300000.0 -0.1453587749 -0.2587416966
1950250000.0 -0.2701495356 -0.1228687321
1960200000.0 -0.2925021559 0.0277898109
1970150000.0 -0.236619948 0.1344871302
1980100000.0 -0.1528108716 0.1653387771
1990050000.0 -0.102945341 0.1297193298
2000000000.0 -0.1265490694 0.0829253982
