!Created with skrf (http://scikit-rf.org).
# GHz S RI R 50.0 
!freq ReS11 ImS11
10000000.0 -0.7715056557 0.5864922139
19950000.0 -0.2807399819 0.9272378524
29900000.0 0.3168739352 0.9176240675
39850000.0 0.8014253562 0.5520520137
49800000.0 0.9744335178 -0.0450186166
59750000.0 0.740536269 -0.639526543
69700000.0 0.1714176973 -0.9645756572
79650000.0 -0.4904305143 -0.8425473555
89600000.0 -0.9200503409 -0.2943131948
99550000.0 -0.861932089 0.429085899
109500000.0 -0.2876003154 0.9240784336
119450000.0 0.5012656672 0.8356691888
129400000.0 0.9642961489 0.1512040515
139350000.0 0.7226572402 -0.6492560277
149300000.0 -0.0480134172 -0.9577581305
159250000.0 -0.7525981002 -0.5733751756
169200000.0 -0.9251997908 0.1731177349
179150000.0 -0.5268884964 0.7815857005
189100000.0 0.1471064686 0.9305349995
199050000.0 0.7193610389 0.5986496166
209000000.0 0.9289359804 -0.0071145108
218950000.0 0.7164359845 -0.5855025783
228900000.0 0.2046411907 -0.8989666502
238850000.0 -0.3808131384 -0.8348025795
248800000.0 -0.7842906843 -0.4219187554
258750000.0 -0.9015820054 0.1310558827
268700000.0 -0.6448323944 0.6443756099
278650000.0 -0.1359037172 0.8990843273
288600000.0 0.4202438379 0.7940438063
298550000.0 0.7963790369 0.3711898919
308500000.0 0.8326539561 -0.1942176605
318450000.0 0.5079123993 -0.6547362747
328400000.0 -0.0293359277 -0.7955158011
338350000.0 -0.5109710123 -0.5506788824
348300000.0 -0.6871064771 -0.0654427903
358250000.0 -0.4861266203 0.3698575223
368200000.0 -0.0817255454 0.5115461932
378150000.0 0.243940458 0.3377066654
388100000.0 0.3156888161 0.0382467705
398050000.0 0.1678695842 -0.1621342871
408000000.0 -0.0316275508 -0.1708021076
417950000.0 -0.1342071634 -0.0465138068
427900000.0 -0.1033355422 0.0844934221
437850000.0 0.0043008305 0.1315760363
447800000.0 0.1032815222 0.0810174276
457750000.0 0.1292200825 -0.0230898902
467700000.0 0.0776192975 -0.1123533006
477650000.0 -0.0144008023 -0.140962928
487600000.0 -0.0950739731 -0.1020838779
497550000.0 -0.1274727198 -0.0299884821
507500000.0 -0.103674869 0.0404117373
517450000.0 -0.0490697106 0.0722927028
527400000.0 -0.0003093331 0.0607655896
537350000.0 0.0184468327 0.0267676623
547300000.0 0.0072759407 -0.0001463433
557250000.0 -0.016333623 -0.0020297366
567200000.0 -0.0244149127 0.020784403
577150000.0 -0.0015852973 0.0453329155
587100000.0 0.0445765009 0.0428435358
597050000.0 0.0862294213 0.0016956397
607000000.0 0.0936592132 -0.0679502008
616950000.0 0.0515846716 -0.1347884796
626900000.0 -0.0289738949 -0.162149209
636850000.0 -0.1149174288 -0.1307566341
646800000.0 -0.1650050779 -0.0464304723
656750000.0 -0.1528032183 0.0575745118
666700000.0 -0.0771853087 0.1357198122
676650000.0 0.032244833 0.1518056888
686600000.0 0.1286601677 0.0965581155
696550000.0 0.1689976609 -0.0079744709
706500000.0 0.1360556068 -0.1112406157
716450000.0 0.0449434185 -0.1656807082
726400000.0 -0.0570647707 -0.1455120743
736350000.0 -0.1155906264 -0.0602589387
746300000.0 -0.0978364428 0.0434345702
756250000.0 -0.010052604 0.1067531082
766200000.0 0.0991990015 0.0913171947
776150000.0 0.1675435836 -0.0010788802
786100000.0 0.1491846584 -0.1192503889
796050000.0 0.0431251476 -0.196307287
806000000.0 -0.1016141491 -0.17668651
815950000.0 -0.2065318105 -0.0514154264
825900000.0 -0.2048078332 0.1261514281
835850000.0 -0.0798022381 0.2700084434
845800000.0 0.1187557078 0.3012314258
855750000.0 0.3006875279 0.1921231843
865700000.0 0.376712627 -0.0189769829
875650000.0 0.2978563831 -0.2415080367
885600000.0 0.0840557572 -0.3711967306
895550000.0 -0.1777002311 -0.3292778054
905500000.0 -0.3585473466 -0.1166488158
915450000.0 -0.3550542913 0.1723645109
925400000.0 -0.1559663706 0.3917178888
935350000.0 0.1449617786 0.4182183545
945300000.0 0.3879297521 0.2184799541
955250000.0 0.416883057 -0.1170897378
965200000.0 0.1674499653 -0.3862116136
975150000.0 -0.2298079239 -0.364982662
985100000.0 -0.4753604681 -0.0206703446
995050000.0 -0.3650850898 0.4069839979
1005000000.0 0.0642014584 0.6227821703
1014950000.0 0.5584714289 0.406694632
1024900000.0 0.7172131307 -0.173538905
1034850000.0 0.3326406924 -0.6989831483
1044800000.0 -0.3399456938 -0.7234442188
1054750000.0 -0.779779299 -0.2257181225
1064700000.0 -0.7114850855 0.3675589551
1074650000.0 -0.3126671358 0.7528649433
1084600000.0 0.2619322812 0.7848967649
1094550000.0 0.6946056186 0.3863754987
1104500000.0 0.7230666954 -0.2009849505
1114450000.0 0.3317282345 -0.6310127105
1124400000.0 -0.2233546147 -0.6519765728
1134350000.0 -0.6039112731 -0.2994424913
1144300000.0 -0.6360788202 0.1796335724
1154250000.0 -0.3575239387 0.5318353236
1164200000.0 0.0655349328 0.6065002409
1174150000.0 0.4282974739 0.3847326606
1184100000.0 0.5450344958 -0.0276163666
1194050000.0 0.3513142626 -0.4036088197
1204000000.0 -0.0291462054 -0.5453246956
1213950000.0 -0.3886944415 -0.4138337407
1223900000.0 -0.5785726994 -0.107770201
1233850000.0 -0.551713636 0.2390869416
1243800000.0 -0.3247672139 0.5034562095
1253750000.0 0.0214988764 0.5823375466
1263700000.0 0.3564972309 0.4343888299
1273650000.0 0.5406696181 0.10979724
1283600000.0 0.4979567813 -0.2601773024
1293550000.0 0.2576299747 -0.528301807
1303500000.0 -0.0766869709 -0.6103804156
1313450000.0 -0.3886113643 -0.5016264222
1323400000.0 -0.5906486765 -0.2481152824
1333350000.0 -0.6303256477 0.0771894899
1343300000.0 -0.4876830825 0.3832031369
1353250000.0 -0.1869877987 0.5667041917
1363200000.0 0.1760960993 0.5478583945
1373150000.0 0.4682124392 0.3218350499
1383100000.0 0.5795866474 -0.0231739322
1393050000.0 0.4861223753 -0.3575358226
1403000000.0 0.2399639916 -0.5776874442
1412950000.0 -0.0701861243 -0.6299418776
1422900000.0 -0.3551091918 -0.5138238251
1432850000.0 -0.5376445296 -0.2598597684
1442800000.0 -0.5563654467 0.0635530467
1452750000.0 -0.3887235632 0.3534497307
1462700000.0 -0.0802224563 0.4985126708
1472650000.0 0.2501942644 0.44014947
1482600000.0 0.4779604245 0.2113442828
1492550000.0 0.5316968995 -0.0900197682
1502500000.0 0.4132265111 -0.3563340433
1512450000.0 0.1734524821 -0.5049717724
1522400000.0 -0.1054493289 -0.4908539741
1532350000.0 -0.3270756846 -0.313282517
1542300000.0 -0.3997085754 -0.0308978722
1552250000.0 -0.2845829148 0.2409480055
1562200000.0 -0.0306756943 0.380185894
1572150000.0 0.2442637916 0.3346669327
1582100000.0 0.4234508661 0.1378003313
1592050000.0 0.4440842807 -0.1184414605
1602000000.0 0.30568309 -0.3344478747
1611950000.0 0.0570666023 -0.4260216545
1621900000.0 -0.2083177295 -0.3431228979
1631850000.0 -0.3752168518 -0.1031652174
1641800000.0 -0.3570215114 0.1964003952
1651750000.0 -0.1584950199 0.422046506
1661700000.0 0.1317786548 0.4805912826
1671650000.0 0.3957268652 0.3604117433
1681600000.0 0.5443419484 0.1137771465
1691550000.0 0.5302204113 -0.1789101006
1701500000.0 0.3511088017 -0.4231630497
1711450000.0 0.0517077025 -0.5303802125
1721400000.0 -0.2704559774 -0.4426736808
1731350000.0 -0.4904985001 -0.1780750103
1741300000.0 -0.521329962 0.1654705221
1751250000.0 -0.3575818933 0.4580293197
1761200000.0 -0.0696531451 0.603961756
1771150000.0 0.2332970838 0.5572057546
1781100000.0 0.4282327256 0.4249897903
1791050000.0 0.5964662245 0.1716761693
1801000000.0 0.584638586 -0.1485102829
1810950000.0 0.3965845368 -0.4198901912
1820900000.0 0.0834173515 -0.5481676202
1830850000.0 -0.2525294286 -0.4794758284
1840800000.0 -0.4912574126 -0.2395510487
1850750000.0 -0.5595850232 0.0762465798
1860700000.0 -0.4593738451 0.3615007758
1870650000.0 -0.2427183473 0.5431529045
1880600000.0 0.0218184403 0.588154042
1890550000.0 0.2654078883 0.4944777834
1900500000.0 0.4249936532 0.2879728987
1910450000.0 0.4521836974 0.0257919861
1920400000.0 0.336027098 -0.2086515074
1930350000.0 0.1196557009 -0.336098925
1940300000.0 -0.1130410035 -0.3233684055
1950250000.0 -0.2796455491 -0.2010226969
1960200000.0 -0.3417759573 -0.0359539374
1970150000.0 -0.3075791995 0.1059425997
1980100000.0 -0.2176249147 0.1782862777
1990050000.0 -0.1330411692 0.1679972487
2000000000.0 -0.1167429396 0.10798562
