!Created with skrf (http://scikit-rf.org).
# GHz S RI R 50.0 
!freq ReS11 ImS11
10000000.0 -1.001982984 0.160335044
19950000.0 -0.9475098643 0.306472574
29900000.0 -0.8707635602 0.4474999624
39850000.0 -0.7717682189 0.5877967741
49800000.0 -0.6518767578 0.7221539625
59750000.0 -0.5049172662 0.8440160936
69700000.0 -0.3224032461 0.9403350276
79650000.0 -0.0995774873 0.9904705804
89600000.0 0.1619124327 0.9734713334
99550000.0 0.4455726116 0.8667009536
109500000.0 0.7211882581 0.6537943542
119450000.0 0.9346531617 0.3246937468
129400000.0 1.009796586 -0.0935540699
139350000.0 0.8917098478 -0.5079189411
149300000.0 0.6024517814 -0.8180165758
159250000.0 0.2365818792 -0.9656118351
169200000.0 -0.1178247218 -0.9728824162
179150000.0 -0.4158724322 -0.8863451127
189100000.0 -0.6449725541 -0.7456326806
199050000.0 -0.803352235 -0.5766508658
209000000.0 -0.8954022504 -0.394989899
218950000.0 -0.9378567504 -0.2145643773
228900000.0 -0.9429231917 -0.0413314003
238850000.0 -0.9228805539 0.1237675628
248800000.0 -0.8842787184 0.2641651791
258750000.0 -0.8341335465 0.4209081606
268700000.0 -0.760998809 0.5524198956
278650000.0 -0.663424912 0.663443236
288600000.0 -0.5393430594 0.7497237915
298550000.0 -0.3916845594 0.8082761041
308500000.0 -0.2240643192 0.8399453619
318450000.0 -0.0416760155 0.8391453171
328400000.0 0.1475458275 0.7976412727
338350000.0 0.3237013422 0.7036486413
348300000.0 0.459290076 0.5511252986
358250000.0 0.5239447401 0.3542730911
368200000.0 0.5043026094 0.1489014377
378150000.0 0.4151265828 -0.0253159134
388100000.0 0.2874321655 -0.1448316577
398050000.0 0.1537314939 -0.2010911449
408000000.0 0.0387843609 -0.201603432
417950000.0 -0.0456353447 -0.1621474962
427900000.0 -0.0988568898 -0.1016530436
437850000.0 -0.1268019028 -0.0354243556
447800000.0 -0.1362592596 0.0243242161
457750000.0 -0.1321519235 0.0700257878
467700000.0 -0.1175679411 0.0983410307
477650000.0 -0.0942745182 0.1080154421
487600000.0 -0.0646364135 0.1025154311
497550000.0 -0.0383747253 0.0842499383
507500000.0 -0.0070927083 0.0678304109
517450000.0 0.0149627507 0.0462656041
527400000.0 0.0252535046 0.0261509009
537350000.0 0.021024849 0.0080947029
547300000.0 0.0067442684 -0.0095159101
557250000.0 -0.0206862413 -0.0280907943
567200000.0 -0.0527148177 -0.0438371569
577150000.0 -0.0846815624 -0.0555434083
587100000.0 -0.1118003201 -0.0609238505
597050000.0 -0.1316303331 -0.056615966
607000000.0 -0.1447217042 -0.0418965621
616950000.0 -0.1527306828 -0.0169293329
626900000.0 -0.1572688516 0.0156101196
636850000.0 -0.1585332621 0.0502578129
646800000.0 -0.1564182261 0.0825534161
656750000.0 -0.1463684885 0.1089758362
666700000.0 -0.1335166397 0.1226514495
676650000.0 -0.1095892205 0.1301091708
686600000.0 -0.0762433039 0.1292062105
696550000.0 -0.0361574497 0.1224326308
706500000.0 0.0060725979 0.1101435756
716450000.0 0.0452176678 0.0931006549
726400000.0 0.0752862165 0.0686000104
736350000.0 0.0926522193 0.0353695956
746300000.0 0.0954588641 -0.0074570017
756250000.0 0.0840704791 -0.0596163244
766200000.0 0.0602034033 -0.1161974994
776150000.0 0.0275604283 -0.1714594646
786100000.0 -0.0135786527 -0.2185261901
796050000.0 -0.0616201311 -0.2511389857
806000000.0 -0.1158850634 -0.2642732393
815950000.0 -0.1759194739 -0.2562310425
825900000.0 -0.239483492 -0.2292343689
835850000.0 -0.3034765371 -0.1871426021
845800000.0 -0.3627271716 -0.1346825497
855750000.0 -0.411966356 -0.0746359024
865700000.0 -0.4434656313 -0.0078910958
875650000.0 -0.4528867593 0.0654887269
885600000.0 -0.4355022538 0.1450006566
895550000.0 -0.390352206 0.2301354849
905500000.0 -0.3141016102 0.3181123774
915450000.0 -0.1951122946 0.3944625381
925400000.0 -0.0249499176 0.3891680944
935350000.0 -0.0091596969 0.2684614839
945300000.0 -0.0248755172 0.3244745993
955250000.0 0.079538479 0.3548603962
965200000.0 0.2146092275 0.30632342
975150000.0 0.3435068305 0.1859999498
985100000.0 0.4344750172 0.0027268751
995050000.0 0.4529382968 -0.2230730555
1005000000.0 0.3690978207 -0.449996928
1014950000.0 0.1771335604 -0.6276450026
1024900000.0 -0.0925318562 -0.7054541454
1034850000.0 -0.3841139418 -0.6649550659
1044800000.0 -0.6416396171 -0.5163605084
1054750000.0 -0.8202091564 -0.2837681268
1064700000.0 -0.88171552 -0.0227063014
1074650000.0 -0.8616277396 0.2452074694
1084600000.0 -0.7253200806 0.4920699547
1094550000.0 -0.510855273 0.6780833454
1104500000.0 -0.2403915163 0.7899878715
1114450000.0 0.0548503005 0.8041780415
1124400000.0 0.331760034 0.7062539868
1134350000.0 0.5383790182 0.5082606679
1144300000.0 0.6423435254 0.2517723838
1154250000.0 0.646282932 -0.0079556386
1164200000.0 0.5788841875 -0.2293021435
1174150000.0 0.4790042152 -0.406452457
1184100000.0 0.3494849689 -0.5417836144
1194050000.0 0.2025363434 -0.6220061164
1204000000.0 0.0552809969 -0.6512179148
1213950000.0 -0.083202134 -0.642164089
1223900000.0 -0.208187136 -0.6103422227
1233850000.0 -0.3190127406 -0.5680036609
1243800000.0 -0.4149745288 -0.5209270281
1253750000.0 -0.495276298 -0.4709392996
1263700000.0 -0.5581154267 -0.4156766384
1273650000.0 -0.6047595645 -0.3545480216
1283600000.0 -0.6341383262 -0.2861312636
1293550000.0 -0.6519235563 -0.2125579699
1303500000.0 -0.6644152545 -0.1366745775
1313450000.0 -0.6742923104 -0.0624284995
1323400000.0 -0.6844755293 0.0080312682
1333350000.0 -0.6925268112 0.0737241986
1343300000.0 -0.6933248578 0.1348071961
1353250000.0 -0.6847595742 0.1895308309
1363200000.0 -0.6628853521 0.2414881806
1373150000.0 -0.6268688578 0.2918672686
1383100000.0 -0.5820902523 0.3422853149
1393050000.0 -0.5327179335 0.3936702299
1403000000.0 -0.4829124629 0.4447532766
1412950000.0 -0.4330541436 0.4923535823
1422900000.0 -0.3828337566 0.5327815435
1432850000.0 -0.3297571802 0.5625130412
1442800000.0 -0.2703517789 0.5798323293
1452750000.0 -0.2031222825 0.5845306799
1462700000.0 -0.1271660456 0.5788078003
1472650000.0 -0.0445769448 0.5662273475
1482600000.0 0.0409744489 0.5481776556
1492550000.0 0.1248727751 0.5230492719
1502500000.0 0.2035569388 0.4876877561
1512450000.0 0.2723527174 0.4367056886
1522400000.0 0.327791719 0.3676564315
1532350000.0 0.3678470733 0.2794377319
1542300000.0 0.3930562206 0.1765381258
1552250000.0 0.4045168175 0.065495055
1562200000.0 0.4027602213 -0.0465482518
1572150000.0 0.3853984293 -0.1525898851
1582100000.0 0.3496430989 -0.2478288195
1592050000.0 0.2947540702 -0.3278723015
1602000000.0 0.2202503769 -0.3917071051
1611950000.0 0.1319263824 -0.438657741
1621900000.0 0.0355775389 -0.4735431191
1631850000.0 -0.0623242656 -0.4983725035
1641800000.0 -0.1570804169 -0.5137146614
1651750000.0 -0.2446178176 -0.5164264543
1661700000.0 -0.3221944817 -0.5046413345
1671650000.0 -0.389060362 -0.4770289293
1681600000.0 -0.4461100629 -0.4353510247
1691550000.0 -0.4976366584 -0.3853134638
1701500000.0 -0.5460048663 -0.3310491957
1711450000.0 -0.5923463665 -0.2772903137
1721400000.0 -0.6361181533 -0.2259051251
1731350000.0 -0.6742182709 -0.1780972081
1741300000.0 -0.7015484803 -0.1319474898
1751250000.0 -0.7152914989 -0.0847832384
1761200000.0 -0.7155642639 -0.0358812638
1771150000.0 -0.7063142355 0.0159447274
1781100000.0 -0.6935714259 0.0699026392
1791050000.0 -0.6821556629 0.123474595
1801000000.0 -0.674790819 0.1748843182
1810950000.0 -0.671657711 0.2230273046
1820900000.0 -0.6686146856 0.2666405516
1830850000.0 -0.6598020834 0.3032606006
1840800000.0 -0.6403649852 0.3352815968
1850750000.0 -0.6090734353 0.3626242376
1860700000.0 -0.5672024452 0.3873641377
1870650000.0 -0.5216332166 0.4119222144
1880600000.0 -0.4773127204 0.435435029
1890550000.0 -0.4385356873 0.4583708555
1900500000.0 -0.4056883988 0.4770501032
1910450000.0 -0.3771397109 0.4888802708
1920400000.0 -0.3488832024 0.4911102832
1930350000.0 -0.3172658378 0.4819155674
1940300000.0 -0.2806605594 0.4617629106
1950250000.0 -0.2398894781 0.4334635299
1960200000.0 -0.1982154881 0.4010524983
1970150000.0 -0.1626307082 0.3661527408
1980100000.0 -0.1385268235 0.3297441102
1990050000.0 -0.1312111511 0.2900477205
2000000000.0 -0.14465561 0.2446976028
