!Created with skrf (http://scikit-rf.org).
# GHz S RI R 50.0 
!freq ReS11 ImS11
10000000.0 -0.7446734994 0.6767881147
19950000.0 -0.1058375234 0.9833020613
29900000.0 0.5748230755 0.7913438487
39850000.0 0.9599044697 0.1867362442
49800000.0 0.8330509162 -0.5311326699
59750000.0 0.2359842248 -0.9737001925
69700000.0 -0.5128744515 -0.8680235672
79650000.0 -0.9690873986 -0.2488509631
89600000.0 -0.8311985093 0.5227166193
99550000.0 -0.1507720735 0.9520367804
109500000.0 0.6462846766 0.7084820168
119450000.0 0.9660885595 -0.0991483421
129400000.0 0.4881215579 -0.8586483343
139350000.0 -0.4200028845 -0.8960985344
149300000.0 -0.9545269768 -0.1741506754
159250000.0 -0.6818808164 0.6566477022
169200000.0 0.1239612897 0.9288846564
179150000.0 0.8179311803 0.4742137764
189100000.0 0.9031552597 -0.3295148402
199050000.0 0.3634375317 -0.8981287428
209000000.0 -0.3931341575 -0.8761846872
218950000.0 -0.8796348138 -0.335179766
228900000.0 -0.8458828689 0.3710072994
238850000.0 -0.3396140553 0.8504305256
248800000.0 0.3039208952 0.6739202658
258750000.0 0.8379697212 0.4063873253
268700000.0 0.8956000973 -0.2810053669
278650000.0 0.4640959463 -0.8074146657
288600000.0 -0.2028426402 -0.8857782949
298550000.0 -0.7297930163 -0.4890960283
308500000.0 -0.8331324635 0.1542747552
318450000.0 -0.4581670726 0.6791445281
328400000.0 0.1715120393 0.7753245311
338350000.0 0.6553988492 0.3837075048
348300000.0 0.6743228409 -0.2107372175
358250000.0 0.2611903398 -0.5727671835
368200000.0 -0.2262916425 -0.489357111
378150000.0 -0.4352970721 -0.1127745964
388100000.0 -0.2908473985 0.2262256817
398050000.0 0.0114683912 0.3051534905
408000000.0 0.2103916435 0.1452771383
417950000.0 0.1965061315 -0.0680509378
427900000.0 0.0453748217 -0.1679396676
437850000.0 -0.0965636312 -0.1150318862
447800000.0 -0.1339687813 0.0129902497
457750000.0 -0.0669840597 0.1099139003
467700000.0 0.0351001764 0.1148753132
477650000.0 0.0945462121 0.0485340502
487600000.0 0.0801757549 -0.0280147982
497550000.0 0.0264845462 -0.0331872176
507500000.0 -0.0121597115 -0.0693741384
517450000.0 -0.0354201746 -0.0240819395
527400000.0 -0.020031298 -0.0026244276
537350000.0 -0.0046451499 -0.0138103689
547300000.0 -0.0149764085 -0.0419684295
557250000.0 -0.0626147751 -0.0413564546
567200000.0 -0.0993823335 0.0086219066
577150000.0 -0.0880449437 0.0799350185
587100000.0 -0.0136002498 0.1256785177
597050000.0 0.0847617217 0.1101638031
607000000.0 0.1478918022 0.0183878621
616950000.0 0.1348076611 -0.1029881608
626900000.0 0.0395312767 -0.1862128614
636850000.0 -0.0924184492 -0.181703096
646800000.0 -0.1900859802 -0.0887954665
656750000.0 -0.1966929842 0.0433244766
666700000.0 -0.1098277215 0.1459951652
676650000.0 0.0208034467 0.1601957501
686600000.0 0.1220867054 0.0808082483
696550000.0 0.1401671388 -0.041865025
706500000.0 0.0705469938 -0.1334572803
716450000.0 -0.0355605657 -0.142499311
726400000.0 -0.1070664785 -0.0742959298
736350000.0 -0.0927869346 0.0174176758
746300000.0 -0.0101679919 0.059323507
756250000.0 0.0769378029 0.013750236
766200000.0 0.0914875303 -0.0914390208
776150000.0 0.0068130825 -0.1786368249
786100000.0 -0.1297504744 -0.1673262854
796050000.0 -0.223922115 -0.0412386688
806000000.0 -0.191560662 0.1366902994
815950000.0 -0.0254193459 0.2513897125
825900000.0 0.1965141096 0.2111753876
835850000.0 0.3394786874 0.0160651903
845800000.0 0.3062453234 -0.2407683292
855750000.0 0.096369274 -0.4136001049
865700000.0 -0.1884917793 -0.3977469993
875650000.0 -0.3954097893 -0.1835559614
885600000.0 -0.4004372222 0.1279174517
895550000.0 -0.1857152363 0.3692990478
905500000.0 0.1467310896 0.397150143
915450000.0 0.4099790123 0.1821889568
925400000.0 0.4465785764 -0.1611292081
935350000.0 0.2248072861 -0.427876276
945300000.0 -0.1247654816 -0.4446726747
955250000.0 -0.3551338769 -0.2040671402
965200000.0 -0.3528078964 0.1144419782
975150000.0 -0.097046467 0.3480726012
985100000.0 0.2740380264 0.27629387
995050000.0 0.4298235956 -0.1034687429
1005000000.0 0.1695140882 -0.4691226841
1014950000.0 -0.3274349063 -0.4359003323
1024900000.0 -0.5934929946 0.0535421207
1034850000.0 -0.2886352598 0.5979694159
1044800000.0 0.3905469953 0.6335430176
1054750000.0 0.8091261831 0.0536059593
1064700000.0 0.5567053065 -0.618542172
1074650000.0 -0.0806020935 -0.8214027795
1084600000.0 -0.6660852538 -0.4480669345
1094550000.0 -0.7343675754 0.1066930525
1104500000.0 -0.3786515278 0.6830834033
1114450000.0 0.3124774787 0.6930200348
1124400000.0 0.7078714233 0.1641999502
1134350000.0 0.5348129535 -0.4263572563
1144300000.0 0.0075714098 -0.6369983211
1154250000.0 -0.4537393079 -0.3779325716
1164200000.0 -0.5364457031 0.1143678988
1174150000.0 -0.2130396561 0.4665389423
1184100000.0 0.2440710592 0.4271215437
1194050000.0 0.4858219584 0.057535186
1204000000.0 0.3634954028 -0.3443689199
1213950000.0 -0.0036650429 -0.5207512348
1223900000.0 -0.3777414784 -0.3846450309
1233850000.0 -0.5515525432 -0.0297563979
1243800000.0 -0.4308574763 0.3514669076
1253750000.0 -0.0770331007 0.5492318616
1263700000.0 0.3194822465 0.4526266817
1273650000.0 0.549613029 0.1176973993
1283600000.0 0.5062045168 -0.2813769661
1293550000.0 0.2257732918 -0.5595233683
1303500000.0 -0.1631685102 -0.6040846214
1313450000.0 -0.4977343379 -0.4020069416
1323400000.0 -0.6396222994 -0.0308595676
1333350000.0 -0.5164364086 0.3549554196
1343300000.0 -0.1713022264 0.5824850666
1353250000.0 0.243802474 0.5376102344
1363200000.0 0.536462997 0.2408476708
1373150000.0 0.5792732699 -0.1657350804
1383100000.0 0.3698662979 -0.5074332788
1393050000.0 0.0040211243 -0.6497626306
1403000000.0 -0.3694278399 -0.5437593755
1412950000.0 -0.6036099745 -0.233653945
1422900000.0 -0.5984572984 0.1573544521
1432850000.0 -0.3490045992 0.4611354119
1442800000.0 0.0357036498 0.5389450296
1452750000.0 0.3784200395 0.3628513473
1462700000.0 0.5357699729 0.020143294
1472650000.0 0.4491550117 -0.3379965623
1482600000.0 0.1640841157 -0.560405564
1492550000.0 -0.1920869143 -0.5564587763
1502500000.0 -0.4638328083 -0.3308875535
1512450000.0 -0.5278213842 0.0142691034
1522400000.0 -0.3508368782 0.3179433324
1532350000.0 -0.0187726923 0.4284082035
1542300000.0 0.296319106 0.2927156935
1552250000.0 0.4334414454 -0.0083067532
1562200000.0 0.3355027168 -0.312328302
1572150000.0 0.0691946888 -0.4670888055
1582100000.0 -0.2240756166 -0.4089773967
1592050000.0 -0.4002919519 -0.171939424
1602000000.0 -0.3684898937 0.1264179084
1611950000.0 -0.1405205438 0.3260978859
1621900000.0 0.164186646 0.3130030662
1631850000.0 0.3730536032 0.0890172293
1641800000.0 0.3681922887 -0.220344968
1651750000.0 0.1534539926 -0.4414903286
1661700000.0 -0.1557685433 -0.459914536
1671650000.0 -0.4048563885 -0.2634171868
1681600000.0 -0.4667496808 0.058003741
1691550000.0 -0.2989125904 0.3522144221
1701500000.0 0.0331824384 0.4629508869
1711450000.0 0.3626158685 0.319058949
1721400000.0 0.5136574929 -0.0130698926
1731350000.0 0.4046830896 -0.3592693151
1741300000.0 0.0957676383 -0.532637554
1751250000.0 -0.1775182415 -0.4982093714
1761200000.0 -0.4771192154 -0.3212630769
1771150000.0 -0.5753317515 0.0345746598
1781100000.0 -0.4272795561 0.3742233704
1791050000.0 -0.0945358432 0.5507761223
1801000000.0 0.2810692928 0.4778425913
1810950000.0 0.5228517141 0.1825729363
1820900000.0 0.5218258557 -0.1925732342
1830850000.0 0.2926793913 -0.4775626577
1840800000.0 -0.0510634752 -0.5636677293
1850750000.0 -0.3677702643 -0.4344015733
1860700000.0 -0.5446490788 -0.1511541001
1870650000.0 -0.5216983548 0.1777024045
1880600000.0 -0.3092052657 0.4274984052
1890550000.0 0.0084946451 0.4965438155
1900500000.0 0.2928732859 0.3558542807
1910450000.0 0.4247250544 0.07757713
1920400000.0 0.3601465413 -0.2093861
1930350000.0 0.1507074854 -0.3864484406
1940300000.0 -0.1014526881 -0.4034846637
1950250000.0 -0.2994639154 -0.2768467143
1960200000.0 -0.3769207821 -0.0787024187
1970150000.0 -0.3261621894 0.1043914577
1980100000.0 -0.1948708412 0.2027457153
1990050000.0 -0.0594897491 0.1967728854
2000000000.0 0.0148938893 0.1320010498
