!Created with skrf (http://scikit-rf.org).
# GHz S RI R 50.0 
!freq ReS11 ImS11
10000000.0 -0.7421807003 0.6699685669
19950000.0 -0.1128480156 0.980041259
29900000.0 0.5654784467 0.7996381031
39850000.0 0.9585286647 0.2054951852
49800000.0 0.8457711222 -0.5110450643
59750000.0 0.2603343623 -0.9633825086
69700000.0 -0.4877735396 -0.8747305471
79650000.0 -0.9575067614 -0.2676162443
89600000.0 -0.8364586201 0.508560453
99550000.0 -0.1578106818 0.9518728619
109500000.0 0.6507884079 0.706889415
119450000.0 0.9620470398 -0.1201574
129400000.0 0.4462241301 -0.8737014979
139350000.0 -0.4761660188 -0.8561247301
149300000.0 -0.9589110027 -0.0874378004
159250000.0 -0.6117595896 0.7206276973
169200000.0 0.2157916267 0.9140071556
179150000.0 0.8587873395 0.3988655673
189100000.0 0.8717082404 -0.399819767
199050000.0 0.2986374391 -0.9158745009
209000000.0 -0.4404245995 -0.8479435003
218950000.0 -0.8930801345 -0.2962241537
228900000.0 -0.8396814832 0.3946612679
238850000.0 -0.3402009657 0.8568396949
248800000.0 0.3405545372 0.8496512154
258750000.0 0.8347285199 0.4171609546
268700000.0 0.9035229445 -0.2526732214
278650000.0 0.5005779031 -0.7861442572
288600000.0 -0.1502822685 -0.9011547895
298550000.0 -0.6980195805 -0.5490785664
308500000.0 -0.8562309497 0.0746043349
318450000.0 -0.5424285499 0.6284207223
328400000.0 0.0629415698 0.7965545075
338350000.0 0.5876978142 0.4790379446
348300000.0 0.6921055434 -0.0960354035
358250000.0 0.3473310395 -0.5101114584
368200000.0 -0.1306327171 -0.5013821988
378150000.0 -0.3741726436 -0.1741779608
388100000.0 -0.2772787955 0.147621551
398050000.0 -0.0216189236 0.2313587306
408000000.0 0.1427156094 0.0968579626
417950000.0 0.1152025193 -0.0703074896
427900000.0 -0.021014715 -0.1208276693
437850000.0 -0.1223427664 -0.0382149284
447800000.0 -0.1112010882 0.0858243305
457750000.0 -0.0053924909 0.1514006237
467700000.0 0.1096489638 0.1129908728
477650000.0 0.155378379 0.0049208881
487600000.0 0.1104109615 -0.0968162876
497550000.0 0.0173425816 -0.1353710302
507500000.0 -0.068424823 -0.1009663054
517450000.0 -0.0968470252 -0.03028708
527400000.0 -0.0730664022 0.0247143851
537350000.0 -0.0322718599 0.038408639
547300000.0 -0.0104438862 0.0237219495
557250000.0 -0.0165472585 0.010946347
567200000.0 -0.0303513904 0.0228942758
577150000.0 -0.020457881 0.0519786173
587100000.0 0.0259448753 0.0682242787
597050000.0 0.0844044524 0.0413356938
607000000.0 0.1122866877 -0.0347362596
616950000.0 0.0785509443 -0.1230329712
626900000.0 -0.0151300164 -0.1691251455
636850000.0 -0.1251067241 -0.137784483
646800000.0 -0.1899998332 -0.0342838374
656750000.0 -0.1660988431 0.0916347453
666700000.0 -0.0591588336 0.1711281987
676650000.0 0.0767434546 0.1557415803
686600000.0 0.1681031949 0.0520472291
696550000.0 0.1633711662 -0.0860923077
706500000.0 0.0680640513 -0.178935278
716450000.0 -0.0620144907 -0.1771703143
726400000.0 -0.1478642315 -0.0870152818
736350000.0 -0.1360546243 0.0319842942
746300000.0 -0.0399685407 0.0993889325
756250000.0 0.0714621154 0.0686277214
766200000.0 0.1164038789 -0.0394483323
776150000.0 0.056597686 -0.144358456
786100000.0 -0.0695102318 -0.1624655445
796050000.0 -0.1726381388 -0.0675617768
806000000.0 -0.1628923846 0.0900028324
815950000.0 -0.0272547126 0.1969378816
825900000.0 0.163516008 0.1677649715
835850000.0 0.2835452692 -0.0048141234
845800000.0 0.2412439378 -0.2260936752
855750000.0 0.0416427227 -0.3598847372
865700000.0 -0.2089903341 -0.3096211982
875650000.0 -0.3607344883 -0.085699481
885600000.0 -0.3047089432 0.1968468579
895550000.0 -0.0520063759 0.3617770096
905500000.0 0.2544047402 0.2914676316
915450000.0 0.4170108894 0.0087061927
925400000.0 0.3105216787 -0.3053427644
935350000.0 0.0024760035 -0.4155793377
945300000.0 -0.2630039219 -0.2857024225
955250000.0 -0.3699502341 0.0080363755
965200000.0 -0.1920598899 0.3251267034
975150000.0 0.216626274 0.3584570682
985100000.0 0.4940678353 -0.0119458662
995050000.0 0.2986291867 -0.4915156534
1005000000.0 -0.2725486383 -0.5801413646
1014950000.0 -0.6858676955 -0.090533964
1024900000.0 -0.4733193821 0.5741693793
1034850000.0 0.2420588579 0.7600858875
1044800000.0 0.7996446537 0.2607079619
1054750000.0 0.7220849951 -0.4679591944
1064700000.0 0.1241884988 -0.8433148418
1074650000.0 -0.5156701801 -0.629335594
1084600000.0 -0.7867634599 -0.068685878
1094550000.0 -0.5505997346 0.5431270454
1104500000.0 0.0662066519 0.746255951
1114450000.0 0.5977801077 0.4135552744
1124400000.0 0.6820102332 -0.1744748635
1134350000.0 0.3194348342 -0.5985710604
1144300000.0 -0.207782901 -0.6149944583
1154250000.0 -0.5621872074 -0.2549285438
1164200000.0 -0.5377074459 0.2343463265
1174150000.0 -0.1633659716 0.5369976276
1184100000.0 0.2989044709 0.4558004276
1194050000.0 0.5375897326 0.070684653
1204000000.0 0.4255919035 -0.3506301883
1213950000.0 0.0590628989 -0.5593528894
1223900000.0 -0.3405547255 -0.4587528903
1233850000.0 -0.5623687024 -0.1167557793
1243800000.0 -0.4923366993 0.2879267069
1253750000.0 -0.1624136899 0.5391308159
1263700000.0 0.2515221915 0.4993760591
1273650000.0 0.5299835749 0.1950121872
1283600000.0 0.5420477875 -0.2111326907
1293550000.0 0.2958585905 -0.5252857829
1303500000.0 -0.0868571669 -0.6153323623
1313450000.0 -0.4433785289 -0.4499999957
1323400000.0 -0.6215567111 -0.0943272304
1333350000.0 -0.5353378519 0.3003938139
1343300000.0 -0.2108164764 0.5552790289
1353250000.0 0.2045802186 0.5408719052
1363200000.0 0.5123348116 0.2659239921
1373150000.0 0.5766474906 -0.1342528036
1383100000.0 0.3847741424 -0.4785366941
1393050000.0 0.0304398905 -0.6313838617
1403000000.0 -0.3381545517 -0.5382263337
1412950000.0 -0.5757027396 -0.2403597895
1422900000.0 -0.5780417411 0.1438475207
1432850000.0 -0.3355361749 0.4465247781
1442800000.0 0.046487111 0.5260972877
1452750000.0 0.3881931975 0.3433624164
1462700000.0 0.5307988323 -0.007511304
1472650000.0 0.421049903 -0.35677156
1482600000.0 0.1255178071 -0.5534286381
1492550000.0 -0.2209132354 -0.5204790115
1502500000.0 -0.4645466066 -0.2780988735
1512450000.0 -0.4943115004 0.0642690477
1522400000.0 -0.2890279311 0.3427268789
1532350000.0 0.0480701077 0.4105998222
1542300000.0 0.3376192891 0.2359264844
1552250000.0 0.4275212725 -0.0798131084
1562200000.0 0.284624508 -0.3634430754
1572150000.0 -0.0032655684 -0.4744198714
1582100000.0 -0.2859741675 -0.3663091849
1592050000.0 -0.4229455855 -0.0956942634
1602000000.0 -0.339726559 0.2027509032
1611950000.0 -0.0696827464 0.366347649
1621900000.0 0.2441405377 0.2942490687
1631850000.0 0.4184734398 0.021413809
1641800000.0 0.3579467095 -0.2959490959
1651750000.0 0.0994915303 -0.4882635454
1661700000.0 -0.2226144052 -0.4610095186
1671650000.0 -0.4555507432 -0.226272824
1681600000.0 -0.4827596666 0.1128162336
1691550000.0 -0.2774947506 0.3986138177
1701500000.0 0.0773117021 0.4813089741
1711450000.0 0.4045508476 0.3054368757
1721400000.0 0.5368816147 -0.044017275
1731350000.0 0.4126648432 -0.391757362
1741300000.0 0.1004764115 -0.5810812185
1751250000.0 -0.2598636803 -0.5404629779
1761200000.0 -0.5239482362 -0.2918551084
1771150000.0 -0.5879567522 0.0698085017
1781100000.0 -0.4158964605 0.4032313846
1791050000.0 -0.0676446468 0.5640365738
1801000000.0 0.310333433 0.4687848243
1810950000.0 0.5420384432 0.1560161264
1820900000.0 0.5242542303 -0.2260874692
1830850000.0 0.2808404581 -0.5071032093
1840800000.0 -0.0711210598 -0.5837941322
1850750000.0 -0.3909437033 -0.4418460289
1860700000.0 -0.5640123691 -0.1450577762
1870650000.0 -0.5299289063 0.1946591489
1880600000.0 -0.2985867612 0.4443167497
1890550000.0 0.0343267796 0.4993614204
1900500000.0 0.3215750544 0.3364429141
1910450000.0 0.4375780989 0.0401279416
1920400000.0 0.3498444861 -0.2460853097
1930350000.0 0.1244988583 -0.4059965745
1940300000.0 -0.1271580489 -0.3975139337
1950250000.0 -0.3084396984 -0.2551679653
1960200000.0 -0.3603650117 -0.0541371481
1970150000.0 -0.2862245009 0.1092048488
1980100000.0 -0.1499659493 0.1693280781
1990050000.0 -0.0448282698 0.1318684838
2000000000.0 -0.0246085853 0.0650058014
