!Created with skrf (http://scikit-rf.org).
# GHz S RI R 50.0 
!freq ReS11 ImS11
10000000.0 -0.7788882501 0.5865910068
19950000.0 -0.2869667072 0.9254681531
29900000.0 0.3098992856 0.9108557711
39850000.0 0.7926238289 0.5405246702
49800000.0 0.9634530671 -0.0607200318
59750000.0 0.7252182275 -0.6594776193
69700000.0 0.147861917 -0.9832822318
79650000.0 -0.5172982794 -0.8471979222
89600000.0 -0.9332800868 -0.2799371591
99550000.0 -0.8480107953 0.4491993849
109500000.0 -0.2500222699 0.9290480798
119450000.0 0.544657396 0.8118444919
129400000.0 0.9866450963 0.099504296
139350000.0 0.7037144932 -0.7004121265
149300000.0 -0.0875069703 -0.9688985243
159250000.0 -0.7704656337 -0.5469581416
169200000.0 -0.9098549018 0.205168267
179150000.0 -0.4941976176 0.7997472133
189100000.0 0.1813678972 0.9322339372
199050000.0 0.7448526065 0.5856663585
209000000.0 0.9385267748 -0.0271862342
218950000.0 0.7112224449 -0.5990781598
228900000.0 0.1947976263 -0.8984937772
238850000.0 -0.3862147595 -0.8232664399
248800000.0 -0.7818597784 -0.4135593943
258750000.0 -0.8979593487 0.1511780885
268700000.0 -0.636538027 0.6667506136
278650000.0 -0.1238519608 0.9177704855
288600000.0 0.4290596448 0.8041499774
298550000.0 0.7966078717 0.3771370333
308500000.0 0.828884053 -0.1872955318
318450000.0 0.5064600654 -0.6500588812
328400000.0 -0.0309671826 -0.8010315252
338350000.0 -0.5227608577 -0.564247094
348300000.0 -0.7105447547 -0.0752334186
358250000.0 -0.5148333292 0.3720324922
368200000.0 -0.1061111765 0.526081312
378150000.0 0.2320965404 0.359955333
388100000.0 0.3194184266 0.0569737929
398050000.0 0.1814834444 -0.1568925098
408000000.0 -0.0171616472 -0.1781608763
417950000.0 -0.1252612948 -0.0633427824
427900000.0 -0.1004715 0.0625604108
437850000.0 0.0008895828 0.1080913541
447800000.0 0.0916638477 0.0578084817
457750000.0 0.1155524445 -0.0404219195
467700000.0 0.0626625419 -0.1218963105
477650000.0 -0.0266959496 -0.1411158212
487600000.0 -0.0995440833 -0.095188738
497550000.0 -0.1188233173 -0.0183854334
507500000.0 -0.0887949549 0.0521429745
517450000.0 -0.0264487808 0.0774998554
527400000.0 0.0255601232 0.0573820475
537350000.0 0.0411565035 0.0150303741
547300000.0 0.0210175673 -0.0159161481
557250000.0 -0.0137569169 -0.0162185729
567200000.0 -0.0317423371 0.0137249462
577150000.0 -0.014016779 0.0490081608
587100000.0 0.0329179177 0.0580647155
597050000.0 0.0815056206 0.0244569129
607000000.0 0.0978331467 -0.043547647
616950000.0 0.0632111494 -0.1140268773
626900000.0 -0.013628225 -0.1499592516
636850000.0 -0.1013915769 -0.1277444947
646800000.0 -0.1589247913 -0.0510932407
656750000.0 -0.1570363217 0.0496925176
666700000.0 -0.0915483497 0.1303235609
676650000.0 0.0111513976 0.1526005869
686600000.0 0.1059582601 0.1041117029
696550000.0 0.1497029992 0.0060012048
706500000.0 0.1222282775 -0.0956941352
716450000.0 0.0384962171 -0.1534283801
726400000.0 -0.0580451154 -0.1396278059
736350000.0 -0.114670245 -0.0629409771
746300000.0 -0.0983594678 0.0330700187
756250000.0 -0.0148181178 0.0914747961
766200000.0 0.0884539388 0.0723446637
776150000.0 0.1483217587 -0.014785147
786100000.0 0.1292531199 -0.1249278627
796050000.0 0.0282076917 -0.1958244853
806000000.0 -0.1081104169 -0.1728275254
815950000.0 -0.2049655683 -0.0490577435
825900000.0 -0.1971123599 0.1256774649
835850000.0 -0.0699204049 0.2661469114
845800000.0 0.1288750685 0.2951860024
855750000.0 0.3117206548 0.1850175123
865700000.0 0.3895548267 -0.0284167273
875650000.0 0.3124550371 -0.2553594928
885600000.0 0.0975665956 -0.3900423565
895550000.0 -0.1682429691 -0.3566744113
905500000.0 -0.3633585198 -0.1522697413
915450000.0 -0.386807677 0.1415016361
925400000.0 -0.2152477608 0.3895153487
935350000.0 0.0781519829 0.4692006154
945300000.0 0.3557286321 0.3312068739
955250000.0 0.4737692543 0.0296315455
965200000.0 0.3489640399 -0.2911536961
975150000.0 0.0147796099 -0.4468446081
985100000.0 -0.3547706154 -0.3049763158
995050000.0 -0.508641747 0.0912071797
1005000000.0 -0.2999880875 0.4933194355
1014950000.0 0.168902158 0.6051022423
1024900000.0 0.5904289721 0.2963000974
1034850000.0 0.6332888811 -0.2795058456
1044800000.0 0.1783907414 -0.7182548998
1054750000.0 -0.485831483 -0.6255846977
1064700000.0 -0.8290658146 -0.0344440281
1074650000.0 -0.6190059788 0.5953502197
1084600000.0 -0.0217425562 0.8563086242
1094550000.0 0.5415221958 0.6155568604
1104500000.0 0.7940372001 0.027734795
1114450000.0 0.5171554312 -0.5635095377
1124400000.0 -0.0910497162 -0.7387574686
1134350000.0 -0.5862635091 -0.4181672393
1144300000.0 -0.6814276971 0.1145620582
1154250000.0 -0.4001510361 0.5252280029
1164200000.0 0.0554881328 0.6235860094
1174150000.0 0.4434982536 0.3947360911
1184100000.0 0.5686899262 -0.040968245
1194050000.0 0.3572295424 -0.435524256
1204000000.0 -0.0473919064 -0.5701674216
1213950000.0 -0.4160590001 -0.4139833895
1223900000.0 -0.5957705127 -0.0804596938
1233850000.0 -0.5428057194 0.2811194177
1243800000.0 -0.2888771901 0.5404540554
1253750000.0 0.0760362445 0.5986077758
1263700000.0 0.4115737157 0.4196376277
1273650000.0 0.5734309157 0.0678245885
1283600000.0 0.4945543446 -0.3079490848
1293550000.0 0.2243075331 -0.5589476776
1303500000.0 -0.1213427482 -0.6131493597
1313450000.0 -0.4278744 -0.4767040477
1323400000.0 -0.6145305929 -0.2019553008
1333350000.0 -0.630703838 0.1357155856
1343300000.0 -0.4581134604 0.4398723487
1353250000.0 -0.1327503271 0.6002618844
1363200000.0 0.2358883468 0.5423723103
1373150000.0 0.505425752 0.2814192866
1383100000.0 0.5794617073 -0.0777707637
1393050000.0 0.4517507011 -0.4045877612
1403000000.0 0.1840139574 -0.6032247251
1412950000.0 -0.1337576389 -0.6284726678
1422900000.0 -0.4114086482 -0.4820450185
1432850000.0 -0.570185099 -0.2021183042
1442800000.0 -0.5509607029 0.1323041802
1452750000.0 -0.3423828857 0.4059926725
1462700000.0 -0.0131532145 0.5115029267
1472650000.0 0.3098809437 0.4110340616
1482600000.0 0.5094209952 0.1541235507
1492550000.0 0.5271237764 -0.1570307385
1502500000.0 0.3722359706 -0.4140676382
1512450000.0 0.1047542353 -0.5337743582
1522400000.0 -0.1799898148 -0.4738722285
1532350000.0 -0.3746751814 -0.2510007521
1542300000.0 -0.3959342277 0.0510409231
1552250000.0 -0.2293321502 0.3045983775
1562200000.0 0.0507349869 0.3999781511
1572150000.0 0.3184101715 0.3060672409
1582100000.0 0.4658207448 0.0754776621
1592050000.0 0.4416093285 -0.1930980186
1602000000.0 0.2566101554 -0.394204275
1611950000.0 -0.0217362437 -0.4442582761
1621900000.0 -0.2857276634 -0.309191347
1631850000.0 -0.4196495417 -0.0293324326
1641800000.0 -0.3538829343 0.2819728869
1651750000.0 -0.1126351729 0.4892223889
1661700000.0 0.2001085113 0.5087094192
1671650000.0 0.4609685315 0.3431594203
1681600000.0 0.5814851216 0.0598077104
1691550000.0 0.5257343799 -0.247684175
1701500000.0 0.3057857523 -0.4819461225
1711450000.0 -0.0175457222 -0.5597690681
1721400000.0 -0.3432435808 -0.4372648229
1731350000.0 -0.5492812284 -0.1426161563
1741300000.0 -0.5533503788 0.218733421
1751250000.0 -0.3605012583 0.5126473657
1761200000.0 -0.0514191153 0.6476679968
1771150000.0 0.2703251231 0.601015497
1781100000.0 0.5187725611 0.4006708154
1791050000.0 0.6334976606 0.1008955801
1801000000.0 0.5798146642 -0.2242506874
1810950000.0 0.3632289727 -0.4877544605
1820900000.0 0.0294181809 -0.5965701814
1830850000.0 -0.314681908 -0.4979246026
1840800000.0 -0.544514362 -0.2259585626
1850750000.0 -0.5895479857 0.1126539227
1860700000.0 -0.461388319 0.405355726
1870650000.0 -0.2213501778 0.583030922
1880600000.0 0.0592546826 0.6173092614
1890550000.0 0.312605181 0.5105088805
1900500000.0 0.4787936966 0.2872779595
1910450000.0 0.5085514834 0.0019362768
1920400000.0 0.3825017747 -0.2596443529
1930350000.0 0.1392429197 -0.4060611227
1940300000.0 -0.1282816122 -0.3944638846
1950250000.0 -0.3283228533 -0.2552711797
1960200000.0 -0.4162252769 -0.0581399993
1970150000.0 -0.3949985481 0.1297077576
1980100000.0 -0.2963471399 0.2604725496
1990050000.0 -0.1669732511 0.3115512944
2000000000.0 -0.0562056176 0.2906155324
