!Created with skrf (http://scikit-rf.org).
# GHz S RI R 50.0 
!freq ReS11 ImS11
10000000.0 -0.8048393622 0.6025498715
19950000.0 -0.2928633064 0.9478819885
29900000.0 0.3219259294 0.9301303233
39850000.0 0.815079389 0.5521944686
49800000.0 0.9901350202 -0.0565067044
59750000.0 0.75250027 -0.6610288642
69700000.0 0.1730361366 -0.9915906143
79650000.0 -0.5007418285 -0.8667107753
89600000.0 -0.9357376226 -0.313321423
99550000.0 -0.8823503652 0.4102840345
109500000.0 -0.3218959525 0.913339209
119450000.0 0.4627704991 0.8594680994
129400000.0 0.9566546693 0.2278787177
139350000.0 0.7886053605 -0.5998188307
149300000.0 0.0465373328 -0.9759693514
159250000.0 -0.6979370933 -0.6571573861
169200000.0 -0.9465733883 0.0823128734
179150000.0 -0.5958825478 0.746117856
189100000.0 0.0945390707 0.9615253287
199050000.0 0.7201745251 0.6542443359
209000000.0 0.9678091866 0.0277128271
218950000.0 0.755765596 -0.583043912
228900000.0 0.220103895 -0.9138078146
238850000.0 -0.3951646262 -0.8429904367
248800000.0 -0.7055222882 -0.433946015
258750000.0 -0.9228837301 0.1626646646
268700000.0 -0.6354971114 0.6960096724
278650000.0 -0.0839374356 0.9340138237
288600000.0 0.4910870637 0.7785654595
298550000.0 0.8400442511 0.3031626736
308500000.0 0.8143567976 -0.2812766537
318450000.0 0.4262006005 -0.7121088093
328400000.0 -0.1421404572 -0.7862960507
338350000.0 -0.6023529276 -0.4670776862
348300000.0 -0.7076125914 0.0577151068
358250000.0 -0.4287483459 0.4701101382
368200000.0 0.0145931568 0.545453637
378150000.0 0.3297854054 0.3064927561
388100000.0 0.3630370921 -0.0321538977
398050000.0 0.1706317739 -0.2453839296
408000000.0 -0.0677728188 -0.2431656226
417950000.0 -0.1967278156 -0.0937164777
427900000.0 -0.1735349045 0.0704290997
437850000.0 -0.0560204292 0.1497392493
447800000.0 0.0640049696 0.1218155376
457750000.0 0.1198482963 0.0301233395
467700000.0 0.0976200472 -0.0596141911
477650000.0 0.0312346494 -0.0996990061
487600000.0 -0.0270086867 -0.0821210729
497550000.0 -0.082421595 -0.0841004908
507500000.0 -0.0606900907 -0.0011998405
517450000.0 -0.0280245177 0.0112756936
527400000.0 -0.0108992159 -0.0037079052
537350000.0 -0.0216445852 -0.0223112433
547300000.0 -0.0525535067 -0.0189523434
557250000.0 -0.0748023581 0.018375168
567200000.0 -0.0620122616 0.0721165644
577150000.0 -0.0071327081 0.1117525772
587100000.0 0.0713904088 0.1064801352
597050000.0 0.1373841385 0.0466459232
607000000.0 0.1549689477 -0.0502783638
616950000.0 0.1070266831 -0.1441714236
626900000.0 0.0081999737 -0.1932231525
636850000.0 -0.1034440048 -0.1723746197
646800000.0 -0.1807670929 -0.0867925974
656750000.0 -0.1896316806 0.0286439089
666700000.0 -0.125302473 0.1244532611
676650000.0 -0.0170310015 0.1593129083
686600000.0 0.0863801327 0.1196307385
696550000.0 0.1389774693 0.0277793888
706500000.0 0.1206937573 -0.0689108096
716450000.0 0.0473561738 -0.1228150559
726400000.0 -0.0365542927 -0.108847313
736350000.0 -0.0799416762 -0.0387924395
746300000.0 -0.0544742397 0.0418523633
756250000.0 0.0285268705 0.0789637621
766200000.0 0.1204132347 0.0402512765
776150000.0 0.1601618516 -0.0630654964
786100000.0 0.1102436959 -0.1768953725
796050000.0 -0.0195987016 -0.2314006654
806000000.0 -0.1714893564 -0.1783544316
815950000.0 -0.2635472186 -0.0216829852
825900000.0 -0.2336658554 0.17694197
835850000.0 -0.0754476708 0.3256802359
845800000.0 0.1534111268 0.3474083317
855750000.0 0.3571401683 0.2187812656
865700000.0 0.4427587571 -0.0170248749
875650000.0 0.3627169058 -0.2658510183
885600000.0 0.1359734513 -0.4201393451
895550000.0 -0.1498482107 -0.4018337707
905500000.0 -0.3715467879 -0.20270532
915450000.0 -0.4194130527 0.0997296455
925400000.0 -0.2586602575 0.3627957971
935350000.0 0.0293748739 0.4553767934
945300000.0 0.3074045419 0.3344458846
955250000.0 0.4285337813 0.0498692249
965200000.0 0.3099434114 -0.2471015313
975150000.0 -0.0087698191 -0.3770683324
985100000.0 -0.3462707178 -0.2024471033
995050000.0 -0.422073234 0.2055517781
1005000000.0 -0.1195719897 0.541103433
1014950000.0 0.378311981 0.5011915512
1024900000.0 0.6848260674 0.0375975622
1034850000.0 0.4949372199 -0.5490448962
1044800000.0 -0.1306669511 -0.7838292385
1054750000.0 -0.7245341249 -0.4299848374
1064700000.0 -0.8301444734 0.2146893413
1074650000.0 -0.4722778312 0.7297136398
1084600000.0 0.1018319549 0.8455663646
1094550000.0 0.6323375888 0.5437246423
1104500000.0 0.7907495039 -0.0521341491
1114450000.0 0.4704827372 -0.5808448645
1124400000.0 -0.1176023099 -0.6976203618
1134350000.0 -0.5655397414 -0.3664246057
1144300000.0 -0.6274479076 0.1356736774
1154250000.0 -0.3414862378 0.5004484232
1164200000.0 0.0912670243 0.556190101
1174150000.0 0.4300599113 0.3001785941
1184100000.0 0.4862889607 -0.1188231001
1194050000.0 0.2314034709 -0.4461461903
1204000000.0 -0.1615398383 -0.4997390219
1213950000.0 -0.4726178242 -0.2907615018
1223900000.0 -0.5767355834 0.0512487316
1233850000.0 -0.4543480137 0.3792547912
1243800000.0 -0.156707732 0.5718981905
1253750000.0 0.2086062625 0.5480605583
1263700000.0 0.4943671778 0.3017648717
1273650000.0 0.5765423391 -0.0721709377
1283600000.0 0.423735799 -0.4180887013
1293550000.0 0.1123268355 -0.6100008813
1303500000.0 -0.2393416256 -0.6002858582
1313450000.0 -0.5248748596 -0.4112478622
1323400000.0 -0.6686611203 -0.1011077939
1333350000.0 -0.6266786054 0.2447406599
1343300000.0 -0.3952727914 0.5243156388
1353250000.0 -0.0342296282 0.6333050554
1363200000.0 0.3340216795 0.5178718212
1373150000.0 0.5736595027 0.2171306445
1383100000.0 0.6071569872 -0.154673238
1393050000.0 0.4437729847 -0.4723184335
1403000000.0 0.1501484612 -0.6501168613
1412950000.0 -0.1847078453 -0.6490839418
1422900000.0 -0.4689526349 -0.474505302
1432850000.0 -0.619109486 -0.1704207713
1442800000.0 -0.5798845915 0.1753707294
1452750000.0 -0.3517210943 0.4486153789
1462700000.0 -0.0076892595 0.5498415297
1472650000.0 0.3280719289 0.4442118181
1482600000.0 0.5407331503 0.1797126358
1492550000.0 0.5707889854 -0.1428904208
1502500000.0 0.423502951 -0.4178862039
1512450000.0 0.1540006008 -0.5610514932
1522400000.0 -0.1498931983 -0.5255660143
1532350000.0 -0.3796218407 -0.3169799876
1542300000.0 -0.4421143601 -0.0091369768
1552250000.0 -0.3069724216 0.2725151597
1562200000.0 -0.0391312483 0.4092640779
1572150000.0 0.2440706925 0.36140638
1582100000.0 0.4319077455 0.1609059237
1592050000.0 0.4586980901 -0.1035667525
1602000000.0 0.3202411956 -0.3282748746
1611950000.0 0.067931621 -0.4246821387
1621900000.0 -0.2004946273 -0.3449393725
1631850000.0 -0.3692733101 -0.1081171807
1641800000.0 -0.355753527 0.1895803609
1651750000.0 -0.1603382009 0.4166054441
1661700000.0 0.130330971 0.47575848
1671650000.0 0.3945651443 0.3506607787
1681600000.0 0.535621895 0.09623702
1691550000.0 0.5065223554 -0.1979027606
1701500000.0 0.3107724473 -0.4325633042
1711450000.0 0.0036768178 -0.5208034242
1721400000.0 -0.3136662868 -0.4127919659
1731350000.0 -0.5160491002 -0.1342847216
1741300000.0 -0.5197802327 0.2105107539
1751250000.0 -0.3316164845 0.4899209742
1761200000.0 -0.0315124511 0.6151432637
1771150000.0 0.2791319109 0.5641341242
1781100000.0 0.5153937085 0.3636874999
1791050000.0 0.6174037914 0.0683588209
1801000000.0 0.5498096185 -0.2467554739
1810950000.0 0.3154896588 -0.4876650283
1820900000.0 -0.0238291033 -0.5634232959
1830850000.0 -0.3496419622 -0.4349813755
1840800000.0 -0.5435792255 -0.1545224095
1850750000.0 -0.5538861648 0.1683369444
1860700000.0 -0.4045146691 0.4303918931
1870650000.0 -0.1588784293 0.5721740154
1880600000.0 0.1127546452 0.5720665122
1890550000.0 0.3434078143 0.4371363838
1900500000.0 0.4714266217 0.1996013292
1910450000.0 0.4505281375 -0.0711820486
1920400000.0 0.2846559619 -0.2827579752
1930350000.0 0.0409589915 -0.3616704534
1940300000.0 -0.1841179495 -0.2996704337
1950250000.0 -0.3209463791 -0.148478458
1960200000.0 -0.3512300489 0.0209916818
1970150000.0 -0.2975581191 0.1519886203
1980100000.0 -0.2035059973 0.2132819332
1990050000.0 -0.1210461217 0.2058803752
2000000000.0 -0.0890365341 0.1647385786
