!Created with skrf (http://scikit-rf.org).
# GHz S RI R 50.0 
!freq ReS11 ImS11
10000000.0 -0.74472779 0.6742951222
19950000.0 -0.1094684948 0.9819854601
29900000.0 0.5701180424 0.7945667575
39850000.0 0.9586345191 0.1946020831
49800000.0 0.8385991889 -0.5221006713
59750000.0 0.2490228411 -0.9693822117
69700000.0 -0.4974395227 -0.8754797411
79650000.0 -0.962649142 -0.2690718401
89600000.0 -0.8442600458 0.5007135737
99550000.0 -0.1804801237 0.9472702196
109500000.0 0.6203419183 0.7310574756
119450000.0 0.9674471377 -0.0608629691
129400000.0 0.5207650595 -0.835974099
139350000.0 -0.3810943918 -0.9109956605
149300000.0 -0.946150668 -0.2126813191
159250000.0 -0.7056817159 0.630681385
169200000.0 0.0936294608 0.9314721204
179150000.0 0.8039026885 0.4943202265
189100000.0 0.9064276515 -0.3117997845
199050000.0 0.3734000853 -0.8909007095
209000000.0 -0.3843888625 -0.8775027514
218950000.0 -0.8763239717 -0.3403873931
228900000.0 -0.8471524209 0.3668884446
238850000.0 -0.3414586062 0.8487906437
248800000.0 0.3976833712 0.7095706628
258750000.0 0.8339232106 0.4080528123
268700000.0 0.8921120622 -0.281475587
278650000.0 0.4582336341 -0.8074658064
288600000.0 -0.2084224645 -0.8828847956
298550000.0 -0.7326497092 -0.4833753574
308500000.0 -0.8318529643 0.1592768378
318450000.0 -0.4543494085 0.6816387339
328400000.0 0.1760451781 0.7740704406
338350000.0 0.6569323316 0.3781531513
348300000.0 0.6696025469 -0.2172938635
358250000.0 0.2550312035 -0.5772643441
368200000.0 -0.2301177667 -0.4892181473
378150000.0 -0.439943505 -0.1089460226
388100000.0 -0.2962711365 0.2302662166
398050000.0 0.0084528866 0.3062836019
408000000.0 0.213101275 0.1444764166
417950000.0 0.2001184086 -0.0695017768
427900000.0 0.0450369624 -0.1692403503
437850000.0 -0.0986141578 -0.1164439879
447800000.0 -0.1322190998 0.0112435091
457750000.0 -0.0636403914 0.1047364149
467700000.0 0.0322898134 0.1062948874
477650000.0 0.0820521103 0.0394937706
487600000.0 0.0654289217 -0.0257476377
497550000.0 0.0291211237 -0.0120573598
507500000.0 -0.0104542136 -0.0561240158
517450000.0 -0.0257723222 -0.0195017456
527400000.0 -0.0114060411 -0.0099437792
537350000.0 -2.79982e-05 -0.0262304722
547300000.0 -0.0186872588 -0.0504676218
557250000.0 -0.069298235 -0.0430866384
567200000.0 -0.1063217775 0.0067234657
577150000.0 -0.0918311748 0.0783731493
587100000.0 -0.0161698428 0.1269133042
597050000.0 0.0842218633 0.1101256954
607000000.0 0.1496331551 0.020801339
616950000.0 0.1345066855 -0.1000891482
626900000.0 0.0398771196 -0.1861588878
636850000.0 -0.0888487176 -0.1865898734
646800000.0 -0.1846628546 -0.0970605816
656750000.0 -0.1970196482 0.0347329996
666700000.0 -0.1191160035 0.137885171
676650000.0 0.0070263637 0.1578323871
686600000.0 0.1114590815 0.0864189094
696550000.0 0.1380461308 -0.0311725748
706500000.0 0.0765683552 -0.1241265245
716450000.0 -0.0263089725 -0.1404174796
726400000.0 -0.0989150425 -0.0781205117
736350000.0 -0.0912799427 0.0094873568
746300000.0 -0.0144912605 0.0508854573
756250000.0 0.0686802249 0.0085304206
766200000.0 0.0825560429 -0.0916425676
776150000.0 0.000668748 -0.17086825
786100000.0 -0.131079369 -0.1564142152
796050000.0 -0.21884012 -0.0336576126
806000000.0 -0.1813840868 0.1355271044
815950000.0 -0.0145772562 0.2402987728
825900000.0 0.1980714051 0.196222505
835850000.0 0.3283356969 0.0032119946
845800000.0 0.2851258345 -0.2442974338
855750000.0 0.0756032963 -0.4055492956
865700000.0 -0.1965806979 -0.3803663255
875650000.0 -0.384623922 -0.1651398234
885600000.0 -0.378992583 0.1361098944
895550000.0 -0.1648464144 0.3592329484
905500000.0 0.152493159 0.3677216425
915450000.0 0.3923677135 0.1439072165
925400000.0 0.4048372279 -0.1855742451
935350000.0 0.1721467023 -0.4175311647
945300000.0 -0.1654515814 -0.3991912015
955250000.0 -0.3805886653 -0.1285710459
965200000.0 -0.295330452 0.2148788053
975150000.0 0.0591548857 0.3521927027
985100000.0 0.3889520144 0.1224714018
995050000.0 0.3586723936 -0.3059572542
1005000000.0 -0.0717899339 -0.5378650087
1014950000.0 -0.5387747166 -0.2729810826
1024900000.0 -0.5708632255 0.3304324607
1034850000.0 -0.0414818416 0.7290563466
1044800000.0 0.6210918685 0.4950168614
1054750000.0 0.8088149709 -0.1972445676
1064700000.0 0.3636261612 -0.727748969
1074650000.0 -0.2345418103 -0.763932663
1084600000.0 -0.6797316357 -0.3412286924
1094550000.0 -0.7293541036 0.2672407618
1104500000.0 -0.2483923259 0.7153326128
1114450000.0 0.3921574108 0.6125641897
1124400000.0 0.6875624754 0.066947086
1134350000.0 0.45066927 -0.4638815259
1144300000.0 -0.0714850873 -0.6004055394
1154250000.0 -0.4717325047 -0.3028350397
1164200000.0 -0.4868919786 0.1674160945
1174150000.0 -0.1531756417 0.4605061531
1184100000.0 0.2714890589 0.3854787881
1194050000.0 0.4730799116 0.0115548807
1204000000.0 0.3243815176 -0.3719223096
1213950000.0 -0.0447713307 -0.5162947763
1223900000.0 -0.4029334394 -0.3557461405
1233850000.0 -0.5535335428 0.0076118875
1243800000.0 -0.4139217323 0.3771517927
1253750000.0 -0.0515189166 0.5532719524
1263700000.0 0.3416478382 0.4385795788
1273650000.0 0.5588697012 0.0950804026
1283600000.0 0.4991563015 -0.3026942664
1293550000.0 0.2041771708 -0.5723317729
1303500000.0 -0.1883798416 -0.6048215354
1313450000.0 -0.5166683304 -0.3903550625
1323400000.0 -0.6456311403 -0.0126754586
1333350000.0 -0.5116134916 0.3730790172
1343300000.0 -0.1616822886 0.5931120481
1353250000.0 0.252668586 0.5372657043
1363200000.0 0.5414524083 0.2321816262
1373150000.0 0.5801202747 -0.1769605362
1383100000.0 0.3642959037 -0.5130257919
1393050000.0 -0.004842627 -0.6476931601
1403000000.0 -0.3771339875 -0.5385457719
1412950000.0 -0.6076822339 -0.2313932474
1422900000.0 -0.601863618 0.1533347852
1432850000.0 -0.3557485784 0.4573624474
1442800000.0 0.0258264802 0.5453865112
1452750000.0 0.3706330999 0.376121763
1462700000.0 0.5319964834 0.0287832208
1472650000.0 0.4473761591 -0.3363321805
1482600000.0 0.1604993357 -0.5573781881
1492550000.0 -0.1963900013 -0.5476531804
1502500000.0 -0.4646011 -0.3230276976
1512450000.0 -0.525532785 0.0153261616
1522400000.0 -0.3519638938 0.315509733
1532350000.0 -0.0281043474 0.4315832768
1542300000.0 0.2836155912 0.3023601891
1552250000.0 0.4251390572 0.0003647206
1562200000.0 0.3333894155 -0.3062331438
1572150000.0 0.0686117398 -0.4603344236
1582100000.0 -0.2274205015 -0.3955243281
1592050000.0 -0.403610333 -0.1537369565
1602000000.0 -0.3645728971 0.1403597965
1611950000.0 -0.1253523178 0.3284803648
1621900000.0 0.1797703047 0.3029767983
1631850000.0 0.3733716461 0.0717087817
1641800000.0 0.3456346755 -0.233960784
1651750000.0 0.1181070516 -0.4412434201
1661700000.0 -0.1862164154 -0.438085782
1671650000.0 -0.4154520857 -0.2234837848
1681600000.0 -0.4542540472 0.1011363057
1691550000.0 -0.2687243039 0.3769130075
1701500000.0 0.0676005912 0.4586889179
1711450000.0 0.3861879478 0.2922030715
1721400000.0 0.5164579385 -0.0419916111
1731350000.0 0.3903005948 -0.3771385375
1741300000.0 0.0778454966 -0.5564417279
1751250000.0 -0.2732581006 -0.5061407558
1761200000.0 -0.5173320201 -0.2509090114
1771150000.0 -0.5559353069 0.106877472
1781100000.0 -0.3635622917 0.4199157136
1791050000.0 -0.014468193 0.5369699565
1801000000.0 0.2879327675 0.3883652914
1810950000.0 0.4561699128 0.1613088122
1820900000.0 0.5088153894 -0.1664216806
1830850000.0 0.2912689573 -0.4697070053
1840800000.0 -0.0603059803 -0.5629786875
1850750000.0 -0.3848728022 -0.426839886
1860700000.0 -0.5595768174 -0.1313559869
1870650000.0 -0.5257588781 0.2059621273
1880600000.0 -0.2979000535 0.455125514
1890550000.0 0.0323162887 0.5126351885
1900500000.0 0.3221839943 0.3553958391
1910450000.0 0.4447937402 0.060450057
1920400000.0 0.3620867392 -0.2339381032
1930350000.0 0.1331513174 -0.4049651998
1940300000.0 -0.1306292163 -0.4029168564
1950250000.0 -0.3242473274 -0.2561139812
1960200000.0 -0.3845102268 -0.0437430837
1970150000.0 -0.3118691438 0.1376324868
1980100000.0 -0.164114229 0.2171626347
1990050000.0 -0.0310967544 0.1885405301
2000000000.0 0.0241692315 0.1121684881
