!Created with skrf (http://scikit-rf.org).
# GHz S RI R 50.0 
!freq ReS11 ImS11
10000000.0 -0.7394701429 0.6732098885
19950000.0 -0.1050068886 0.9808873786
29900000.0 0.5744436339 0.793127455
39850000.0 0.961279833 0.1918353184
49800000.0 0.8377681532 -0.5244600243
59750000.0 0.2453512288 -0.9675306522
69700000.0 -0.4997205044 -0.8681756889
79650000.0 -0.9599204296 -0.2588931125
89600000.0 -0.8359457217 0.5088522095
99550000.0 -0.1701068956 0.9494914621
109500000.0 0.627348781 0.7278518951
119450000.0 0.9677159344 -0.0639582585
129400000.0 0.5192146037 -0.8330509277
139350000.0 -0.3800979202 -0.9056110946
149300000.0 -0.9429668627 -0.210686641
159250000.0 -0.7068174927 0.6303258202
169200000.0 0.0890545494 0.9349143729
179150000.0 0.8003128522 0.5025822228
189100000.0 0.9080897027 -0.3017765562
199050000.0 0.3792261564 -0.884260363
209000000.0 -0.3803351529 -0.8759694582
218950000.0 -0.8761522341 -0.3389760256
228900000.0 -0.8473569908 0.3711732872
238850000.0 -0.3385795654 0.8532725017
248800000.0 0.3999601075 0.7017877008
258750000.0 0.8349170813 0.4030190638
268700000.0 0.8862038592 -0.2871708473
278650000.0 0.4464705358 -0.8083937207
288600000.0 -0.2221317131 -0.8749129838
298550000.0 -0.7413875481 -0.4656539007
308500000.0 -0.8264900692 0.1814224754
318450000.0 -0.4327782528 0.6935385577
328400000.0 0.200483688 0.7632650828
338350000.0 0.6641939689 0.3499376886
348300000.0 0.6532530603 -0.2430589926
358250000.0 0.2224076435 -0.5824488704
368200000.0 -0.259835329 -0.4710249537
378150000.0 -0.4458039326 -0.079508357
388100000.0 -0.2767506162 0.2522552411
398050000.0 0.0354030671 0.308472624
408000000.0 0.22700014 0.1301800872
417950000.0 0.1982388069 -0.0875384475
427900000.0 0.0367843992 -0.1815273844
437850000.0 -0.1078969042 -0.1214152415
447800000.0 -0.1439409007 0.0098409942
457750000.0 -0.0755288777 0.107651847
467700000.0 0.0270943759 0.1153674067
477650000.0 0.0880414166 0.0546154107
487600000.0 0.0799706733 -0.0172679903
497550000.0 0.0385047959 -0.0215820698
507500000.0 -0.0001751648 -0.0697706343
517450000.0 -0.0218112684 -0.0350246622
527400000.0 -0.0129341059 -0.0211538952
537350000.0 -0.009039186 -0.0328668256
547300000.0 -0.0319629144 -0.0522057579
557250000.0 -0.0793504933 -0.0369202698
567200000.0 -0.1058860393 0.0225899788
577150000.0 -0.0799766332 0.0939817504
587100000.0 0.0049852475 0.1317959355
597050000.0 0.1039757963 0.1043104658
607000000.0 0.159098754 0.0037575867
616950000.0 0.1348253528 -0.1178014371
626900000.0 0.0327065486 -0.1948618047
636850000.0 -0.0985754984 -0.1817034801
646800000.0 -0.1917757059 -0.0826082746
656750000.0 -0.1914353196 0.0509154
666700000.0 -0.1005591214 0.1505025527
676650000.0 0.0306221611 0.1600620794
686600000.0 0.1295749235 0.0770102309
696550000.0 0.1442638162 -0.0458793475
706500000.0 0.0720157458 -0.1348582353
716450000.0 -0.034536412 -0.1401890304
726400000.0 -0.1031861455 -0.0697185547
736350000.0 -0.0859624507 0.0216158796
746300000.0 -0.0016740337 0.0601361988
756250000.0 0.083214 0.0107658138
766200000.0 0.0919308028 -0.0948042737
776150000.0 0.0019397555 -0.1774562139
786100000.0 -0.1345075568 -0.157846564
796050000.0 -0.2216245984 -0.0262276495
806000000.0 -0.1784575609 0.1508610007
815950000.0 -0.0057027692 0.2548395958
825900000.0 0.2121128328 0.2004409055
835850000.0 0.3390049424 -0.0022765655
845800000.0 0.2869989083 -0.2512894002
855750000.0 0.0708727116 -0.4029829549
865700000.0 -0.2010041118 -0.366311289
875650000.0 -0.3851522027 -0.1485074883
885600000.0 -0.3688628196 0.1499739402
895550000.0 -0.1455055311 0.3642132644
905500000.0 0.1723840742 0.3619910076
915450000.0 0.4004366458 0.1333187189
925400000.0 0.397094471 -0.1933221812
935350000.0 0.1574131956 -0.4163283515
945300000.0 -0.176373425 -0.3880720279
955250000.0 -0.3746075217 -0.1079344346
965200000.0 -0.2698738045 0.2379487576
975150000.0 0.0984210852 0.3537724003
985100000.0 0.4172423264 0.0815519285
995050000.0 0.3356406843 -0.3753526058
1005000000.0 -0.1497984627 -0.556116671
1014950000.0 -0.6044839647 -0.1985628768
1024900000.0 -0.5419258963 0.4366036404
1034850000.0 0.068435056 0.7558751601
1044800000.0 0.6978737129 0.4194947209
1054750000.0 0.7908866873 -0.2887437677
1064700000.0 0.2973633896 -0.7497053133
1074650000.0 -0.2827862488 -0.7546668734
1084600000.0 -0.7076498267 -0.3085323421
1094550000.0 -0.7173293844 0.3150496292
1104500000.0 -0.2060204047 0.7338994612
1114450000.0 0.4269348934 0.596219392
1124400000.0 0.6980667676 0.0418397231
1134350000.0 0.4527325594 -0.4806832641
1144300000.0 -0.0654289504 -0.6142737812
1154250000.0 -0.4719304982 -0.3205906014
1164200000.0 -0.5030321459 0.1549249838
1174150000.0 -0.1641312137 0.4630751858
1184100000.0 0.2706827663 0.3883597961
1194050000.0 0.4772601591 0.0154557486
1204000000.0 0.3333742935 -0.3658844837
1213950000.0 -0.0335008671 -0.5162783371
1223900000.0 -0.3925031739 -0.3614729647
1233850000.0 -0.5439079507 -0.0019035681
1243800000.0 -0.4030909145 0.3677022602
1253750000.0 -0.0418033345 0.543478056
1263700000.0 0.3459022192 0.4269627737
1273650000.0 0.5577170951 0.0830125004
1283600000.0 0.4947025179 -0.3108558154
1293550000.0 0.2027601158 -0.5750642094
1303500000.0 -0.1875175122 -0.6003851836
1313450000.0 -0.5122885463 -0.3818791724
1323400000.0 -0.6356919863 -0.0029082219
1333350000.0 -0.4917545291 0.377835959
1343300000.0 -0.1342093966 0.5869013576
1353250000.0 0.2774261007 0.519845362
1363200000.0 0.5526142995 0.2087865789
1373150000.0 0.5742859566 -0.1969839606
1383100000.0 0.3506772366 -0.5235952007
1393050000.0 -0.0172518551 -0.6461210642
1403000000.0 -0.3819041371 -0.5241399511
1412950000.0 -0.6002432438 -0.2087804826
1422900000.0 -0.5808731117 0.1766660085
1432850000.0 -0.3219339757 0.4665136722
1442800000.0 0.0622813631 0.5309507509
1452750000.0 0.3955939282 0.3450310395
1462700000.0 0.5371411054 -0.0004743966
1472650000.0 0.4349235557 -0.350985955
1482600000.0 0.1442098757 -0.5578281169
1492550000.0 -0.2050769437 -0.5402523151
1502500000.0 -0.4611582138 -0.3079768888
1512450000.0 -0.5085213604 0.0337762202
1522400000.0 -0.3228439591 0.3254083341
1532350000.0 0.0041525891 0.4192463812
1542300000.0 0.3031153272 0.2699861549
1552250000.0 0.4221335245 -0.0314370551
1562200000.0 0.3128528428 -0.3231216705
1572150000.0 0.0455226001 -0.45883331
1582100000.0 -0.2390679348 -0.3808554303
1592050000.0 -0.3978657697 -0.1339899636
1602000000.0 -0.3442759999 0.1574742406
1611950000.0 -0.099598161 0.3300152923
1621900000.0 0.2019381673 0.2808890628
1631850000.0 0.3808209779 0.0356154303
1641800000.0 0.3346767173 -0.2633236894
1651750000.0 0.0952998806 -0.4477885103
1661700000.0 -0.2087345003 -0.4265159632
1671650000.0 -0.4231863923 -0.207316731
1681600000.0 -0.4430639822 0.1085910529
1691550000.0 -0.2467009681 0.3739795037
1701500000.0 0.0879190146 0.4455952324
1711450000.0 0.3907145469 0.270598726
1721400000.0 0.5041845809 -0.0648439407
1731350000.0 0.3731547715 -0.392684473
1741300000.0 0.0668912243 -0.5601855534
1751250000.0 -0.275216182 -0.5030975012
1761200000.0 -0.5157826715 -0.2513381806
1771150000.0 -0.5585266006 0.0993275729
1781100000.0 -0.3758792654 0.4091425301
1791050000.0 -0.0330251743 0.5444552193
1801000000.0 0.3259562116 0.4321678931
1810950000.0 0.5314909215 0.1185140299
1820900000.0 0.4934428371 -0.2484201879
1830850000.0 0.2430343695 -0.5063439322
1840800000.0 -0.1015603045 -0.5605882291
1850750000.0 -0.4033590161 -0.4059832808
1860700000.0 -0.5537804559 -0.108887303
1870650000.0 -0.4999812825 0.2167765262
1880600000.0 -0.2620825081 0.4438615424
1890550000.0 0.0614430342 0.4774441702
1900500000.0 0.3260444378 0.3039207666
1910450000.0 0.4205816133 0.014201091
1920400000.0 0.321193898 -0.2555901139
1930350000.0 0.0974926038 -0.3962273023
1940300000.0 -0.1433072412 -0.3750304861
1950250000.0 -0.3068720448 -0.228080992
1960200000.0 -0.3433808081 -0.037339728
1970150000.0 -0.2656039782 0.1086198513
1980100000.0 -0.1418618516 0.1574016756
1990050000.0 -0.0522473022 0.1209114185
2000000000.0 -0.0371634612 0.0759342213
