!Created with skrf (http://scikit-rf.org).
# GHz S RI R 50.0 
!freq ReS11 ImS11
10000000.0 -0.7563300057 0.6776697162
19950000.0 -0.1183390423 0.985899427
29900000.0 0.5627606227 0.7990811418
39850000.0 0.9548754083 0.200280892
49800000.0 0.841115887 -0.5199326032
59750000.0 0.2511201349 -0.9767691423
69700000.0 -0.506849486 -0.8850968122
79650000.0 -0.9775243113 -0.2631446915
89600000.0 -0.8392345404 0.522543521
99550000.0 -0.1398290793 0.9538380469
109500000.0 0.6700786031 0.6825785632
119450000.0 0.9594904581 -0.1617310796
129400000.0 0.4131650528 -0.9065304469
139350000.0 -0.5176647287 -0.8536270875
149300000.0 -0.9714176218 -0.0599013911
159250000.0 -0.5923340708 0.7355831903
169200000.0 0.2397392289 0.9045059415
179150000.0 0.8720394751 0.3781938122
189100000.0 0.8773410424 -0.4211321089
199050000.0 0.3003147499 -0.9359471931
209000000.0 -0.4415790757 -0.8661102483
218950000.0 -0.8953089602 -0.3132795458
228900000.0 -0.8459899987 0.3781992491
238850000.0 -0.352927654 0.8476143513
248800000.0 0.3225098574 0.8542398328
258750000.0 0.838536074 0.4328164212
268700000.0 0.9254532607 -0.2395518111
278650000.0 0.5331135884 -0.7877684198
288600000.0 -0.1189157574 -0.9195359814
298550000.0 -0.6779037111 -0.580851894
308500000.0 -0.8565583175 0.0390908772
318450000.0 -0.563929169 0.6069009611
328400000.0 0.0379817688 0.8035710829
338350000.0 0.5830135765 0.5065448616
348300000.0 0.7124225706 -0.0718675852
358250000.0 0.3788918168 -0.5034099688
368200000.0 -0.1035835263 -0.5110802579
378150000.0 -0.3609975495 -0.1909423928
388100000.0 -0.2772878806 0.1368962474
398050000.0 -0.0255356981 0.232142911
408000000.0 0.1428028231 0.1044525099
417950000.0 0.1210879143 -0.0608420713
427900000.0 -0.0108999901 -0.1143501088
437850000.0 -0.1130691704 -0.0355699642
447800000.0 -0.105783585 0.0868132731
457750000.0 -0.0044348049 0.1535011856
467700000.0 0.1076882725 0.1183831202
477650000.0 0.1534501075 0.0131858237
487600000.0 0.1096848834 -0.087081742
497550000.0 0.0177512992 -0.1245241034
507500000.0 -0.0670917658 -0.0902138222
517450000.0 -0.0938630501 -0.0202532568
527400000.0 -0.069030523 0.033037233
537350000.0 -0.0276307397 0.0426477194
547300000.0 -0.0084047726 0.0220318565
557250000.0 -0.0212867099 0.0051326148
567200000.0 -0.0446530092 0.0173258871
577150000.0 -0.0425442717 0.0531785275
587100000.0 0.0021073409 0.0804028377
597050000.0 0.0665199118 0.0637888791
607000000.0 0.1072349146 -0.0090185733
616950000.0 0.0869403719 -0.1035233193
626900000.0 0.0002495979 -0.1640948555
636850000.0 -0.1140818372 -0.149357003
646800000.0 -0.1928283344 -0.0568690585
656750000.0 -0.1866119904 0.0680424509
666700000.0 -0.0936889439 0.1585393884
676650000.0 0.0387125893 0.1592555802
686600000.0 0.1378119629 0.0696671534
696550000.0 0.1481836017 -0.061731698
706500000.0 0.0688904885 -0.1595380777
716450000.0 -0.0520965523 -0.1702680574
726400000.0 -0.1369546788 -0.0958615274
736350000.0 -0.1328332389 0.0116997119
746300000.0 -0.0480884097 0.0745246356
756250000.0 0.0532444396 0.0469383704
766200000.0 0.0931230965 -0.0540202895
776150000.0 0.0333141973 -0.1525600303
786100000.0 -0.0908005758 -0.1655921917
796050000.0 -0.190375508 -0.0679159451
806000000.0 -0.1778860362 0.0918441011
815950000.0 -0.0381081642 0.2033696302
825900000.0 0.1627371146 0.1764706298
835850000.0 0.2961905643 0.0029994193
845800000.0 0.2667116417 -0.2320733372
855750000.0 0.0686809244 -0.3878251764
865700000.0 -0.1954193034 -0.3613535653
875650000.0 -0.3795357659 -0.1465942429
885600000.0 -0.3604972406 0.1504966323
895550000.0 -0.1322225255 0.36302768
905500000.0 0.1930166101 0.3558496829
915450000.0 0.4260536308 0.1163289494
925400000.0 0.4199214069 -0.2260650825
935350000.0 0.1670482251 -0.4639259403
945300000.0 -0.189104227 -0.4446530083
955250000.0 -0.4224032253 -0.1623671471
965200000.0 -0.365039087 0.2178590113
975150000.0 -0.0160919916 0.4239120292
985100000.0 0.38240589 0.2621977589
995050000.0 0.4849935538 -0.1879380517
1005000000.0 0.1443440538 -0.5495149434
1014950000.0 -0.3880114792 -0.456536248
1024900000.0 -0.6320225872 0.0828960812
1034850000.0 -0.2860253376 0.6354141245
1044800000.0 0.4187942038 0.6482371845
1054750000.0 0.833761211 0.0383811375
1064700000.0 0.5628689779 -0.651088375
1074650000.0 -0.1403691835 -0.8416524544
1084600000.0 -0.7112755317 -0.4101055615
1094550000.0 -0.7536500955 0.2307505803
1104500000.0 -0.2809732251 0.7430642376
1114450000.0 0.4092073996 0.6618925122
1124400000.0 0.7438699111 0.0849212927
1134350000.0 0.5093951734 -0.4928052765
1144300000.0 -0.0423439119 -0.6669295759
1154250000.0 -0.5053783693 -0.3813446391
1164200000.0 -0.5903171237 0.1304357437
1174150000.0 -0.2654820796 0.5169488584
1184100000.0 0.2255909174 0.5141107467
1194050000.0 0.5271889139 0.1476060051
1204000000.0 0.4560748873 -0.3006805875
1213950000.0 0.0955021728 -0.5472488881
1223900000.0 -0.3201494447 -0.473708732
1233850000.0 -0.5694331503 -0.1397380822
1243800000.0 -0.5235838018 0.2755986379
1253750000.0 -0.2054410533 0.5524986716
1263700000.0 0.2195172731 0.5365622272
1273650000.0 0.5219148869 0.2399433001
1283600000.0 0.5549500303 -0.1765600553
1293550000.0 0.3181761243 -0.5111271626
1303500000.0 -0.0688323637 -0.6221854202
1313450000.0 -0.4402611897 -0.4729676612
1323400000.0 -0.6414128044 -0.1228245322
1333350000.0 -0.5782041435 0.281066672
1343300000.0 -0.2668436928 0.5593708886
1353250000.0 0.1546711363 0.5730830762
1363200000.0 0.4869633499 0.3158823542
1373150000.0 0.5823458074 -0.0859894555
1383100000.0 0.4129121594 -0.4526729368
1393050000.0 0.0626987964 -0.6361618038
1403000000.0 -0.3199603104 -0.5707833794
1412950000.0 -0.584368738 -0.2866503762
1422900000.0 -0.616024084 0.1020488628
1432850000.0 -0.3956361425 0.4278530127
1442800000.0 -0.0163776625 0.5414101122
1452750000.0 0.3462955292 0.387168944
1462700000.0 0.5247899956 0.0450332235
1472650000.0 0.4474213917 -0.3223930063
1482600000.0 0.1646911712 -0.551387003
1492550000.0 -0.1911578407 -0.548941954
1502500000.0 -0.4577822723 -0.3234385325
1512450000.0 -0.5149217879 0.0197820804
1522400000.0 -0.3312328356 0.3150009298
1532350000.0 -0.0002807538 0.411385112
1542300000.0 0.3056548537 0.2627245262
1552250000.0 0.4250345054 -0.046249513
1562200000.0 0.3059724612 -0.34522263
1572150000.0 0.0228205974 -0.4796296415
1582100000.0 -0.2702752473 -0.3865929537
1592050000.0 -0.4230280783 -0.1191727318
1602000000.0 -0.3524460061 0.1851806856
1611950000.0 -0.0883161864 0.3623496184
1621900000.0 0.2315726208 0.3069357606
1631850000.0 0.4252724729 0.0410484525
1641800000.0 0.3815396301 -0.2860898854
1651750000.0 0.1248960089 -0.49589666
1661700000.0 -0.2085601049 -0.4805215245
1671650000.0 -0.4552623302 -0.2481061944
1681600000.0 -0.4962230313 0.0964867099
1691550000.0 -0.3013416559 0.3971675891
1701500000.0 0.0532440196 0.504877329
1711450000.0 0.4000261205 0.3504392189
1721400000.0 0.5632888463 0.0013919108
1731350000.0 0.460255724 -0.3693182102
1741300000.0 0.1476298852 -0.5876308222
1751250000.0 -0.2288420117 -0.56593847
1761200000.0 -0.5146684272 -0.3248106085
1771150000.0 -0.6036902512 0.0404543785
1781100000.0 -0.4556743069 0.3921481308
1791050000.0 -0.1189614765 0.5875362261
1801000000.0 0.2740002692 0.5318001261
1810950000.0 0.5470122737 0.2379783629
1820900000.0 0.5726264253 -0.1588360643
1830850000.0 0.3508440245 -0.4778780047
1840800000.0 -0.0072938222 -0.5941530112
1850750000.0 -0.3536633539 -0.4804896209
1860700000.0 -0.565042314 -0.1949283897
1870650000.0 -0.5721879958 0.1557139798
1880600000.0 -0.3725995382 0.4418100182
1890550000.0 -0.0418104272 0.5492572235
1900500000.0 0.2812683471 0.4308368065
1910450000.0 0.4551128087 0.1445044671
1920400000.0 0.4169316594 -0.1728253308
1930350000.0 0.2084887682 -0.3882651632
1940300000.0 -0.0656986446 -0.4336567675
1950250000.0 -0.2956661715 -0.3236309533
1960200000.0 -0.4075389604 -0.1183957417
1970150000.0 -0.3801302759 0.0934776036
1980100000.0 -0.2475343361 0.2278665533
1990050000.0 -0.0859972343 0.2496906239
2000000000.0 0.0260490253 0.1819776439
