!Created with skrf (http://scikit-rf.org).
# GHz S RI R 50.0 
!freq ReS11 ImS11
10000000.0 -0.7877914995 0.5990517037
19950000.0 -0.2817427206 0.9401461392
29900000.0 0.3259179992 0.9215554665
39850000.0 0.8123587428 0.545594246
49800000.0 0.9822807205 -0.0585631103
59750000.0 0.7432888222 -0.6562717674
69700000.0 0.1684240647 -0.9809904309
79650000.0 -0.4966989059 -0.855973293
89600000.0 -0.9262552608 -0.3088745098
99550000.0 -0.8763378563 0.4071346326
109500000.0 -0.327426795 0.9088767834
119450000.0 0.446175118 0.8662272753
129400000.0 0.9533439556 0.2359292164
139350000.0 0.8010079015 -0.5689929292
149300000.0 0.0778562997 -0.9659106197
159250000.0 -0.6726800221 -0.6727388581
169200000.0 -0.9414191165 0.0562253038
179150000.0 -0.6101775562 0.7239886029
189100000.0 0.0673988645 0.9517516474
199050000.0 0.6910412163 0.6594085548
209000000.0 0.9471712134 0.0421370107
218950000.0 0.7455309415 -0.5683455674
228900000.0 0.2146922387 -0.9016244494
238850000.0 -0.400448834 -0.8269917507
248800000.0 -0.5332691482 -0.3668238777
258750000.0 -0.907983556 0.1511338079
268700000.0 -0.6240193625 0.6826495846
278650000.0 -0.0792675808 0.917353882
288600000.0 0.4877421262 0.7613432135
298550000.0 0.8295360133 0.2870515022
308500000.0 0.7967519882 -0.2933563646
318450000.0 0.4054008192 -0.7138791146
328400000.0 -0.156163061 -0.7770519466
338350000.0 -0.6033024313 -0.4557021751
348300000.0 -0.7007498666 0.0626344101
358250000.0 -0.4232007399 0.4698705016
368200000.0 0.0174900264 0.5460395354
378150000.0 0.3345709015 0.3102716233
388100000.0 0.373956794 -0.0281637032
398050000.0 0.1864106962 -0.2465801557
408000000.0 -0.052797009 -0.2539782146
417950000.0 -0.1898201599 -0.1111962386
427900000.0 -0.1790085196 0.0541291232
437850000.0 -0.070221846 0.1412691539
447800000.0 0.0482725603 0.1227232147
457750000.0 0.1052833105 0.0388578125
467700000.0 0.0875361283 -0.0447269611
477650000.0 0.0284299453 -0.0816833796
487600000.0 -0.0234260256 -0.0603556563
497550000.0 0.0138053384 -0.1062282502
507500000.0 -0.055684874 -0.0132055949
517450000.0 -0.0251979116 0.0048651511
527400000.0 -0.0090727112 -0.0087997544
537350000.0 -0.0202433609 -0.028854782
547300000.0 -0.0587800912 -0.0286282617
557250000.0 -0.0836799929 0.0154441037
567200000.0 -0.0708642183 0.0717865637
577150000.0 -0.0166241884 0.11299197
587100000.0 0.0629200394 0.1096724253
597050000.0 0.1310701634 0.0512012565
607000000.0 0.1522601909 -0.0450698684
616950000.0 0.1082363949 -0.1404792898
626900000.0 0.0123347155 -0.1927839651
636850000.0 -0.0966679068 -0.1749212111
646800000.0 -0.1736896431 -0.093620241
656750000.0 -0.185295167 0.019658886
666700000.0 -0.1237775312 0.1166658307
676650000.0 -0.017156666 0.1537878075
686600000.0 0.0865154324 0.1164060715
696550000.0 0.1409044129 0.0251058109
706500000.0 0.1242198278 -0.0731794466
716450000.0 0.0499370294 -0.1292166983
726400000.0 -0.0369666277 -0.1161535116
736350000.0 -0.0838946642 -0.0423100578
746300000.0 -0.0563099204 0.0464681401
756250000.0 0.0368410629 0.0838362619
766200000.0 0.1253975981 0.0333940417
776150000.0 0.1560707755 -0.0552741096
786100000.0 0.1192297421 -0.1566070386
796050000.0 0.0077576351 -0.2175791939
806000000.0 -0.1378956372 -0.1820701161
815950000.0 -0.2383103461 -0.042624919
825900000.0 -0.2266122467 0.1472454831
835850000.0 -0.0900412315 0.2997719416
845800000.0 0.1226898901 0.3368182883
855750000.0 0.3216550291 0.2302774283
865700000.0 0.4170711945 0.014084114
875650000.0 0.3565652718 -0.2247603069
885600000.0 0.1522386209 -0.3832802688
895550000.0 -0.1190950285 -0.3790114723
905500000.0 -0.3360772805 -0.1978345042
915450000.0 -0.3896475724 0.0858340597
925400000.0 -0.24659107 0.3399746009
935350000.0 0.0293803668 0.4365470651
945300000.0 0.3007290804 0.3154233655
955250000.0 0.4125728543 0.0263706496
965200000.0 0.2688524559 -0.2743771422
975150000.0 -0.0829060963 -0.3730172149
985100000.0 -0.4098518483 -0.1348180135
995050000.0 -0.4149194905 0.3117846107
1005000000.0 -0.0251838054 0.6081287236
1014950000.0 0.4937668601 0.461466587
1024900000.0 0.718573923 -0.0910804302
1034850000.0 0.3982503475 -0.6554128189
1044800000.0 -0.2726230757 -0.7528369497
1054750000.0 -0.7474414335 -0.2795476909
1064700000.0 -0.7116051621 0.2258100669
1074650000.0 -0.4118453631 0.6919364124
1084600000.0 0.097147273 0.7919242865
1094550000.0 0.5986886942 0.5080733887
1104500000.0 0.7400938149 -0.0605235925
1114450000.0 0.4293709895 -0.5511244099
1124400000.0 -0.1165416325 -0.6534048195
1134350000.0 -0.5310633715 -0.3474951813
1144300000.0 -0.5955705631 0.1202165977
1154250000.0 -0.3329876461 0.4684289388
1164200000.0 0.0706802775 0.5290063902
1174150000.0 0.3946935565 0.3033857143
1184100000.0 0.4686808203 -0.0878032987
1194050000.0 0.24627722 -0.4115099317
1204000000.0 -0.1231294189 -0.4880550397
1213950000.0 -0.4349048562 -0.3098846941
1223900000.0 -0.5603645394 0.011652335
1233850000.0 -0.466910636 0.3373108562
1243800000.0 -0.1947453279 0.5428861317
1253750000.0 0.1554317647 0.5458390346
1263700000.0 0.446974518 0.3315401075
1273650000.0 0.5548328678 -0.020761472
1283600000.0 0.4369301395 -0.3670754522
1293550000.0 0.1517812495 -0.5781890474
1303500000.0 -0.1888508463 -0.5970529296
1313450000.0 -0.4780856307 -0.4357251969
1323400000.0 -0.6385233771 -0.1487642864
1333350000.0 -0.6249906388 0.1852107754
1343300000.0 -0.4285623398 0.4708919807
1353250000.0 -0.093086396 0.6060085487
1363200000.0 0.2705221262 0.5258500601
1373150000.0 0.5278267656 0.2542870658
1383100000.0 0.5898491402 -0.1055833795
1393050000.0 0.4543544376 -0.4265362208
1403000000.0 0.1838648172 -0.6179942185
1412950000.0 -0.1339849523 -0.6388540707
1422900000.0 -0.4106363146 -0.493233904
1432850000.0 -0.570212233 -0.2214127454
1442800000.0 -0.562270624 0.100431369
1452750000.0 -0.3799569795 0.3749952837
1462700000.0 -0.0712277019 0.509531168
1472650000.0 0.2609989486 0.4502840906
1482600000.0 0.4959248026 0.2205531117
1492550000.0 0.5593626174 -0.0865928675
1502500000.0 0.4479027683 -0.363332613
1512450000.0 0.2109177014 -0.5272864849
1522400000.0 -0.0757812768 -0.5319385176
1532350000.0 -0.3191255332 -0.3683059561
1542300000.0 -0.4233816242 -0.0841220007
1552250000.0 -0.3357304476 0.2091847141
1562200000.0 -0.0937612077 0.3851465665
1572150000.0 0.1916807955 0.3788989262
1582100000.0 0.4040834178 0.2102044641
1592050000.0 0.4683326458 -0.0428628127
1602000000.0 0.3665717989 -0.2800999849
1611950000.0 0.1379483009 -0.4091031355
1621900000.0 -0.1318238876 -0.371057356
1631850000.0 -0.3300561334 -0.1670631594
1641800000.0 -0.3603284617 0.123683549
1651750000.0 -0.2031705299 0.3707452893
1661700000.0 0.0677619895 0.466943085
1671650000.0 0.3356946952 0.3829034045
1681600000.0 0.5029173146 0.1610592111
1691550000.0 0.5152516046 -0.1209379337
1701500000.0 0.3620401702 -0.3699176619
1711450000.0 0.0825376768 -0.4952129171
1721400000.0 -0.2336716154 -0.4336255648
1731350000.0 -0.4629118939 -0.1930732927
1741300000.0 -0.5109007154 0.1368369026
1751250000.0 -0.3671767779 0.4281583407
1761200000.0 -0.0967740051 0.5853869373
1771150000.0 0.2062606907 0.5745023482
1781100000.0 0.4554389567 0.4104815604
1791050000.0 0.586476041 0.1394265313
1801000000.0 0.5572125749 -0.169603432
1810950000.0 0.3614583255 -0.4260319559
1820900000.0 0.0478185675 -0.5358707785
1830850000.0 -0.2758293916 -0.4497729679
1840800000.0 -0.4927329641 -0.203041184
1850750000.0 -0.5384337647 0.1062631683
1860700000.0 -0.4227868246 0.3751831546
1870650000.0 -0.200911921 0.5370529619
1880600000.0 0.0594586514 0.5626491443
1890550000.0 0.2903804178 0.4541470766
1900500000.0 0.430414384 0.2415328911
1910450000.0 0.4356201603 -0.0150682851
1920400000.0 0.3017059661 -0.2308108433
1930350000.0 0.0784710492 -0.3315761629
1940300000.0 -0.1440238031 -0.2942155931
1950250000.0 -0.288896246 -0.1594970181
1960200000.0 -0.3296463002 0.0032197025
1970150000.0 -0.2826498406 0.1294568363
1980100000.0 -0.1955947615 0.1824980044
1990050000.0 -0.1307101672 0.1656316524
2000000000.0 -0.1321365522 0.1281858501
