!Created with skrf (http://scikit-rf.org).
# GHz S RI R 50.0 
!freq ReS11 ImS11
10000000.0 -0.7545761723 0.6771129187
19950000.0 -0.1172563559 0.9850698614
29900000.0 0.5629653815 0.7983084799
39850000.0 0.9544775299 0.2000762848
49800000.0 0.8402668669 -0.519171887
59750000.0 0.2509079682 -0.9745241095
69700000.0 -0.5050970468 -0.8825284708
79650000.0 -0.9745201708 -0.261946795
89600000.0 -0.8370931168 0.5219157347
99550000.0 -0.1395914642 0.9533602118
109500000.0 0.6699844695 0.6828863772
119450000.0 0.9590128379 -0.161938565
129400000.0 0.4110692041 -0.9059304109
139350000.0 -0.5197224511 -0.8496916588
149300000.0 -0.9700947136 -0.0539177334
159250000.0 -0.5863487193 0.7389424819
169200000.0 0.2460037141 0.9015722215
179150000.0 0.8727503185 0.3708302784
189100000.0 0.8705966018 -0.4259740127
199050000.0 0.2909917304 -0.9337488718
209000000.0 -0.4470796519 -0.8578502872
218950000.0 -0.8944211328 -0.3038176414
228900000.0 -0.8395811507 0.3849154801
238850000.0 -0.3441899731 0.8485616495
248800000.0 0.3155848557 0.8388239996
258750000.0 0.8374003603 0.425406831
268700000.0 0.9189228792 -0.2450432946
278650000.0 0.5239355076 -0.7880361121
288600000.0 -0.1271086484 -0.9143503106
298550000.0 -0.680667253 -0.5718075571
308500000.0 -0.8534329367 0.0478060445
318450000.0 -0.5560005739 0.6107564043
328400000.0 0.0453682382 0.8001272159
338350000.0 0.5842303332 0.4981537179
348300000.0 0.7067677631 -0.079245163
358250000.0 0.3697600805 -0.5043784448
368200000.0 -0.1088292312 -0.5058360425
378150000.0 -0.3599806466 -0.1837338454
388100000.0 -0.2738675403 0.1394440659
398050000.0 -0.0239756407 0.2284114302
408000000.0 0.1419601017 0.0991732925
417950000.0 0.1187034876 -0.0635555029
427900000.0 -0.0134456017 -0.1125659574
437850000.0 -0.1133547204 -0.0316268916
447800000.0 -0.1044393986 0.0895733279
457750000.0 -0.0025226623 0.1519812402
467700000.0 0.1084200465 0.1140528569
477650000.0 0.1531211696 0.0087126728
487600000.0 0.1077326868 -0.0873789269
497550000.0 0.0167534643 -0.1198660402
507500000.0 -0.066880394 -0.0910304205
517450000.0 -0.0930607231 -0.020849239
527400000.0 -0.0685309712 0.0322882109
537350000.0 -0.0281458483 0.0421803644
547300000.0 -0.0087026168 0.021408957
557250000.0 -0.0211537333 0.0048575331
567200000.0 -0.0432107668 0.0182199829
577150000.0 -0.0399381906 0.0542419078
587100000.0 0.0058125139 0.0799561759
597050000.0 0.0699173462 0.0615142213
607000000.0 0.1082824684 -0.0122302793
616950000.0 0.0849831232 -0.1067259537
626900000.0 -0.0030112352 -0.1655884621
636850000.0 -0.1167781497 -0.1483199649
646800000.0 -0.1929081239 -0.0529352114
656750000.0 -0.1831618213 0.0723605322
666700000.0 -0.0876085872 0.1613250705
676650000.0 0.044882425 0.1583530757
686600000.0 0.1412792232 0.06557514
696550000.0 0.1477597125 -0.0671512962
706500000.0 0.0663588349 -0.163376975
716450000.0 -0.0543874965 -0.1691169871
726400000.0 -0.1367467645 -0.0892691058
736350000.0 -0.1303867024 0.0189966534
746300000.0 -0.0444871602 0.0761934501
756250000.0 0.0553401217 0.0393112076
766200000.0 0.0925186294 -0.0672026739
776150000.0 0.0301431241 -0.1497668986
786100000.0 -0.0929308201 -0.1440607457
796050000.0 -0.1894484645 -0.052638506
806000000.0 -0.1696664872 0.0990922219
815950000.0 -0.0245045877 0.202930433
825900000.0 0.1750833599 0.164667411
835850000.0 0.2987110234 -0.0163876478
845800000.0 0.2524952755 -0.2423859681
855750000.0 0.0392937974 -0.3787807403
865700000.0 -0.2288297397 -0.3366577296
875650000.0 -0.3800920808 -0.1201965323
885600000.0 -0.2959421734 0.1659356217
895550000.0 -0.0905962986 0.3557956147
905500000.0 0.1956083903 0.3263974117
915450000.0 0.4094486331 0.0793299942
925400000.0 0.3872026133 -0.2524674067
935350000.0 0.1245031426 -0.464171535
945300000.0 -0.2239713577 -0.4073563875
955250000.0 -0.4229895626 -0.0935620317
965200000.0 -0.3089845706 0.2792697525
975150000.0 0.081307792 0.423418102
985100000.0 0.45262331 0.162522708
995050000.0 0.4415812495 -0.329852031
1005000000.0 -0.0179658008 -0.6023439902
1014950000.0 -0.5438921748 -0.3378195924
1024900000.0 -0.6176524441 0.3049874687
1034850000.0 -0.0682654932 0.7489216344
1044800000.0 0.6392115856 0.5145085733
1054750000.0 0.8336364776 -0.2162053079
1064700000.0 0.3609463457 -0.7824260049
1074650000.0 -0.3448385844 -0.7715990575
1084600000.0 -0.7827183171 -0.2323083066
1094550000.0 -0.6594847072 0.4398858112
1104500000.0 -0.0663442966 0.7702677188
1114450000.0 0.5437438303 0.5174501411
1124400000.0 0.7141963476 -0.0884159606
1134350000.0 0.3772849417 -0.5699484319
1144300000.0 -0.1689864628 -0.6254591627
1154250000.0 -0.5524821723 -0.2743892835
1164200000.0 -0.5474361042 0.2265546855
1174150000.0 -0.1763643482 0.5452290273
1184100000.0 0.2963026151 0.4721111377
1194050000.0 0.5425482185 0.0795742829
1204000000.0 0.4259508878 -0.3509130103
1213950000.0 0.0497021876 -0.5593948139
1223900000.0 -0.355182792 -0.4540419974
1233850000.0 -0.5804218516 -0.1059956041
1243800000.0 -0.5088795749 0.3042041466
1253750000.0 -0.1761826277 0.5615378321
1263700000.0 0.2464804161 0.5255474508
1273650000.0 0.5341494085 0.2172240663
1283600000.0 0.5503171312 -0.198314445
1293550000.0 0.3026411565 -0.5237568314
1303500000.0 -0.0861460271 -0.6233363501
1313450000.0 -0.4524705179 -0.463136813
1323400000.0 -0.6427410272 -0.1068352564
1333350000.0 -0.5681813812 0.2968153909
1343300000.0 -0.2486515005 0.5663298871
1353250000.0 0.1725805853 0.5671933331
1363200000.0 0.4982327972 0.2992745052
1373150000.0 0.5816135821 -0.1057864048
1383100000.0 0.402425136 -0.4653441825
1393050000.0 0.0468837439 -0.6374365113
1403000000.0 -0.3335232978 -0.5602363352
1412950000.0 -0.5889173014 -0.2688612419
1422900000.0 -0.6083561992 0.1195219411
1432850000.0 -0.3761962798 0.4376773306
1442800000.0 0.0075794166 0.5377378483
1452750000.0 0.3626819586 0.3714766374
1462700000.0 0.5260985867 0.0230369573
1472650000.0 0.4340952916 -0.3403345237
1482600000.0 0.1431265211 -0.5576099829
1492550000.0 -0.2101590059 -0.5402675008
1502500000.0 -0.4677771692 -0.3020198752
1512450000.0 -0.5084319099 0.0453627957
1522400000.0 -0.3099171739 0.3323819079
1532350000.0 0.0261208169 0.4103503858
1542300000.0 0.3237356215 0.2425822198
1552250000.0 0.4265908123 -0.0734020621
1562200000.0 0.2919103066 -0.3634776519
1572150000.0 0.0006634294 -0.4814213929
1582100000.0 -0.2891042052 -0.3730372923
1592050000.0 -0.4296254185 -0.0990322558
1602000000.0 -0.3445549367 0.2032304207
1611950000.0 -0.068707944 0.3696029233
1621900000.0 0.2515230904 0.3009068047
1631850000.0 0.4346792842 0.0262171056
1641800000.0 0.3766236605 -0.3031290152
1651750000.0 0.1110268076 -0.5068481582
1661700000.0 -0.2242918056 -0.4817870361
1671650000.0 -0.466826914 -0.2401695341
1681600000.0 -0.4998557048 0.1104463128
1691550000.0 -0.2957400144 0.4101729111
1701500000.0 0.0662981426 0.5092405234
1711450000.0 0.4123898534 0.3437698837
1721400000.0 0.5681861649 -0.0120579232
1731350000.0 0.4553871926 -0.3819909072
1741300000.0 0.137183537 -0.5935026891
1751250000.0 -0.2391123222 -0.565167954
1761200000.0 -0.5218211164 -0.318822118
1771150000.0 -0.6049082785 0.048322647
1781100000.0 -0.4503631188 0.3982185484
1791050000.0 -0.1097908875 0.5881855593
1801000000.0 0.2830943441 0.5249184979
1810950000.0 0.5496747365 0.2267750642
1820900000.0 0.5678782487 -0.1694689862
1830850000.0 0.3415913612 -0.483855913
1840800000.0 -0.0164133789 -0.5944219489
1850750000.0 -0.3594926458 -0.4761792494
1860700000.0 -0.5656691411 -0.1879240582
1870650000.0 -0.5668449646 0.1621558869
1880600000.0 -0.3618426254 0.4435816593
1890550000.0 -0.030499807 0.5423230894
1900500000.0 0.2866980187 0.4145951658
1910450000.0 0.4495121211 0.1276022344
1920400000.0 0.4034134952 -0.1817415479
1930350000.0 0.1937726818 -0.3851814544
1940300000.0 -0.074851576 -0.4213590183
1950250000.0 -0.2922830631 -0.3069155277
1960200000.0 -0.38993882 -0.1058611841
1970150000.0 -0.3529657173 0.0899954948
1980100000.0 -0.2237741336 0.2031033774
1990050000.0 -0.0849833242 0.2046930384
2000000000.0 -0.0122120819 0.142134764
