!Created with skrf (http://scikit-rf.org).
# GHz S RI R 50.0 
!freq ReS11 ImS11
10000000.0 -0.8028616268 0.6021417399
19950000.0 -0.2910744873 0.9469145094
29900000.0 0.3234236071 0.9280919057
39850000.0 0.8156527067 0.5484794613
49800000.0 0.9883795078 -0.061719639
59750000.0 0.7471068281 -0.6661442866
69700000.0 0.1642124528 -0.9933147315
79650000.0 -0.5095131138 -0.8620315503
89600000.0 -0.9389351493 -0.3026699054
99550000.0 -0.8759434208 0.4218385162
109500000.0 -0.3071921674 0.9178748658
119450000.0 0.4779334283 0.8514957821
129400000.0 0.9457795622 0.1808845684
139350000.0 0.7773043802 -0.6155074703
149300000.0 0.0278032066 -0.9767209265
159250000.0 -0.7096410508 -0.643326643
169200000.0 -0.9437728295 0.1000603867
179150000.0 -0.5815653218 0.7566959838
189100000.0 0.1114654177 0.9596299367
199050000.0 0.7307858136 0.641586125
209000000.0 0.9670263204 0.0108138588
218950000.0 0.7440779736 -0.5961061307
228900000.0 0.2019039297 -0.9168941409
238850000.0 -0.4139144231 -0.8324439109
248800000.0 -0.6520670586 -0.4368306441
258750000.0 -0.9194622632 0.174757801
268700000.0 -0.6236244034 0.7061036601
278650000.0 -0.0679488692 0.9354082031
288600000.0 0.5041828208 0.7697837554
298550000.0 0.8444275983 0.2878858546
308500000.0 0.8078577656 -0.2964777611
318450000.0 0.4115005182 -0.7204754206
328400000.0 -0.1584159414 -0.7844707172
338350000.0 -0.6130243345 -0.4571004112
348300000.0 -0.709564568 0.0696334398
358250000.0 -0.4247358417 0.4786919434
368200000.0 0.0203736191 0.549624676
378150000.0 0.3354590503 0.3077573722
388100000.0 0.3685549091 -0.0330037129
398050000.0 0.1757559628 -0.2483251307
408000000.0 -0.0638701505 -0.2482186918
417950000.0 -0.1951300434 -0.1003037242
427900000.0 -0.1750367095 0.0634506519
437850000.0 -0.0607101465 0.1436856237
447800000.0 0.0567864679 0.1181893423
457750000.0 0.1112810394 0.0302526922
467700000.0 0.0900147302 -0.0549575363
477650000.0 0.0275316517 -0.091310371
487600000.0 -0.0246573206 -0.072848368
497550000.0 -0.0673341345 -0.0975958353
507500000.0 -0.0524566954 0.0025309894
517450000.0 -0.0179282993 0.0092369203
527400000.0 -0.0032552636 -0.0107577495
537350000.0 -0.0190879667 -0.0319363813
547300000.0 -0.0558689897 -0.0275536776
557250000.0 -0.0817404534 0.0134361544
567200000.0 -0.0702868661 0.0716840144
577150000.0 -0.0144379642 0.1154072516
587100000.0 0.0667418837 0.1130356683
597050000.0 0.1364857124 0.054296835
607000000.0 0.1574755968 -0.0434468661
616950000.0 0.1123380466 -0.1395394208
626900000.0 0.0149442573 -0.1918516599
636850000.0 -0.0970767504 -0.1744218475
646800000.0 -0.1760091136 -0.0916226861
656750000.0 -0.1879926663 0.0221648243
666700000.0 -0.1272515758 0.1182652522
676650000.0 -0.0222708614 0.1547538234
686600000.0 0.0792385772 0.1180292717
696550000.0 0.1318580629 0.0297762481
706500000.0 0.1151980239 -0.0638710009
716450000.0 0.045292341 -0.116048625
726400000.0 -0.034642207 -0.1022182659
736350000.0 -0.0744199023 -0.0347131378
746300000.0 -0.0469709317 0.041436932
756250000.0 0.0349322899 0.0737374189
766200000.0 0.1227111247 0.031922841
776150000.0 0.1574282882 -0.0713170237
786100000.0 0.1035485454 -0.181702181
796050000.0 -0.0272964176 -0.2308489468
806000000.0 -0.1764350131 -0.1729347213
815950000.0 -0.2632384334 -0.0142141897
825900000.0 -0.2282685135 0.1823977037
835850000.0 -0.0677580108 0.326360959
845800000.0 0.1596431972 0.3430856987
855750000.0 0.3589790296 0.2112710926
865700000.0 0.4393916847 -0.0244420433
875650000.0 0.35496528 -0.2696540746
885600000.0 0.1268255334 -0.4177374427
895550000.0 -0.1558882266 -0.3919418398
905500000.0 -0.3669920974 -0.1886654707
915450000.0 -0.4044759083 0.1037299563
925400000.0 -0.2505664296 0.3571397566
935350000.0 0.033677036 0.4518180973
945300000.0 0.3121386981 0.329285558
955250000.0 0.4316741615 0.0389111253
965200000.0 0.3004848389 -0.2652251822
975150000.0 -0.0385752772 -0.3821635057
985100000.0 -0.3734281742 -0.1761315004
995050000.0 -0.4168696119 0.2521390847
1005000000.0 -0.0658351588 0.5639675841
1014950000.0 0.4264619834 0.4495801623
1024900000.0 0.6392993555 -0.0207959878
1034850000.0 0.4454513076 -0.5193863475
1044800000.0 -0.1241716399 -0.7508960997
1054750000.0 -0.7068066227 -0.4212077788
1064700000.0 -0.8115962644 0.210608884
1074650000.0 -0.4763608141 0.7280617999
1084600000.0 0.1330063025 0.8490362204
1094550000.0 0.649900728 0.5129567284
1104500000.0 0.7770087463 -0.0965986183
1114450000.0 0.4169402677 -0.6060462032
1124400000.0 -0.1809552267 -0.6701558112
1134350000.0 -0.5889453327 -0.2948970295
1144300000.0 -0.5892750756 0.2059723817
1154250000.0 -0.2607268358 0.524555938
1164200000.0 0.1678088679 0.5156317467
1174150000.0 0.4583933522 0.219715474
1184100000.0 0.4544417791 -0.1974508339
1194050000.0 0.1580602657 -0.4818855201
1204000000.0 -0.2350390452 -0.4803290625
1213950000.0 -0.5145145988 -0.2345695301
1223900000.0 -0.5774417252 0.1164280724
1233850000.0 -0.4197182422 0.4304535076
1243800000.0 -0.1013756739 0.5933538784
1253750000.0 0.2640034708 0.534132555
1263700000.0 0.5290192589 0.2595148541
1273650000.0 0.5791384723 -0.1233469395
1283600000.0 0.3981180226 -0.4580901202
1293550000.0 0.0726724085 -0.6271843289
1303500000.0 -0.2784304124 -0.5940056943
1313450000.0 -0.5524632562 -0.386947762
1323400000.0 -0.6791315364 -0.0673152059
1333350000.0 -0.6180252456 0.2783504034
1343300000.0 -0.3705566466 0.5479841999
1353250000.0 -0.0015473535 0.6389428807
1363200000.0 0.3628931131 0.5039561364
1373150000.0 0.5881732056 0.1899781873
1383100000.0 0.6037786818 -0.1842727534
1393050000.0 0.4254960362 -0.4948472235
1403000000.0 0.1238536601 -0.6600139669
1412950000.0 -0.2110070076 -0.6445524452
1422900000.0 -0.4878984698 -0.4572442314
1432850000.0 -0.6249457203 -0.145962027
1442800000.0 -0.5704556413 0.1989449531
1452750000.0 -0.3300732448 0.4623121856
1462700000.0 0.0178473087 0.5481911557
1472650000.0 0.3476502382 0.4277106112
1482600000.0 0.5469538298 0.1548604339
1492550000.0 0.5612264622 -0.1672767572
1502500000.0 0.4011343942 -0.4331895241
1512450000.0 0.1253515505 -0.5604552626
1522400000.0 -0.1736985701 -0.5067665789
1532350000.0 -0.3870741798 -0.2849188009
1542300000.0 -0.4265177844 0.0233945103
1552250000.0 -0.2723263078 0.2901831167
1562200000.0 0.0021441149 0.4028777966
1572150000.0 0.2753779268 0.3304395102
1582100000.0 0.4400090952 0.1161000369
1592050000.0 0.438288963 -0.1467043555
1602000000.0 0.2754301235 -0.3519545872
1611950000.0 0.0144258828 -0.4154404946
1621900000.0 -0.2386630223 -0.3007387516
1631850000.0 -0.3665210066 -0.046574675
1641800000.0 -0.3199952412 0.2198061448
1651750000.0 -0.1229458848 0.4381901956
1661700000.0 0.1809706228 0.4731783925
1671650000.0 0.4365622019 0.3175752062
1681600000.0 0.5520179598 0.0436961274
1691550000.0 0.4906689402 -0.2522250151
1701500000.0 0.2663410604 -0.4702692319
1711450000.0 -0.0553552509 -0.5274590103
1721400000.0 -0.366424829 -0.3843296475
1731350000.0 -0.5426609046 -0.0812766815
1741300000.0 -0.5125299052 0.2675337125
1751250000.0 -0.2963036788 0.5315835438
1761200000.0 0.0175282952 0.6309102636
1771150000.0 0.3269503338 0.5529096155
1781100000.0 0.5501227302 0.3306008565
1791050000.0 0.6305613214 0.0220668832
1801000000.0 0.5374186556 -0.2944819272
1810950000.0 0.2799051532 -0.5228682099
1820900000.0 -0.0717817181 -0.5740095204
1830850000.0 -0.3935779247 -0.4184111161
1840800000.0 -0.5697154831 -0.1187029366
1850750000.0 -0.5571981538 0.2098456382
1860700000.0 -0.3880921839 0.4661288348
1870650000.0 -0.1292814727 0.5953440144
1880600000.0 0.1483511303 0.5792975547
1890550000.0 0.3776653209 0.4277025104
1900500000.0 0.4967441007 0.1758053322
1910450000.0 0.461427736 -0.1041658401
1920400000.0 0.2782103535 -0.3161768909
1930350000.0 0.0198980507 -0.3868405819
1940300000.0 -0.2131649189 -0.3107539157
1950250000.0 -0.3502982825 -0.1444519494
1960200000.0 -0.3745483376 0.037584284
1970150000.0 -0.3107577967 0.1767244586
1980100000.0 -0.2054075463 0.2412928026
1990050000.0 -0.1127965209 0.2328835682
2000000000.0 -0.0722289874 0.1892815612
