!Created with skrf (http://scikit-rf.org).
# GHz S RI R 50.0 
!freq ReS11 ImS11
10000000.0 -0.7531308708 0.676438242
19950000.0 -0.116480823 0.9849085571
29900000.0 0.5641613907 0.7983663823
39850000.0 0.955764493 0.1996698357
49800000.0 0.8407905856 -0.5198500968
59750000.0 0.2500052445 -0.9745357361
69700000.0 -0.5060111708 -0.8806730101
79650000.0 -0.9741738333 -0.2595356381
89600000.0 -0.8350013829 0.5243849217
99550000.0 -0.1361725166 0.9542751611
109500000.0 0.6728161902 0.6811695683
119450000.0 0.9585370197 -0.1644679537
129400000.0 0.4080167418 -0.9054481383
139350000.0 -0.521126064 -0.8468939983
149300000.0 -0.9692426028 -0.0517663767
159250000.0 -0.5859813286 0.7401605023
169200000.0 0.2457732556 0.9028712281
179150000.0 0.87250386 0.3729764259
189100000.0 0.8715022301 -0.4236420235
199050000.0 0.2930979865 -0.9323738757
209000000.0 -0.4450906268 -0.8584119932
218950000.0 -0.8942930245 -0.3057011898
228900000.0 -0.8421541022 0.3832578143
238850000.0 -0.348283745 0.8486103599
248800000.0 0.3194477157 0.8447575354
258750000.0 0.8356177934 0.429743761
268700000.0 0.9198426785 -0.2402167833
278650000.0 0.5278736358 -0.7850003546
288600000.0 -0.122418794 -0.9158665122
298550000.0 -0.679222077 -0.5768647599
308500000.0 -0.8565154241 0.0415035554
318450000.0 -0.5636480913 0.6077542787
328400000.0 0.036637457 0.8032351326
338350000.0 0.5799953454 0.5069416435
348300000.0 0.7107092924 -0.0704091643
358250000.0 0.3793007061 -0.5025286072
368200000.0 -0.1031172932 -0.5117771853
378150000.0 -0.3624186045 -0.1926750406
388100000.0 -0.2802512703 0.1340430312
398050000.0 -0.0293193541 0.2301091345
408000000.0 0.1390059104 0.1053536395
417950000.0 0.1183485298 -0.0585820243
427900000.0 -0.0117819005 -0.1125394312
437850000.0 -0.1121613731 -0.035273698
447800000.0 -0.1043155518 0.085970228
457750000.0 -0.0031857401 0.1515787239
467700000.0 0.1080804729 0.1153771339
477650000.0 0.1525523111 0.0098183033
487600000.0 0.1078459809 -0.0901069791
497550000.0 0.0154117393 -0.1245296796
507500000.0 -0.0676696718 -0.0926788572
517450000.0 -0.0952524475 -0.0213197434
527400000.0 -0.0702345189 0.0330229265
537350000.0 -0.0278182253 0.0431854928
547300000.0 -0.0069063067 0.0231604637
557250000.0 -0.0181666799 0.0050792269
567200000.0 -0.0412101522 0.0161471523
577150000.0 -0.0393351597 0.0507021054
587100000.0 0.004711174 0.0768929939
597050000.0 0.0680220685 0.0597793331
607000000.0 0.1076641002 -0.0124925146
616950000.0 0.0863261487 -0.1054850655
626900000.0 -0.00095876 -0.1638414676
636850000.0 -0.1144306335 -0.1474629348
646800000.0 -0.1912855529 -0.0544982888
656750000.0 -0.182266955 0.0704928722
666700000.0 -0.0881341735 0.1593422236
676650000.0 0.0444782687 0.1581773809
686600000.0 0.1423480997 0.0673427257
696550000.0 0.1507658373 -0.0650302454
706500000.0 0.0696057144 -0.1617600972
716450000.0 -0.0520588849 -0.1712305325
726400000.0 -0.1370096511 -0.0954651993
736350000.0 -0.1329907156 0.0131206874
746300000.0 -0.0480657547 0.0774933004
756250000.0 0.0536184977 0.0511034783
766200000.0 0.095114064 -0.0483641797
776150000.0 0.0385133199 -0.1475088529
786100000.0 -0.0837166555 -0.1633396449
796050000.0 -0.1843713534 -0.0693329195
806000000.0 -0.1747631948 0.0885036711
815950000.0 -0.0376731039 0.2001560278
825900000.0 0.1613362326 0.1753609433
835850000.0 0.2933458388 0.0038738946
845800000.0 0.2637140152 -0.2288877181
855750000.0 0.0661592248 -0.3828588289
865700000.0 -0.1969777809 -0.3548844805
875650000.0 -0.3773789658 -0.1403946407
885600000.0 -0.3555056424 0.1559478351
895550000.0 -0.1256867785 0.3656528349
905500000.0 0.1979922221 0.3540139539
915450000.0 0.42766057 0.1118774613
925400000.0 0.4178461083 -0.2298255481
935350000.0 0.1631129969 -0.4658277064
945300000.0 -0.1937231104 -0.4446457817
955250000.0 -0.4281030378 -0.1607676178
965200000.0 -0.3715226803 0.2206449038
975150000.0 -0.0235736465 0.4307608225
985100000.0 0.3780278653 0.2757021345
995050000.0 0.493016707 -0.1691799488
1005000000.0 0.1693554107 -0.5413101751
1014950000.0 -0.3606468526 -0.4758532017
1024900000.0 -0.630762759 0.0416090363
1034850000.0 -0.3210149158 0.606209051
1044800000.0 0.3733629249 0.6600438924
1054750000.0 0.8177662429 0.0787273263
1064700000.0 0.5793680344 -0.6155241533
1074650000.0 -0.094156554 -0.8415219137
1084600000.0 -0.6976608645 -0.4576329858
1094550000.0 -0.775262868 0.2397359234
1104500000.0 -0.2823547808 0.7471888643
1114450000.0 0.412659399 0.6616387946
1124400000.0 0.7466815847 0.0792540226
1134350000.0 0.5070809166 -0.5005855296
1144300000.0 -0.0495660402 -0.6723036193
1154250000.0 -0.5138483105 -0.3798876807
1164200000.0 -0.5939777183 0.1367250157
1174150000.0 -0.2618934388 0.5227695335
1184100000.0 0.2320743553 0.5146377553
1194050000.0 0.5333678504 0.1446463597
1204000000.0 0.4603246817 -0.305726399
1213950000.0 0.0982755363 -0.5532187439
1223900000.0 -0.3192409261 -0.4800132591
1233850000.0 -0.5697673153 -0.1450319837
1243800000.0 -0.5249231214 0.2720989559
1253750000.0 -0.2064605062 0.5498274692
1263700000.0 0.2182527188 0.5347084932
1273650000.0 0.5216280071 0.2394600403
1283600000.0 0.555912349 -0.175979989
1293550000.0 0.3209949496 -0.5102378998
1303500000.0 -0.0645880401 -0.6223113131
1313450000.0 -0.4355719522 -0.4739705887
1323400000.0 -0.6368596425 -0.1251227602
1333350000.0 -0.5737977884 0.2778432511
1343300000.0 -0.2635101547 0.5558245761
1353250000.0 0.1574842666 0.5693824185
1363200000.0 0.4883631075 0.3115513027
1373150000.0 0.5812534128 -0.090167671
1383100000.0 0.4101747653 -0.4546044012
1393050000.0 0.0594897005 -0.6342422396
1403000000.0 -0.3209304538 -0.5642026554
1412950000.0 -0.58099006 -0.27797633
1422900000.0 -0.6074029555 0.1098741368
1432850000.0 -0.3819447838 0.430469802
1442800000.0 -0.0015055854 0.5357194281
1452750000.0 0.3558810505 0.3736985799
1462700000.0 0.5237319362 0.0285453458
1472650000.0 0.4350683803 -0.3335964997
1482600000.0 0.1464646131 -0.5513138188
1492550000.0 -0.2067911615 -0.5358278546
1502500000.0 -0.4623934362 -0.3014059182
1512450000.0 -0.504263044 0.0422071064
1522400000.0 -0.3079960711 0.3274046311
1532350000.0 0.0254619928 0.4072785898
1542300000.0 0.321869411 0.2427154853
1552250000.0 0.4231128738 -0.0715760929
1562200000.0 0.2883103082 -0.3627615033
1572150000.0 -0.0014281114 -0.4806322042
1582100000.0 -0.2901775428 -0.3709404997
1592050000.0 -0.4297762496 -0.0948386519
1602000000.0 -0.3438516177 0.2075761893
1611950000.0 -0.0677368022 0.3728773867
1621900000.0 0.2534889365 0.3018917939
1631850000.0 0.4363400923 0.0242289829
1641800000.0 0.3780185316 -0.3044767749
1651750000.0 0.1111575433 -0.5075745671
1661700000.0 -0.2248808116 -0.4823440241
1671650000.0 -0.4686337207 -0.241660596
1681600000.0 -0.5026635158 0.1081974011
1691550000.0 -0.2999509053 0.409014225
1701500000.0 0.0610100375 0.5112061764
1711450000.0 0.4086993711 0.3490502738
1721400000.0 0.5676187437 -0.0062299242
1731350000.0 0.4589312492 -0.3772600504
1741300000.0 0.1434619355 -0.5927605597
1751250000.0 -0.2330243507 -0.5678395259
1761200000.0 -0.5165097034 -0.3258549005
1771150000.0 -0.6053375699 0.0363752026
1781100000.0 -0.4609245477 0.3882978082
1791050000.0 -0.1239846502 0.5862516527
1801000000.0 0.2710443804 0.532306248
1810950000.0 0.5460791548 0.2389024376
1820900000.0 0.5731869721 -0.1583024844
1830850000.0 0.352939664 -0.4787572681
1840800000.0 -0.0039322098 -0.5981279221
1850750000.0 -0.3509066999 -0.4872997095
1860700000.0 -0.564630751 -0.2031137742
1870650000.0 -0.5748126441 0.1481901792
1880600000.0 -0.3773407099 0.4360009551
1890550000.0 -0.0469555843 0.5461288247
1900500000.0 0.2776302737 0.4304400387
1910450000.0 0.4554104537 0.1452447504
1920400000.0 0.4201812488 -0.1725146125
1930350000.0 0.2132531038 -0.3895423497
1940300000.0 -0.0614828047 -0.4393410502
1950250000.0 -0.2933576556 -0.3293036241
1960200000.0 -0.4062421081 -0.1250356473
1970150000.0 -0.3801170296 0.0874024381
1980100000.0 -0.2480074837 0.2245144258
1990050000.0 -0.0882554084 0.2496803721
2000000000.0 0.0256232245 0.1826771303
