!Created with skrf (http://scikit-rf.org).
# GHz S RI R 50.0 
!freq ReS11 ImS11
10000000.0 0.8350599603 -0.5549700745
19950000.0 0.3985383069 -0.9248125747
29900000.0 -0.1659846675 -0.9961780885
39850000.0 -0.676255893 -0.7490610516
49800000.0 -0.9662676165 -0.2685905713
59750000.0 -0.9504553321 0.2871768895
69700000.0 -0.6401687248 0.7441491673
79650000.0 -0.1361637899 0.9630063686
89600000.0 0.4075624627 0.8784882232
99550000.0 0.8223042724 0.513681747
109500000.0 0.9749807432 -0.0195674316
119450000.0 0.8135531913 -0.5520578087
129400000.0 0.3882772323 -0.9100122096
139350000.0 -0.1617411655 -0.9775473164
149300000.0 -0.655379299 -0.7357938998
159250000.0 -0.9373237231 -0.269726011
169200000.0 -0.92567411 0.2703898015
179150000.0 -0.6295771426 0.7198047823
189100000.0 -0.139980676 0.9423918593
199050000.0 0.395339076 0.8694860565
209000000.0 0.8111772616 0.51773871
218950000.0 0.9701574877 -0.0041388648
228900000.0 0.8195455215 -0.530924582
238850000.0 0.4058452521 -0.8885547476
248800000.0 -0.1328450278 -0.9623393901
258750000.0 -0.6214357651 -0.7332339984
268700000.0 -0.9080953871 -0.2814246323
278650000.0 -0.9092501833 0.2509547205
288600000.0 -0.6264793568 0.701573286
298550000.0 -0.1444794244 0.9319302639
308500000.0 0.3880148435 0.8668271468
318450000.0 0.803244519 0.5216125139
328400000.0 0.9629276999 0.0042429096
338350000.0 0.8136855661 -0.515413738
348300000.0 0.407618331 -0.8674014362
358250000.0 -0.1199931463 -0.942647591
368200000.0 -0.6010710275 -0.7250010272
378150000.0 -0.8902639137 -0.2874589347
388100000.0 -0.9024391373 0.2359836619
398050000.0 -0.6339978482 0.6868239133
408000000.0 -0.1634063295 0.925513251
417950000.0 0.3653530197 0.8717687093
427900000.0 0.7816053363 0.537071944
437850000.0 0.9475513172 0.0291173648
447800000.0 0.8099294601 -0.4856376135
457750000.0 0.4180409096 -0.8411624224
467700000.0 -0.0989773929 -0.929098607
477650000.0 -0.5801412858 -0.7286555906
487600000.0 -0.8797201675 -0.3038295287
497550000.0 -0.9063663259 0.2166420026
507500000.0 -0.6482867585 0.6718811951
517450000.0 -0.1815891326 0.9168677787
527400000.0 0.3459055483 0.8672223345
537350000.0 0.7609002223 0.5361520832
547300000.0 0.9273856321 0.0342254686
557250000.0 0.7958573883 -0.4742947876
567200000.0 0.4147318054 -0.8284729185
577150000.0 -0.0930221259 -0.923570964
587100000.0 -0.5710846159 -0.734686677
597050000.0 -0.8751119871 -0.3197888492
607000000.0 -0.909913778 0.1956069917
616950000.0 -0.6595646781 0.6511042153
626900000.0 -0.1986716733 0.898660408
636850000.0 0.3240605071 0.8541588821
646800000.0 0.7379065369 0.5334272368
656750000.0 0.9105731203 0.0419945466
666700000.0 0.7925160681 -0.4610075741
676650000.0 0.4262213917 -0.8197470469
686600000.0 -0.0718970215 -0.9276138229
696550000.0 -0.5508089784 -0.7541991992
706500000.0 -0.8636648148 -0.3483734514
716450000.0 -0.907784942 0.1648173025
726400000.0 -0.6645262688 0.6236863077
736350000.0 -0.2069341178 0.8763335653
746300000.0 0.3145316675 0.8374762768
756250000.0 0.7284223468 0.5228262204
766200000.0 0.903581905 0.0377033067
776150000.0 0.7911069495 -0.4606363942
786100000.0 0.4330352765 -0.8182317401
796050000.0 -0.0583936029 -0.9291557094
806000000.0 -0.533662511 -0.7603009514
815950000.0 -0.845278291 -0.3607942954
825900000.0 -0.8932432025 0.1476610679
835850000.0 -0.6561176224 0.6047764882
845800000.0 -0.2059633572 0.8611207471
855750000.0 0.3114730489 0.8305696813
865700000.0 0.7271021004 0.5245724664
875650000.0 0.909105103 0.0462330461
885600000.0 0.8063860345 -0.449397445
895550000.0 0.4574602364 -0.8100295158
905500000.0 -0.0267464478 -0.9291023269
915450000.0 -0.5003662071 -0.772463527
925400000.0 -0.8202741929 -0.3857384668
935350000.0 -0.8837232996 0.1171180388
945300000.0 -0.66369761 0.5802564448
955250000.0 -0.2230846485 0.8503554819
965200000.0 0.2952643031 0.8345025788
975150000.0 0.7179076355 0.5369613019
985100000.0 0.9059573676 0.0600479787
995050000.0 0.8054857963 -0.4344788899
1005000000.0 0.459759756 -0.7929304914
1014950000.0 -0.0193926784 -0.911167157
1024900000.0 -0.4875820462 -0.7589584731
1034850000.0 -0.8064972485 -0.380719822
1044800000.0 -0.8763023626 0.1143236127
1054750000.0 -0.6653401379 0.5752901514
1064700000.0 -0.2317484189 0.8497267708
1074650000.0 0.2845885305 0.8390850922
1084600000.0 0.7075449862 0.544619742
1094550000.0 0.8953254052 0.0709441994
1104500000.0 0.7958419863 -0.4204083942
1114450000.0 0.4547403317 -0.7760291637
1124400000.0 -0.016637676 -0.8964354856
1134350000.0 -0.4791875331 -0.7546863098
1144300000.0 -0.8011253141 -0.3905547201
1154250000.0 -0.8834426831 0.0960192335
1164200000.0 -0.6886214169 0.5587042444
1174150000.0 -0.2651008713 0.8442372132
1184100000.0 0.25111079 0.8464913347
1194050000.0 0.6802495744 0.5600090618
1204000000.0 0.87513123 0.0886054562
1213950000.0 0.782750118 -0.4037180288
1223900000.0 0.4476853474 -0.7625321456
1233850000.0 -0.0186092616 -0.8890321386
1243800000.0 -0.4799735638 -0.7542345668
1253750000.0 -0.8047323184 -0.3952666257
1263700000.0 -0.8908010712 0.0886456702
1273650000.0 -0.6970995763 0.5518572883
1283600000.0 -0.2722043954 0.8364828465
1293550000.0 0.2439803152 0.8342988138
1303500000.0 0.6688320696 0.5447118291
1313450000.0 0.8593623057 0.0758696918
1323400000.0 0.7684602127 -0.4091801368
1333350000.0 0.4420286657 -0.7637053367
1343300000.0 -0.0132229126 -0.894642251
1353250000.0 -0.4690979702 -0.7718336831
1363200000.0 -0.7976017017 -0.4258730944
1373150000.0 -0.8952597924 0.0509366027
1383100000.0 -0.7154926883 0.5165707539
1393050000.0 -0.298202706 0.8118842755
1403000000.0 0.2188925454 0.8221897723
1412950000.0 0.651393135 0.5418026464
1422900000.0 0.8516829814 0.0771147098
1432850000.0 0.7694326326 -0.4090424497
1442800000.0 0.449668483 -0.76746559
1452750000.0 -0.002036506 -0.9031740171
1462700000.0 -0.4570956804 -0.7856718696
1472650000.0 -0.7863955204 -0.4444105974
1482600000.0 -0.8879103727 0.0291938403
1492550000.0 -0.7112449161 0.4947549217
1502500000.0 -0.2976244787 0.7918604565
1512450000.0 0.2170346402 0.8065571024
1522400000.0 0.6489219852 0.5317660811
1532350000.0 0.8501238666 0.0723713476
1542300000.0 0.7712207826 -0.4084592062
1552250000.0 0.4579764431 -0.7627810582
1562200000.0 0.0156879012 -0.8994537523
1572150000.0 -0.4303941423 -0.789921368
1582100000.0 -0.7591642376 -0.4628478066
1592050000.0 -0.8716738325 -0.0028195736
1602000000.0 -0.7185104987 0.4617765145
1611950000.0 -0.3248353145 0.7750003356
1621900000.0 0.1855113658 0.8159184578
1631850000.0 0.6313719916 0.5597519173
1641800000.0 0.8529727022 0.1043887184
1651750000.0 0.7856870122 -0.384855413
1661700000.0 0.4737391193 -0.7474419084
1671650000.0 0.0295538445 -0.8879097184
1681600000.0 -0.4161649762 -0.7802837893
1691550000.0 -0.7448417373 -0.4591353946
1701500000.0 -0.8636558631 -0.0084858232
1711450000.0 -0.7247490329 0.4499755658
1721400000.0 -0.348183062 0.7707527124
1731350000.0 0.155628977 0.8302640209
1741300000.0 0.6098897741 0.5903047994
1751250000.0 0.844952872 0.1378682293
1761200000.0 0.7855406687 -0.3573106655
1771150000.0 0.4732073303 -0.726614699
1781100000.0 0.0267924727 -0.8687213672
1791050000.0 -0.4185525021 -0.7618421637
1801000000.0 -0.7449870661 -0.4453358293
1810950000.0 -0.8654641873 -0.0026883501
1820900000.0 -0.7354903241 0.4491673223
1830850000.0 -0.3728711463 0.7705266014
1840800000.0 0.1211379578 0.8423009818
1850750000.0 0.5771764537 0.6169541303
1860700000.0 0.8226928965 0.1725545067
1870650000.0 0.7750289411 -0.3234951187
1880600000.0 0.4727892594 -0.699279205
1890550000.0 0.0320416457 -0.8512468666
1900500000.0 -0.4115672598 -0.7563359222
1910450000.0 -0.7427301424 -0.4527227785
1920400000.0 -0.8722630425 -0.0193347517
1930350000.0 -0.7581848092 0.4302627081
1940300000.0 -0.4068184727 0.7602548084
1950250000.0 0.0851836833 0.8429636365
1960200000.0 0.5471344636 0.6250410427
1970150000.0 0.8001994399 0.1798554221
1980100000.0 0.7556452436 -0.3193527884
1990050000.0 0.4536738805 -0.6970403235
2000000000.0 0.013923783 -0.8489278926
