!Created with skrf (http://scikit-rf.org).
# GHz S RI R 50.0 
!freq ReS11 ImS11
10000000.0 -0.7687952731 0.6770250166
19950000.0 -0.1380129175 0.9888450994
29900000.0 0.5363462415 0.8183036218
39850000.0 0.942063295 0.2481477345
49800000.0 0.874367831 -0.460246414
59750000.0 0.3346083242 -0.9546818235
69700000.0 -0.4206330172 -0.9386623139
79650000.0 -0.9534746884 -0.3747246352
89600000.0 -0.9093346942 0.415631046
99550000.0 -0.2871526267 0.927072659
109500000.0 0.5276572757 0.7994881872
119450000.0 0.9705244894 0.0674432611
129400000.0 0.653831241 -0.7567939817
139350000.0 -0.2404360033 -0.9856315222
149300000.0 -0.9227117179 -0.3700614641
159250000.0 -0.8085945319 0.5146795848
169200000.0 -0.0663427442 0.9380515822
179150000.0 0.7021544119 0.6414129009
189100000.0 0.9712145998 -0.1136977405
199050000.0 0.5940363712 -0.8010672548
209000000.0 -0.1503284483 -0.9814616698
218950000.0 -0.7736155988 -0.5805923583
228900000.0 -0.9298866202 0.1203749036
238850000.0 -0.5695697582 0.7233094843
248800000.0 -0.0154089756 0.7296236699
258750000.0 0.67966701 0.6539545908
268700000.0 0.9618962412 0.0301694402
278650000.0 0.7412865499 -0.6152607931
288600000.0 0.1393345988 -0.929364899
298550000.0 -0.5052508167 -0.7419844193
308500000.0 -0.8356403106 -0.169069561
318450000.0 -0.6763975739 0.4604760898
328400000.0 -0.1301329668 0.7857266471
338350000.0 0.4648411861 0.6198062695
348300000.0 0.7256520752 0.0909468528
358250000.0 0.5070778563 -0.4119647696
368200000.0 0.0299646807 -0.5466259148
378150000.0 -0.3235882278 -0.2937891065
388100000.0 -0.340964568 0.0772599593
398050000.0 -0.1051709832 0.2785822927
408000000.0 0.1440651752 0.222748182
417950000.0 0.2280955837 0.030560479
427900000.0 0.1394135305 -0.1209011925
437850000.0 -0.0091435406 -0.1372820266
447800000.0 -0.0990951575 -0.0443999464
457750000.0 -0.0850436622 0.066504511
467700000.0 -0.0028700386 0.1163320067
477650000.0 0.0726129709 0.0877557195
487600000.0 0.0884434956 0.0242668513
497550000.0 0.1092627749 0.0445998633
507500000.0 0.0329397611 -0.0436196799
517450000.0 0.0017986383 -0.0149627703
527400000.0 0.0106286252 0.0082361892
537350000.0 0.0324288798 -8.89559e-05
547300000.0 0.0309090078 -0.0387516731
557250000.0 -0.0192242598 -0.0668924756
567200000.0 -0.0915997856 -0.0403432896
577150000.0 -0.1088619128 0.0824263423
587100000.0 -0.0586436631 0.0780633572
597050000.0 -0.0042636819 0.1362795745
607000000.0 0.0958748529 0.1228330484
616950000.0 0.1656885547 0.0334331687
626900000.0 0.1570616333 -0.0882573341
636850000.0 0.0662425458 -0.1780884922
646800000.0 -0.0635284824 -0.1852230518
656750000.0 -0.1650770755 -0.1033497594
666700000.0 -0.1832366742 0.0236535432
676650000.0 -0.1097214741 0.1262452984
686600000.0 0.0118248065 0.148793384
696550000.0 0.111724952 0.0824502727
706500000.0 0.1347255607 -0.0287048768
716450000.0 0.0758273267 -0.1158925503
726400000.0 -0.0200128872 -0.1281516205
736350000.0 -0.0832182113 -0.0645452381
746300000.0 -0.0666054457 0.0217712671
756250000.0 0.0192573501 0.0587251906
766200000.0 0.1084646761 0.0064065242
776150000.0 0.1263182144 -0.109894193
786100000.0 0.0395544086 -0.2111744983
796050000.0 -0.1128823562 -0.2145303826
806000000.0 -0.2335633191 -0.0891502506
815950000.0 -0.2265354829 0.1077428766
825900000.0 -0.0669545144 0.2588015486
835850000.0 0.1724910084 0.2585843417
845800000.0 0.3612378518 0.0853684784
855750000.0 0.3874490996 -0.1833856922
865700000.0 0.219358564 -0.4116102605
875650000.0 -0.0710127137 -0.4713921557
885600000.0 -0.3377694801 -0.3113083751
895550000.0 -0.427608313 3.81181e-05
905500000.0 -0.2751374949 0.2982623665
915450000.0 0.0472195547 0.4125468498
925400000.0 0.3611529171 0.2706102142
935350000.0 0.4881389713 -0.0519589677
945300000.0 0.3477576558 -0.3713135368
955250000.0 0.0124376146 -0.4911276203
965200000.0 -0.3115374607 -0.3134034016
975150000.0 -0.3831662673 0.069643993
985100000.0 -0.1015066498 0.3750027531
995050000.0 0.3391294118 0.3126829842
1005000000.0 0.5440010412 -0.1220332967
1014950000.0 0.2692461639 -0.569761759
1024900000.0 -0.3129091946 -0.5912299347
1034850000.0 -0.695800191 -0.0652541743
1044800000.0 -0.4438616549 0.6043827331
1054750000.0 0.2943311281 0.75933768
1064700000.0 0.7810331236 0.2619307154
1074650000.0 0.7941271998 -0.3942092048
1084600000.0 0.2674460385 -0.8466651531
1094550000.0 -0.4040072405 -0.7477698837
1104500000.0 -0.7885095843 -0.1756404815
1114450000.0 -0.5880605187 0.4929495098
1124400000.0 0.0525702195 0.7356081913
1134350000.0 0.5945286793 0.3894245014
1144300000.0 0.6466106538 -0.1919153977
1154250000.0 0.2704977225 -0.5636552333
1164200000.0 -0.2152364009 -0.5254059219
1174150000.0 -0.4964937411 -0.1558871932
1184100000.0 -0.3942955354 0.295946504
1194050000.0 0.0193869541 0.4909337847
1204000000.0 0.4146989821 0.2970536695
1213950000.0 0.5248407914 -0.1068564085
1223900000.0 0.3243076981 -0.4541258424
1233850000.0 -0.0499296413 -0.572114428
1243800000.0 -0.4118222514 -0.4118216469
1253750000.0 -0.5818560517 -0.0415909966
1263700000.0 -0.4539398752 0.3601327235
1273650000.0 -0.0786433338 0.5710299913
1283600000.0 0.3384564397 0.4726794473
1293550000.0 0.5830787312 0.1344628292
1303500000.0 0.5640089074 -0.2682157658
1313450000.0 0.3148047647 -0.5715798782
1323400000.0 -0.0621167123 -0.6728183271
1333350000.0 -0.4338301438 -0.5325768153
1343300000.0 -0.6554183998 -0.1843502566
1353250000.0 -0.6103736401 0.2435238709
1363200000.0 -0.291925383 0.5516064174
1373150000.0 0.1502511579 0.5803342787
1383100000.0 0.499486688 0.3289521454
1393050000.0 0.617530435 -0.063729793
1403000000.0 0.490358191 -0.4344200976
1412950000.0 0.1826288719 -0.6593040732
1422900000.0 -0.1955490445 -0.6686032018
1432850000.0 -0.5114578622 -0.453881862
1442800000.0 -0.6380795533 -0.0851482103
1452750000.0 -0.5079969684 0.2911671406
1462700000.0 -0.1645153934 0.504531954
1472650000.0 0.2342648091 0.451451932
1482600000.0 0.5022928041 0.1658761059
1492550000.0 0.5329412129 -0.2085064787
1502500000.0 0.3372671415 -0.5111016626
1512450000.0 0.0082042939 -0.6302252371
1522400000.0 -0.3220023155 -0.5241107583
1532350000.0 -0.5137074492 -0.2327755158
1542300000.0 -0.470903237 0.1176831999
1552250000.0 -0.2048702882 0.3516779054
1562200000.0 0.1428442325 0.3440011682
1572150000.0 0.3831676536 0.1118887535
1582100000.0 0.4037733167 -0.2060522835
1592050000.0 0.2151404866 -0.4460346689
1602000000.0 -0.077852694 -0.4998001829
1611950000.0 -0.33385722 -0.3436197013
1621900000.0 -0.4207820407 -0.0483435964
1631850000.0 -0.2771749402 0.2358661395
1641800000.0 0.0318389569 0.342764979
1651750000.0 0.3310957862 0.200811595
1661700000.0 0.4466849468 -0.1077364411
1671650000.0 0.3234821194 -0.4101025989
1681600000.0 0.0328751149 -0.5561518042
1691550000.0 -0.2876941117 -0.4816770266
1701500000.0 -0.496838625 -0.2147173805
1711450000.0 -0.4919026607 0.1393520068
1721400000.0 -0.2492908695 0.4218796911
1731350000.0 0.1320351127 0.4792674844
1741300000.0 0.459852375 0.2680911607
1751250000.0 0.5688459495 -0.1020573381
1761200000.0 0.4229528111 -0.4476312441
1771150000.0 0.1074110776 -0.6281793805
1781100000.0 -0.2474650401 -0.5926522444
1791050000.0 -0.5192474958 -0.3615591024
1801000000.0 -0.6128080493 -0.0077056657
1810950000.0 -0.4743717786 0.3465774211
1820900000.0 -0.1330435147 0.5482031042
1830850000.0 0.2652775828 0.4835261601
1840800000.0 0.5234334832 0.1803318591
1850750000.0 0.5300162681 -0.201474814
1860700000.0 0.3175780061 -0.490504536
1870650000.0 -0.0025849102 -0.5981451655
1880600000.0 -0.3139036684 -0.5133949835
1890550000.0 -0.5212236537 -0.2752111909
1900500000.0 -0.5464414553 0.038006544
1910450000.0 -0.385555231 0.2659019568
1920400000.0 -0.1644832279 0.3995779404
1930350000.0 0.1281690559 0.3583365548
1940300000.0 0.3115282509 0.1380921195
1950250000.0 0.3107233351 -0.1248895799
1960200000.0 0.1669394744 -0.3093315959
1970150000.0 -0.0291402923 -0.3656306623
1980100000.0 -0.1930750618 -0.307819793
1990050000.0 -0.2739240651 -0.1899826302
2000000000.0 -0.2683824497 -0.0827594473
