!Created with skrf (http://scikit-rf.org).
# GHz S RI R 50.0 
!freq ReS11 ImS11
10000000.0 -0.7730603812 0.6787235277
19950000.0 -0.1403071518 0.9899509312
29900000.0 0.5348574146 0.818235372
39850000.0 0.9406808405 0.2470049365
49800000.0 0.8728274568 -0.4625333367
59750000.0 0.3328946441 -0.9581452834
69700000.0 -0.4233366271 -0.9429289557
79650000.0 -0.9579904738 -0.3780531884
89600000.0 -0.9129128576 0.4154110806
99550000.0 -0.2856011291 0.92760785
109500000.0 0.5335253658 0.7936648846
119450000.0 0.9715579716 0.0537344288
129400000.0 0.6419129126 -0.771669392
139350000.0 -0.2543490122 -0.9881138351
149300000.0 -0.9290182656 -0.3653068674
159250000.0 -0.8073799547 0.5187623465
169200000.0 -0.0599703667 0.9375814327
179150000.0 0.708663525 0.6343738859
189100000.0 0.9731882435 -0.1240939185
199050000.0 0.5928860349 -0.8095098415
209000000.0 -0.1494599274 -0.9881289631
218950000.0 -0.7715250795 -0.5917743679
228900000.0 -0.9342754404 0.1059071613
238850000.0 -0.5831528243 0.71350604
248800000.0 0.1017966071 0.7674188082
258750000.0 0.6823363383 0.655670885
268700000.0 0.9671935405 0.0281693308
278650000.0 0.7455958156 -0.6200283244
288600000.0 0.1437476378 -0.9344496482
298550000.0 -0.4998906739 -0.7505657365
308500000.0 -0.8348510526 -0.1820631601
318450000.0 -0.6830528191 0.4504826378
328400000.0 -0.1364994932 0.784295985
338350000.0 0.4654410764 0.619657201
348300000.0 0.7273400818 0.0853438307
358250000.0 0.5036383748 -0.4183104934
368200000.0 0.0255258538 -0.5488102882
378150000.0 -0.3258236149 -0.2947340352
388100000.0 -0.3423507874 0.0764146985
398050000.0 -0.1054461131 0.2787603285
408000000.0 0.1460346006 0.2218964914
417950000.0 0.2306716909 0.0267604232
427900000.0 0.1400873086 -0.1269194411
437850000.0 -0.0109918279 -0.1441573045
447800000.0 -0.1037681832 -0.0515066599
457750000.0 -0.0920374159 0.0604569852
467700000.0 -0.0121794057 0.1115698775
477650000.0 0.0607280346 0.0848165943
487600000.0 0.071265439 0.0260285345
497550000.0 0.0693051111 0.0893503444
507500000.0 0.0672411212 -0.052548444
517450000.0 0.0012921975 -0.0320002174
527400000.0 0.0003708295 -0.0024645423
537350000.0 0.0191832615 -0.0041904529
547300000.0 0.0202745041 -0.035838112
557250000.0 -0.0215582335 -0.0631213611
567200000.0 -0.08331899 -0.046272945
577150000.0 -0.1212388784 0.0200714704
587100000.0 -0.0982478036 0.1062837783
597050000.0 -0.0117385 0.1582605642
607000000.0 0.0985529337 0.134671822
616950000.0 0.1708695194 0.0351762876
626900000.0 0.1601706801 -0.0950421527
636850000.0 0.0639045027 -0.1903640536
646800000.0 -0.0728053203 -0.2002825298
656750000.0 -0.1814561964 -0.1171131573
666700000.0 -0.204700527 0.0150608602
676650000.0 -0.1326337934 0.1244492752
686600000.0 -0.0080210164 0.1529614407
696550000.0 0.0976633097 0.0891465754
706500000.0 0.126719861 -0.0232263962
716450000.0 0.0714022946 -0.1145686127
726400000.0 -0.0238326109 -0.1319993428
736350000.0 -0.0888734988 -0.0727272779
746300000.0 -0.0759252044 0.0112676663
756250000.0 0.0059110813 0.0487622007
766200000.0 0.0931089775 -0.0020703792
776150000.0 0.1092011783 -0.1165403218
786100000.0 0.021710955 -0.2156074182
796050000.0 -0.1301905357 -0.2165373726
806000000.0 -0.2489907219 -0.0899239529
815950000.0 -0.2403921124 0.1076896388
825900000.0 -0.0802494037 0.2585511935
835850000.0 0.1607940543 0.261093933
845800000.0 0.354744648 0.0873545195
855750000.0 0.3839061367 -0.1862581603
865700000.0 0.2151727945 -0.4196162331
875650000.0 -0.0783644705 -0.4822039493
885600000.0 -0.3486086809 -0.3247626265
895550000.0 -0.4464649517 -0.0151316119
905500000.0 -0.3040008718 0.2896872433
915450000.0 0.0161788598 0.4188949167
925400000.0 0.3417153574 0.289577547
935350000.0 0.4846902396 -0.0329318218
945300000.0 0.3543462085 -0.361776918
955250000.0 0.0215819059 -0.4939207291
965200000.0 -0.3062464724 -0.3303178388
975150000.0 -0.3947123692 0.0427467711
985100000.0 -0.1354191139 0.3595027729
995050000.0 0.3045210386 0.3239561539
1005000000.0 0.5289834018 -0.1013843594
1014950000.0 0.266295292 -0.5557026629
1024900000.0 -0.308561784 -0.5864715604
1034850000.0 -0.6950054825 -0.0811133525
1044800000.0 -0.4782116287 0.5846996524
1054750000.0 0.2464551538 0.7907734609
1064700000.0 0.8097622706 0.2985817206
1074650000.0 0.8031573302 -0.4078877956
1084600000.0 0.2495272162 -0.8554373486
1094550000.0 -0.4218245933 -0.7366743621
1104500000.0 -0.7906542263 -0.1679382143
1114450000.0 -0.5940800649 0.4850564168
1124400000.0 0.0331797923 0.7184512289
1134350000.0 0.5267460665 0.3894762097
1144300000.0 0.6361977894 -0.12806851
1154250000.0 0.285739556 -0.5476991952
1164200000.0 -0.2184079256 -0.5255800598
1174150000.0 -0.5053739812 -0.153128986
1184100000.0 -0.4117213783 0.2962996004
1194050000.0 -0.0036825296 0.5032610737
1204000000.0 0.4022295664 0.3161105301
1213950000.0 0.5190219318 -0.0973505709
1223900000.0 0.311096856 -0.4529034497
1233850000.0 -0.0719781441 -0.5673394785
1243800000.0 -0.4341554488 -0.4000653428
1253750000.0 -0.6016535635 -0.0292391309
1263700000.0 -0.4779714634 0.3716440971
1273650000.0 -0.1067085757 0.5909672293
1283600000.0 0.3194934771 0.5033359482
1293550000.0 0.5799233793 0.1622453616
1303500000.0 0.5662255417 -0.2547519951
1313450000.0 0.3098935198 -0.5693937607
1323400000.0 -0.0773539283 -0.6722387
1333350000.0 -0.4535956427 -0.5287796636
1343300000.0 -0.6768616625 -0.1807302385
1353250000.0 -0.6395743472 0.2456752142
1363200000.0 -0.3327015232 0.564034308
1373150000.0 0.1111676732 0.6147498342
1383100000.0 0.4820412859 0.3761808907
1393050000.0 0.6233867769 -0.02752007
1403000000.0 0.5014648219 -0.4201617751
1412950000.0 0.1844730894 -0.6601366584
1422900000.0 -0.2064041994 -0.6721713193
1432850000.0 -0.5308249477 -0.4543966382
1442800000.0 -0.6640557959 -0.0828111479
1452750000.0 -0.5411371273 0.2981119278
1462700000.0 -0.2019506697 0.5236833709
1472650000.0 0.204865393 0.487303295
1482600000.0 0.4922665317 0.2073916384
1492550000.0 0.5382565783 -0.1783449571
1502500000.0 0.3424627032 -0.4980462854
1512450000.0 0.0034344226 -0.6249793351
1522400000.0 -0.3336467551 -0.5174551684
1532350000.0 -0.5269173708 -0.2242599625
1542300000.0 -0.4882640878 0.1259490177
1552250000.0 -0.2294782657 0.3664255978
1562200000.0 0.1200660776 0.3722545124
1572150000.0 0.3745577695 0.1442429321
1582100000.0 0.404983372 -0.1845834093
1592050000.0 0.211131934 -0.4356732371
1602000000.0 -0.0929969157 -0.4870746043
1611950000.0 -0.3511754249 -0.320251457
1621900000.0 -0.4322317283 -0.0201368222
1631850000.0 -0.285563771 0.2623461737
1641800000.0 0.0238675599 0.371130317
1651750000.0 0.330979332 0.2329614187
1661700000.0 0.4576273342 -0.0820640883
1671650000.0 0.3318116117 -0.3987990371
1681600000.0 0.0262191973 -0.5503610144
1691550000.0 -0.3059557184 -0.4678890604
1701500000.0 -0.5148943449 -0.1904656765
1711450000.0 -0.5066598902 0.1667230284
1721400000.0 -0.2679159923 0.4531085253
1731350000.0 0.1122600438 0.5261230301
1741300000.0 0.4588431703 0.330250433
1751250000.0 0.5953387233 -0.0478515399
1761200000.0 0.4596542391 -0.4217380031
1771150000.0 0.1295899017 -0.6245396638
1781100000.0 -0.2462465741 -0.5911280991
1791050000.0 -0.5300267693 -0.351491199
1801000000.0 -0.6283714823 0.0085177284
1810950000.0 -0.4994791333 0.3670152161
1820900000.0 -0.171863605 0.5854273463
1830850000.0 0.2332095277 0.5532477133
1840800000.0 0.5281351278 0.2699232828
1850750000.0 0.5752069346 -0.1279779145
1860700000.0 0.3752668783 -0.4543638322
1870650000.0 0.0403194451 -0.5920352843
1880600000.0 -0.2946087032 -0.5218950519
1890550000.0 -0.5247933829 -0.2888112221
1900500000.0 -0.5855669043 0.0269996339
1910450000.0 -0.4553330194 0.3208809865
1920400000.0 -0.1730092525 0.4787605025
1930350000.0 0.1387463006 0.4179498325
1940300000.0 0.3045087164 0.1974598794
1950250000.0 0.3388846215 -0.0539866709
1960200000.0 0.213394649 -0.2669885541
1970150000.0 0.0099433214 -0.3476376527
1980100000.0 -0.1731696236 -0.3013715916
1990050000.0 -0.2748948559 -0.1843821481
2000000000.0 -0.2862415692 -0.0674053109
