!Created with skrf (http://scikit-rf.org).
# GHz S RI R 50.0 
!freq ReS11 ImS11
10000000.0 -0.7596092016 0.5754445016
19950000.0 -0.2797136672 0.9038557174
29900000.0 0.3013994667 0.8857839661
39850000.0 0.771201507 0.5209796641
49800000.0 0.9377222028 -0.0694542506
59750000.0 0.704362219 -0.6592812351
69700000.0 0.137183148 -0.9797975924
79650000.0 -0.5161348971 -0.8450931342
89600000.0 -0.9229859437 -0.2842849241
99550000.0 -0.8398905027 0.4357630432
109500000.0 -0.2563074434 0.9168394295
119450000.0 0.5313744495 0.8197677817
129400000.0 0.9938427347 0.1258876611
139350000.0 0.7414345858 -0.6816399528
149300000.0 -0.0431916018 -0.9757328868
159250000.0 -0.7375947011 -0.5691687162
169200000.0 -0.8936761418 0.1776604895
179150000.0 -0.4973484085 0.7743784978
189100000.0 0.160675011 0.9187977236
199050000.0 0.717353758 0.5894337698
209000000.0 0.9160877043 -0.0097845631
218950000.0 0.7024635814 -0.5772745822
228900000.0 0.1940326886 -0.8746703977
238850000.0 -0.3783753155 -0.7980472613
248800000.0 -0.7787355546 -0.4023762608
258750000.0 -0.8770613877 0.1644048975
268700000.0 -0.6176376574 0.6696898652
278650000.0 -0.1129071168 0.9123461938
288600000.0 0.428739344 0.793534485
298550000.0 0.7839878275 0.364982027
308500000.0 0.8057165393 -0.1952487583
318450000.0 0.4796020594 -0.6488331324
328400000.0 -0.0535024666 -0.7923897294
338350000.0 -0.5382879639 -0.553755542
348300000.0 -0.7199142864 -0.0663174409
358250000.0 -0.5208424201 0.3757282589
368200000.0 -0.1103620367 0.5244776109
378150000.0 0.2268636115 0.3554308574
388100000.0 0.3148095682 0.052685314
398050000.0 0.1813487367 -0.1595996095
408000000.0 -0.0117716306 -0.1826050611
417950000.0 -0.1165935912 -0.0732432126
427900000.0 -0.0931047798 0.0481795298
437850000.0 0.004665525 0.0903533689
447800000.0 0.0909144942 0.0384073836
457750000.0 0.1077405846 -0.0569007569
467700000.0 0.0510325678 -0.1325683586
477650000.0 -0.0365847686 -0.1438938123
487600000.0 -0.1033264687 -0.0913869716
497550000.0 -0.121526511 -0.0092877784
507500000.0 -0.0798787035 0.0633419367
517450000.0 -0.0110184668 0.0889869415
527400000.0 0.046884096 0.0686906076
537350000.0 0.0666437881 0.0228280754
547300000.0 0.0467062724 -0.0129282011
557250000.0 0.0087520814 -0.0190676829
567200000.0 -0.0173278972 0.0050477281
577150000.0 -0.0108550845 0.037033038
587100000.0 0.0237095746 0.0477318419
597050000.0 0.0627811348 0.0191973113
607000000.0 0.0731651091 -0.0399316217
616950000.0 0.0374656793 -0.099239797
626900000.0 -0.0338221838 -0.1251035854
636850000.0 -0.1098831248 -0.0960563813
646800000.0 -0.1536970267 -0.0199077546
656750000.0 -0.1398039879 0.072621477
666700000.0 -0.0678601821 0.1394295151
676650000.0 0.0335226201 0.1458812252
686600000.0 0.1204120563 0.0831797872
696550000.0 0.1512905397 -0.0229889409
706500000.0 0.1087927095 -0.1272089217
716450000.0 0.0127551603 -0.1815346627
726400000.0 -0.0919276768 -0.1577986759
736350000.0 -0.1492019797 -0.0690735557
746300000.0 -0.1265984567 0.038746941
756250000.0 -0.0311269363 0.1069372446
766200000.0 0.0884092945 0.0929532447
776150000.0 0.1687439636 0.0024812699
786100000.0 0.1622876977 -0.1195157159
796050000.0 0.0667436119 -0.2030993125
806000000.0 -0.0707464827 -0.1911838303
815950000.0 -0.1742346936 -0.0770183179
825900000.0 -0.1768733277 0.0912658712
835850000.0 -0.0639702824 0.2306153646
845800000.0 0.1193850711 0.2642830751
855750000.0 0.2891875801 0.1652560228
865700000.0 0.3598754078 -0.0313525026
875650000.0 0.2819506441 -0.2389021906
885600000.0 0.0739943842 -0.3507698064
895550000.0 -0.1736041941 -0.2950382937
905500000.0 -0.3354545212 -0.0779067353
915450000.0 -0.3175977081 0.2074176724
925400000.0 -0.1123826874 0.4159640277
935350000.0 0.1845579829 0.4306628092
945300000.0 0.4181611025 0.2257933561
955250000.0 0.4438281536 -0.1112811806
965200000.0 0.202338017 -0.3958812512
975150000.0 -0.2071905067 -0.4192795346
985100000.0 -0.5236199273 -0.0987538747
995050000.0 -0.4774991816 0.3870612722
1005000000.0 -0.0410212745 0.6744275322
1014950000.0 0.49169488 0.499366932
1024900000.0 0.7088716534 -0.067082325
1034850000.0 0.3906906278 -0.6281703174
1044800000.0 -0.2622530887 -0.7292126368
1054750000.0 -0.7460028527 -0.2821003025
1064700000.0 -0.7364802755 0.3408721191
1074650000.0 -0.3038090728 0.7538173756
1084600000.0 0.282663019 0.7385628735
1094550000.0 0.687379249 0.3103117189
1104500000.0 0.6679619041 -0.2849940348
1114450000.0 0.2310489041 -0.6799249264
1124400000.0 -0.3259939581 -0.6318960678
1134350000.0 -0.6531051738 -0.2247891439
1144300000.0 -0.6100897737 0.2583584923
1154250000.0 -0.2788685107 0.5694388346
1164200000.0 0.1533955521 0.5901351302
1174150000.0 0.4956991729 0.3286643174
1184100000.0 0.5770960767 -0.1004767023
1194050000.0 0.3476624814 -0.4652428435
1204000000.0 -0.0450525069 -0.5776629284
1213950000.0 -0.400864973 -0.4198381584
1223900000.0 -0.5803955858 -0.0970113632
1233850000.0 -0.5426809472 0.2562367648
1243800000.0 -0.3116657868 0.5203061841
1253750000.0 0.0355472511 0.598699382
1263700000.0 0.3713171193 0.4467959629
1273650000.0 0.5508165809 0.1153912941
1283600000.0 0.4966413013 -0.2532475306
1293550000.0 0.2487834987 -0.5103736366
1303500000.0 -0.080967368 -0.579516424
1313450000.0 -0.3785777926 -0.4644091871
1323400000.0 -0.56803781 -0.2158135501
1333350000.0 -0.6055617441 0.0980029273
1343300000.0 -0.4683329041 0.393271099
1353250000.0 -0.1764784531 0.5640734285
1363200000.0 0.1740158698 0.5305334397
1373150000.0 0.4451186847 0.292729516
1383100000.0 0.5316850921 -0.0506250054
1393050000.0 0.4206291177 -0.371614423
1403000000.0 0.1705145781 -0.5710126677
1412950000.0 -0.1281270374 -0.6029590154
1422900000.0 -0.3884092845 -0.4717067881
1432850000.0 -0.5386581691 -0.2126275402
1442800000.0 -0.525920672 0.103084179
1452750000.0 -0.3303503162 0.3680298697
1462700000.0 -0.0111653576 0.4716491308
1472650000.0 0.3042019752 0.3721733931
1482600000.0 0.4966476069 0.1166606923
1492550000.0 0.506990345 -0.1892211244
1502500000.0 0.347148967 -0.436422794
1512450000.0 0.0812235393 -0.5431624753
1522400000.0 -0.194959603 -0.4724248985
1532350000.0 -0.3774768069 -0.2433634605
1542300000.0 -0.3891083562 0.0598351855
1552250000.0 -0.2148411736 0.3139086713
1562200000.0 0.0712395795 0.4098187021
1572150000.0 0.3449854131 0.3160101552
1582100000.0 0.4987034644 0.0837891316
1592050000.0 0.4798876681 -0.1892466505
1602000000.0 0.2957504327 -0.3972093303
1611950000.0 0.0140673726 -0.4580142414
1621900000.0 -0.2620531085 -0.3352610608
1631850000.0 -0.4190442415 -0.0606389498
1641800000.0 -0.3817864664 0.2578828843
1651750000.0 -0.1599430028 0.4881885276
1661700000.0 0.1495978044 0.5361047271
1671650000.0 0.423200013 0.3953587192
1681600000.0 0.5675876108 0.1267244185
1691550000.0 0.5416371862 -0.1786668717
1701500000.0 0.3515602797 -0.4273981576
1711450000.0 0.0505257313 -0.5359704277
1721400000.0 -0.2733422162 -0.4558437853
1731350000.0 -0.5051925316 -0.1989802045
1741300000.0 -0.5537389255 0.1470269256
1751250000.0 -0.4026984759 0.4511559561
1761200000.0 -0.1197203154 0.6109317156
1771150000.0 0.1935645186 0.5942235984
1781100000.0 0.4477159203 0.4218517664
1791050000.0 0.5809927031 0.1455977735
1801000000.0 0.5589689281 -0.1649739062
1810950000.0 0.3816933552 -0.4287930308
1820900000.0 0.086044699 -0.5599161151
1830850000.0 -0.2397593638 -0.4990964093
1840800000.0 -0.4770804907 -0.2628450111
1850750000.0 -0.544377857 0.0554478152
1860700000.0 -0.4401024074 0.3421611612
1870650000.0 -0.220527224 0.5219846262
1880600000.0 0.040637761 0.5630825694
1890550000.0 0.2737085613 0.4698065592
1900500000.0 0.4211549107 0.271475649
1910450000.0 0.4469611197 0.0217743763
1920400000.0 0.3376790346 -0.2044484093
1930350000.0 0.1269367885 -0.3266950576
1940300000.0 -0.1028897745 -0.3086703509
1950250000.0 -0.2675593306 -0.1712723967
1960200000.0 -0.2945987336 0.0138423645
1970150000.0 -0.2551649057 0.0964416213
1980100000.0 -0.2012546346 0.1723950468
1990050000.0 -0.1310812328 0.1829024845
2000000000.0 -0.1114959046 0.1460336004
