!Created with skrf (http://scikit-rf.org).
# GHz S RI R 50.0 
!freq ReS11 ImS11
10000000.0 -0.9992868374 0.1584416381
19950000.0 -0.9473908843 0.3030845966
29900000.0 -0.8742178972 0.4423362869
39850000.0 -0.7788108723 0.5805963462
49800000.0 -0.662721069 0.7127065641
59750000.0 -0.5202637514 0.8327822463
69700000.0 -0.3435528518 0.9292290821
79650000.0 -0.1282158303 0.9837741238
89600000.0 0.1256020766 0.9772795597
99550000.0 0.4039058132 0.8871449877
109500000.0 0.6809450399 0.6961391349
119450000.0 0.9074127951 0.3897015491
129400000.0 1.009590023 -0.0171256338
139350000.0 0.927116367 -0.4314311205
149300000.0 0.6647016337 -0.7678426912
159250000.0 0.3074750415 -0.9480496723
169200000.0 -0.0528684404 -0.981645928
179150000.0 -0.3634077837 -0.9111094882
189100000.0 -0.6056156496 -0.7773474885
199050000.0 -0.7764854733 -0.6100785461
209000000.0 -0.8791724698 -0.4277178529
218950000.0 -0.9312382567 -0.2449478531
228900000.0 -0.9435725091 -0.0692555921
238850000.0 -0.928838608 0.0978688938
248800000.0 -0.8705647453 0.2357959442
258750000.0 -0.8457211086 0.3968091061
268700000.0 -0.7747488427 0.5297375595
278650000.0 -0.6799686658 0.6430943965
288600000.0 -0.5593782452 0.7334955388
298550000.0 -0.4155344096 0.7968513854
308500000.0 -0.2520057699 0.8338133701
318450000.0 -0.0735864005 0.838987751
328400000.0 0.1124442874 0.8042943356
338350000.0 0.2875737053 0.718498248
348300000.0 0.4273273051 0.5751801836
358250000.0 0.5021499793 0.3861317175
368200000.0 0.4965989926 0.1827683971
378150000.0 0.4194728916 0.0048578102
388100000.0 0.2985416626 -0.120312739
398050000.0 0.1670052176 -0.1829053771
408000000.0 0.050158079 -0.188393382
417950000.0 -0.0380537866 -0.1533516759
427900000.0 -0.0951572358 -0.0956755403
437850000.0 -0.1262287111 -0.0316137412
447800000.0 -0.1373967248 0.0270510683
457750000.0 -0.1339168265 0.0729675953
467700000.0 -0.119682204 0.1023421505
477650000.0 -0.0970335514 0.1146391802
487600000.0 -0.0693137919 0.1122050189
497550000.0 -0.0433917284 0.1049889458
507500000.0 -0.0099791622 0.0854557196
517450000.0 0.0114149215 0.0648750357
527400000.0 0.0227509954 0.0452125311
537350000.0 0.0213222667 0.026019439
547300000.0 0.0082798098 0.0077346575
557250000.0 -0.014679439 -0.0103424008
567200000.0 -0.0429266375 -0.0270798002
577150000.0 -0.07239104 -0.0401137882
587100000.0 -0.0992055809 -0.0471089399
597050000.0 -0.1205057411 -0.044798754
607000000.0 -0.1363802175 -0.0321318023
616950000.0 -0.1474437115 -0.0096175949
626900000.0 -0.1543399191 0.0207165311
636850000.0 -0.1574342141 0.0536601687
646800000.0 -0.1563984668 0.0852321926
656750000.0 -0.1502865325 0.111911184
666700000.0 -0.1359002118 0.1315533339
676650000.0 -0.1120996969 0.1429021626
686600000.0 -0.0789929621 0.1469980539
696550000.0 -0.0388715648 0.1445942489
706500000.0 0.0034781086 0.1360440237
716450000.0 0.0441281363 0.1219924088
726400000.0 0.0772425653 0.0995821684
736350000.0 0.0996038503 0.0676869976
746300000.0 0.1085337578 0.0262738591
756250000.0 0.1054072826 -0.0251579233
766200000.0 0.0900380962 -0.0820268653
776150000.0 0.0643787818 -0.1389525453
786100000.0 0.0285766762 -0.1890872894
796050000.0 -0.0168426616 -0.2254434737
806000000.0 -0.0705861279 -0.2428468429
815950000.0 -0.1312451543 -0.2400931432
825900000.0 -0.1938541362 -0.2204667568
835850000.0 -0.2550335236 -0.1873076365
845800000.0 -0.309190707 -0.1445343289
855750000.0 -0.354249367 -0.0932320983
865700000.0 -0.3865115922 -0.0350425389
875650000.0 -0.4024860804 0.030060903
885600000.0 -0.3967303675 0.1015152029
895550000.0 -0.3687066678 0.1778036327
905500000.0 -0.3189289001 0.2561108019
915450000.0 -0.248705677 0.3305124659
925400000.0 -0.1591522438 0.3918705163
935350000.0 -0.0495617718 0.4292131652
945300000.0 0.0777852877 0.4286255476
955250000.0 0.2165673535 0.3767293417
965200000.0 0.3532110575 0.2624388841
975150000.0 0.4631395129 0.0823112641
985100000.0 0.508892766 -0.1554496945
995050000.0 0.4501581452 -0.4181889262
1005000000.0 0.2643245769 -0.6425634221
1014950000.0 -0.0235262507 -0.7574497182
1024900000.0 -0.3425186355 -0.7281957469
1034850000.0 -0.6216200463 -0.5687631106
1044800000.0 -0.8129882285 -0.3219495355
1054750000.0 -0.8882457336 -0.0329463582
1064700000.0 -0.8229207595 0.2372986333
1074650000.0 -0.6662115847 0.4139969066
1084600000.0 -0.626806729 0.5104239661
1094550000.0 -0.4215163922 0.7094601518
1104500000.0 -0.1631509026 0.789767797
1114450000.0 0.0969939094 0.7824576982
1124400000.0 0.3314784192 0.6909511724
1134350000.0 0.5101522891 0.5281106476
1144300000.0 0.6152896718 0.3194206763
1154250000.0 0.6473640046 0.100654255
1164200000.0 0.6245566397 -0.102149373
1174150000.0 0.5659551116 -0.2814789705
1184100000.0 0.4725366863 -0.4320304609
1194050000.0 0.3530310544 -0.5411677758
1204000000.0 0.2203408527 -0.6058525393
1213950000.0 0.0849898648 -0.6318728642
1223900000.0 -0.0448222263 -0.6310338083
1233850000.0 -0.1645307073 -0.6131702958
1243800000.0 -0.2718874745 -0.5847432458
1253750000.0 -0.3656459002 -0.5483611907
1263700000.0 -0.4438056006 -0.5033201161
1273650000.0 -0.5069192586 -0.4496949815
1283600000.0 -0.5537965943 -0.3863797697
1293550000.0 -0.5887260626 -0.3157934822
1303500000.0 -0.6159022932 -0.2414581555
1313450000.0 -0.6387103419 -0.1670556834
1323400000.0 -0.6586953129 -0.0955977748
1333350000.0 -0.6753850871 -0.0280143918
1343300000.0 -0.6845635524 0.0360493173
1353250000.0 -0.6840433055 0.0958169837
1363200000.0 -0.6701573609 0.15305489
1373150000.0 -0.6426786958 0.2100005057
1383100000.0 -0.6063199701 0.2669182345
1393050000.0 -0.5647431976 0.3240058002
1403000000.0 -0.5222350518 0.3805533082
1412950000.0 -0.479000434 0.4334991105
1422900000.0 -0.4349634195 0.480949877
1432850000.0 -0.3867697305 0.5189371146
1442800000.0 -0.3324729163 0.5469031572
1452750000.0 -0.2696098007 0.5642091304
1462700000.0 -0.1973199696 0.5723709052
1472650000.0 -0.117786407 0.5738478652
1482600000.0 -0.034433129 0.5709443554
1492550000.0 0.0497397394 0.5619322489
1502500000.0 0.1317611519 0.5427443081
1512450000.0 0.2069259148 0.5097370105
1522400000.0 0.2730806479 0.4602305563
1532350000.0 0.3287427732 0.3922847249
1542300000.0 0.3741846518 0.3086418611
1552250000.0 0.4100115979 0.2142527433
1562200000.0 0.4375147709 0.1145372447
1572150000.0 0.4524262176 0.0136284489
1582100000.0 0.4511901473 -0.0851522679
1592050000.0 0.4302867016 -0.1774865793
1602000000.0 0.3873466201 -0.2620585436
1611950000.0 0.325610473 -0.3360242164
1621900000.0 0.2491263248 -0.4007136055
1631850000.0 0.164738976 -0.4566528841
1641800000.0 0.0772871028 -0.5036418226
1651750000.0 -0.0100263428 -0.5386810349
1661700000.0 -0.0940798094 -0.5581011254
1671650000.0 -0.1735737971 -0.5591686029
1681600000.0 -0.247727896 -0.542324182
1691550000.0 -0.3178970016 -0.5123910906
1701500000.0 -0.3850346091 -0.4727770657
1711450000.0 -0.4491419717 -0.4295702989
1721400000.0 -0.50925332 -0.3850024423
1731350000.0 -0.5625853698 -0.3416716377
1741300000.0 -0.6058273305 -0.2980988574
1751250000.0 -0.6365890638 -0.2518286802
1761200000.0 -0.654165286 -0.2021030632
1771150000.0 -0.6611426743 -0.1480203517
1781100000.0 -0.6628908922 -0.0910582829
1791050000.0 -0.6628863159 -0.0341407269
1801000000.0 -0.6645826051 0.0208751889
1810950000.0 -0.6687737632 0.0735104404
1820900000.0 -0.6717399224 0.1225232466
1830850000.0 -0.6689229579 0.1663784763
1840800000.0 -0.6559199268 0.2063892333
1850750000.0 -0.6313893117 0.2431455989
1860700000.0 -0.5954835907 0.2779141053
1870650000.0 -0.5539467851 0.3118614885
1880600000.0 -0.5115552738 0.3432029166
1890550000.0 -0.4719772172 0.3723833418
1900500000.0 -0.4367015146 0.3965764665
1910450000.0 -0.4036922481 0.4125972979
1920400000.0 -0.3703982899 0.4205402636
1930350000.0 -0.3329729171 0.4170365779
1940300000.0 -0.2898558888 0.4025325311
1950250000.0 -0.2420879278 0.378279593
1960200000.0 -0.192177372 0.3475247593
1970150000.0 -0.1473810674 0.3093379803
1980100000.0 -0.1130013392 0.2633377857
1990050000.0 -0.0958160624 0.2059346041
2000000000.0 -0.1043588641 0.1311020381
