!Created with skrf (http://scikit-rf.org).
# GHz S RI R 50.0 
!freq ReS11 ImS11
10000000.0 -0.7953369515 0.6031132872
19950000.0 -0.2842586079 0.9461605281
29900000.0 0.3282218918 0.9274099325
39850000.0 0.8180216201 0.5500523945
49800000.0 0.9897910211 -0.0559486776
59750000.0 0.7514489166 -0.6557762651
69700000.0 0.1753298679 -0.9828095465
79650000.0 -0.4931903982 -0.8601206525
89600000.0 -0.9283049926 -0.3140149806
99550000.0 -0.8825062026 0.4036928942
109500000.0 -0.3348410821 0.9089641567
119450000.0 0.440840652 0.8696663859
129400000.0 0.9464941465 0.2513019436
139350000.0 0.8015026975 -0.5669664254
149300000.0 0.0770465031 -0.9659138875
159250000.0 -0.6765445713 -0.6730291225
169200000.0 -0.9462759245 0.0582903421
179150000.0 -0.6118404563 0.7286745572
189100000.0 0.0718380711 0.9560671722
199050000.0 0.6998746557 0.6597597335
209000000.0 0.9550703421 0.0379095
218950000.0 0.7486354397 -0.5748212152
228900000.0 0.212654276 -0.9078707339
238850000.0 -0.4060617798 -0.8316040591
248800000.0 -0.6134628786 -0.4739504235
258750000.0 -0.9163155457 0.1532722368
268700000.0 -0.6307840818 0.6855376339
278650000.0 -0.0828334705 0.9216991757
288600000.0 0.4889868927 0.7661818856
298550000.0 0.835406442 0.2910642006
308500000.0 0.8048473917 -0.2916038092
318450000.0 0.413865018 -0.7149054368
328400000.0 -0.1491714196 -0.7809218093
338350000.0 -0.599581072 -0.4615461056
348300000.0 -0.7006391946 0.0561270455
358250000.0 -0.426838078 0.4642936391
368200000.0 0.0116996619 0.5430064076
378150000.0 0.3286414463 0.3105231264
388100000.0 0.3677290876 -0.0258055105
398050000.0 0.180761221 -0.2417257379
408000000.0 -0.0561524775 -0.2458106139
417950000.0 -0.1886349415 -0.1014202439
427900000.0 -0.1722448598 0.0614400258
437850000.0 -0.0601451672 0.1427043416
447800000.0 0.0570338837 0.1195271747
457750000.0 0.1117962405 0.0327771458
467700000.0 0.0904025271 -0.0524665618
477650000.0 0.0272969809 -0.0887020799
487600000.0 -0.0252129625 -0.0653234253
497550000.0 -0.0660672894 -0.1053557827
507500000.0 -0.0649243748 -0.0043673631
517450000.0 -0.0317274186 0.0128608764
527400000.0 -0.0125312786 -0.0007542459
537350000.0 -0.0215265612 -0.0205810961
547300000.0 -0.0527736747 -0.0188724404
557250000.0 -0.0737242467 0.0173458107
567200000.0 -0.0613141565 0.0679550282
577150000.0 -0.0085386518 0.1051178164
587100000.0 0.0670567944 0.099336012
597050000.0 0.1309514416 0.0404599477
607000000.0 0.1469409308 -0.0539151615
616950000.0 0.0997324803 -0.1452188698
626900000.0 0.0044193018 -0.1915524746
636850000.0 -0.104476316 -0.1699508703
646800000.0 -0.1789474058 -0.0843581761
656750000.0 -0.1850949217 0.0291045926
666700000.0 -0.1188725786 0.1231085861
676650000.0 -0.0090602247 0.1562027221
686600000.0 0.095337368 0.1144539019
696550000.0 0.1487270783 0.0203061841
706500000.0 0.1293987955 -0.0791954285
716450000.0 0.0534659166 -0.1356236341
726400000.0 -0.0352432624 -0.1221882931
736350000.0 -0.0843257921 -0.0495601706
746300000.0 -0.0632852314 0.037755892
756250000.0 0.0198450207 0.0842137952
766200000.0 0.1169534788 0.0543717327
776150000.0 0.1662951254 -0.043895716
786100000.0 0.1279674951 -0.1589647558
796050000.0 0.0070939735 -0.222104594
806000000.0 -0.1432593948 -0.1823492556
815950000.0 -0.2425720385 -0.0378347337
825900000.0 -0.2259801653 0.1550496549
835850000.0 -0.0820239686 0.3060406339
845800000.0 0.1356549905 0.3369266911
855750000.0 0.3343705976 0.2217406608
865700000.0 0.422868986 -0.0009056028
875650000.0 0.3518763163 -0.2410100779
885600000.0 0.135789164 -0.3939944464
895550000.0 -0.1413927265 -0.3774098611
905500000.0 -0.3554585099 -0.1843372429
915450000.0 -0.3992908656 0.1079573445
925400000.0 -0.2423651646 0.3625705355
935350000.0 0.0455134484 0.4510249224
945300000.0 0.3231483491 0.318680479
955250000.0 0.4349171612 0.0172270078
965200000.0 0.2846903719 -0.2934065302
975150000.0 -0.0802072269 -0.3957543005
985100000.0 -0.4167421947 -0.1487484936
995050000.0 -0.4084935024 0.2993859347
1005000000.0 -0.0378881196 0.5419820005
1014950000.0 0.3754249455 0.4582752822
1024900000.0 0.6642403611 0.0372776484
1034850000.0 0.4889673851 -0.5382487897
1044800000.0 -0.1279704053 -0.7704287359
1054750000.0 -0.6983636078 -0.4110224898
1064700000.0 -0.7990441862 0.1616856688
1074650000.0 -0.5045562835 0.6906378328
1084600000.0 0.0849562509 0.8427156805
1094550000.0 0.6086518506 0.5458627929
1104500000.0 0.7736779654 -0.0356895472
1114450000.0 0.4709777993 -0.5552055691
1124400000.0 -0.0936802595 -0.6825861101
1134350000.0 -0.5381621551 -0.3801436357
1144300000.0 -0.622640753 0.1037655406
1154250000.0 -0.363549478 0.4750832989
1164200000.0 0.0538070902 0.5537401233
1174150000.0 0.399555708 0.32935329
1184100000.0 0.4862912978 -0.0725622345
1194050000.0 0.2664163429 -0.4110261693
1204000000.0 -0.1116688791 -0.4978016347
1213950000.0 -0.4334329998 -0.3218620757
1223900000.0 -0.5651563698 0.0030808559
1233850000.0 -0.4731916548 0.333145552
1243800000.0 -0.1987015254 0.5433801663
1253750000.0 0.1557208766 0.5470430231
1263700000.0 0.4497755992 0.3311308375
1273650000.0 0.5575621653 -0.0233960804
1283600000.0 0.4356894148 -0.3707857862
1293550000.0 0.1473937954 -0.5802215618
1303500000.0 -0.1958561969 -0.5966196258
1313450000.0 -0.48692567 -0.4307706261
1323400000.0 -0.6448841901 -0.1390491048
1333350000.0 -0.6236173706 0.1971828097
1343300000.0 -0.4167106107 0.4789912858
1353250000.0 -0.0747211777 0.6044015881
1363200000.0 0.288000684 0.5130043041
1373150000.0 0.5368272715 0.2335324002
1383100000.0 0.5869915737 -0.126760371
1393050000.0 0.4410457698 -0.4421286164
1403000000.0 0.1633072348 -0.6229298975
1412950000.0 -0.156289382 -0.6310555637
1422900000.0 -0.4284105546 -0.4732631594
1432850000.0 -0.5764671154 -0.1937407033
1442800000.0 -0.5523346661 0.1273161998
1452750000.0 -0.3549748964 0.3916916849
1462700000.0 -0.0383279052 0.5080955202
1472650000.0 0.2886576655 0.4288525142
1482600000.0 0.5077753623 0.1864305108
1492550000.0 0.5520881699 -0.1217679482
1502500000.0 0.4232885307 -0.3900404956
1512450000.0 0.1735489884 -0.5373111668
1522400000.0 -0.1165051176 -0.5177191872
1532350000.0 -0.3464708478 -0.3297217255
1542300000.0 -0.4222055459 -0.0350774561
1552250000.0 -0.3047379089 0.2457909997
1562200000.0 -0.0478063209 0.3928003808
1572150000.0 0.2322327766 0.3567683679
1582100000.0 0.4238216056 0.1684856307
1592050000.0 0.4606933753 -0.0888950645
1602000000.0 0.334583025 -0.3143702427
1611950000.0 0.0916101558 -0.4197398132
1621900000.0 -0.1766318414 -0.3532039613
1631850000.0 -0.3539567248 -0.1263971741
1641800000.0 -0.3530999854 0.1683767381
1651750000.0 -0.1712633306 0.3996532728
1661700000.0 0.1097480726 0.4707439203
1671650000.0 0.3721013503 0.3630319509
1681600000.0 0.5225178067 0.1250076553
1691550000.0 0.5120194223 -0.1614689997
1701500000.0 0.3359857207 -0.4015674385
1711450000.0 0.0408337724 -0.5056487682
1721400000.0 -0.2754981682 -0.4171249223
1731350000.0 -0.4868160617 -0.1548091852
1741300000.0 -0.5070310056 0.1797525209
1751250000.0 -0.338304942 0.4584174389
1761200000.0 -0.0558670555 0.5926124926
1771150000.0 0.2438932792 0.556220605
1781100000.0 0.4725599427 0.373328631
1791050000.0 0.5770816471 0.1163716486
1801000000.0 0.5549955812 -0.1884359738
1810950000.0 0.3398151536 -0.4455798429
1820900000.0 0.0149522122 -0.5308923512
1830850000.0 -0.2967165177 -0.429743539
1840800000.0 -0.5031254365 -0.1806073923
1850750000.0 -0.5390301215 0.1307622122
1860700000.0 -0.412001539 0.3967598429
1870650000.0 -0.180413022 0.5500144652
1880600000.0 0.0844957996 0.5633673139
1890550000.0 0.3143371593 0.4409776606
1900500000.0 0.4461156087 0.2156975704
1910450000.0 0.4335598846 -0.046299722
1920400000.0 0.2790817772 -0.2542074508
1930350000.0 0.0460311682 -0.3357376115
1940300000.0 -0.1726542461 -0.277347463
1950250000.0 -0.3039968568 -0.1297017843
1960200000.0 -0.3258114408 0.0344891523
1970150000.0 -0.2633929339 0.1532987281
1980100000.0 -0.1671187808 0.1925237817
1990050000.0 -0.0982368472 0.1579492137
2000000000.0 -0.1046239025 0.1008221323
