!Created with skrf (http://scikit-rf.org).
# GHz S RI R 50.0 
!freq ReS11 ImS11
10000000.0 -0.7388115787 0.5614111197
19950000.0 -0.2679189493 0.885000222
29900000.0 0.3060118302 0.8683105174
39850000.0 0.7694686091 0.5060425727
49800000.0 0.9279335015 -0.078608968
59750000.0 0.6899971331 -0.6551545249
69700000.0 0.1303961917 -0.961313469
79650000.0 -0.5063360508 -0.8280328019
89600000.0 -0.9081924499 -0.2910475658
99550000.0 -0.8507206801 0.4044312286
109500000.0 -0.3154187324 0.895941688
119450000.0 0.4449297869 0.8645056146
129400000.0 0.9571204613 0.2458564368
139350000.0 0.8336391931 -0.5529102685
149300000.0 0.1280848016 -0.9703980986
159250000.0 -0.6252565941 -0.7018695696
169200000.0 -0.9136823119 0.0104244363
179150000.0 -0.6127510749 0.6742823743
189100000.0 0.0313382061 0.9158228132
199050000.0 0.6349017408 0.6534698978
209000000.0 0.896311083 0.068119831
218950000.0 0.7174423413 -0.5220312406
228900000.0 0.2139866818 -0.8479384084
238850000.0 -0.3747430603 -0.7765753691
248800000.0 -0.584335369 -0.4237263354
258750000.0 -0.8468125498 0.1766150832
268700000.0 -0.5615877697 0.6765519193
278650000.0 -0.0393216085 0.8827570488
288600000.0 0.4895630245 0.7149370465
298550000.0 0.7976133667 0.2502981546
308500000.0 0.7480125386 -0.3094712978
318450000.0 0.3558998971 -0.709839063
328400000.0 -0.1961665749 -0.7585435683
338350000.0 -0.6287641591 -0.4303417868
348300000.0 -0.7128116685 0.0868231442
358250000.0 -0.4285463236 0.4887508777
368200000.0 0.0148160342 0.5622602551
378150000.0 0.3386652012 0.3277194154
388100000.0 0.3909429355 -0.0139034862
398050000.0 0.2160561664 -0.2449484873
408000000.0 -0.0204303162 -0.2700558628
417950000.0 -0.1662981373 -0.143017863
427900000.0 -0.1718805666 0.0124246692
437850000.0 -0.0827223085 0.0984585616
447800000.0 0.0173144243 0.0899494388
457750000.0 0.0662203917 0.0232013638
467700000.0 0.0501230737 -0.04253762
477650000.0 0.0025929244 -0.0632174959
487600000.0 -0.0296846111 -0.0340041895
497550000.0 -0.0243773292 -0.0737333381
507500000.0 -0.0263455652 0.0164884568
517450000.0 0.0142222988 0.0213500895
527400000.0 0.0347683062 -0.0041707175
537350000.0 0.0215317722 -0.0364671945
547300000.0 -0.0239872234 -0.0465643539
557250000.0 -0.0638462654 -0.0129013848
567200000.0 -0.0712228277 0.0415140863
577150000.0 -0.0362082102 0.0898283543
587100000.0 0.0289480398 0.0996587823
597050000.0 0.0917972128 0.0581188975
607000000.0 0.1195887284 -0.0250092127
616950000.0 0.0840556716 -0.1078438687
626900000.0 0.0027204194 -0.1510492034
636850000.0 -0.0883091514 -0.13479259
646800000.0 -0.1485182232 -0.062330197
656750000.0 -0.1512867771 0.0343140791
666700000.0 -0.0924176113 0.1108599078
676650000.0 0.0021494858 0.1336267919
686600000.0 0.0896796247 0.0880077939
696550000.0 0.1279878927 -0.0051052508
706500000.0 0.0967083646 -0.0993357622
716450000.0 0.0131970628 -0.1473161614
726400000.0 -0.0770135445 -0.1230814902
736350000.0 -0.1208377234 -0.0400490436
746300000.0 -0.0887509355 0.0549570703
756250000.0 0.0096400365 0.1053680502
766200000.0 0.1226037085 0.073458027
776150000.0 0.1861414018 -0.0316112622
786100000.0 0.1581025017 -0.1586270144
796050000.0 0.0404859295 -0.2348029226
806000000.0 -0.1122239534 -0.2065710992
815950000.0 -0.2194559358 -0.0714204277
825900000.0 -0.2163532841 0.1156802959
835850000.0 -0.0905441357 0.2680581235
845800000.0 0.1101545218 0.3086181314
855750000.0 0.2996027852 0.2090032667
865700000.0 0.3891181004 0.0026507903
875650000.0 0.3222691562 -0.2228584064
885600000.0 0.1206706011 -0.3516635243
895550000.0 -0.1221057772 -0.3271511198
905500000.0 -0.3080973854 -0.148342915
915450000.0 -0.3388543015 0.1228840858
925400000.0 -0.1810766454 0.3535501323
935350000.0 0.0927434677 0.4184254274
945300000.0 0.3417944213 0.2683634969
955250000.0 0.4142995456 -0.0360881174
965200000.0 0.226078759 -0.3274342743
975150000.0 -0.1555846724 -0.385987065
985100000.0 -0.4731816909 -0.0964566824
995050000.0 -0.4382944369 0.3736657858
1005000000.0 -0.0043021177 0.6537097677
1014950000.0 0.5246536938 0.4584132453
1024900000.0 0.7109995405 -0.1241672089
1034850000.0 0.351779169 -0.6633669664
1044800000.0 -0.3073531941 -0.7112703927
1054750000.0 -0.7294873638 -0.2215144717
1064700000.0 -0.6672807272 0.2421892303
1074650000.0 -0.3816909679 0.695785671
1084600000.0 0.1914251531 0.7570305833
1094550000.0 0.6242567714 0.3952965979
1104500000.0 0.6763136479 -0.1649063784
1114450000.0 0.3178821455 -0.5880332881
1124400000.0 -0.2082211107 -0.6163499796
1134350000.0 -0.5634881864 -0.2780387006
1144300000.0 -0.5752753636 0.1767237052
1154250000.0 -0.2904480841 0.4926943404
1164200000.0 0.111957598 0.5276922041
1174150000.0 0.4247490633 0.2889589664
1184100000.0 0.49007825 -0.1009942463
1194050000.0 0.2680319344 -0.4204770529
1204000000.0 -0.0973059337 -0.4978854624
1213950000.0 -0.4081427778 -0.3264222441
1223900000.0 -0.5406810895 -0.0147989679
1233850000.0 -0.4659698688 0.3043029135
1243800000.0 -0.2179301609 0.5183430111
1253750000.0 0.1182850484 0.5429395532
1263700000.0 0.412489194 0.3510816247
1273650000.0 0.5335289584 0.0141537596
1283600000.0 0.4320805222 -0.3254924858
1293550000.0 0.1627838818 -0.5357837131
1303500000.0 -0.160509671 -0.5591580933
1313450000.0 -0.4326569832 -0.4122000953
1323400000.0 -0.5876639276 -0.1504702084
1333350000.0 -0.589812487 0.158950522
1343300000.0 -0.4227593792 0.4349761615
1353250000.0 -0.1134844606 0.576329673
1363200000.0 0.2361245691 0.5093988015
1373150000.0 0.4883142576 0.2489707837
1383100000.0 0.5481094399 -0.1021565765
1393050000.0 0.4134758629 -0.4134166572
1403000000.0 0.1505979673 -0.59439179
1412950000.0 -0.149849804 -0.6082283287
1422900000.0 -0.4037924005 -0.4673197561
1432850000.0 -0.5499169035 -0.2110412051
1442800000.0 -0.5425514204 0.0978855705
1452750000.0 -0.3628143037 0.3661385017
1462700000.0 -0.0547021788 0.4935206395
1472650000.0 0.2724131932 0.4245518729
1482600000.0 0.4976005188 0.1889362195
1492550000.0 0.5493701356 -0.1203570053
1502500000.0 0.4251565555 -0.3943878492
1512450000.0 0.1777099941 -0.5478833134
1522400000.0 -0.1090485475 -0.53509914
1532350000.0 -0.3397302776 -0.3584655537
1542300000.0 -0.4315352034 -0.0713751166
1552250000.0 -0.3379575759 0.2230532076
1562200000.0 -0.0902085702 0.4041404647
1572150000.0 0.2055907466 0.400955013
1582100000.0 0.4280313644 0.2296865196
1592050000.0 0.4988095512 -0.0299317206
1602000000.0 0.4018912028 -0.2759216347
1611950000.0 0.173206565 -0.4180085726
1621900000.0 -0.105440747 -0.3965622898
1631850000.0 -0.3245878297 -0.2049376223
1641800000.0 -0.3829572688 0.0881372986
1651750000.0 -0.248239529 0.3538572727
1661700000.0 0.0160391534 0.4759197659
1671650000.0 0.292732466 0.4145013232
1681600000.0 0.4766319659 0.2054217912
1691550000.0 0.5072938288 -0.0720261717
1701500000.0 0.3728594774 -0.3212203108
1711450000.0 0.1157615407 -0.4508999916
1721400000.0 -0.1697523076 -0.4094162456
1731350000.0 -0.3915327413 -0.2260337082
1741300000.0 -0.4861517434 0.0685187844
1751250000.0 -0.3852047778 0.3656340582
1761200000.0 -0.138432451 0.5427052366
1771150000.0 0.1551762128 0.5501329912
1781100000.0 0.4015573481 0.4031468543
1791050000.0 0.5359993267 0.1502092443
1801000000.0 0.5202643855 -0.1401254824
1810950000.0 0.3536969758 -0.3852078582
1820900000.0 0.0755925291 -0.5037103767
1830850000.0 -0.2286086502 -0.443249702
1840800000.0 -0.4464803603 -0.2198634022
1850750000.0 -0.5027535088 0.0773524072
1860700000.0 -0.3967573512 0.3412020671
1870650000.0 -0.1839846011 0.4996163794
1880600000.0 0.063670364 0.5236617114
1890550000.0 0.2772154485 0.419880276
1900500000.0 0.4018903291 0.221492894
1910450000.0 0.4046662157 -0.0134435079
1920400000.0 0.2823064727 -0.2143037944
1930350000.0 0.0734073233 -0.3089553255
1940300000.0 -0.1393860005 -0.2688620614
1950250000.0 -0.2758752531 -0.1316167376
1960200000.0 -0.3048113808 0.0318292342
1970150000.0 -0.2441263026 0.1532476804
1980100000.0 -0.1474906335 0.1913012053
1990050000.0 -0.0858562485 0.1480397625
2000000000.0 -0.116349788 0.0877303032
