!Created with skrf (http://scikit-rf.org).
# GHz S RI R 50.0 
!freq ReS11 ImS11
10000000.0 -0.7109417146 0.0541535089
14975000.0 -0.717974812 0.0844004707
19950000.0 -0.7258704634 0.1174836979
24925000.0 -0.7325052471 0.1541931959
29900000.0 -0.7370996334 0.1934525001
34875000.0 -0.7371267632 0.2357212689
39850000.0 -0.731976485 0.280488478
44825000.0 -0.7213964231 0.3272316539
49800000.0 -0.705587719 0.3754533174
54775000.0 -0.6844056264 0.4247432996
59750000.0 -0.6582608219 0.4749393502
64725000.0 -0.6277388264 0.5256299725
69700000.0 -0.5927609784 0.5767670499
74675000.0 -0.5534355646 0.6283390597
79650000.0 -0.5095116855 0.6805192495
84625000.0 -0.4603244099 0.733262899
89600000.0 -0.4044708928 0.7864003916
94575000.0 -0.3397964272 0.8387220086
99550000.0 -0.2637747177 0.8881004045
104525000.0 -0.1743858939 0.9308664981
109500000.0 -0.0721541321 0.9624779816
114475000.0 0.0442602494 0.9773724766
119450000.0 0.1695962926 0.9716639498
124425000.0 0.2987897132 0.9424201332
129400000.0 0.4279228668 0.8850595429
134375000.0 0.5376716924 0.8163293597
139350000.0 0.6481938829 0.7166143279
144325000.0 0.7376510076 0.6021652563
149300000.0 0.8066255412 0.4763774698
154275000.0 0.8534767938 0.3450877436
159250000.0 0.87813103 0.2137114025
164225000.0 0.8813709359 0.0878930947
169200000.0 0.866178193 -0.028645965
174175000.0 0.8363458189 -0.1331426731
179150000.0 0.7971288678 -0.2243047292
184125000.0 0.7531622417 -0.302255599
189100000.0 0.7083818184 -0.369034382
194075000.0 0.6650633094 -0.4266456278
199050000.0 0.6241975495 -0.4773391621
204025000.0 0.5852873167 -0.5231381243
209000000.0 0.5476358908 -0.5655364993
213975000.0 0.5096310487 -0.604728763
218950000.0 0.4709143368 -0.6405069195
223925000.0 0.4305111084 -0.6733818086
228900000.0 0.3881332938 -0.7027654
233875000.0 0.3439288775 -0.7282641868
238850000.0 0.2977636222 -0.7498238264
243825000.0 0.2483800938 -0.7673947663
248800000.0 0.1646287188 -0.7349571205
253775000.0 0.1745839376 -0.7850274149
258750000.0 0.1273821468 -0.7931471913
263725000.0 0.0848859875 -0.7972897341
268700000.0 0.0452096403 -0.7992093917
273675000.0 0.0080979899 -0.7996778318
278650000.0 -0.0269030798 -0.7993042835
283625000.0 -0.0608748326 -0.798630667
288600000.0 -0.0947902895 -0.7979045678
293575000.0 -0.1296493134 -0.796637368
298550000.0 -0.1666084245 -0.7940371498
303525000.0 -0.2061993767 -0.7891138167
308500000.0 -0.2482258527 -0.7804759103
313475000.0 -0.2924712919 -0.7665123537
318450000.0 -0.3378593879 -0.7461245384
323425000.0 -0.3831571128 -0.7186840256
328400000.0 -0.4270056143 -0.6840580167
333375000.0 -0.4677636432 -0.6422645155
338350000.0 -0.5042680121 -0.5931501739
343325000.0 -0.5352506062 -0.5377947917
348300000.0 -0.5591848851 -0.4769118441
353275000.0 -0.5746456564 -0.4116584459
358250000.0 -0.5811339967 -0.3434898392
363225000.0 -0.5777217314 -0.2746413705
368200000.0 -0.5639606319 -0.2074727909
373175000.0 -0.5408136704 -0.1443031229
378150000.0 -0.5096051671 -0.0871883274
383125000.0 -0.4712075063 -0.0374520941
388100000.0 -0.4273846323 0.0043249034
393075000.0 -0.3805034278 0.0370819077
398050000.0 -0.3321490622 0.0612883263
403025000.0 -0.2837384571 0.0779280538
408000000.0 -0.236900781 0.0873421029
412975000.0 -0.1927921752 0.0904227775
417950000.0 -0.1518207244 0.0883306411
422925000.0 -0.1143288957 0.0822048934
427900000.0 -0.0810885363 0.0723747411
432875000.0 -0.0521362535 0.0599723176
437850000.0 -0.0277115024 0.0459619487
442825000.0 -0.0074698619 0.0307918144
447800000.0 0.009084259 0.0150503012
452775000.0 0.0221195577 -0.0008901154
457750000.0 0.0322210598 -0.016555431
462725000.0 0.0400595916 -0.031710136
467700000.0 0.045663796 -0.0459286531
472675000.0 0.0492324926 -0.0589141685
477650000.0 0.0514530119 -0.0707978652
482625000.0 0.0524679081 -0.0812748002
487600000.0 0.0518104255 -0.0904393357
492575000.0 0.0470116585 -0.0979061672
497550000.0 0.0551245457 -0.0905371153
502525000.0 0.0555399583 -0.1036149326
507500000.0 0.0518108638 -0.108128068
512475000.0 0.0477231349 -0.1108649034
517450000.0 0.0432484293 -0.1123232812
522425000.0 0.0384032485 -0.1127707586
527400000.0 0.0330661125 -0.1122085367
532375000.0 0.0273620373 -0.110486679
537350000.0 0.0220675443 -0.1080415725
542325000.0 0.016785897 -0.1050732917
547300000.0 0.0110380184 -0.1018177944
552275000.0 0.0055529669 -0.0967468357
557250000.0 0.0010433867 -0.0905197749
562225000.0 -0.0029935079 -0.0835090467
567200000.0 -0.0065815966 -0.0755074928
572175000.0 -0.0092604116 -0.0661205002
577150000.0 -0.010994889 -0.0557429185
582125000.0 -0.0123042768 -0.044717206
587100000.0 -0.0128088652 -0.0325651158
592075000.0 -0.0126832999 -0.0199930334
597050000.0 -0.0116293113 -0.0074528092
602025000.0 -0.0100398492 0.0051479666
607000000.0 -0.0074357286 0.0178478145
611975000.0 -0.0037324189 0.0298909348
616950000.0 0.0007061349 0.0412976468
621925000.0 0.0055477375 0.0518078771
626900000.0 0.0116228339 0.0613252891
631875000.0 0.0183021904 0.0699260416
636850000.0 0.0254983093 0.0776154712
641825000.0 0.0331850993 0.0844399676
646800000.0 0.0410093721 0.0908242555
651775000.0 0.0490134709 0.0965520901
656750000.0 0.057366467 0.1023830628
661725000.0 0.0655474789 0.1077447664
666700000.0 0.0735724122 0.1129874374
671675000.0 0.0818815885 0.1180171212
676650000.0 0.0903820322 0.1228669121
681625000.0 0.0993207876 0.1272380485
686600000.0 0.1087214049 0.1311038738
691575000.0 0.1182693656 0.1344004983
696550000.0 0.1282069925 0.1362115596
701525000.0 0.1383314328 0.136591773
706500000.0 0.1490289156 0.1354555138
711475000.0 0.1596062548 0.1325966049
716450000.0 0.1702060748 0.1282354061
721425000.0 0.1808340421 0.122573317
726400000.0 0.1913727671 0.1152984116
731375000.0 0.2015391679 0.1065726938
736350000.0 0.2112461655 0.0968889228
741325000.0 0.2199807861 0.0858844149
746300000.0 0.2283714259 0.0738464033
751275000.0 0.2355273616 0.0606520554
756250000.0 0.2410462133 0.0468791533
761225000.0 0.2452656248 0.0322192361
766200000.0 0.2482415839 0.017066453
771175000.0 0.248876714 0.0011166586
776150000.0 0.2476266017 -0.0154800529
781125000.0 0.2445740687 -0.0328433123
786100000.0 0.2396916195 -0.0504435093
791075000.0 0.2330473328 -0.0686274044
796050000.0 0.2245664784 -0.0870681398
801025000.0 0.2146320694 -0.1056438821
806000000.0 0.202710777 -0.1237894275
810975000.0 0.18943643 -0.1413464469
815950000.0 0.1747708511 -0.1581575974
820925000.0 0.1588159471 -0.1742360236
825900000.0 0.1421570473 -0.1890611177
830875000.0 0.1252001256 -0.2023343184
835850000.0 0.1072680887 -0.2139004719
840825000.0 0.089167707 -0.2243375903
845800000.0 0.0706912521 -0.2335809664
850775000.0 0.0519126888 -0.241516471
855750000.0 0.0324323461 -0.2492706754
860725000.0 0.0118996272 -0.2565960195
865700000.0 -0.0101340428 -0.2632465678
870675000.0 -0.0338605366 -0.2693655456
875650000.0 -0.0593998708 -0.2741696333
880625000.0 -0.0868569224 -0.2771590974
885600000.0 -0.115730531 -0.2783010923
890575000.0 -0.1459754504 -0.2766056303
895550000.0 -0.1768050015 -0.2722105439
900525000.0 -0.207567571 -0.2646431126
905500000.0 -0.2379337966 -0.2536649197
910475000.0 -0.2674182908 -0.2388071145
915450000.0 -0.2955705511 -0.2207314663
920425000.0 -0.3220780302 -0.1986956338
925400000.0 -0.3469020538 -0.1734256605
930375000.0 -0.3696703742 -0.1448114173
935350000.0 -0.3905271038 -0.1133574807
940325000.0 -0.4093083588 -0.0789312211
945300000.0 -0.4259516349 -0.0412628735
950275000.0 -0.4403419268 -0.0004448237
955250000.0 -0.4523103837 0.0438116569
960225000.0 -0.4605029452 0.0919332431
965200000.0 -0.4640913501 0.1438249722
970175000.0 -0.4618774932 0.1995513952
975150000.0 -0.4519741466 0.2581604575
980125000.0 -0.4333685602 0.3193163363
985100000.0 -0.4041313562 0.3816981935
990075000.0 -0.3636903023 0.4432541963
995050000.0 -0.3108714566 0.5020715906
1000025000.0 -0.2453358299 0.5552127848
1005000000.0 -0.1669427243 0.5972378865
1009975000.0 -0.0798221135 0.6300910973
1014950000.0 0.0163652178 0.6473902044
1019925000.0 0.1184675268 0.6466800775
1024900000.0 0.2225330804 0.6254212085
1029875000.0 0.3235800984 0.5818770501
1034850000.0 0.4161900398 0.5168452218
1039825000.0 0.4959146812 0.4324249621
1044800000.0 0.5597080433 0.3318503012
1049775000.0 0.6051900074 0.2191926878
1054750000.0 0.6287626547 0.0993477652
1059725000.0 0.62441059 -0.014868535
1064700000.0 0.6181115103 -0.098918737
1069675000.0 0.6256163303 -0.2026307497
1074650000.0 0.6052565415 -0.3175893684
1079625000.0 0.5590201995 -0.4217017242
1084600000.0 0.5023212538 -0.4972318409
1089575000.0 0.4492865282 -0.5765453004
1094550000.0 0.3733900187 -0.6487738524
1099525000.0 0.2891410724 -0.7018675011
1104500000.0 0.2015450092 -0.7379208201
1109475000.0 0.1138913284 -0.7593962072
1114450000.0 0.0280319175 -0.7678923091
1119425000.0 -0.054275247 -0.7658260873
1124400000.0 -0.1321136014 -0.7541024391
1129375000.0 -0.2051245013 -0.7342799806
1134350000.0 -0.2731565758 -0.7076199132
1139325000.0 -0.3356487505 -0.6745516942
1144300000.0 -0.391872072 -0.6357999055
1149275000.0 -0.4415299796 -0.5925121266
1154250000.0 -0.4840108222 -0.5455907351
1159225000.0 -0.5181922521 -0.4959228668
1164200000.0 -0.5447079134 -0.4458262251
1169175000.0 -0.5646955108 -0.3977210551
1174150000.0 -0.5812689933 -0.3508005731
1179125000.0 -0.5946015644 -0.303332462
1184100000.0 -0.6043754292 -0.2553103686
1189075000.0 -0.6097983893 -0.2076552088
1194050000.0 -0.6110651978 -0.1615332458
1199025000.0 -0.6090168623 -0.1173334029
1204000000.0 -0.6060875784 -0.0774692693
1208975000.0 -0.5988674546 -0.038594963
1213950000.0 -0.5896072643 -0.002008757
1218925000.0 -0.5788002969 0.0316131567
1223900000.0 -0.5674907509 0.0618850043
1228875000.0 -0.5556790053 0.0897149002
1233850000.0 -0.5442729028 0.1153877748
1238825000.0 -0.5332575187 0.1394691584
1243800000.0 -0.521929557 0.1623186524
1248775000.0 -0.5107861068 0.1851847401
1253750000.0 -0.4989646622 0.2075521877
1258725000.0 -0.4863533172 0.2293841636
1263700000.0 -0.4728910178 0.2509844904
1268675000.0 -0.458699218 0.2719309482
1273650000.0 -0.4436380249 0.2917613409
1278625000.0 -0.4276220099 0.310142977
1283600000.0 -0.4110639854 0.3270699633
1288575000.0 -0.3936922693 0.3421203894
1293550000.0 -0.3758920224 0.3555346592
1298525000.0 -0.3575241237 0.3662476713
1303500000.0 -0.3400246366 0.3744187039
1308475000.0 -0.3226692414 0.3803710545
1313450000.0 -0.3071508372 0.3832851941
1318425000.0 -0.2944427274 0.3841983934
1323400000.0 -0.2850531506 0.3838319818
1328375000.0 -0.2795199386 0.3831918102
1333350000.0 -0.2775430041 0.3842886414
1338325000.0 -0.277627276 0.3882641901
1343300000.0 -0.2787532025 0.3954118343
1348275000.0 -0.278738132 0.4060572579
1353250000.0 -0.2762637199 0.4190805366
1358225000.0 -0.2712882438 0.433812377
1363200000.0 -0.2631470122 0.4492335968
1368175000.0 -0.2525927642 0.4642203926
1373150000.0 -0.2393551862 0.4782777501
1378125000.0 -0.2242671805 0.4913681363
1383100000.0 -0.2079679579 0.5025589036
1388075000.0 -0.1903094382 0.511774062
1393050000.0 -0.1720428626 0.518345224
1398025000.0 -0.1533026007 0.5225362873
1403000000.0 -0.133243661 0.5245354707
1407975000.0 -0.1164942354 0.5237397651
1412950000.0 -0.101461425 0.5202798941
1417925000.0 -0.0893178873 0.5150296153
1422900000.0 -0.08150742 0.5087357351
1427875000.0 -0.0782631964 0.5027974827
1432850000.0 -0.0793218877 0.4982388715
1437825000.0 -0.0837371466 0.497046845
1442800000.0 -0.0893441283 0.4999691032
1447775000.0 -0.0939368606 0.5065118772
1452750000.0 -0.0954973205 0.5153676821
1457725000.0 -0.0935860786 0.5257927839
1462700000.0 -0.0876214916 0.5370395906
1467675000.0 -0.0784551879 0.5477296313
1472650000.0 -0.0661075902 0.5568679482
1477625000.0 -0.052027576 0.5646496056
1482600000.0 -0.036018337 0.5709743742
1487575000.0 -0.0190124132 0.574831771
1492550000.0 -0.0011829578 0.5768387804
1497525000.0 0.0171429631 0.577473177
1502500000.0 0.0356849247 0.5766436858
1507475000.0 0.0534018435 0.5752718075
1512450000.0 0.0700654201 0.5729115903
1517425000.0 0.0851081017 0.5697312221
1522400000.0 0.0985555493 0.5663204029
1527375000.0 0.1101258451 0.5626367106
1532350000.0 0.1198948858 0.5588144509
1537325000.0 0.1285443475 0.5554435637
1542300000.0 0.1368331147 0.5523271074
1547275000.0 0.1454542917 0.5488823484
1552250000.0 0.1546483158 0.5456294808
1557225000.0 0.1644596584 0.5414430341
1562200000.0 0.1754517195 0.5360647853
1567175000.0 0.186985477 0.5299001279
1572150000.0 0.1993555079 0.5223848943
1577125000.0 0.2121666937 0.5134627166
1582100000.0 0.2258548258 0.5038336837
1587075000.0 0.2391569103 0.4932922533
1592050000.0 0.2530808515 0.4823152915
1597025000.0 0.2664620197 0.4712147196
1602000000.0 0.2808314727 0.4596470683
1606975000.0 0.2945284078 0.4481477024
1611950000.0 0.3075934015 0.4365505862
1616925000.0 0.3203427888 0.4250009957
1621900000.0 0.3327521975 0.413300958
1626875000.0 0.3443631012 0.4014524664
1631850000.0 0.3557454982 0.388869977
1636825000.0 0.3661190106 0.3764434148
1641800000.0 0.3765019498 0.3632717573
1646775000.0 0.3860737061 0.3493754456
1651750000.0 0.3953088128 0.3351021929
1656725000.0 0.4036748518 0.3203641015
1661700000.0 0.4115783227 0.3053473088
1666675000.0 0.4184144227 0.290075484
1671650000.0 0.4246145502 0.274826452
1676625000.0 0.4298156868 0.2596765653
1681600000.0 0.4341493371 0.2447411026
1686575000.0 0.437019397 0.2295294338
1691550000.0 0.4385517512 0.2149412106
1696525000.0 0.4389210343 0.2008020133
1701500000.0 0.4372072099 0.1864817484
1706475000.0 0.4345438579 0.1735707235
1711450000.0 0.4311046374 0.1618821564
1716425000.0 0.4270807139 0.151215193
1721400000.0 0.4228126081 0.1412941656
1726375000.0 0.4203967007 0.1320552198
1731350000.0 0.4190161352 0.1234359086
1736325000.0 0.4203827919 0.1145106803
1741300000.0 0.4229961714 0.1045673607
1746275000.0 0.4274670315 0.0946625242
1751250000.0 0.432760483 0.0834138387
1756225000.0 0.4377557812 0.0717085972
1761200000.0 0.4425945476 0.0600790233
1766175000.0 0.4460639746 0.0480986344
1771150000.0 0.4481995917 0.0366092764
1776125000.0 0.4485964819 0.0261437168
1781100000.0 0.4470781832 0.0160994352
1786075000.0 0.4434022499 0.0070716716
1791050000.0 0.4371570527 -0.0001512476
1796025000.0 0.4297526064 -0.0058619557
1801000000.0 0.4256297878 -0.0052229342
1805975000.0 0.4145881463 -0.0068832044
1810950000.0 0.403731337 -0.0063602562
1815925000.0 0.395034502 -0.0029107831
1820900000.0 0.3919702682 0.0016304584
1825875000.0 0.3936281636 0.004816705
1830850000.0 0.3981320647 0.0061197814
1835825000.0 0.4044432464 0.0049921614
1840800000.0 0.4110762715 0.0024886539
1845775000.0 0.4180621969 -0.0016766049
1850750000.0 0.4234165351 -0.0072524354
1855725000.0 0.4275672045 -0.0132963157
1860700000.0 0.4300483403 -0.0203257201
1865675000.0 0.4291931176 -0.0272115446
1870650000.0 0.4262359145 -0.0336219505
1875625000.0 0.4206804272 -0.0402343761
1880600000.0 0.4114755849 -0.0455641526
1885575000.0 0.4005541362 -0.0496102372
1890550000.0 0.3870694802 -0.0522977208
1895525000.0 0.3727693863 -0.0537971218
1900500000.0 0.3578701079 -0.0566078454
1905475000.0 0.3419748837 -0.056285495
1910450000.0 0.3285810942 -0.0532975079
1915425000.0 0.318037641 -0.0491196371
1920400000.0 0.3103664302 -0.0443819303
1925375000.0 0.3074643213 -0.0397439161
1930350000.0 0.3063283449 -0.0359803001
1935325000.0 0.3071178148 -0.0337508178
1940300000.0 0.3077811117 -0.0335215736
1945275000.0 0.3073853365 -0.0332985214
1950250000.0 0.3055488483 -0.0345529212
1955225000.0 0.3011514932 -0.0360296982
1960200000.0 0.2936540769 -0.0374926252
1965175000.0 0.2841867236 -0.038637453
1970150000.0 0.2714571204 -0.0391310317
1975125000.0 0.2569263581 -0.0399642169
1980100000.0 0.2391993314 -0.0409610056
1985075000.0 0.2181941573 -0.0410815598
1990050000.0 0.1965885339 -0.0413634958
1995025000.0 0.1717149187 -0.0418134253
2000000000.0 0.1437709552 -0.0402890495
