!Created with skrf (http://scikit-rf.org).
# GHz S RI R 50.0 
!freq ReS11 ImS11
10000000.0 -0.8179971308 0.6108228055
19950000.0 -0.2979087642 0.951359314
29900000.0 0.3177223444 0.9263385632
39850000.0 0.8089504191 0.5469024859
49800000.0 0.987808798 -0.0599326273
59750000.0 0.7584940764 -0.6688507265
69700000.0 0.1809533868 -1.010168118
79650000.0 -0.4987312043 -0.8910245386
89600000.0 -0.9389097832 -0.3363443497
99550000.0 -0.8897537806 0.3885531865
109500000.0 -0.3406301423 0.8987040791
119450000.0 0.4395500965 0.8717215326
129400000.0 0.9701484947 0.2536588127
139350000.0 0.8353194365 -0.5734410478
149300000.0 0.104743959 -0.9867868508
159250000.0 -0.659523363 -0.6954068611
169200000.0 -0.9400772188 0.0383327134
179150000.0 -0.6199225044 0.7207202497
189100000.0 0.0624288133 0.9723626581
199050000.0 0.7076321212 0.6917916398
209000000.0 0.9809136688 0.0654451778
218950000.0 0.7796296228 -0.5582020913
228900000.0 0.242146723 -0.9007615145
238850000.0 -0.3803873658 -0.836272545
248800000.0 -0.8109888753 -0.2980112661
258750000.0 -0.926622743 0.1513011319
268700000.0 -0.6513990948 0.6986090153
278650000.0 -0.0996684264 0.9482441493
288600000.0 0.4812561349 0.7947862535
298550000.0 0.8324656161 0.3144204745
308500000.0 0.8044107988 -0.2745598235
318450000.0 0.4144586128 -0.7072946681
328400000.0 -0.1543157258 -0.7852145416
338350000.0 -0.6177375138 -0.4702233025
348300000.0 -0.7275559592 0.054354571
358250000.0 -0.451503676 0.4705508719
368200000.0 -0.0047860781 0.5518701264
378150000.0 0.3221572792 0.316939188
388100000.0 0.3708309168 -0.028332685
398050000.0 0.1863329944 -0.2585519898
408000000.0 -0.0573832722 -0.2738989047
417950000.0 -0.2006137523 -0.1313790069
427900000.0 -0.1916214256 0.0380094725
437850000.0 -0.0798531478 0.1301219636
447800000.0 0.043245193 0.1176080757
457750000.0 0.1099062469 0.0372289308
467700000.0 0.1007421573 -0.0487476072
477650000.0 0.0461100629 -0.0897929832
487600000.0 -0.0056127918 -0.0756132748
497550000.0 0.0276408217 -0.068863926
507500000.0 -0.0393530104 -0.0185498582
517450000.0 -0.0107808118 -0.0033460026
527400000.0 0.0018219262 -0.0165806809
537350000.0 -0.0147399078 -0.0328371739
547300000.0 -0.0535413722 -0.0264936902
557250000.0 -0.0824453327 0.0210712164
567200000.0 -0.0713513114 0.0845403395
577150000.0 -0.0144563097 0.1330708798
587100000.0 0.06886542 0.1338728268
597050000.0 0.1428433138 0.0758802889
607000000.0 0.1670813545 -0.0254871534
616950000.0 0.1228523089 -0.1286881638
626900000.0 0.022577621 -0.1886740727
636850000.0 -0.0968685712 -0.1791297311
646800000.0 -0.1859638177 -0.0995049739
656750000.0 -0.2087731114 0.0169520555
666700000.0 -0.1537001848 0.1205825002
676650000.0 -0.0467178951 0.166269125
686600000.0 0.0640728579 0.1345177988
696550000.0 0.1290420383 0.042926937
706500000.0 0.1214126411 -0.061309651
716450000.0 0.0539594277 -0.1285202356
726400000.0 -0.0329401796 -0.1277674033
736350000.0 -0.0856390314 -0.0646312143
746300000.0 -0.0699259664 0.0181485764
756250000.0 0.009826987 0.0655625265
766200000.0 0.1070924767 0.0391764352
776150000.0 0.1620868498 -0.0564865164
786100000.0 0.1306253281 -0.1731483036
796050000.0 0.0132724491 -0.2408299334
806000000.0 -0.1374180036 -0.2048912677
815950000.0 -0.23994415 -0.0605564323
825900000.0 -0.2272161839 0.1353930634
835850000.0 -0.0859730504 0.29381826
845800000.0 0.1330678476 0.3352651574
855750000.0 0.3378690278 0.2283266371
865700000.0 0.4325962131 0.0096036575
875650000.0 0.3660211965 -0.2252071939
885600000.0 0.1634089211 -0.3708350926
895550000.0 -0.1002799704 -0.3636672949
905500000.0 -0.3122344576 -0.1866627364
915450000.0 -0.3651446143 0.0940664928
925400000.0 -0.2197130917 0.3435732648
935350000.0 0.0588091406 0.4265121255
945300000.0 0.3185050227 0.282394353
955250000.0 0.3912241624 -0.0243895822
965200000.0 0.1853364498 -0.3043059917
975150000.0 -0.2017706319 -0.3147156066
985100000.0 -0.4588336946 0.0173104785
995050000.0 -0.3445904776 0.4666483459
1005000000.0 0.1454050604 0.6603155799
1014950000.0 0.6393943208 0.3522992541
1024900000.0 0.7146007177 -0.2740077718
1034850000.0 0.2574427993 -0.7626636646
1044800000.0 -0.4273764685 -0.7288133746
1054750000.0 -0.8326111877 -0.1935998931
1064700000.0 -0.6874355113 0.3423451074
1074650000.0 -0.4033669268 0.7245328613
1084600000.0 0.1852639197 0.800766497
1094550000.0 0.6445824617 0.4384296196
1104500000.0 0.7261038205 -0.1353571738
1114450000.0 0.3811351798 -0.5928830108
1124400000.0 -0.1646642329 -0.6525460683
1134350000.0 -0.5500458248 -0.3204479396
1144300000.0 -0.5789223131 0.1447299444
1154250000.0 -0.2972495066 0.4716571662
1164200000.0 0.1093111352 0.5116641142
1174150000.0 0.4247760292 0.2691119116
1184100000.0 0.4808844855 -0.1253569514
1194050000.0 0.2440509236 -0.4399944483
1204000000.0 -0.13266828 -0.5002147248
1213950000.0 -0.4412555445 -0.3070681013
1223900000.0 -0.5597611719 0.023283388
1233850000.0 -0.4606585099 0.3533902658
1243800000.0 -0.183823229 0.564459595
1253750000.0 0.1736744549 0.5721641693
1263700000.0 0.4745827122 0.3573678893
1273650000.0 0.587998135 -0.0022000947
1283600000.0 0.4682014654 -0.3579507295
1293550000.0 0.1773649604 -0.5771113113
1303500000.0 -0.1730782407 -0.6039211089
1313450000.0 -0.4770725099 -0.4489109068
1323400000.0 -0.6558650523 -0.1622362761
1333350000.0 -0.6594393754 0.1800075248
1343300000.0 -0.4721043737 0.482146433
1353250000.0 -0.1344919086 0.6353285769
1363200000.0 0.2422456311 0.5689048794
1373150000.0 0.5183548537 0.3009804053
1383100000.0 0.5999026719 -0.0661440594
1393050000.0 0.479889487 -0.4050694235
1403000000.0 0.2141033591 -0.6223837798
1412950000.0 -0.1138957285 -0.6692500498
1422900000.0 -0.4143556654 -0.5402512755
1432850000.0 -0.6007858774 -0.2674586539
1442800000.0 -0.6093265664 0.0713295459
1452750000.0 -0.4258012828 0.3660385504
1462700000.0 -0.1059985553 0.5140404119
1472650000.0 0.2389815194 0.4627388475
1482600000.0 0.4911422216 0.2377974553
1492550000.0 0.5743766971 -0.0730085259
1502500000.0 0.476304613 -0.3636283976
1512450000.0 0.2398212339 -0.5439064357
1522400000.0 -0.0560655628 -0.5563576738
1532350000.0 -0.3082280753 -0.3903741984
1542300000.0 -0.4159815731 -0.1014336706
1552250000.0 -0.3310628349 0.196538995
1562200000.0 -0.0894693516 0.3797409578
1572150000.0 0.2005057939 0.3789431914
1582100000.0 0.4163024273 0.2093410909
1592050000.0 0.4778152379 -0.0464860476
1602000000.0 0.3678195015 -0.2826538125
1611950000.0 0.1291764042 -0.40356673
1621900000.0 -0.144267239 -0.3511322323
1631850000.0 -0.3336342016 -0.1344586973
1641800000.0 -0.352423675 0.1475975254
1651750000.0 -0.2022480295 0.4025182587
1661700000.0 0.082281721 0.500803713
1671650000.0 0.3583446708 0.4041411648
1681600000.0 0.5245402625 0.1652472684
1691550000.0 0.527724735 -0.1334095865
1701500000.0 0.3569175 -0.3912426454
1711450000.0 0.0597285003 -0.5169851066
1721400000.0 -0.2731623826 -0.4504297001
1731350000.0 -0.5137955511 -0.1980834133
1741300000.0 -0.5634526221 0.1486866778
1751250000.0 -0.4074976561 0.4547390622
1761200000.0 -0.117650493 0.6161948029
1771150000.0 0.2031803159 0.5998433323
1781100000.0 0.4666838906 0.4256421746
1791050000.0 0.6086771674 0.1424876949
1801000000.0 0.588205076 -0.1820348902
1810950000.0 0.3942572638 -0.4590340371
1820900000.0 0.0690586108 -0.5909971815
1830850000.0 -0.2793890722 -0.5152594322
1840800000.0 -0.5204079658 -0.2597541773
1850750000.0 -0.5788757479 0.0713833197
1860700000.0 -0.4626155308 0.3639387306
1870650000.0 -0.2307171991 0.5473042491
1880600000.0 0.0468536344 0.5911792721
1890550000.0 0.3030994692 0.4946724457
1900500000.0 0.4740526038 0.2804089072
1910450000.0 0.5034121475 0.0036851565
1920400000.0 0.371894569 -0.2432053231
1930350000.0 0.1297540423 -0.3671117055
1940300000.0 -0.1219511886 -0.3343886863
1950250000.0 -0.2933060298 -0.1875880787
1960200000.0 -0.3469265675 -0.0029641325
1970150000.0 -0.2992907954 0.1466271892
1980100000.0 -0.1992441561 0.2146240906
1990050000.0 -0.1150444253 0.1951005006
2000000000.0 -0.1090935645 0.1346613492
