!Created with skrf (http://scikit-rf.org).
# GHz S RI R 50.0 
!freq ReS11 ImS11
10000000.0 -1.000103359 0.163582086
19950000.0 -0.9445152889 0.3122409913
29900000.0 -0.8667160531 0.4542787267
39850000.0 -0.7664573012 0.594154172
49800000.0 -0.6464453313 0.7262900604
59750000.0 -0.5017357882 0.8445564177
69700000.0 -0.3259066206 0.9372511599
79650000.0 -0.1153170577 0.9868702077
89600000.0 0.1280473793 0.9775410453
99550000.0 0.3914004557 0.8919610956
109500000.0 0.6541169903 0.7190455796
119450000.0 0.8789548134 0.4459314931
129400000.0 0.9893489841 0.0909209512
139350000.0 0.9719979036 -0.3231454943
149300000.0 0.7611669105 -0.6779032315
159250000.0 0.4290626259 -0.9022529759
169200000.0 0.0635903403 -0.9807715035
179150000.0 -0.2718129715 -0.9405412961
189100000.0 -0.5454230374 -0.8188986079
199050000.0 -0.7441281493 -0.6481739883
209000000.0 -0.8660950801 -0.4514382575
218950000.0 -0.9270887019 -0.2491164934
228900000.0 -0.9394510077 -0.0515313044
238850000.0 -0.9155710864 0.1416937504
248800000.0 -0.7979163977 0.1262746265
258750000.0 -0.8180268869 0.4383542581
268700000.0 -0.7274684552 0.584093414
278650000.0 -0.61210866 0.6996602804
288600000.0 -0.471167421 0.7833144787
298550000.0 -0.3085687312 0.8336141427
308500000.0 -0.1300012414 0.8517165214
318450000.0 0.0580595536 0.8335340193
328400000.0 0.2458280509 0.7723834189
338350000.0 0.4116029099 0.6605969831
348300000.0 0.531931959 0.498252419
358250000.0 0.5821872156 0.3001931741
368200000.0 0.554198339 0.098245587
378150000.0 0.4614337309 -0.0723979712
388100000.0 0.3321743834 -0.1898429939
398050000.0 0.1965230492 -0.2471536527
408000000.0 0.0776905466 -0.2497719756
417950000.0 -0.011796529 -0.2121137472
427900000.0 -0.070728408 -0.1521039636
437850000.0 -0.1040824618 -0.0851995325
447800000.0 -0.1171422489 -0.0238559983
457750000.0 -0.1147019704 0.0239912639
467700000.0 -0.1004830495 0.0542489287
477650000.0 -0.076624638 0.0640453411
487600000.0 -0.0413229653 0.0506408539
497550000.0 -0.0959926701 0.0494596388
507500000.0 -0.0189846306 0.0431534099
517450000.0 0.0064503616 0.0213799375
527400000.0 0.0170041057 0.0022061025
537350000.0 0.0139229022 -0.0155746402
547300000.0 -0.0055555673 -0.0360128838
557250000.0 -0.0366439258 -0.0474657315
567200000.0 -0.0688268493 -0.0574062637
577150000.0 -0.1006468042 -0.064060297
587100000.0 -0.1281704409 -0.0645380703
597050000.0 -0.1481459462 -0.0563805828
607000000.0 -0.1610420635 -0.0373425793
616950000.0 -0.1685151563 -0.0084162584
626900000.0 -0.1714551301 0.0277859396
636850000.0 -0.1704220893 0.0665251937
646800000.0 -0.1643970361 0.1035079127
656750000.0 -0.1513382995 0.1350360818
666700000.0 -0.1260022634 0.1563140378
676650000.0 -0.0859074212 0.1485880685
686600000.0 -0.0320932158 0.0981157163
696550000.0 -0.0217102881 0.1039151567
706500000.0 -0.0211741173 0.1183144489
716450000.0 0.0191619078 0.1165800542
726400000.0 0.0581814064 0.1013481899
736350000.0 0.0854916961 0.0741373823
746300000.0 0.0982082748 0.034980698
756250000.0 0.0979127435 -0.0154472297
766200000.0 0.0847745252 -0.0723140569
776150000.0 0.061416249 -0.1302381272
786100000.0 0.0285079958 -0.1823195006
796050000.0 -0.0134810029 -0.2212910103
806000000.0 -0.0634586059 -0.2430675835
815950000.0 -0.1218475246 -0.2439145929
825900000.0 -0.186077284 -0.2261883482
835850000.0 -0.2525777233 -0.1928955764
845800000.0 -0.315976396 -0.1480891099
855750000.0 -0.3690557013 -0.0930552321
865700000.0 -0.4015475942 -0.0352700486
875650000.0 -0.4162719525 0.0202225177
885600000.0 -0.4171931703 0.0900361061
895550000.0 -0.3932442251 0.1663187808
905500000.0 -0.3479745127 0.2457524676
915450000.0 -0.2851315693 0.3232873147
925400000.0 -0.2055419578 0.3906725959
935350000.0 -0.1089837677 0.4392236654
945300000.0 0.0040828007 0.456206896
955250000.0 0.1318729635 0.4302408386
965200000.0 0.2660075606 0.3504786865
975150000.0 0.391235797 0.2108587102
985100000.0 0.4784992417 0.0096945351
995050000.0 0.488132134 -0.2382288162
1005000000.0 0.3779039204 -0.4927599179
1014950000.0 0.1350139764 -0.6780061469
1024900000.0 -0.1921403669 -0.7249202593
1034850000.0 -0.5180809101 -0.6123373704
1044800000.0 -0.7607772964 -0.3678992187
1054750000.0 -0.8482453077 -0.0500696188
1064700000.0 -0.8036565485 0.2012658659
1074650000.0 -0.5455818926 0.3979798989
1084600000.0 -0.6541313122 0.3723624754
1094550000.0 -0.4904420003 0.6483996567
1104500000.0 -0.2337308903 0.7667390608
1114450000.0 0.0286170953 0.7842049056
1124400000.0 0.2675618344 0.7122431834
1134350000.0 0.453124356 0.564687964
1144300000.0 0.5676862984 0.3656486181
1154250000.0 0.6084080978 0.1501653965
1164200000.0 0.5927597067 -0.0515515535
1174150000.0 0.5384567022 -0.2367981181
1184100000.0 0.4429249092 -0.3899881796
1194050000.0 0.3195173902 -0.4977103747
1204000000.0 0.1817952618 -0.5569360514
1213950000.0 0.0414744948 -0.5750530246
1223900000.0 -0.0916703243 -0.5643167801
1233850000.0 -0.213457883 -0.5356938376
1243800000.0 -0.3206261071 -0.4965091041
1253750000.0 -0.4116550505 -0.4498172132
1263700000.0 -0.4839305593 -0.3952089592
1273650000.0 -0.5379732474 -0.3327642313
1283600000.0 -0.5745035083 -0.2619741725
1293550000.0 -0.5979612716 -0.1849065739
1303500000.0 -0.6137683247 -0.1048729694
1313450000.0 -0.6258662465 -0.0259646727
1323400000.0 -0.6355970151 0.0496495818
1333350000.0 -0.6420103722 0.1200725802
1343300000.0 -0.6407984335 0.1857475535
1353250000.0 -0.6281915695 0.2446645492
1363200000.0 -0.6016067918 0.2994354847
1373150000.0 -0.5612195189 0.3512354053
1383100000.0 -0.5119750623 0.4020226782
1393050000.0 -0.4585785521 0.4518516438
1403000000.0 -0.4050446539 0.4994999143
1412950000.0 -0.3525489284 0.5419827228
1422900000.0 -0.3014562639 0.5763387381
1432850000.0 -0.2518153331 0.5975698
1442800000.0 -0.201417499 0.6083678542
1452750000.0 -0.1474379558 0.6129441171
1462700000.0 -0.084987105 0.6131802673
1472650000.0 -0.0136502455 0.6097477473
1482600000.0 0.0628702768 0.6035196179
1492550000.0 0.1393649832 0.5926052094
1502500000.0 0.2128342211 0.5737529617
1512450000.0 0.279470248 0.543643162
1522400000.0 0.3371929988 0.4990831048
1532350000.0 0.3858182598 0.4381437307
1542300000.0 0.4267832626 0.3632265898
1552250000.0 0.4610589059 0.277976017
1562200000.0 0.4912321454 0.1880876106
1572150000.0 0.5137074593 0.0978949643
1582100000.0 0.5238911944 0.0076899071
1592050000.0 0.5170825216 -0.0794322737
1602000000.0 0.4890679538 -0.1623999692
1611950000.0 0.4412669593 -0.2382620109
1621900000.0 0.3770983384 -0.308315492
1631850000.0 0.3027660887 -0.3731388161
1641800000.0 0.22370061 -0.4319824899
1651750000.0 0.1424517089 -0.4811492714
1661700000.0 0.0617190816 -0.5159204771
1671650000.0 -0.0179873676 -0.5317502678
1681600000.0 -0.0972557455 -0.5273926059
1691550000.0 -0.1746618258 -0.5067235571
1701500000.0 -0.2521406656 -0.4731633538
1711450000.0 -0.3274239036 -0.4323518099
1721400000.0 -0.3982653 -0.3877804221
1731350000.0 -0.4617172 -0.3424952185
1741300000.0 -0.5140573071 -0.2954890944
1751250000.0 -0.551538875 -0.2432387844
1761200000.0 -0.5739025651 -0.1856997844
1771150000.0 -0.5828623843 -0.1224401408
1781100000.0 -0.5842853092 -0.0549994512
1791050000.0 -0.5820485058 0.0132498967
1801000000.0 -0.5795737965 0.0794968051
1810950000.0 -0.5770008534 0.1422330135
1820900000.0 -0.5703953605 0.1991640466
1830850000.0 -0.5535065506 0.2486905738
1840800000.0 -0.5187416936 0.292973409
1850750000.0 -0.451819789 0.3321483699
1860700000.0 -0.3922471835 0.364876303
1870650000.0 -0.4083722333 0.354215248
1880600000.0 -0.3627749772 0.3389305066
1890550000.0 -0.3147074533 0.3909108051
1900500000.0 -0.2723942255 0.4189777279
1910450000.0 -0.2346984593 0.432297537
1920400000.0 -0.1993195634 0.4326597038
1930350000.0 -0.161434129 0.4199077589
1940300000.0 -0.1194386267 0.3946431585
1950250000.0 -0.074214929 0.3589571691
1960200000.0 -0.0299423216 0.3164630607
1970150000.0 0.0049451895 0.268386843
1980100000.0 0.0242469726 0.2162646996
1990050000.0 0.01944969 0.1591036655
2000000000.0 -0.0188514886 0.0957167874
