!Created with skrf (http://scikit-rf.org).
# GHz S RI R 50.0 
!freq ReS11 ImS11
10000000.0 -0.9987636838 0.1638993755
19950000.0 -0.9439337114 0.3131763742
29900000.0 -0.8667497349 0.4558204199
39850000.0 -0.7665276972 0.5961652309
49800000.0 -0.6453316181 0.7285841219
59750000.0 -0.498241843 0.8468034518
69700000.0 -0.3185966252 0.9391089358
79650000.0 -0.1034104245 0.9873441452
89600000.0 0.1448421653 0.9747942346
99550000.0 0.4121948453 0.8832253481
109500000.0 0.6758742242 0.7008563996
119450000.0 0.8951725488 0.4161858585
129400000.0 1.00812159 0.0457759616
139350000.0 0.9580568815 -0.3592539174
149300000.0 0.7368898856 -0.7024593375
159250000.0 0.4049976628 -0.9130459707
169200000.0 0.0492888609 -0.9829730426
179150000.0 -0.2753827656 -0.9418507846
189100000.0 -0.5408183582 -0.824295607
199050000.0 -0.735354086 -0.6603198345
209000000.0 -0.8578425194 -0.4709088027
218950000.0 -0.9227981716 -0.2755213689
228900000.0 -0.9410877775 -0.0833695476
238850000.0 -0.9252506869 0.1029458012
248800000.0 -0.8243567142 0.3247020633
258750000.0 -0.8333447318 0.4119848862
268700000.0 -0.7473704627 0.5593108211
278650000.0 -0.6348894735 0.6790785266
288600000.0 -0.4948596403 0.7685306185
298550000.0 -0.3315787318 0.825020452
308500000.0 -0.1499534883 0.8484927442
318450000.0 0.0428407371 0.8332749732
328400000.0 0.2359373072 0.7723428515
338350000.0 0.4070485999 0.657728751
348300000.0 0.5310018494 0.4909056919
358250000.0 0.582696105 0.2880505976
368200000.0 0.5547395105 0.0824429092
378150000.0 0.4620910321 -0.0903121388
388100000.0 0.3330449308 -0.2095634769
398050000.0 0.1969612493 -0.2690983038
408000000.0 0.076899553 -0.2740657173
417950000.0 -0.0155704536 -0.2389045998
427900000.0 -0.0777274856 -0.1810673049
437850000.0 -0.1142108225 -0.1154341589
447800000.0 -0.1297500216 -0.0549047942
457750000.0 -0.1293342785 -0.00673283
467700000.0 -0.116900229 0.024706208
477650000.0 -0.0956920384 0.0368947433
487600000.0 -0.0679803344 0.0317826872
497550000.0 -0.0392048135 -0.0026893515
507500000.0 -0.032096057 0.0227656085
517450000.0 -0.004062846 -0.0034840575
527400000.0 0.0056134139 -0.0244778838
537350000.0 0.0008795961 -0.0427442183
547300000.0 -0.0146735529 -0.0609623887
557250000.0 -0.0431860481 -0.0766034009
567200000.0 -0.0747610611 -0.0891183965
577150000.0 -0.1062363609 -0.0979659017
587100000.0 -0.1337654297 -0.1008764306
597050000.0 -0.1550162076 -0.0955166385
607000000.0 -0.1699072478 -0.0795162148
616950000.0 -0.1798660211 -0.0544710002
626900000.0 -0.1861067884 -0.022496098
636850000.0 -0.1886471786 0.0119044712
646800000.0 -0.1871524245 0.0444337564
656750000.0 -0.1808342657 0.0719861161
666700000.0 -0.1664871516 0.0921527859
676650000.0 -0.1425042091 0.1042106739
686600000.0 -0.1086264342 0.1083056459
696550000.0 -0.0678350771 0.1058809422
706500000.0 -0.0244277027 0.097507643
716450000.0 0.0167001821 0.0830119378
726400000.0 0.0499499945 0.0600956134
736350000.0 0.0723913135 0.0274563728
746300000.0 0.0805097958 -0.0154363176
756250000.0 0.0763681302 -0.0681893701
766200000.0 0.0592714848 -0.1263516223
776150000.0 0.031871837 -0.1844248932
786100000.0 -0.0049118087 -0.2357061135
796050000.0 -0.050190709 -0.2738216775
806000000.0 -0.1031586411 -0.2946607902
815950000.0 -0.1632965893 -0.2959777888
825900000.0 -0.2281504642 -0.2795861036
835850000.0 -0.2953389147 -0.2492250814
845800000.0 -0.3596694733 -0.2084956796
855750000.0 -0.4161168898 -0.1600943478
865700000.0 -0.4592933268 -0.1047189044
875650000.0 -0.4843037907 -0.0420566829
885600000.0 -0.4892383759 0.0280459653
895550000.0 -0.4734449001 0.1050193443
905500000.0 -0.4393388537 0.1879455243
915450000.0 -0.3879478528 0.2722365
925400000.0 -0.3199205452 0.350782589
935350000.0 -0.2321017126 0.4154192822
945300000.0 -0.1222618572 0.4529961548
955250000.0 0.0088859573 0.447984325
965200000.0 0.1466399936 0.3827761944
975150000.0 0.2548352449 0.2613699157
985100000.0 0.3206381865 0.1263634468
995050000.0 0.3783381989 -0.0159342118
1005000000.0 0.4030973835 -0.2009313765
1014950000.0 0.337132267 -0.4090805425
1024900000.0 0.1639163992 -0.5852727615
1034850000.0 -0.0931009837 -0.6783388317
1044800000.0 -0.3797507781 -0.6589144884
1054750000.0 -0.6382527185 -0.5277040186
1064700000.0 -0.8145895537 -0.3022969463
1074650000.0 -0.8513261792 -0.0659508373
1084600000.0 -0.8559745541 0.1686802181
1094550000.0 -0.7546251391 0.4084976849
1104500000.0 -0.5780767756 0.6131321088
1114450000.0 -0.3338116109 0.7496762312
1124400000.0 -0.0525453562 0.7891764966
1134350000.0 0.2205599206 0.7126889329
1144300000.0 0.4335000103 0.5305880383
1154250000.0 0.553104003 0.2863986601
1164200000.0 0.5752376163 0.0322290769
1174150000.0 0.5256838983 -0.1870709566
1184100000.0 0.4335680463 -0.366381957
1194050000.0 0.3021587548 -0.4957685669
1204000000.0 0.1532189541 -0.5661232112
1213950000.0 0.0052481933 -0.5883284983
1223900000.0 -0.1311837098 -0.5787110927
1233850000.0 -0.2522737583 -0.5507618552
1243800000.0 -0.3570740672 -0.512784641
1253750000.0 -0.4453042264 -0.468560781
1263700000.0 -0.5152995751 -0.4171920154
1273650000.0 -0.5688739497 -0.3591920983
1283600000.0 -0.6051940905 -0.2934770698
1293550000.0 -0.6302402491 -0.222777937
1303500000.0 -0.6480977384 -0.1496248784
1313450000.0 -0.6628197613 -0.0777504688
1323400000.0 -0.6761229707 -0.009330397
1333350000.0 -0.6866170578 0.0542773964
1343300000.0 -0.6910002962 0.1134718313
1353250000.0 -0.6857870876 0.1677860826
1363200000.0 -0.6679467488 0.2195900295
1373150000.0 -0.6375109543 0.2706342328
1383100000.0 -0.598756397 0.3216833729
1393050000.0 -0.5559145775 0.3735329899
1403000000.0 -0.5125579213 0.4244008584
1412950000.0 -0.4692341367 0.4718803042
1422900000.0 -0.4264507403 0.5130918585
1432850000.0 -0.3815370023 0.5435331428
1442800000.0 -0.3325352063 0.5638293274
1452750000.0 -0.2784587774 0.5749915018
1462700000.0 -0.2177296542 0.5810130952
1472650000.0 -0.1489497628 0.5855510769
1482600000.0 -0.0736171776 0.5891053651
1492550000.0 0.0042174958 0.5882063766
1502500000.0 0.0808916561 0.5780565299
1512450000.0 0.1534208688 0.5555835211
1522400000.0 0.219181135 0.5166588509
1532350000.0 0.2772694221 0.4591760559
1542300000.0 0.3277678652 0.3847472587
1552250000.0 0.3706666908 0.2975035683
1562200000.0 0.4072532896 0.2030030094
1572150000.0 0.4335098817 0.1062246052
1582100000.0 0.4442564107 0.0091891828
1592050000.0 0.4351948408 -0.0846803063
1602000000.0 0.4029553297 -0.1733867613
1611950000.0 0.3492083485 -0.2530391482
1621900000.0 0.278801834 -0.3251630427
1631850000.0 0.1978596612 -0.3887837922
1641800000.0 0.1121900516 -0.4436794098
1651750000.0 0.0253438831 -0.4858903232
1661700000.0 -0.058561575 -0.5117900102
1671650000.0 -0.1391062308 -0.5177918178
1681600000.0 -0.2154684869 -0.504760182
1691550000.0 -0.2880653505 -0.4773841411
1701500000.0 -0.3581442955 -0.4392082329
1711450000.0 -0.4256028784 -0.395757681
1721400000.0 -0.4878307127 -0.3498891308
1731350000.0 -0.5427617623 -0.3034879161
1741300000.0 -0.5834533134 -0.2562910014
1751250000.0 -0.6067548313 -0.2086178038
1761200000.0 -0.6188698656 -0.1650323336
1771150000.0 -0.6279900117 -0.1141763171
1781100000.0 -0.6289528336 -0.0549349575
1791050000.0 -0.6193586398 5.21106e-05
1801000000.0 -0.6200276742 0.0310570512
1810950000.0 -0.6437606057 0.0845332605
1820900000.0 -0.6527285482 0.1398724716
1830850000.0 -0.6511534943 0.1873792703
1840800000.0 -0.6376721351 0.228551884
1850750000.0 -0.6123119904 0.2655097087
1860700000.0 -0.5754420384 0.2987469333
1870650000.0 -0.5336263297 0.3310343214
1880600000.0 -0.4915462156 0.3609571038
1890550000.0 -0.4540922383 0.3885097457
1900500000.0 -0.4210445012 0.4121412205
1910450000.0 -0.3916256273 0.4287590619
1920400000.0 -0.3625603321 0.4376506745
1930350000.0 -0.329462843 0.4369557943
1940300000.0 -0.2913531146 0.4261031742
1950250000.0 -0.2479958047 0.4065770614
1960200000.0 -0.2026082499 0.3822228818
1970150000.0 -0.1619078616 0.3542226912
1980100000.0 -0.1299597156 0.3237509557
1990050000.0 -0.1120729665 0.289250022
2000000000.0 -0.1107406196 0.2500394279
