!Created with skrf (http://scikit-rf.org).
# GHz S RI R 50.0 
!freq ReS11 ImS11
10000000.0 -0.7668409002 0.6756183793
19950000.0 -0.1374668525 0.9879171938
29900000.0 0.5368962749 0.8187158295
39850000.0 0.9434035147 0.2488382131
49800000.0 0.8755203922 -0.4596274533
59750000.0 0.3361886187 -0.9531479733
69700000.0 -0.4161665238 -0.9378498129
79650000.0 -0.9488599644 -0.3784242185
89600000.0 -0.910182969 0.4094118318
99550000.0 -0.2933566536 0.9251918535
109500000.0 0.5223855407 0.8037686918
119450000.0 0.9696150107 0.0755247001
129400000.0 0.6545362087 -0.7553408031
139350000.0 -0.2283786416 -0.9852573551
149300000.0 -0.9150191987 -0.3827968991
159250000.0 -0.815920594 0.5022591095
169200000.0 -0.0776573181 0.93794223
179150000.0 0.6976517563 0.646194807
189100000.0 0.970315831 -0.1112899579
199050000.0 0.593510868 -0.7992985425
209000000.0 -0.1485476591 -0.9802211201
218950000.0 -0.77108289 -0.5839479168
228900000.0 -0.9320353167 0.1146106207
238850000.0 -0.5756811288 0.7211844748
248800000.0 0.1489479066 0.7360482137
258750000.0 0.680291472 0.6529880159
268700000.0 0.9608761822 0.0236901382
278650000.0 0.7345819909 -0.620439551
288600000.0 0.1334872895 -0.9294567148
298550000.0 -0.5063269977 -0.7432757936
308500000.0 -0.8376740895 -0.1755858885
318450000.0 -0.6839255906 0.4538256686
328400000.0 -0.1392711353 0.784730529
338350000.0 0.4596750912 0.621408696
348300000.0 0.7236878866 0.0912573009
358250000.0 0.5072068931 -0.4136445453
368200000.0 0.0319681345 -0.5521300533
378150000.0 -0.3242561809 -0.3047596196
388100000.0 -0.3480085513 0.0657103263
398050000.0 -0.115444697 0.2710890673
408000000.0 0.1351450345 0.2182283329
417950000.0 0.2206914033 0.027028756
427900000.0 0.1325870264 -0.1239462881
437850000.0 -0.0153954544 -0.1405398395
447800000.0 -0.1050119665 -0.0477167774
457750000.0 -0.0898370847 0.0641142968
467700000.0 -0.0054007558 0.1140898819
477650000.0 0.0726718629 0.0835558766
487600000.0 0.0902355806 0.0157726336
497550000.0 0.1015807422 0.022295705
507500000.0 0.0249132717 -0.0556642689
517450000.0 -0.0099122983 -0.0265868392
527400000.0 -0.0045697448 0.0009074169
537350000.0 0.0167969953 -0.001335741
547300000.0 0.0198391961 -0.0330751452
557250000.0 -0.0199564147 -0.0583362477
567200000.0 -0.0769725927 -0.0405465231
577150000.0 -0.1092471914 0.0250184121
587100000.0 -0.0791806865 0.1077339168
597050000.0 0.0206398483 0.1489205055
607000000.0 0.1065414464 0.0635407875
616950000.0 0.1394047272 0.0213530951
626900000.0 0.1395740898 -0.0923558391
636850000.0 0.0511633833 -0.1796576105
646800000.0 -0.077019976 -0.1834769772
656750000.0 -0.1752856647 -0.0986595086
666700000.0 -0.1887696668 0.0297020275
676650000.0 -0.1104179836 0.1311859098
686600000.0 0.0158417032 0.1491770719
696550000.0 0.1166875717 0.075867797
706500000.0 0.1361811623 -0.0424510917
716450000.0 0.0692344548 -0.1332840492
726400000.0 -0.0357731425 -0.1443475469
736350000.0 -0.106333215 -0.0741463883
746300000.0 -0.092083497 0.0227093169
756250000.0 -0.0019261529 0.069839955
766200000.0 0.0973849499 0.0231101516
776150000.0 0.1257452373 -0.0949671462
786100000.0 0.0466109056 -0.2042890719
796050000.0 -0.1039960634 -0.2187639291
806000000.0 -0.2298704446 -0.1048260741
815950000.0 -0.2354224735 0.086695252
825900000.0 -0.0891476305 0.241696156
835850000.0 0.1437376543 0.2524566347
845800000.0 0.3338995498 0.0898986486
855750000.0 0.3644817003 -0.1730872787
865700000.0 0.2014421688 -0.3972365827
875650000.0 -0.0820254397 -0.4540383537
885600000.0 -0.3388670529 -0.2955683128
895550000.0 -0.4216181656 0.0074162561
905500000.0 -0.2678377949 0.2947920669
915450000.0 0.0512882198 0.3976679643
925400000.0 0.355280985 0.2421751212
935350000.0 0.4582053279 -0.0875975619
945300000.0 0.2854456401 -0.3914657245
955250000.0 -0.0648897135 -0.4658569429
965200000.0 -0.358908711 -0.2354538359
975150000.0 -0.3551946127 0.1642940013
985100000.0 0.0055515884 0.4078154911
995050000.0 0.4383301654 0.221466525
1005000000.0 0.5208160764 -0.2928969031
1014950000.0 0.0817407094 -0.6732517858
1024900000.0 -0.5333879883 -0.4905314672
1034850000.0 -0.740161058 0.1817429584
1044800000.0 -0.2593164844 0.7673585148
1054750000.0 0.5188064844 0.6768732337
1064700000.0 0.815500329 0.031651779
1074650000.0 0.6622656804 -0.5594759681
1084600000.0 0.0493807987 -0.8665307005
1094550000.0 -0.568909324 -0.6029200456
1104500000.0 -0.7837904933 0.0214763082
1114450000.0 -0.4545617657 0.5900439116
1124400000.0 0.1810654701 0.6894661468
1134350000.0 0.6257468939 0.2749064024
1144300000.0 0.5852779059 -0.281016735
1154250000.0 0.1756665469 -0.5843917074
1164200000.0 -0.2882286655 -0.4929345825
1174150000.0 -0.5268835621 -0.1082917847
1184100000.0 -0.4021421942 0.3243163429
1194050000.0 0.006795687 0.5095822502
1204000000.0 0.4036602694 0.3212779154
1213950000.0 0.5250169847 -0.0852421573
1223900000.0 0.3309321648 -0.4434916838
1233850000.0 -0.042794588 -0.5712952113
1243800000.0 -0.4071063494 -0.4225036938
1253750000.0 -0.5900967497 -0.0663720801
1263700000.0 -0.4900365257 0.3329242033
1273650000.0 -0.1389603008 0.5684671593
1283600000.0 0.283787621 0.5076956695
1293550000.0 0.5589280453 0.1875866366
1303500000.0 0.5677610655 -0.2240701321
1313450000.0 0.3298311345 -0.5465262259
1323400000.0 -0.0480910991 -0.6633610233
1333350000.0 -0.4238477565 -0.5347275945
1343300000.0 -0.6546041619 -0.1995900551
1353250000.0 -0.630701806 0.2201311634
1363200000.0 -0.3390071583 0.542025572
1373150000.0 0.0964496347 0.6047754357
1383100000.0 0.4686013985 0.3789183206
1393050000.0 0.6168545766 -0.0173930922
1403000000.0 0.5018385881 -0.408526524
1412950000.0 0.1899151662 -0.6496768975
1422900000.0 -0.1973589725 -0.6646836583
1432850000.0 -0.5205639604 -0.4504692487
1442800000.0 -0.6547013382 -0.081806124
1452750000.0 -0.5341358029 0.2979939648
1462700000.0 -0.196688035 0.5237252583
1472650000.0 0.2093361031 0.486832737
1482600000.0 0.4949249954 0.2056641459
1492550000.0 0.5379923639 -0.1802019183
1502500000.0 0.3400441646 -0.4976581569
1512450000.0 0.0011138261 -0.6217888192
1522400000.0 -0.3352301574 -0.5137151535
1532350000.0 -0.5299941801 -0.2219494511
1542300000.0 -0.4956576687 0.1284724175
1552250000.0 -0.2413998112 0.3734944211
1562200000.0 0.1091427815 0.3892953378
1572150000.0 0.3733715372 0.1707491581
1582100000.0 0.4201866394 -0.1586701767
1592050000.0 0.2403113474 -0.4243172971
1602000000.0 -0.0619219128 -0.4990987642
1611950000.0 -0.3352996448 -0.3540241947
1621900000.0 -0.4453620623 -0.0622966721
1631850000.0 -0.3299699645 0.2340255993
1641800000.0 -0.0364781932 0.3770352315
1651750000.0 0.2832492414 0.2774311915
1661700000.0 0.4458035372 -0.017408998
1671650000.0 0.3619003593 -0.344033107
1681600000.0 0.0824290411 -0.5284765821
1691550000.0 -0.2499044605 -0.4863282996
1701500000.0 -0.4833621437 -0.2403221487
1711450000.0 -0.5131432244 0.1052557716
1721400000.0 -0.3112621894 0.4042746879
1731350000.0 0.0488399956 0.5097236205
1741300000.0 0.4003342215 0.3522393706
1751250000.0 0.5636934906 -0.0010720892
1761200000.0 0.4612363151 -0.3724628814
1771150000.0 0.1564468101 -0.5921155741
1781100000.0 -0.2087184253 -0.5840335007
1791050000.0 -0.4962383986 -0.3672704489
1801000000.0 -0.6080754122 -0.0239740637
1810950000.0 -0.4973933386 0.3268405674
1820900000.0 -0.1881609808 0.5474607387
1830850000.0 0.2011767884 0.5265252628
1840800000.0 0.4898701128 0.2611257124
1850750000.0 0.5413577284 -0.1194972345
1860700000.0 0.3531231465 -0.4346920949
1870650000.0 0.0324218505 -0.5671335228
1880600000.0 -0.2879671158 -0.4959389629
1890550000.0 -0.5037162015 -0.2674137726
1900500000.0 -0.5499771554 0.0360133996
1910450000.0 -0.4104191124 0.3066452247
1920400000.0 -0.134846059 0.4312721048
1930350000.0 0.1340832529 0.3415051508
1940300000.0 0.2624898221 0.1566750885
1950250000.0 0.2794931278 -0.07170013
1960200000.0 0.151957424 -0.2441445886
1970150000.0 -0.0263851663 -0.2871561816
1980100000.0 -0.1598229443 -0.2215075815
1990050000.0 -0.2003166074 -0.1221737287
2000000000.0 -0.1679176808 -0.0701838016
