!Created with skrf (http://scikit-rf.org).
# GHz S RI R 50.0 
!freq ReS11 ImS11
10000000.0 -0.8878302004 0.4442593379
19950000.0 -0.6008492312 0.7821056073
29900000.0 -0.1941036318 0.9635665759
39850000.0 0.2595756561 0.9477885403
49800000.0 0.6686258865 0.7228001427
59750000.0 0.9355210185 0.3187403257
69700000.0 0.9750392707 -0.1841603645
79650000.0 0.7454764524 -0.6587731816
89600000.0 0.2786667824 -0.9538798126
99550000.0 -0.3012685549 -0.9407408185
109500000.0 -0.7909580609 -0.5763365526
119450000.0 -0.970235213 0.0391123309
129400000.0 -0.7121550093 0.6558552872
139350000.0 -0.1046033917 0.9641711555
149300000.0 0.5552606087 0.7985635203
159250000.0 0.9363316101 0.2648848561
169200000.0 0.9022247292 -0.3517884849
179150000.0 0.5370761093 -0.796055008
189100000.0 0.0237503377 -0.9511993936
199050000.0 -0.4647589592 -0.8228460466
209000000.0 -0.8092110698 -0.4826191018
218950000.0 -0.9410725887 -0.0380643691
228900000.0 -0.851940889 0.4066688674
238850000.0 -0.5722961115 0.7540775573
248800000.0 -0.1748154849 0.922227841
258750000.0 0.2593564003 0.9079480141
268700000.0 0.6301354921 0.6929946045
278650000.0 0.8616069907 0.3375574222
288600000.0 0.9074978671 -0.0819589667
298550000.0 0.7579051819 -0.4757663206
308500000.0 0.4414610408 -0.7550191452
318450000.0 0.0285825697 -0.848207765
328400000.0 -0.3753057093 -0.722756592
338350000.0 -0.6501714631 -0.4072055827
348300000.0 -0.7034335223 -0.0050199715
358250000.0 -0.5253246952 0.3328304202
368200000.0 -0.2125279004 0.4808753167
378150000.0 0.0809571804 0.4156448086
388100000.0 0.2395534732 0.2180769199
398050000.0 0.2361764958 0.0103635704
408000000.0 0.1245564646 -0.1148104355
417950000.0 -0.0111660766 -0.1309323572
427900000.0 -0.1047412975 -0.0643797664
437850000.0 -0.1270828733 0.0337774048
447800000.0 -0.084977605 0.1152100167
457750000.0 -0.0072075875 0.1505296965
467700000.0 0.0715388693 0.1348032856
477650000.0 0.1253154418 0.0805136264
487600000.0 0.1400551424 0.0106348481
497550000.0 0.1223451604 -0.0555627337
507500000.0 0.0688381542 -0.0903391214
517450000.0 0.0171176449 -0.0948284904
527400000.0 -0.0214281281 -0.0743099393
537350000.0 -0.0367639583 -0.0427678061
547300000.0 -0.0285779718 -0.0169901537
557250000.0 -0.0076652539 -0.0082814227
567200000.0 0.0125600875 -0.0211235273
577150000.0 0.0178036718 -0.0497701241
587100000.0 0.0002694319 -0.0816946056
597050000.0 -0.0386078265 -0.1010760768
607000000.0 -0.0887775708 -0.0964069192
616950000.0 -0.1347092928 -0.0625456346
626900000.0 -0.1595666587 -0.0049139155
636850000.0 -0.1527815846 0.0634104567
646800000.0 -0.1107873243 0.1240547536
656750000.0 -0.0411484826 0.1596420567
666700000.0 0.0406084551 0.1582079228
676650000.0 0.1141423423 0.1177917323
686600000.0 0.1604627109 0.0468184807
696550000.0 0.1673049601 -0.0368909364
706500000.0 0.1326592807 -0.1109332319
716450000.0 0.0668117945 -0.1556064697
726400000.0 -0.0118617706 -0.1583452044
736350000.0 -0.0781671219 -0.1169891107
746300000.0 -0.1106123522 -0.0436714857
756250000.0 -0.0947749862 0.0386144831
766200000.0 -0.0328134667 0.1005484418
776150000.0 0.0581242755 0.1183263069
786100000.0 0.1485100049 0.0805564465
796050000.0 0.2063911979 -0.0060254269
806000000.0 0.2075447712 -0.117238503
815950000.0 0.142205378 -0.2193026656
825900000.0 0.022796807 -0.2762699557
835850000.0 -0.121173542 -0.2624864829
845800000.0 -0.2491564505 -0.1712279122
855750000.0 -0.321160167 -0.0180754647
865700000.0 -0.3090797612 0.1609409381
875650000.0 -0.2072933413 0.3195047272
885600000.0 -0.0356405082 0.4112109013
895550000.0 0.1652740093 0.4073124124
905500000.0 0.343202169 0.3019083805
915450000.0 0.4489060425 0.1154135418
925400000.0 0.4462180393 -0.1091563908
935350000.0 0.3216031813 -0.310933101
945300000.0 0.0957472629 -0.4237380599
955250000.0 -0.1724673328 -0.3922799058
965200000.0 -0.3901188358 -0.2013382221
975150000.0 -0.4570682331 0.1040386125
985100000.0 -0.3095044266 0.4086212467
995050000.0 0.0241618604 0.5619315386
1005000000.0 0.4129895342 0.4533882365
1014950000.0 0.658927383 0.0772154658
1024900000.0 0.5811319454 -0.4155702183
1034850000.0 0.1525807241 -0.7503580408
1044800000.0 -0.4159677555 -0.6947171556
1054750000.0 -0.7933774811 -0.2598697087
1064700000.0 -0.7693771478 0.2740446728
1074650000.0 -0.4348675125 0.6533031744
1084600000.0 -0.1397970815 0.6169118915
1094550000.0 0.2501538463 0.7638668491
1104500000.0 0.6531056098 0.4583077279
1114450000.0 0.7611419729 -0.0139354889
1124400000.0 0.5688258984 -0.4405111131
1134350000.0 0.1780733172 -0.6588333302
1144300000.0 -0.2396641417 -0.6089753075
1154250000.0 -0.5303229092 -0.3498068083
1164200000.0 -0.6215261157 -0.0039231514
1174150000.0 -0.5278674092 0.312402134
1184100000.0 -0.2982398933 0.5289858445
1194050000.0 0.002900807 0.59613154
1204000000.0 0.2923392798 0.5033724783
1213950000.0 0.4947443279 0.2798152956
1223900000.0 0.5596066014 -0.0124790701
1233850000.0 0.4755589208 -0.2951366074
1243800000.0 0.2734244855 -0.4993323548
1253750000.0 0.0098070524 -0.5861619738
1263700000.0 -0.2543118986 -0.5503752914
1273650000.0 -0.470116016 -0.4125734705
1283600000.0 -0.6062691643 -0.2054550994
1293550000.0 -0.6474128483 0.0349272107
1303500000.0 -0.589925302 0.2711402844
1313450000.0 -0.44122123 0.4674306827
1323400000.0 -0.2216056655 0.5900171753
1333350000.0 0.0350451164 0.613011831
1343300000.0 0.2840751301 0.5279291247
1353250000.0 0.4784204277 0.3466972507
1363200000.0 0.582462085 0.1041676577
1373150000.0 0.581310514 -0.1541705881
1383100000.0 0.4818071722 -0.3840544458
1393050000.0 0.3080017744 -0.5510870961
1403000000.0 0.0913810573 -0.6358730364
1412950000.0 -0.1349729797 -0.6314457974
1422900000.0 -0.3395859986 -0.5425103813
1432850000.0 -0.4942970241 -0.3803460175
1442800000.0 -0.5742826355 -0.1666251891
1452750000.0 -0.5621399105 0.0665769936
1462700000.0 -0.4531280059 0.2800604951
1472650000.0 -0.2625478714 0.4318569483
1482600000.0 -0.0249769515 0.4894629926
1492550000.0 0.2106104184 0.4415065344
1502500000.0 0.3969920229 0.3009880526
1512450000.0 0.4999624879 0.1023593045
1522400000.0 0.5068214231 -0.1124291046
1532350000.0 0.421688233 -0.3019598191
1542300000.0 0.2645642533 -0.4321984918
1552250000.0 0.0653031965 -0.4778439379
1562200000.0 -0.1352731262 -0.4282448156
1572150000.0 -0.2949670164 -0.2907335371
1582100000.0 -0.377526525 -0.0905625055
1592050000.0 -0.3573264411 0.129748442
1602000000.0 -0.2375374503 0.3158812151
1611950000.0 -0.0445116538 0.4226519883
1621900000.0 0.1713836535 0.4273123247
1631850000.0 0.3615943054 0.3350152209
1641800000.0 0.4890028363 0.169252136
1651750000.0 0.5313720419 -0.0349966067
1661700000.0 0.4822254351 -0.2409541851
1671650000.0 0.3481185817 -0.4123281498
1681600000.0 0.1478382941 -0.5159700205
1691550000.0 -0.0862075974 -0.5276617498
1701500000.0 -0.3107984924 -0.4376844449
1711450000.0 -0.4807401101 -0.2580531461
1721400000.0 -0.5614498507 -0.0219702317
1731350000.0 -0.5371730114 0.2238179968
1741300000.0 -0.4178694851 0.4344817639
1751250000.0 -0.230881787 0.5769126392
1761200000.0 -0.010874657 0.6359902945
1771150000.0 0.2100253466 0.6115330918
1781100000.0 0.4049182806 0.5107598198
1791050000.0 0.5508777597 0.3477728967
1801000000.0 0.6290313583 0.1414296149
1810950000.0 0.6275027435 -0.0827234601
1820900000.0 0.5415456996 -0.2944819524
1830850000.0 0.3788860253 -0.4615110513
1840800000.0 0.1626177408 -0.5543381149
1850750000.0 -0.0733534856 -0.5559276806
1860700000.0 -0.2877247809 -0.4664777213
1870650000.0 -0.4458269451 -0.3065530545
1880600000.0 -0.5280848938 -0.1088929639
1890550000.0 -0.5306320268 0.092230212
1900500000.0 -0.4646460035 0.2671313006
1910450000.0 -0.3493104482 0.39595218
1920400000.0 -0.2069812285 0.4682893934
1930350000.0 -0.0598971193 0.4825705472
1940300000.0 0.0717829398 0.4433269406
1950250000.0 0.1707597278 0.3629034086
1960200000.0 0.224683506 0.2585505582
1970150000.0 0.2307316572 0.1535451571
1980100000.0 0.1977477957 0.0703032229
1990050000.0 0.1464160851 0.0242861986
2000000000.0 0.1047356497 0.0178386003
