!Created with skrf (http://scikit-rf.org).
# GHz S RI R 50.0 
!freq ReS11 ImS11
10000000.0 -0.9963710067 0.1651193393
19950000.0 -0.9411078708 0.3150854501
29900000.0 -0.8627163712 0.4581777954
39850000.0 -0.7613188139 0.5990175815
49800000.0 -0.6383565949 0.7316777625
59750000.0 -0.489062448 0.8494452626
69700000.0 -0.3067861725 0.9406828555
79650000.0 -0.0883312054 0.9866266028
89600000.0 0.1630817711 0.9701439369
99550000.0 0.4328138839 0.8721652246
109500000.0 0.6960816622 0.6806622366
119450000.0 0.9098317539 0.3851177844
129400000.0 1.009720422 0.0075897993
139350000.0 0.9422111618 -0.398708694
149300000.0 0.7053692419 -0.7320301272
159250000.0 0.3673772355 -0.926629577
169200000.0 0.0123151537 -0.981737276
179150000.0 -0.3059600423 -0.9288495786
189100000.0 -0.5623587933 -0.8046585637
199050000.0 -0.7479944158 -0.6382028088
209000000.0 -0.8632087584 -0.4491324246
218950000.0 -0.9224223866 -0.255137419
228900000.0 -0.9365343765 -0.0652031974
238850000.0 -0.9175675849 0.1188285305
248800000.0 -0.7501578586 0.1954736666
258750000.0 -0.8198162897 0.4274668618
268700000.0 -0.731573583 0.571557752
278650000.0 -0.6161795143 0.6891683373
288600000.0 -0.4731447558 0.7765341623
298550000.0 -0.3059878052 0.8298694897
308500000.0 -0.1207415069 0.8489712801
318450000.0 0.0758289534 0.8275134333
328400000.0 0.2714011847 0.7576716798
338350000.0 0.4419660332 0.6319645593
348300000.0 0.5599837799 0.4527235915
358250000.0 0.5999611474 0.2413380803
368200000.0 0.5577046893 0.0332009616
378150000.0 0.4512442993 -0.135688947
388100000.0 0.313008912 -0.2463361521
398050000.0 0.173126331 -0.2956253978
408000000.0 0.053492271 -0.291792327
417950000.0 -0.0357513558 -0.2504203941
427900000.0 -0.0939082359 -0.1890961227
437850000.0 -0.1264981911 -0.1221445216
447800000.0 -0.1388626671 -0.0614775343
457750000.0 -0.1354523418 -0.0144248581
467700000.0 -0.1210861535 0.0151011842
477650000.0 -0.098413786 0.024913863
487600000.0 -0.0693524617 0.0163795688
497550000.0 -0.0731660289 -0.0518624236
507500000.0 -0.0349018388 0.001722094
517450000.0 -0.0121924368 -0.0231649599
527400000.0 -0.0047722999 -0.044458147
537350000.0 -0.011435981 -0.0628663249
547300000.0 -0.0303231047 -0.0825749141
557250000.0 -0.0624988927 -0.0953194086
567200000.0 -0.0954957163 -0.1050130156
577150000.0 -0.1278120587 -0.111162592
587100000.0 -0.1557804356 -0.1108942133
597050000.0 -0.176459101 -0.1027411906
607000000.0 -0.1886937865 -0.0839313281
616950000.0 -0.1941315619 -0.056280362
626900000.0 -0.196866766 -0.025671643
636850000.0 -0.1987579114 0.0047397169
646800000.0 -0.1971308045 0.0349040454
656750000.0 -0.1903746219 0.0611967584
666700000.0 -0.1756758776 0.0800114375
676650000.0 -0.1513447869 0.0900526922
686600000.0 -0.1177994329 0.0919957314
696550000.0 -0.0779599335 0.0872232517
706500000.0 -0.036293007 0.0759634802
716450000.0 0.002358014 0.058808981
726400000.0 0.0322651884 0.0334679679
736350000.0 0.0496959833 -0.0010558642
746300000.0 0.0533311657 -0.0445205651
756250000.0 0.0422998164 -0.096645664
766200000.0 0.0192359001 -0.1519126661
776150000.0 -0.0137510611 -0.2056270966
786100000.0 -0.0551388269 -0.2506091483
796050000.0 -0.1032463958 -0.2809735193
806000000.0 -0.1563965847 -0.2936992824
815950000.0 -0.2143697722 -0.2867356744
825900000.0 -0.2752723093 -0.2636503653
835850000.0 -0.3365657922 -0.2278882705
845800000.0 -0.394043475 -0.1830577047
855750000.0 -0.4430868318 -0.132501578
865700000.0 -0.4782300147 -0.0768269395
875650000.0 -0.4962559581 -0.016142984
885600000.0 -0.4941546971 0.0501539572
895550000.0 -0.47327276 0.1219905453
905500000.0 -0.4347164833 0.1985475161
915450000.0 -0.3815052246 0.275291177
925400000.0 -0.3127678093 0.3455488009
935350000.0 -0.2273333941 0.4014997749
945300000.0 -0.1234066336 0.4324643254
955250000.0 -0.000596875 0.4262373249
965200000.0 0.1354807388 0.3716788051
975150000.0 0.27154075 0.2613037564
985100000.0 0.378471524 0.0930378993
995050000.0 0.4154215011 -0.1213422496
1005000000.0 0.3516017195 -0.3461385096
1014950000.0 0.1886647822 -0.527312963
1024900000.0 -0.0256573712 -0.6276753986
1034850000.0 -0.2563862809 -0.639631914
1044800000.0 -0.4897067352 -0.5666078399
1054750000.0 -0.692623909 -0.4198641724
1064700000.0 -0.8256053472 -0.2150061923
1074650000.0 -0.8720172843 0.0019482463
1084600000.0 -0.8422641613 0.2333718502
1094550000.0 -0.7164875599 0.448241625
1104500000.0 -0.5528474826 0.6196099126
1114450000.0 -0.3087828207 0.7493819261
1124400000.0 -0.0189332192 0.7777141545
1134350000.0 0.2636128864 0.6770063845
1144300000.0 0.471710332 0.4570581818
1154250000.0 0.5625119376 0.176875209
1164200000.0 0.5379022485 -0.0972413883
1174150000.0 0.4382185881 -0.3159126697
1184100000.0 0.2959362057 -0.4730478124
1194050000.0 0.1325864317 -0.5605267337
1204000000.0 -0.0266410054 -0.585967924
1213950000.0 -0.1698430681 -0.5691896639
1223900000.0 -0.2928717562 -0.5288217341
1233850000.0 -0.3971966725 -0.4781869259
1243800000.0 -0.4840707424 -0.4235971699
1253750000.0 -0.5544800179 -0.3672503917
1263700000.0 -0.6062726451 -0.3075399164
1273650000.0 -0.6415205695 -0.2452618249
1283600000.0 -0.6613752714 -0.1788353028
1293550000.0 -0.6711559563 -0.1097215678
1303500000.0 -0.6762938755 -0.0402808904
1313450000.0 -0.6802446789 0.0268051038
1323400000.0 -0.6844892048 0.0904795715
1333350000.0 -0.6866601711 0.1487036201
1343300000.0 -0.6831620726 0.2027003454
1353250000.0 -0.6716854023 0.2509662383
1363200000.0 -0.6483465868 0.296344459
1373150000.0 -0.6131085226 0.3397988525
1383100000.0 -0.5710504294 0.3836212369
1393050000.0 -0.5252780493 0.4280839242
1403000000.0 -0.4800212171 0.4717476936
1412950000.0 -0.4351767115 0.5125026034
1422900000.0 -0.3907796488 0.5473064804
1432850000.0 -0.345003948 0.5713370705
1442800000.0 -0.2949574142 0.5855569841
1452750000.0 -0.2402533545 0.5906407297
1462700000.0 -0.1787896298 0.5899600829
1472650000.0 -0.108645801 0.5866157283
1482600000.0 -0.0328871224 0.5804328349
1492550000.0 0.044596738 0.5687019883
1502500000.0 0.1199948856 0.5471677516
1512450000.0 0.1892698079 0.5113682715
1522400000.0 0.2493363453 0.4587058543
1532350000.0 0.2984521198 0.3868331894
1542300000.0 0.3362926832 0.2986836134
1552250000.0 0.362615561 0.1987235744
1562200000.0 0.3785902783 0.092845538
1572150000.0 0.3797549136 -0.0125865984
1582100000.0 0.3614069084 -0.1135387569
1592050000.0 0.3206097219 -0.204042004
1602000000.0 0.2564075919 -0.2806488366
1611950000.0 0.1743921687 -0.3411140704
1621900000.0 0.0806985463 -0.3879390171
1631850000.0 -0.0179462899 -0.4221630781
1641800000.0 -0.1154197211 -0.444748771
1651750000.0 -0.2067575584 -0.4525332025
1661700000.0 -0.2887544117 -0.4446174109
1671650000.0 -0.3597645505 -0.4187541826
1681600000.0 -0.4205001115 -0.3791459727
1691550000.0 -0.4754038779 -0.3310692695
1701500000.0 -0.5254089109 -0.2776256925
1711450000.0 -0.5723274066 -0.2230742672
1721400000.0 -0.6153127901 -0.1697782109
1731350000.0 -0.6511739271 -0.1197428158
1741300000.0 -0.6759957622 -0.0712763189
1751250000.0 -0.6882095875 -0.0228583427
1761200000.0 -0.6869204057 0.0261325684
1771150000.0 -0.6766812413 0.0764347009
1781100000.0 -0.6631224626 0.127817707
1791050000.0 -0.650991003 0.1789356159
1801000000.0 -0.6419708261 0.2278024917
1810950000.0 -0.6365345769 0.2742225684
1820900000.0 -0.6302941016 0.3157780933
1830850000.0 -0.6184484371 0.3508149235
1840800000.0 -0.5973499236 0.3810994409
1850750000.0 -0.5654882793 0.4062754166
1860700000.0 -0.5248041901 0.4286935261
1870650000.0 -0.4811461524 0.4501134418
1880600000.0 -0.4391662143 0.4703311994
1890550000.0 -0.4025366363 0.4899787831
1900500000.0 -0.3718546934 0.5049791963
1910450000.0 -0.3441883671 0.5150280701
1920400000.0 -0.316778537 0.5166705226
1930350000.0 -0.2869898527 0.5083229867
1940300000.0 -0.252925504 0.4906201474
1950250000.0 -0.2146223223 0.4657722557
1960200000.0 -0.1755876948 0.436964801
1970150000.0 -0.1426513218 0.4058356316
1980100000.0 -0.1198605953 0.3737837844
1990050000.0 -0.1120039109 0.338839054
2000000000.0 -0.1210338442 0.2998860478
