!Created with skrf (http://scikit-rf.org).
# GHz S RI R 50.0 
!freq ReS11 ImS11
10000000.0 -0.9980915934 0.158898344
19950000.0 -0.9464488121 0.304679542
29900000.0 -0.8734468384 0.4443010286
39850000.0 -0.7777528576 0.582626639
49800000.0 -0.6610474649 0.7143813784
59750000.0 -0.5178693659 0.8332381525
69700000.0 -0.3409125038 0.9287447214
79650000.0 -0.1259853307 0.9826310025
89600000.0 0.1265714251 0.976265551
99550000.0 0.4035611757 0.8875517437
109500000.0 0.6790186748 0.6986998791
119450000.0 0.9049051547 0.3953044471
129400000.0 1.008354331 -0.0078229716
139350000.0 0.9283298164 -0.4251301883
149300000.0 0.6688871952 -0.7633408207
159250000.0 0.3116601835 -0.9469747125
169200000.0 -0.0503291157 -0.9822646675
179150000.0 -0.3629072573 -0.9108165584
189100000.0 -0.6062470145 -0.7750733813
199050000.0 -0.7772439055 -0.6055126181
209000000.0 -0.8798309386 -0.4214782201
218950000.0 -0.9311987334 -0.2380470627
228900000.0 -0.9433112273 -0.062449227
238850000.0 -0.9279127089 0.1038362302
248800000.0 -0.8732879107 0.2437452701
258750000.0 -0.8432564639 0.399903033
268700000.0 -0.7725186926 0.530352501
278650000.0 -0.6794491652 0.6416356268
288600000.0 -0.5627528005 0.7303077369
298550000.0 -0.4243114645 0.7938945612
308500000.0 -0.2678904005 0.8321799323
318450000.0 -0.09727924 0.8413968443
328400000.0 0.0817621893 0.8140299605
338350000.0 0.2536568113 0.7395451451
348300000.0 0.3959368904 0.6094172271
358250000.0 0.480198016 0.4312365511
368200000.0 0.4890188216 0.2335848345
378150000.0 0.4259417419 0.0543522989
388100000.0 0.3141020274 -0.0771560405
398050000.0 0.186059345 -0.1461944573
408000000.0 0.0692815826 -0.1570822245
417950000.0 -0.0187747647 -0.1241956442
427900000.0 -0.0708442412 -0.0689486603
437850000.0 -0.1039517458 -0.018582477
447800000.0 -0.1256511047 0.0374290098
457750000.0 -0.1258819467 0.0866653329
467700000.0 -0.1123508576 0.1193954179
477650000.0 -0.08965431 0.1343845189
487600000.0 -0.0609080576 0.1350755661
497550000.0 -0.035644618 0.12591414
507500000.0 -0.0011028253 0.1128589157
517450000.0 0.0224015562 0.0937185625
527400000.0 0.0360134938 0.0743714759
537350000.0 0.0365779663 0.0547117392
547300000.0 0.0265454767 0.0356296449
557250000.0 0.0061824197 0.0157265913
567200000.0 -0.0204937356 -0.0030928864
577150000.0 -0.0491821236 -0.0180308189
587100000.0 -0.0758381169 -0.0265396525
597050000.0 -0.0980374966 -0.0261656041
607000000.0 -0.1153766491 -0.0150545466
616950000.0 -0.1283993026 0.0060702286
626900000.0 -0.1373497288 0.0351065929
636850000.0 -0.1428513987 0.0676108143
646800000.0 -0.1434297495 0.0996767575
656750000.0 -0.1382782695 0.1274122239
666700000.0 -0.1249326329 0.1484544056
676650000.0 -0.1021493253 0.1616844092
686600000.0 -0.0701046134 0.1682117662
696550000.0 -0.031218551 0.168699466
706500000.0 0.0105926972 0.1636161889
716450000.0 0.0515602613 0.1527377399
726400000.0 0.0865212361 0.1338952888
736350000.0 0.1126654441 0.1054071746
746300000.0 0.1266994405 0.0661131199
756250000.0 0.1291832768 0.0163962321
766200000.0 0.1198575848 -0.0403499571
776150000.0 0.1005347563 -0.0991694221
786100000.0 0.0691239348 -0.1534390975
796050000.0 0.0271499632 -0.1970769014
806000000.0 -0.0265161702 -0.2240956941
815950000.0 -0.091651436 -0.2291691676
825900000.0 -0.1619750942 -0.2081785624
835850000.0 -0.2162902799 -0.1658094054
845800000.0 -0.2653708295 -0.133866578
855750000.0 -0.3236430567 -0.0982108465
865700000.0 -0.3717119687 -0.0465758997
875650000.0 -0.3999616083 0.0185239158
885600000.0 -0.4044744758 0.0929115009
895550000.0 -0.3855938749 0.1738639529
905500000.0 -0.3451475676 0.2584641768
915450000.0 -0.2856340752 0.3407647463
925400000.0 -0.2084769894 0.4138228598
935350000.0 -0.1135638433 0.4689791069
945300000.0 -0.0014100669 0.4957731157
955250000.0 0.1259228441 0.4847391814
965200000.0 0.2622192492 0.4274954777
975150000.0 0.3973390065 0.3194678876
985100000.0 0.5120171756 0.1561911227
995050000.0 0.5769416522 -0.0594949139
1005000000.0 0.555205788 -0.3083648738
1014950000.0 0.416242135 -0.5484316945
1024900000.0 0.1605394504 -0.7174516291
1034850000.0 -0.1681111122 -0.762348712
1044800000.0 -0.496974155 -0.66289179
1054750000.0 -0.7527715583 -0.435661314
1064700000.0 -0.8735044297 -0.1366900241
1074650000.0 -0.8752856523 0.1545491266
1084600000.0 -0.762613209 0.4150255285
1094550000.0 -0.5844325221 0.6255629954
1104500000.0 -0.3492226763 0.7603377977
1114450000.0 -0.0929952771 0.8183230933
1124400000.0 0.1579378483 0.7918366624
1134350000.0 0.3737622106 0.686568623
1144300000.0 0.5339214517 0.5198221901
1154250000.0 0.6281528976 0.3196508249
1164200000.0 0.6616749436 0.1154495994
1174150000.0 0.6540473831 -0.0768823544
1184100000.0 0.6038048873 -0.2535880539
1194050000.0 0.5161537943 -0.3988692101
1204000000.0 0.4006037335 -0.5053767374
1213950000.0 0.2688830472 -0.5716191808
1223900000.0 0.132919696 -0.6047372945
1233850000.0 0.0013640672 -0.6139221863
1243800000.0 -0.1204582995 -0.6057085045
1253750000.0 -0.229746346 -0.5840684201
1263700000.0 -0.3242029418 -0.5489561337
1273650000.0 -0.4042323207 -0.5017126015
1283600000.0 -0.4673242862 -0.4417818553
1293550000.0 -0.5172386739 -0.3712960782
1303500000.0 -0.5571372927 -0.2943587876
1313450000.0 -0.590095436 -0.2159503408
1323400000.0 -0.618418316 -0.1391132234
1333350000.0 -0.6408090544 -0.0655667128
1343300000.0 -0.6548173556 0.0051832641
1353250000.0 -0.6582418312 0.071994189
1363200000.0 -0.6471666674 0.136489391
1373150000.0 -0.6218033139 0.2001963175
1383100000.0 -0.5867310155 0.262863578
1393050000.0 -0.5452416323 0.3253828328
1403000000.0 -0.5020302073 0.3857449724
1412950000.0 -0.4575098967 0.4421339801
1422900000.0 -0.4114075647 0.4920849187
1432850000.0 -0.3618796246 0.5323658765
1442800000.0 -0.3068794381 0.5628222416
1452750000.0 -0.243827869 0.5823710605
1462700000.0 -0.1723723395 0.5929018957
1472650000.0 -0.094331706 0.5965036575
1482600000.0 -0.013709211 0.595780717
1492550000.0 0.066940669 0.5896946764
1502500000.0 0.1455859056 0.5754212147
1512450000.0 0.2188774902 0.5498467382
1522400000.0 0.2850941565 0.5096502493
1532350000.0 0.3428609845 0.4530563281
1542300000.0 0.3932099149 0.3827838579
1552250000.0 0.4379406166 0.3011563393
1562200000.0 0.477173457 0.2137293325
1572150000.0 0.5070118724 0.1226107053
1582100000.0 0.524060003 0.0311885139
1592050000.0 0.5243223476 -0.0582896539
1602000000.0 0.5049237956 -0.145066926
1611950000.0 0.466255696 -0.2269446345
1621900000.0 0.4115016093 -0.3044442291
1631850000.0 0.3454428435 -0.3773758428
1641800000.0 0.2724857788 -0.4434198072
1651750000.0 0.1958742314 -0.4997963961
1661700000.0 0.1174638041 -0.5429612264
1671650000.0 0.0381252886 -0.5690443566
1681600000.0 -0.0419749918 -0.5762930377
1691550000.0 -0.1220510788 -0.5671463947
1701500000.0 -0.2019872002 -0.5446928165
1711450000.0 -0.2802801431 -0.5145365894
1721400000.0 -0.3550123354 -0.4800301373
1731350000.0 -0.4232255704 -0.4438247934
1741300000.0 -0.4822659261 -0.4043991047
1751250000.0 -0.5287729242 -0.3595052545
1761200000.0 -0.5624778091 -0.3085153019
1771150000.0 -0.5837232284 -0.2510623541
1781100000.0 -0.5976125288 -0.1893309489
1791050000.0 -0.6083861503 -0.126375057
1801000000.0 -0.6177193958 -0.0649784286
1810950000.0 -0.6283498237 -0.0065325678
1820900000.0 -0.6359450818 0.0495044919
1830850000.0 -0.6368803029 0.0999505198
1840800000.0 -0.6272970933 0.1475342869
1850750000.0 -0.605598358 0.1919373767
1860700000.0 -0.5723005717 0.2336879662
1870650000.0 -0.5323636653 0.2747234191
1880600000.0 -0.4907291023 0.3123589976
1890550000.0 -0.4510086476 0.3474360645
1900500000.0 -0.41405138 0.3769840292
1910450000.0 -0.3791263039 0.3989505252
1920400000.0 -0.3435122064 0.4123343222
1930350000.0 -0.3041978729 0.4150540359
1940300000.0 -0.2598223285 0.40804888
1950250000.0 -0.210882462 0.3922958907
1960200000.0 -0.1589035556 0.3719075491
1970150000.0 -0.110048021 0.346606598
1980100000.0 -0.0681595699 0.3164979323
1990050000.0 -0.0367718429 0.2781178879
2000000000.0 -0.0178596788 0.2278313935
