!Created with skrf (http://scikit-rf.org).
# GHz S RI R 50.0 
!freq ReS11 ImS11
10000000.0 -0.8022234579 0.6000634776
19950000.0 -0.2939222847 0.9395511515
29900000.0 0.3150596668 0.9183855079
39850000.0 0.8037892605 0.5403882302
49800000.0 0.9776202897 -0.0682557836
59750000.0 0.7376083052 -0.6751543742
69700000.0 0.1501780944 -1.003743101
79650000.0 -0.528720153 -0.8612134606
89600000.0 -0.9479288275 -0.2792090007
99550000.0 -0.8502848708 0.4588120201
109500000.0 -0.2364067393 0.9329463752
119450000.0 0.565563317 0.8004919797
129400000.0 0.9998793463 0.072200829
139350000.0 0.6947077652 -0.7277587713
149300000.0 -0.1129317656 -0.9745592966
159250000.0 -0.7889413902 -0.5289135623
169200000.0 -0.9097644783 0.231344889
179150000.0 -0.4774361565 0.8223415262
189100000.0 0.2115135614 0.9460464555
199050000.0 0.7807958109 0.5860259335
209000000.0 0.9664551916 -0.0398867684
218950000.0 0.7219461951 -0.6150387762
228900000.0 0.1902888242 -0.9091298484
238850000.0 -0.3998106321 -0.8259949258
248800000.0 -0.8049869377 -0.4235912978
258750000.0 -0.9194524624 0.1615501295
268700000.0 -0.6551804372 0.6853413426
278650000.0 -0.1311361809 0.9406891523
288600000.0 0.4354088864 0.8226431277
298550000.0 0.8094499144 0.3857825335
308500000.0 0.8396234153 -0.1873469181
318450000.0 0.5118015659 -0.6541993126
328400000.0 -0.0314814082 -0.8060757174
338350000.0 -0.5292094572 -0.5681220152
348300000.0 -0.7188764876 -0.0752683813
358250000.0 -0.5195165204 0.3710584372
368200000.0 -0.1067230429 0.5157580583
378150000.0 0.2248571211 0.3412077374
388100000.0 0.2995174094 0.0386477755
398050000.0 0.1560587521 -0.1631376236
408000000.0 -0.0395725698 -0.1689565089
417950000.0 -0.1326579946 -0.0456322422
427900000.0 -0.0901818032 0.0784669846
437850000.0 0.0225711908 0.1145612857
447800000.0 0.1196120419 0.0527873615
457750000.0 0.1407786753 -0.0558541944
467700000.0 0.0792615978 -0.1436597808
477650000.0 -0.020887782 -0.1650619556
487600000.0 -0.1037730047 -0.1131460334
497550000.0 -0.1360750032 -0.0248091567
507500000.0 -0.102613389 0.0524115871
517450000.0 -0.0354157246 0.0875718738
527400000.0 0.0239230702 0.0753687561
537350000.0 0.0492714331 0.0384507896
547300000.0 0.0372735226 0.0064875083
557250000.0 0.0098412049 0.0012293362
567200000.0 -0.0053821673 0.020584522
577150000.0 0.0088205835 0.0458005202
587100000.0 0.0481043698 0.0466530003
597050000.0 0.0842633597 0.0100193053
607000000.0 0.0874449761 -0.0548451441
616950000.0 0.0436586173 -0.1176303166
626900000.0 -0.0382419 -0.1416607341
636850000.0 -0.125571528 -0.1092991122
646800000.0 -0.1744362495 -0.026111544
656750000.0 -0.1611087951 0.0748856153
666700000.0 -0.0853896756 0.1478681077
676650000.0 0.0230934385 0.1584166457
686600000.0 0.116755169 0.0985348666
696550000.0 0.154023814 -0.0100050777
706500000.0 0.1175915967 -0.1148332488
716450000.0 0.0262603137 -0.168680146
726400000.0 -0.0720676671 -0.148366897
736350000.0 -0.127688724 -0.065217586
746300000.0 -0.1051215634 0.0340082333
756250000.0 -0.0156279697 0.0916228332
766200000.0 0.0908228243 0.0696439495
776150000.0 0.1565444837 -0.0245360822
786100000.0 0.1334871768 -0.1391763133
796050000.0 0.025646005 -0.209355078
806000000.0 -0.1134419007 -0.177594294
815950000.0 -0.2081338745 -0.0428473035
825900000.0 -0.1880324851 0.1376517587
835850000.0 -0.0461103 0.2762705245
845800000.0 0.1624726952 0.2928621472
855750000.0 0.3446651714 0.1679470816
865700000.0 0.4093000262 -0.0571373237
875650000.0 0.3101425369 -0.2841036072
885600000.0 0.0748268177 -0.4038611022
895550000.0 -0.1986364332 -0.3447401655
905500000.0 -0.3837605446 -0.11561688
915450000.0 -0.3842116711 0.1898793025
925400000.0 -0.1859523247 0.4298226509
935350000.0 0.125569014 0.4828176824
945300000.0 0.3992628772 0.3077796937
955250000.0 0.4841789154 -0.0252572346
965200000.0 0.3021159906 -0.344592711
975150000.0 -0.0830916438 -0.4444006548
985100000.0 -0.4394610654 -0.2080433938
995050000.0 -0.494729829 0.2356666737
1005000000.0 -0.1721640579 0.5898634927
1014950000.0 0.3539819133 0.5602354737
1024900000.0 0.690547426 0.0806527932
1034850000.0 0.5039120353 -0.5384783304
1044800000.0 -0.1459106868 -0.7811165336
1054750000.0 -0.7433894489 -0.3962747087
1064700000.0 -0.8164828869 0.283123997
1074650000.0 -0.3730941439 0.7662056048
1084600000.0 0.2066616218 0.7932222102
1094550000.0 0.6834596984 0.4169357793
1104500000.0 0.7546242827 -0.1919752694
1114450000.0 0.3647676726 -0.6720353257
1124400000.0 -0.2328942984 -0.7114776575
1134350000.0 -0.643292784 -0.3304735298
1144300000.0 -0.6656958463 0.1866561044
1154250000.0 -0.3553833546 0.554004024
1164200000.0 0.0964190952 0.6213767791
1174150000.0 0.4741373226 0.3772671617
1184100000.0 0.5862623027 -0.0579809584
1194050000.0 0.3723947315 -0.4443211222
1204000000.0 -0.0315596413 -0.5772866237
1213950000.0 -0.4022791144 -0.4220123789
1223900000.0 -0.5867794324 -0.0879424267
1233850000.0 -0.5367144424 0.2761557748
1243800000.0 -0.2836642233 0.5391514732
1253750000.0 0.0825466363 0.59991639
1263700000.0 0.4191175194 0.4218439477
1273650000.0 0.5796297799 0.0693310608
1283600000.0 0.4960109059 -0.3050271427
1293550000.0 0.2203198386 -0.5521029497
1303500000.0 -0.1307880377 -0.6016717702
1313450000.0 -0.4413548544 -0.459550679
1323400000.0 -0.627437675 -0.1785289333
1333350000.0 -0.6369432913 0.1632134449
1343300000.0 -0.4515593189 0.4645429535
1353250000.0 -0.1150203396 0.6124436433
1363200000.0 0.2562090397 0.5367252054
1373150000.0 0.5175923426 0.2598263948
1383100000.0 0.5773325893 -0.1061666986
1393050000.0 0.4355927906 -0.4313617639
1403000000.0 0.1570976847 -0.6223710323
1412950000.0 -0.1678307681 -0.6374224483
1422900000.0 -0.4491132871 -0.4781081321
1432850000.0 -0.6010520971 -0.1846424804
1442800000.0 -0.5648301449 0.1568314652
1452750000.0 -0.3352915666 0.4251498553
1462700000.0 0.0085023431 0.5161879396
1472650000.0 0.3365313059 0.3983106324
1482600000.0 0.5327289463 0.1286380696
1492550000.0 0.5443538124 -0.1885496204
1502500000.0 0.3823960812 -0.4474371339
1512450000.0 0.108874885 -0.565809562
1522400000.0 -0.1845210038 -0.5030031848
1532350000.0 -0.3884876553 -0.2745466338
1542300000.0 -0.419655455 0.038602371
1552250000.0 -0.2551051891 0.3099949666
1562200000.0 0.031163811 0.423887487
1572150000.0 0.317334257 0.3454019587
1582100000.0 0.4883575422 0.1178825033
1592050000.0 0.4846499115 -0.1599695197
1602000000.0 0.3120523761 -0.3794996599
1611950000.0 0.033445862 -0.4535118044
1621900000.0 -0.2461318152 -0.3421227608
1631850000.0 -0.4095043986 -0.0751303007
1641800000.0 -0.3760851962 0.2425236984
1651750000.0 -0.1572651532 0.473137701
1661700000.0 0.1518126393 0.5220414275
1671650000.0 0.4247788764 0.380258739
1681600000.0 0.5654276683 0.1089717166
1691550000.0 0.5304448497 -0.1990466751
1701500000.0 0.3274462692 -0.4436200114
1711450000.0 0.0121479535 -0.5409755919
1721400000.0 -0.3184257761 -0.4402633041
1731350000.0 -0.538061459 -0.1616486733
1741300000.0 -0.5575193384 0.193532294
1751250000.0 -0.3745304528 0.4895440406
1761200000.0 -0.068451923 0.6281824636
1771150000.0 0.2535953872 0.5835292107
1781100000.0 0.502410989 0.3838332918
1791050000.0 0.616824242 0.0849593286
1801000000.0 0.5627651614 -0.2380545655
1810950000.0 0.3408028139 -0.4940376547
1820900000.0 0.0054338775 -0.5902213201
1830850000.0 -0.3300284528 -0.4785195742
1840800000.0 -0.5418761063 -0.2020160098
1850750000.0 -0.5679319353 0.1294384833
1860700000.0 -0.4261946486 0.4067372919
1870650000.0 -0.180958813 0.5653236005
1880600000.0 0.0960603508 0.5809159908
1890550000.0 0.3369277042 0.458957173
1900500000.0 0.4800325251 0.2294738225
1910450000.0 0.4795475251 -0.0438899065
1920400000.0 0.3295641171 -0.2712805227
1930350000.0 0.0859844947 -0.3719774422
1940300000.0 -0.1535255527 -0.3250157744
1950250000.0 -0.313061262 -0.1747515601
1960200000.0 -0.3622327797 0.0092763518
1970150000.0 -0.3144842184 0.1630954169
1980100000.0 -0.2098192219 0.2450440131
1990050000.0 -0.1035346803 0.2394186099
2000000000.0 -0.0681436315 0.1716424175
