!Created with skrf (http://scikit-rf.org).
# GHz S RI R 50.0 
!freq ReS11 ImS11
10000000.0 -0.8881030013 0.4455081077
19950000.0 -0.5996805713 0.7837545875
29900000.0 -0.1916453134 0.9646975835
39850000.0 0.262243929 0.9478918093
49800000.0 0.670248535 0.7227132085
59750000.0 0.9359814527 0.3209108866
69700000.0 0.977491538 -0.1768791024
79650000.0 0.7568630216 -0.6469289318
89600000.0 0.3066119017 -0.9458118839
99550000.0 -0.2572605926 -0.9541525122
109500000.0 -0.7499477892 -0.6301717528
119450000.0 -0.9704044876 -0.0540689256
129400000.0 -0.7767408824 0.5683599418
139350000.0 -0.2450927884 0.9384799248
149300000.0 0.4209948945 0.8772990005
159250000.0 0.8832260799 0.4119064623
169200000.0 0.9471135296 -0.2126942983
179150000.0 0.6406954642 -0.7187744226
189100000.0 0.1328474647 -0.9445078593
199050000.0 -0.3862228164 -0.8645552605
209000000.0 -0.7729050894 -0.5413801762
218950000.0 -0.9390180828 -0.0875305939
228900000.0 -0.8649635232 0.3805873072
238850000.0 -0.5760483809 0.7512518968
248800000.0 -0.0585347801 0.7860641001
258750000.0 0.2665556711 0.9035930626
268700000.0 0.6523007629 0.6679470962
278650000.0 0.8753382373 0.2853979652
288600000.0 0.8915899181 -0.153076707
298550000.0 0.6990036965 -0.5451812918
308500000.0 0.3404536393 -0.7949899418
318450000.0 -0.0956366645 -0.8328123432
328400000.0 -0.4872135308 -0.6401045482
338350000.0 -0.7095428013 -0.2713261975
348300000.0 -0.6864752488 0.1446108913
358250000.0 -0.4402534995 0.4510108281
368200000.0 -0.0923262566 0.5413372597
378150000.0 0.2020642308 0.4194300588
388100000.0 0.3414543529 0.1811332383
398050000.0 0.3131176333 -0.0530259979
408000000.0 0.1743799601 -0.194445956
417950000.0 0.0103629035 -0.2192883386
427900000.0 -0.1121723448 -0.152583799
437850000.0 -0.1611646593 -0.0462609591
447800000.0 -0.141163837 0.0506768181
457750000.0 -0.079228223 0.1064160759
467700000.0 -0.0103555017 0.1131296482
477650000.0 0.0380257777 0.0830322641
487600000.0 0.050310847 0.0384831377
497550000.0 0.0077054295 0.0688579547
507500000.0 0.0444637732 -0.0075245258
517450000.0 0.0145081751 -0.0072122982
527400000.0 0.0043453041 0.0106360393
537350000.0 0.0152944356 0.0288309192
547300000.0 0.0466387904 0.035841762
557250000.0 0.081793438 0.0111931514
567200000.0 0.0998891584 -0.0345660176
577150000.0 0.0921082845 -0.091034449
587100000.0 0.0539604154 -0.143264288
597050000.0 -0.0096120295 -0.1737490385
607000000.0 -0.0848385168 -0.1712455477
616950000.0 -0.1536547635 -0.1317919442
626900000.0 -0.197157787 -0.0626342361
636850000.0 -0.203920539 0.021190378
646800000.0 -0.1701058951 0.0995145579
656750000.0 -0.1030425487 0.1536297423
666700000.0 -0.0185426237 0.1699769874
676650000.0 0.0620889945 0.1452292356
686600000.0 0.1190487807 0.087016822
696550000.0 0.138931672 0.0126233267
706500000.0 0.1187843021 -0.0558153223
716450000.0 0.0681786327 -0.0980857472
726400000.0 0.0054829476 -0.1014378869
736350000.0 -0.0440484555 -0.0649965159
746300000.0 -0.0599279364 -0.0022737328
756250000.0 -0.0307682198 0.063016082
766200000.0 0.0383698672 0.1025469972
776150000.0 0.1272442644 0.0952680428
786100000.0 0.2056778601 0.0343793277
796050000.0 0.2432942405 -0.0686215603
806000000.0 0.2202560795 -0.1867972267
815950000.0 0.1314250756 -0.2862666248
825900000.0 -0.0069534809 -0.3333137501
835850000.0 -0.1640304952 -0.3057897325
845800000.0 -0.2993572268 -0.1995659849
855750000.0 -0.3744850413 -0.0326984644
865700000.0 -0.3632724998 0.1583124597
875650000.0 -0.2622367347 0.3284180189
885600000.0 -0.0904909748 0.4341224177
895550000.0 0.1141175589 0.44754938
905500000.0 0.3032090683 0.3609246975
915450000.0 0.4290749058 0.1903303411
925400000.0 0.4543691216 -0.0264540613
935350000.0 0.3613958831 -0.2330955365
945300000.0 0.1633174392 -0.3651631816
955250000.0 -0.0891174447 -0.3634414428
965200000.0 -0.3054660856 -0.2032018814
975150000.0 -0.3804056899 0.0766789997
985100000.0 -0.244781403 0.3608290775
995050000.0 0.0732225648 0.4931176806
1005000000.0 0.4319535554 0.3653370569
1014950000.0 0.632514373 -0.006979506
1024900000.0 0.524978573 -0.4595484419
1034850000.0 0.1160937209 -0.7496250588
1044800000.0 -0.4045822472 -0.700337809
1054750000.0 -0.7726697422 -0.321706155
1064700000.0 -0.7926863519 0.1456291965
1074650000.0 -0.6494408074 0.5538045911
1084600000.0 -0.2503021272 0.7977994139
1094550000.0 0.1968507937 0.81407911
1104500000.0 0.5873904706 0.5524141086
1114450000.0 0.749310823 0.110324661
1124400000.0 0.6122991932 -0.3361407978
1134350000.0 0.2397626947 -0.5937562522
1144300000.0 -0.1861625283 -0.563126139
1154250000.0 -0.4751094596 -0.2983169656
1164200000.0 -0.5395817522 0.049836437
1174150000.0 -0.4089532706 0.3457376595
1184100000.0 -0.1484145029 0.512296014
1194050000.0 0.1527719984 0.506437227
1204000000.0 0.3991697597 0.3415504592
1213950000.0 0.5209385136 0.0743526622
1223900000.0 0.4899503201 -0.2146041624
1233850000.0 0.3243478859 -0.4466987128
1243800000.0 0.077007306 -0.5705342988
1253750000.0 -0.1905066725 -0.5714305275
1263700000.0 -0.4242698499 -0.4624148706
1273650000.0 -0.5877749323 -0.2739314041
1283600000.0 -0.6616503955 -0.0413647859
1293550000.0 -0.6393003024 0.200347308
1303500000.0 -0.5245358108 0.4163426519
1313450000.0 -0.3313299737 0.5738458099
1323400000.0 -0.0854912662 0.645385849
1333350000.0 0.1748689257 0.6131983728
1343300000.0 0.4057729921 0.4782543363
1353250000.0 0.565278145 0.2618152061
1363200000.0 0.6273507404 0.0034247483
1373150000.0 0.5864026728 -0.2529365275
1383100000.0 0.4554885961 -0.4673744004
1393050000.0 0.261473995 -0.6116028319
1403000000.0 0.0357562471 -0.67213505
1412950000.0 -0.1905926789 -0.6451977146
1422900000.0 -0.3882920718 -0.5382281573
1432850000.0 -0.530745978 -0.3643783061
1442800000.0 -0.5978580707 -0.1477797799
1452750000.0 -0.577826663 0.0820175109
1462700000.0 -0.4677439237 0.2923226638
1472650000.0 -0.2779024606 0.4452065937
1482600000.0 -0.0397689342 0.506790594
1492550000.0 0.1990272362 0.4626563585
1502500000.0 0.3901456467 0.3253991566
1512450000.0 0.4988664288 0.1278968433
1522400000.0 0.5110374472 -0.086831216
1532350000.0 0.430659868 -0.2772006939
1542300000.0 0.2780365566 -0.4083687894
1552250000.0 0.083197078 -0.4552819929
1562200000.0 -0.1124178898 -0.4066512337
1572150000.0 -0.2652932463 -0.2696785549
1582100000.0 -0.3359817269 -0.0729271463
1592050000.0 -0.3027169489 0.1347888313
1602000000.0 -0.1752304504 0.3003908068
1611950000.0 0.0152802604 0.381245562
1621900000.0 0.2169828674 0.3611529982
1631850000.0 0.3826407605 0.2499508602
1641800000.0 0.4779354185 0.0753282822
1651750000.0 0.4842957378 -0.1257179039
1661700000.0 0.3999489761 -0.314379492
1671650000.0 0.2367325109 -0.453655524
1681600000.0 0.020700789 -0.5124180343
1691550000.0 -0.2093487422 -0.4727900305
1701500000.0 -0.4071469219 -0.3347833613
1711450000.0 -0.5302755624 -0.122115309
1721400000.0 -0.5536783203 0.1232899364
1731350000.0 -0.4749621235 0.3536861389
1741300000.0 -0.3140610725 0.5296850853
1751250000.0 -0.1029680801 0.6275802928
1761200000.0 0.1236948917 0.6388032752
1771150000.0 0.3353327037 0.5685961769
1781100000.0 0.5065853734 0.4285256213
1791050000.0 0.6177807232 0.2367088474
1801000000.0 0.6534379084 0.0146868362
1810950000.0 0.6056007419 -0.2100491882
1820900000.0 0.4748650629 -0.4054727921
1830850000.0 0.2760151536 -0.5393009831
1840800000.0 0.0384894389 -0.5864156822
1850750000.0 -0.1979828873 -0.5368581124
1860700000.0 -0.3907811148 -0.4001826339
1870650000.0 -0.5062298436 -0.205917584
1880600000.0 -0.5261165468 -0.0055870541
1890550000.0 -0.4971618964 0.147753603
1900500000.0 -0.4457345234 0.302915492
1910450000.0 -0.3313108498 0.4337174673
1920400000.0 -0.1801675292 0.5054193027
1930350000.0 -0.0218659972 0.513113719
1940300000.0 0.119281065 0.4619880063
1950250000.0 0.2223910104 0.3650819108
1960200000.0 0.2731538813 0.2442996828
1970150000.0 0.2699628673 0.1267843136
1980100000.0 0.2261684041 0.0376553292
1990050000.0 0.1669096695 -0.0102261625
2000000000.0 0.1218770294 -0.0196172821
