!Created with skrf (http://scikit-rf.org).
# GHz S RI R 50.0 
!freq ReS11 ImS11
10000000.0 -0.7857979333 0.5833953173
19950000.0 -0.2925140589 0.9165800248
29900000.0 0.3022095875 0.8991809069
39850000.0 0.7828377053 0.5320122574
49800000.0 0.957610477 -0.0629247203
59750000.0 0.7289549997 -0.6596699644
69700000.0 0.1596875494 -0.9892611463
79650000.0 -0.5047837063 -0.8638262414
89600000.0 -0.9288156063 -0.3089313496
99550000.0 -0.8634191308 0.413657902
109500000.0 -0.2912412537 0.9101431767
119450000.0 0.5021402017 0.8381501754
129400000.0 0.9916914948 0.1605362478
139350000.0 0.7660924359 -0.6609837368
149300000.0 -0.0164594065 -0.984563367
159250000.0 -0.7327858566 -0.5964961692
169200000.0 -0.9114093051 0.1566121925
179150000.0 -0.518050664 0.7750785867
189100000.0 0.1600875567 0.9358019003
199050000.0 0.7400908397 0.6045188321
209000000.0 0.9457630656 -0.0085489311
218950000.0 0.7185811466 -0.5839962574
228900000.0 0.1974598314 -0.8829911686
238850000.0 -0.3861492539 -0.8044035717
248800000.0 -0.7653966805 -0.4040349392
258750000.0 -0.8942868987 0.1681993276
268700000.0 -0.6299091546 0.6802655697
278650000.0 -0.113884562 0.9237002065
288600000.0 0.4381123674 0.7998965845
298550000.0 0.7976227713 0.3665654689
308500000.0 0.8199226864 -0.1966085975
318450000.0 0.4924841046 -0.6529034883
328400000.0 -0.0445188358 -0.7997618807
338350000.0 -0.5371209032 -0.5641061726
348300000.0 -0.728456811 -0.0747519232
358250000.0 -0.5351119096 0.3747630633
368200000.0 -0.1229677658 0.5308070308
378150000.0 0.2202092481 0.3672230344
388100000.0 0.3146286914 0.0639729899
398050000.0 0.18549886 -0.1534925073
408000000.0 -0.0086011098 -0.1799280152
417950000.0 -0.1125098445 -0.0717884116
427900000.0 -0.0852742309 0.0466340881
437850000.0 0.0133817357 0.0850312353
447800000.0 0.0996683065 0.0311393676
457750000.0 0.1150035563 -0.0661445759
467700000.0 0.0541671538 -0.1410534026
477650000.0 -0.039364058 -0.1511579744
487600000.0 -0.1123176411 -0.0927124483
497550000.0 -0.1330914182 -0.0070200485
507500000.0 -0.0901139868 0.0714677824
517450000.0 -0.0144298955 0.1006690931
527400000.0 0.0495219708 0.0789338723
537350000.0 0.0743616767 0.0312454795
547300000.0 0.0567207397 -0.0105816478
557250000.0 0.0189008129 -0.0219195963
567200000.0 -0.0088000873 -0.0024860503
577150000.0 -0.0058555161 0.028419473
587100000.0 0.0265709379 0.0394174345
597050000.0 0.0616628173 0.0137836384
607000000.0 0.0684801188 -0.0411751804
616950000.0 0.0315592881 -0.097903514
626900000.0 -0.041436488 -0.1194756845
636850000.0 -0.1201625485 -0.0883704642
646800000.0 -0.1618931852 -0.0101750226
656750000.0 -0.1447025651 0.0835684798
666700000.0 -0.0686244108 0.148703473
676650000.0 0.0376454521 0.1524963092
686600000.0 0.1277095594 0.0860915406
696550000.0 0.1592742217 -0.0274894941
706500000.0 0.1152703605 -0.1363672939
716450000.0 0.0144263747 -0.1915590056
726400000.0 -0.094818676 -0.1678900458
736350000.0 -0.1591951554 -0.0746196847
746300000.0 -0.1405327771 0.039355542
756250000.0 -0.0456654758 0.1143218696
766200000.0 0.0763059222 0.1062614842
776150000.0 0.1639209016 0.0170280994
786100000.0 0.1644585055 -0.1056627097
796050000.0 0.0736514207 -0.1958930739
806000000.0 -0.0615958682 -0.1914771924
815950000.0 -0.1676914577 -0.0824690604
825900000.0 -0.1720243137 0.0816647931
835850000.0 -0.0607713184 0.2192178142
845800000.0 0.120139304 0.2522352035
855750000.0 0.2884280289 0.1557764021
865700000.0 0.35540122 -0.03877895
875650000.0 0.2734372801 -0.2414312546
885600000.0 0.0631460123 -0.3473743581
895550000.0 -0.1825638282 -0.2867293422
905500000.0 -0.3413277513 -0.0671822705
915450000.0 -0.3194196351 0.2155426611
925400000.0 -0.1112224165 0.4191811763
935350000.0 0.1872115175 0.4292969954
945300000.0 0.4191221286 0.2213322869
955250000.0 0.4399988847 -0.1110142603
965200000.0 0.2072370253 -0.3786819604
975150000.0 -0.1747481029 -0.4113975591
985100000.0 -0.4938952432 -0.1308199463
995050000.0 -0.4892197912 0.3375100503
1005000000.0 -0.0915557669 0.6563310876
1014950000.0 0.450141659 0.5362597018
1024900000.0 0.7212752861 -0.0071483224
1034850000.0 0.4480306467 -0.6070827744
1044800000.0 -0.2279682246 -0.7700521349
1054750000.0 -0.7777206443 -0.3281084502
1064700000.0 -0.7802245498 0.3458793212
1074650000.0 -0.3179811737 0.7847350472
1084600000.0 0.2893897779 0.762762301
1094550000.0 0.7111462289 0.3284931051
1104500000.0 0.7056904862 -0.2774738533
1114450000.0 0.2737397792 -0.6946690795
1124400000.0 -0.3016957252 -0.6705431483
1134350000.0 -0.6607933172 -0.2691107358
1144300000.0 -0.6445211427 0.2306138476
1154250000.0 -0.3243802597 0.5675163275
1164200000.0 0.1138687444 0.6192238955
1174150000.0 0.4835215339 0.3804994756
1184100000.0 0.602207732 -0.0495501507
1194050000.0 0.3996575678 -0.4416229928
1204000000.0 0.0004770737 -0.59017473
1213950000.0 -0.3780263762 -0.4524420953
1223900000.0 -0.5810577487 -0.1289526037
1233850000.0 -0.5554435075 0.2362791091
1243800000.0 -0.3243787632 0.5153054211
1253750000.0 0.0313865501 0.6043085032
1263700000.0 0.3774962793 0.4568860433
1273650000.0 0.5641139498 0.1223564656
1283600000.0 0.5102104225 -0.2529363919
1293550000.0 0.2566910167 -0.5156222114
1303500000.0 -0.0837275816 -0.5868108096
1313450000.0 -0.3938729538 -0.468468654
1323400000.0 -0.590898254 -0.2101533688
1333350000.0 -0.6241959182 0.1169408697
1343300000.0 -0.4680694167 0.4201730463
1353250000.0 -0.1532662347 0.5858998948
1363200000.0 0.2121687369 0.5345332231
1373150000.0 0.4812712837 0.2766708372
1383100000.0 0.5547746686 -0.0796112062
1393050000.0 0.4263448488 -0.4026898501
1403000000.0 0.1597171255 -0.5953229632
1412950000.0 -0.1537052179 -0.6164403713
1422900000.0 -0.4260096196 -0.467949744
1432850000.0 -0.5767821694 -0.1894176423
1442800000.0 -0.5483783173 0.1409334261
1452750000.0 -0.3291820291 0.4055257774
1462700000.0 0.0060993118 0.4986046516
1472650000.0 0.3293725479 0.3848435572
1482600000.0 0.5236848719 0.1193760385
1492550000.0 0.5344420986 -0.1948431451
1502500000.0 0.3714695641 -0.4504985329
1512450000.0 0.0982707667 -0.564481238
1522400000.0 -0.1918472815 -0.497773107
1532350000.0 -0.3920404177 -0.2674312873
1542300000.0 -0.4205623065 0.0465313376
1552250000.0 -0.2542438789 0.3189556949
1562200000.0 0.0345172169 0.4361050368
1572150000.0 0.3268044647 0.3586213504
1582100000.0 0.5046609278 0.129048091
1592050000.0 0.5064395664 -0.1546797329
1602000000.0 0.3361170032 -0.3843246799
1611950000.0 0.0536784403 -0.469836909
1621900000.0 -0.2368325121 -0.3682548448
1631850000.0 -0.4175700469 -0.1047950689
1641800000.0 -0.4033581073 0.2205727292
1651750000.0 -0.1965715335 0.4701959589
1661700000.0 0.1138902839 0.541774322
1671650000.0 0.4000655944 0.4172165774
1681600000.0 0.560700734 0.1535122045
1691550000.0 0.5466893756 -0.1572857215
1701500000.0 0.3619693473 -0.4146536711
1711450000.0 0.0579248221 -0.5343023859
1721400000.0 -0.2752543976 -0.4611398544
1731350000.0 -0.5150410791 -0.2051711821
1741300000.0 -0.5645702979 0.1445589871
1751250000.0 -0.4065538252 0.4533124472
1761200000.0 -0.1123402003 0.6130213806
1771150000.0 0.2100155519 0.5889796738
1781100000.0 0.4670422973 0.4060319735
1791050000.0 0.5959590095 0.1192612747
1801000000.0 0.5617526212 -0.198223934
1810950000.0 0.3632459818 -0.460397745
1820900000.0 0.0446470699 -0.5763388008
1830850000.0 -0.2907294725 -0.4901656162
1840800000.0 -0.5172142681 -0.2305883266
1850750000.0 -0.5613209774 0.0973592072
1860700000.0 -0.4333774436 0.3802558856
1870650000.0 -0.1961276617 0.5479521671
1880600000.0 0.0773610624 0.5735058136
1890550000.0 0.3184062354 0.4621366139
1900500000.0 0.4665006197 0.2431700077
1910450000.0 0.4780151387 -0.0246925035
1920400000.0 0.3404841134 -0.2572873093
1930350000.0 0.100917305 -0.3693753002
1940300000.0 -0.1460778319 -0.3312543738
1950250000.0 -0.31524216 -0.1794394878
1960200000.0 -0.3698019162 0.0134858655
1970150000.0 -0.319263484 0.1786027028
1980100000.0 -0.2004925574 0.2663456507
1990050000.0 -0.0935086195 0.2490686921
2000000000.0 -0.048493893 0.2021267189
