!Created with skrf (http://scikit-rf.org).
# GHz S RI R 50.0 
!freq ReS11 ImS11
10000000.0 -0.8211385461 0.6129271363
19950000.0 -0.2982384832 0.9539771332
29900000.0 0.3196771621 0.9274423963
39850000.0 0.8117346849 0.5456040265
49800000.0 0.989864247 -0.0636291918
59750000.0 0.7578424193 -0.6738711629
69700000.0 0.176303347 -1.013749662
79650000.0 -0.5060823273 -0.8897437277
89600000.0 -0.9436421068 -0.3282827517
99550000.0 -0.8856815101 0.3995727289
109500000.0 -0.3261291671 0.9039574747
119450000.0 0.4575952396 0.8627123233
129400000.0 0.9768349274 0.226954381
139350000.0 0.8204282641 -0.595948512
149300000.0 0.0760587775 -0.9891829509
159250000.0 -0.6799224475 -0.6745420842
169200000.0 -0.9388106493 0.0672806048
179150000.0 -0.5988459539 0.7401168379
189100000.0 0.0902420268 0.9726107592
199050000.0 0.7278623671 0.6752220134
209000000.0 0.9851265559 0.0428040536
218950000.0 0.769158069 -0.5756527421
228900000.0 0.2238049177 -0.9064522351
238850000.0 -0.4001627439 -0.8275747992
248800000.0 -0.5988416813 -0.4502901113
258750000.0 -0.9275704372 0.164811797
268700000.0 -0.644957886 0.709152606
278650000.0 -0.0887586889 0.9522624385
288600000.0 0.4915346456 0.7913609456
298550000.0 0.838151103 0.3061469701
308500000.0 0.8035067318 -0.2840985402
318450000.0 0.4071133934 -0.7139778397
328400000.0 -0.1650238515 -0.784513169
338350000.0 -0.625147455 -0.4620739794
348300000.0 -0.7275841807 0.0646944747
358250000.0 -0.4446613371 0.4771195994
368200000.0 0.0042607429 0.5506615235
378150000.0 0.3266092034 0.3089201627
388100000.0 0.3675137139 -0.0372286325
398050000.0 0.1778103025 -0.2617433415
408000000.0 -0.0648866822 -0.2702266249
417950000.0 -0.2024229863 -0.1246113135
427900000.0 -0.1879782451 0.0432034927
437850000.0 -0.0735262206 0.1313303358
447800000.0 0.0497903113 0.1142041989
457750000.0 0.1128530907 0.030119023
467700000.0 0.0977608945 -0.055355162
477650000.0 0.0391833969 -0.0907759795
487600000.0 -0.0095029725 -0.0663303599
497550000.0 -0.00473389 -0.1237668449
507500000.0 -0.0412194228 -0.0188456956
517450000.0 -0.0118254909 -0.0016444352
527400000.0 0.0023700992 -0.0137298104
537350000.0 -0.0123312136 -0.0315786787
547300000.0 -0.0534647281 -0.025423561
557250000.0 -0.07996897 0.0226871777
567200000.0 -0.0677455865 0.0849713499
577150000.0 -0.0113128194 0.131982365
587100000.0 0.0713613695 0.1311895521
597050000.0 0.1429171418 0.0721636989
607000000.0 0.1640350518 -0.0282644001
616950000.0 0.1177396665 -0.1283562634
626900000.0 0.0173493761 -0.1850231015
636850000.0 -0.099169002 -0.1724166958
646800000.0 -0.1849774527 -0.0921541792
656750000.0 -0.2037812027 0.0216496708
666700000.0 -0.1467423734 0.1202044425
676650000.0 -0.0409916069 0.1607776755
686600000.0 0.0649010673 0.1254108204
696550000.0 0.1238917108 0.0342013483
706500000.0 0.1114999089 -0.0665283372
716450000.0 0.0415959935 -0.1271323172
726400000.0 -0.0421453308 -0.1190019247
736350000.0 -0.0872196153 -0.052362104
746300000.0 -0.0635456433 0.0283632535
756250000.0 0.0215207301 0.0695478685
766200000.0 0.1191704428 0.0338361221
776150000.0 0.1683864804 -0.0692421784
786100000.0 0.1278797517 -0.1884735773
796050000.0 0.0023392812 -0.2519417054
806000000.0 -0.1517668275 -0.2077703719
815950000.0 -0.2522383944 -0.0557895993
825900000.0 -0.2335401413 0.145582922
835850000.0 -0.0851859176 0.3051803482
845800000.0 0.139443972 0.3436057934
855750000.0 0.3482866992 0.2338192341
865700000.0 0.4481640687 0.0118333977
875650000.0 0.3850893752 -0.2342366195
885600000.0 0.1721758821 -0.393918926
895550000.0 -0.1073244327 -0.3871305442
905500000.0 -0.3305383527 -0.2023038953
915450000.0 -0.3902265762 0.0892378377
925400000.0 -0.2463922537 0.3516349978
935350000.0 0.0364552985 0.4506092989
945300000.0 0.3124975511 0.3238127113
955250000.0 0.4176369886 0.0243574214
965200000.0 0.2552996562 -0.278119301
975150000.0 -0.1131053097 -0.3585775565
985100000.0 -0.4350948631 -0.0937259864
995050000.0 -0.4129081573 0.3634385253
1005000000.0 0.0088808158 0.6379838889
1014950000.0 0.5248615375 0.4473798563
1024900000.0 0.7135413632 -0.1189277438
1034850000.0 0.380190906 -0.6661568433
1044800000.0 -0.2870483827 -0.7696369685
1054750000.0 -0.7846753853 -0.3085135932
1064700000.0 -0.7813339588 0.2358868895
1074650000.0 -0.4368100279 0.7187437516
1084600000.0 0.1199182683 0.8059887688
1094550000.0 0.615467271 0.4842829056
1104500000.0 0.7389302711 -0.0985670387
1114450000.0 0.4037886034 -0.5862469908
1124400000.0 -0.1585853258 -0.660562738
1134350000.0 -0.556127425 -0.3189512745
1144300000.0 -0.5770338616 0.1576972325
1154250000.0 -0.2784930607 0.4804850439
1164200000.0 0.1332244899 0.5016359437
1174150000.0 0.4396577552 0.2429563004
1184100000.0 0.4748173287 -0.160987167
1194050000.0 0.2133327021 -0.463446244
1204000000.0 -0.1698106108 -0.498684057
1213950000.0 -0.4686025521 -0.2842326625
1223900000.0 -0.5675817011 0.0559658957
1233850000.0 -0.4476893777 0.3834280618
1243800000.0 -0.1554718286 0.5817562666
1253750000.0 0.2078556057 0.5693096064
1263700000.0 0.500685669 0.3346772229
1273650000.0 0.5955894766 -0.0342746909
1283600000.0 0.4572665915 -0.386185437
1293550000.0 0.1536692195 -0.5933723665
1303500000.0 -0.1996025978 -0.6049070005
1313450000.0 -0.4987266193 -0.4368708437
1323400000.0 -0.6679621267 -0.142083199
1333350000.0 -0.6587479152 0.2033683126
1343300000.0 -0.4576573093 0.5011546964
1353250000.0 -0.1102022117 0.6419269254
1363200000.0 0.2666997923 0.5589170526
1373150000.0 0.5325567273 0.2778272155
1383100000.0 0.5985169072 -0.0935715284
1393050000.0 0.4640575047 -0.4261681837
1403000000.0 0.1905207493 -0.6306871556
1412950000.0 -0.1368542514 -0.6635356261
1422900000.0 -0.4284093127 -0.5233714777
1432850000.0 -0.6010711511 -0.248493692
1442800000.0 -0.5989060826 0.0823883581
1452750000.0 -0.413275536 0.3677332397
1462700000.0 -0.0948550992 0.5093669097
1472650000.0 0.2488397784 0.4522299064
1482600000.0 0.4959358935 0.2219688364
1492550000.0 0.5711106066 -0.0916305323
1502500000.0 0.4639796626 -0.3800827312
1512450000.0 0.2200482699 -0.5518669355
1522400000.0 -0.0769636586 -0.5516767263
1532350000.0 -0.3210776814 -0.3751505414
1542300000.0 -0.4167318952 -0.0828742532
1552250000.0 -0.3191935619 0.2097686461
1562200000.0 -0.0717233697 0.3798244806
1572150000.0 0.2135380767 0.3666621687
1582100000.0 0.4191050565 0.1910195057
1592050000.0 0.468249833 -0.0636862258
1602000000.0 0.3493490156 -0.2910069586
1611950000.0 0.1086590216 -0.3995650342
1621900000.0 -0.1598775401 -0.3361058201
1631850000.0 -0.3407619886 -0.1120223344
1641800000.0 -0.3448597469 0.1834138498
1651750000.0 -0.1643349299 0.4177626759
1661700000.0 0.1187293053 0.4881101926
1671650000.0 0.3818479686 0.3728036011
1681600000.0 0.5238377763 0.123778416
1691550000.0 0.4925012285 -0.1621511888
1701500000.0 0.3200657664 -0.3727539411
1711450000.0 0.053357654 -0.4989221126
1721400000.0 -0.2772104648 -0.436824022
1731350000.0 -0.5137224736 -0.1806924307
1741300000.0 -0.5531376282 0.1668609972
1751250000.0 -0.3859544619 0.4664428918
1761200000.0 -0.0903377573 0.6155654809
1771150000.0 0.2285832135 0.5847065567
1781100000.0 0.4823145743 0.3995625345
1791050000.0 0.6101060793 0.1116395477
1801000000.0 0.5744119973 -0.2099502869
1810950000.0 0.3678931446 -0.4755911738
1820900000.0 0.0384600316 -0.5894708415
1830850000.0 -0.3024995846 -0.4968024072
1840800000.0 -0.5277583051 -0.2322183424
1850750000.0 -0.5691546743 0.0960450779
1860700000.0 -0.4410020024 0.3779413052
1870650000.0 -0.2051635257 0.547223848
1880600000.0 0.069147261 0.577665817
1890550000.0 0.3159559893 0.4713536651
1900500000.0 0.4721448944 0.2533851345
1910450000.0 0.4863897836 -0.0156897571
1920400000.0 0.3488949804 -0.2467000276
1930350000.0 0.1125723691 -0.3552767479
1940300000.0 -0.1268284476 -0.3176516128
1950250000.0 -0.2848182958 -0.1745772842
1960200000.0 -0.3337287706 -0.0008144146
1970150000.0 -0.2912952816 0.1374153266
1980100000.0 -0.2052700615 0.2013771664
1990050000.0 -0.1372586629 0.191272092
2000000000.0 -0.1355745794 0.1578107444
