!Created with skrf (http://scikit-rf.org).
# GHz S RI R 50.0 
!freq ReS11 ImS11
10000000.0 -0.7803392527 0.5888672248
19950000.0 -0.2864005654 0.9264564532
29900000.0 0.3105452373 0.9117514811
39850000.0 0.7934017978 0.5439842955
49800000.0 0.9674623211 -0.0533407862
59750000.0 0.7364501295 -0.6511473323
69700000.0 0.1662847024 -0.9809097639
79650000.0 -0.4988401769 -0.8573006888
89600000.0 -0.9260909427 -0.3027960047
99550000.0 -0.8618970335 0.4228105827
109500000.0 -0.2860003184 0.9178598833
119450000.0 0.5050479126 0.8348899582
129400000.0 0.9786179082 0.1521638993
139350000.0 0.7411559671 -0.6592560621
149300000.0 -0.0374535488 -0.9708092082
159250000.0 -0.7453985101 -0.5793757586
169200000.0 -0.9165773982 0.1722804453
179150000.0 -0.5175510231 0.7840985749
189100000.0 0.1589364866 0.9357282104
199050000.0 0.7338796322 0.6006184894
209000000.0 0.9339097421 -0.0100197618
218950000.0 0.7144369206 -0.5861202859
228900000.0 0.1995321862 -0.8911447955
238850000.0 -0.3823936209 -0.8191507442
248800000.0 -0.7950788993 -0.4172824076
258750000.0 -0.8943339416 0.1523200172
268700000.0 -0.6340234386 0.6636059851
278650000.0 -0.1241969682 0.9125550657
288600000.0 0.4268711612 0.7993573764
298550000.0 0.793843184 0.3725413139
308500000.0 0.8247002383 -0.1913287654
318450000.0 0.5018281365 -0.6510829253
328400000.0 -0.0320290355 -0.7996127272
338350000.0 -0.5203693059 -0.5660715341
348300000.0 -0.7108155927 -0.0822761417
358250000.0 -0.5225962554 0.3643961485
368200000.0 -0.1159922949 0.5241134188
378150000.0 0.225255906 0.3632264119
388100000.0 0.3178863606 0.0622845768
398050000.0 0.1857331755 -0.1522159745
408000000.0 -0.0120456969 -0.1763634082
417950000.0 -0.1198328094 -0.0652157024
427900000.0 -0.0961577269 0.0607586746
437850000.0 0.0062670554 0.1067089928
447800000.0 0.0987864236 0.0549307221
457750000.0 0.120719658 -0.0452871295
467700000.0 0.0642726903 -0.12838915
477650000.0 -0.0285638644 -0.1472313354
487600000.0 -0.1046538901 -0.0993139543
497550000.0 -0.1304021983 -0.0188200597
507500000.0 -0.0972385416 0.0576487941
517450000.0 -0.0325007752 0.0878005853
527400000.0 0.0252714824 0.0719950366
537350000.0 0.0482899516 0.0296130458
547300000.0 0.0344463413 -0.0049532825
557250000.0 0.0031515209 -0.0123346626
567200000.0 -0.016372851 0.0092262011
577150000.0 -0.0038913459 0.0369673076
587100000.0 0.0332619405 0.0420558545
597050000.0 0.0725482799 0.0097282502
607000000.0 0.0824492073 -0.0527165761
616950000.0 0.0440579657 -0.1155108526
626900000.0 -0.0323987684 -0.1433137967
636850000.0 -0.1150982961 -0.1136742844
646800000.0 -0.1652863456 -0.0334386627
656750000.0 -0.1544054749 0.0671193614
666700000.0 -0.079927174 0.1434603765
676650000.0 0.0292434952 0.157719402
686600000.0 0.1270400606 0.0987913328
696550000.0 0.169379479 -0.0086558551
706500000.0 0.1352759956 -0.1190746665
716450000.0 0.0415929658 -0.1826623218
726400000.0 -0.0674088086 -0.1681148654
736350000.0 -0.1357240302 -0.0848302587
746300000.0 -0.127325094 0.0244300467
756250000.0 -0.043759513 0.1014351422
766200000.0 0.0709709805 0.1006096956
776150000.0 0.1546709898 0.0210130279
786100000.0 0.1567412278 -0.0967067458
796050000.0 0.0692790999 -0.1837708072
806000000.0 -0.0639693155 -0.1812911023
815950000.0 -0.1711482869 -0.0763110689
825900000.0 -0.1817014134 0.0882281005
835850000.0 -0.0747996823 0.2305319133
845800000.0 0.1081978484 0.2710947403
855750000.0 0.2836236518 0.1776943593
865700000.0 0.3625164904 -0.0184654533
875650000.0 0.292249851 -0.2325761358
885600000.0 0.0868177974 -0.3578376131
895550000.0 -0.16812056 -0.3174538593
905500000.0 -0.3471655351 -0.1105168689
915450000.0 -0.3506187122 0.1773478916
925400000.0 -0.1608888131 0.4038888723
935350000.0 0.1368661979 0.4477859236
945300000.0 0.3945321395 0.2719060895
955250000.0 0.4655365258 -0.0541644419
965200000.0 0.2746464772 -0.3638568482
975150000.0 -0.1125466425 -0.4522285661
985100000.0 -0.4681086597 -0.2048148305
995050000.0 -0.5179891131 0.2587306814
1005000000.0 -0.1732321432 0.6213405591
1014950000.0 0.3661147045 0.5849494927
1024900000.0 0.7105885115 0.1031364854
1034850000.0 0.5387315454 -0.5228791115
1044800000.0 -0.0982098828 -0.7866726431
1054750000.0 -0.7058104465 -0.4329454249
1064700000.0 -0.8092307697 0.2455203028
1074650000.0 -0.3857263286 0.7357463052
1084600000.0 0.1580667426 0.7700960181
1094550000.0 0.6515157015 0.440644417
1104500000.0 0.7352075042 -0.1666053643
1114450000.0 0.3551418249 -0.6376131382
1124400000.0 -0.2193442436 -0.679243271
1134350000.0 -0.6170628702 -0.3206425058
1144300000.0 -0.6507631516 0.1724687613
1154250000.0 -0.3653916109 0.5359311239
1164200000.0 0.0669882073 0.6160133589
1174150000.0 0.4383313467 0.3985927121
1184100000.0 0.572546571 -0.0140035955
1194050000.0 0.3920135475 -0.404665358
1204000000.0 0.0113863986 -0.5662210337
1213950000.0 -0.3616591822 -0.4491405127
1223900000.0 -0.5724695998 -0.1438285332
1233850000.0 -0.5618287039 0.2129261685
1243800000.0 -0.3466537488 0.493011786
1253750000.0 -0.0033325754 0.593134884
1263700000.0 0.3408629307 0.4626763015
1273650000.0 0.5404124264 0.1439818045
1283600000.0 0.509502645 -0.2283762971
1293550000.0 0.2751896438 -0.5040350637
1303500000.0 -0.0575960544 -0.5948489532
1313450000.0 -0.3711747893 -0.4931880758
1323400000.0 -0.5781233241 -0.2454033513
1333350000.0 -0.6247640827 0.0763782667
1343300000.0 -0.4877504986 0.3827842895
1353250000.0 -0.1906766958 0.5659015646
1363200000.0 0.1706424599 0.5435727903
1373150000.0 0.4564420485 0.3114393084
1383100000.0 0.5575262412 -0.0353140503
1393050000.0 0.4542453439 -0.3660115255
1403000000.0 0.2027077145 -0.5767124368
1412950000.0 -0.1067554874 -0.617624277
1422900000.0 -0.3840050719 -0.4889289727
1432850000.0 -0.5491701138 -0.2255887998
1442800000.0 -0.5448881727 0.0985511352
1452750000.0 -0.3523549416 0.373911505
1462700000.0 -0.0310707767 0.489858558
1472650000.0 0.2938267808 0.4010165974
1482600000.0 0.4999260274 0.1499567388
1492550000.0 0.5255324489 -0.1585164889
1502500000.0 0.3782823219 -0.4162146649
1512450000.0 0.1170733673 -0.5411034197
1522400000.0 -0.1679981237 -0.4914874526
1532350000.0 -0.3731908571 -0.2770976255
1542300000.0 -0.4122503243 0.0269422141
1552250000.0 -0.2579984311 0.2965757547
1562200000.0 0.0219772551 0.4146251107
1572150000.0 0.303243572 0.342255282
1582100000.0 0.477688823 0.1246140813
1592050000.0 0.4863042636 -0.1491697814
1602000000.0 0.3278260997 -0.374654668
1611950000.0 0.0570538306 -0.4652215459
1621900000.0 -0.2272114966 -0.3743216644
1631850000.0 -0.4093705044 -0.1196298269
1641800000.0 -0.4026924587 0.2008035482
1651750000.0 -0.2025476912 0.4519761276
1661700000.0 0.1021534134 0.5311338293
1671650000.0 0.3886626142 0.4185650812
1681600000.0 0.5585486418 0.1665380051
1691550000.0 0.5621817681 -0.1389167611
1701500000.0 0.394571647 -0.404448793
1711450000.0 0.099913159 -0.5404148041
1721400000.0 -0.2359379429 -0.4860938795
1731350000.0 -0.490017978 -0.2424847703
1741300000.0 -0.5611495046 0.1047605827
1751250000.0 -0.4273567804 0.4235679161
1761200000.0 -0.1509305471 0.6064750862
1771150000.0 0.1679743316 0.6135936131
1781100000.0 0.4379897081 0.4594487091
1791050000.0 0.593758062 0.190519465
1801000000.0 0.5924721646 -0.127481805
1810950000.0 0.4230206989 -0.4091048764
1820900000.0 0.1200885311 -0.5596117796
1830850000.0 -0.2214729708 -0.513349347
1840800000.0 -0.477196432 -0.2841787997
1850750000.0 -0.5620985453 0.0352852458
1860700000.0 -0.4715660982 0.331546465
1870650000.0 -0.2578714151 0.5267454801
1880600000.0 0.0089565852 0.5840525337
1890550000.0 0.2584032904 0.5012753195
1900500000.0 0.4270615908 0.302474504
1910450000.0 0.4670507617 0.0423653063
1920400000.0 0.3614616601 -0.1986747632
1930350000.0 0.1473928172 -0.3357149352
1940300000.0 -0.089697386 -0.3314952819
1950250000.0 -0.2665757379 -0.212282722
1960200000.0 -0.3409227327 -0.0430660289
1970150000.0 -0.3174538611 0.1102019624
1980100000.0 -0.2318251476 0.2018639251
1990050000.0 -0.1378946083 0.2172037301
2000000000.0 -0.0865291845 0.1770957632
