!Created with skrf (http://scikit-rf.org).
# GHz S RI R 50.0 
!freq ReS11 ImS11
10000000.0 -0.75348512 0.6783899094
19950000.0 -0.1140343349 0.9854315075
29900000.0 0.5671667052 0.795737388
39850000.0 0.9562226254 0.1947474915
49800000.0 0.8384936673 -0.5235455295
59750000.0 0.2495678565 -0.9759106955
69700000.0 -0.5010702761 -0.8859675474
79650000.0 -0.9714166655 -0.2781423037
89600000.0 -0.8549102738 0.4953596357
99550000.0 -0.1916886736 0.9453167933
109500000.0 0.6106797375 0.7358054509
119450000.0 0.9688749825 -0.0508976648
129400000.0 0.5303780643 -0.8348083154
139350000.0 -0.3685411935 -0.9279897179
149300000.0 -0.9485972877 -0.2355762813
159250000.0 -0.7203546055 0.6160759825
169200000.0 0.0781500475 0.9310780255
179150000.0 0.7994855262 0.5034675697
189100000.0 0.916012456 -0.3072729895
199050000.0 0.3852757195 -0.8984849793
209000000.0 -0.3804469552 -0.8908865748
218950000.0 -0.8777113865 -0.3505125678
228900000.0 -0.8502988948 0.3600117686
238850000.0 -0.3454577788 0.8458715508
248800000.0 0.3587674284 0.7273776619
258750000.0 0.844827128 0.4028330805
268700000.0 0.9013489437 -0.2899314177
278650000.0 0.4622688101 -0.8180554418
288600000.0 -0.2088575298 -0.8900242475
298550000.0 -0.7327397666 -0.4854839989
308500000.0 -0.8296595319 0.1591819063
318450000.0 -0.4521302372 0.6815734854
328400000.0 0.1783830353 0.7754058435
338350000.0 0.6627125021 0.3828720157
348300000.0 0.6807087541 -0.2128121629
358250000.0 0.2654491838 -0.5760642798
368200000.0 -0.2210181828 -0.4933258303
378150000.0 -0.4321397455 -0.1178770938
388100000.0 -0.2941249186 0.2249307638
398050000.0 0.0054175405 0.3084850658
408000000.0 0.2092009224 0.1495601387
417950000.0 0.2002234514 -0.0631657888
427900000.0 0.0511285461 -0.160520923
437850000.0 -0.0893237332 -0.1072427518
447800000.0 -0.1249803524 0.0164653053
457750000.0 -0.059376962 0.1057645555
467700000.0 0.0365423207 0.1071446419
477650000.0 0.0873255704 0.043645651
487600000.0 0.0708923918 -0.0213499404
497550000.0 0.0475091781 -0.0172102373
507500000.0 -0.0200676987 -0.0545895182
517450000.0 -0.032074515 -0.0139648329
527400000.0 -0.0149853279 0.0013030425
537350000.0 -0.0026203088 -0.0141808754
547300000.0 -0.021034724 -0.0386781021
557250000.0 -0.0654866973 -0.0347321599
567200000.0 -0.0987343368 0.0112043832
577150000.0 -0.0854395178 0.0800382617
587100000.0 -0.0159251083 0.125039827
597050000.0 0.0786993801 0.1057007804
607000000.0 0.140720904 0.0161842064
616950000.0 0.1244199666 -0.1014016404
626900000.0 0.0285217773 -0.1816976847
636850000.0 -0.1011505948 -0.1772822082
646800000.0 -0.1945009041 -0.0846863151
656750000.0 -0.200246209 0.0468451038
666700000.0 -0.1137093008 0.1467329887
676650000.0 0.0173746442 0.1594568897
686600000.0 0.118971217 0.0794998449
696550000.0 0.1364552446 -0.0445027021
706500000.0 0.0651248075 -0.138399702
716450000.0 -0.0429533821 -0.149151538
726400000.0 -0.1163132113 -0.0799517065
736350000.0 -0.1060267365 0.0149340047
746300000.0 -0.0231977042 0.0621156461
756250000.0 0.0673632883 0.0200352389
766200000.0 0.0883538476 -0.0849131513
776150000.0 0.0106715872 -0.1743201515
786100000.0 -0.1221597625 -0.1695510696
796050000.0 -0.2159731537 -0.0519139044
806000000.0 -0.1887437458 0.1185675393
815950000.0 -0.0299734081 0.2301666175
825900000.0 0.1822014089 0.193544821
835850000.0 0.3195905391 0.0042852847
845800000.0 0.283742199 -0.2435775086
855750000.0 0.0754347612 -0.4043671797
865700000.0 -0.1947076613 -0.3736428351
875650000.0 -0.3751941171 -0.1630526321
885600000.0 -0.3692162371 0.1246456885
895550000.0 -0.1604272569 0.3422885051
905500000.0 0.1527826842 0.3560846254
915450000.0 0.3909114506 0.1408332751
925400000.0 0.4046393914 -0.1844240318
935350000.0 0.1765966292 -0.4206169889
945300000.0 -0.155091361 -0.4135388275
955250000.0 -0.3756593766 -0.1545495998
965200000.0 -0.3169524668 0.1944553101
975150000.0 0.01543187 0.3703196312
985100000.0 0.3750448866 0.182711637
995050000.0 0.4117464656 -0.2587328537
1005000000.0 0.0176929543 -0.5470748048
1014950000.0 -0.4842395258 -0.3478315766
1024900000.0 -0.6043551981 0.2388621716
1034850000.0 -0.1400256223 0.7060082935
1044800000.0 0.552790671 0.569274134
1054750000.0 0.8397530599 -0.0990963349
1064700000.0 0.4676042051 -0.7138173371
1074650000.0 -0.2031457483 -0.8140178124
1084600000.0 -0.7209237716 -0.3844993526
1094550000.0 -0.7456567971 0.2824256244
1104500000.0 -0.2504890187 0.7328628261
1114450000.0 0.4028322465 0.6304877174
1124400000.0 0.7072963688 0.0718999816
1134350000.0 0.4664301835 -0.4726486123
1144300000.0 -0.0655146684 -0.6127974818
1154250000.0 -0.4802983032 -0.3133766788
1164200000.0 -0.5098624613 0.1670384467
1174150000.0 -0.1746274111 0.4775637579
1184100000.0 0.2661737653 0.4157910471
1194050000.0 0.48824373 0.0421095339
1204000000.0 0.3512958683 -0.3552911067
1213950000.0 -0.0204909132 -0.5194603452
1223900000.0 -0.3917610627 -0.3752265449
1233850000.0 -0.5595263446 -0.0154861527
1243800000.0 -0.4340163321 0.3660157959
1253750000.0 -0.0761370651 0.5612824004
1263700000.0 0.3228408546 0.4596073936
1273650000.0 0.5513697582 0.1175442481
1283600000.0 0.5030699158 -0.2852541273
1293550000.0 0.2157573388 -0.5627602733
1303500000.0 -0.176689002 -0.6031433306
1313450000.0 -0.5118055926 -0.394915711
1323400000.0 -0.6511239637 -0.0204346877
1333350000.0 -0.5235347918 0.3668496122
1343300000.0 -0.1728921725 0.5911852512
1353250000.0 0.2458113942 0.5400179805
1363200000.0 0.5363721018 0.2360665385
1373150000.0 0.5725247686 -0.1756685849
1383100000.0 0.3537623812 -0.5142940051
1393050000.0 -0.0165502428 -0.6493495234
1403000000.0 -0.387996042 -0.5367332611
1412950000.0 -0.6156627757 -0.2227660507
1422900000.0 -0.6043315088 0.1662602646
1432850000.0 -0.3509866427 0.4669858601
1442800000.0 0.0366715764 0.5427469164
1452750000.0 0.3829145226 0.3593978653
1462700000.0 0.5347426878 0.0053557825
1472650000.0 0.4335216825 -0.3568609822
1482600000.0 0.1353488347 -0.5705793543
1492550000.0 -0.2237412563 -0.5500242629
1502500000.0 -0.4852540757 -0.3088962451
1512450000.0 -0.5300640837 0.0424603748
1522400000.0 -0.3347143702 0.3375074885
1532350000.0 0.0035591894 0.428980734
1542300000.0 0.3092980578 0.2739430958
1552250000.0 0.4274131099 -0.0338263077
1562200000.0 0.315269078 -0.3281658422
1572150000.0 0.0465010905 -0.4696699788
1582100000.0 -0.2434113954 -0.3977033761
1592050000.0 -0.4114865276 -0.1497739493
1602000000.0 -0.36683553 0.1518839353
1611950000.0 -0.1241213155 0.343917394
1621900000.0 0.1881223778 0.3151444585
1631850000.0 0.3944808025 0.0734109779
1641800000.0 0.3724834447 -0.2442877459
1651750000.0 0.1370746042 -0.4587859798
1661700000.0 -0.1833353193 -0.4564993971
1671650000.0 -0.4241999231 -0.2391410192
1681600000.0 -0.4655110947 0.0902038751
1691550000.0 -0.2771724245 0.3750579018
1701500000.0 0.0625455682 0.4694754478
1711450000.0 0.3862718346 0.3109102158
1721400000.0 0.5242872615 -0.0286634654
1731350000.0 0.3998043381 -0.372638876
1741300000.0 0.0820526156 -0.5399485192
1751250000.0 -0.2047855491 -0.4740266035
1761200000.0 -0.4803510329 -0.3006406984
1771150000.0 -0.5709072667 0.0578601966
1781100000.0 -0.4140396283 0.3955679944
1791050000.0 -0.0758284963 0.5660253489
1801000000.0 0.2997528475 0.4835601629
1810950000.0 0.5386125317 0.1789464521
1820900000.0 0.5272319742 -0.204886283
1830850000.0 0.2835077837 -0.4898992084
1840800000.0 -0.0725597066 -0.5643211433
1850750000.0 -0.3928994021 -0.4168116031
1860700000.0 -0.5617730287 -0.1171252091
1870650000.0 -0.52347688 0.2205613766
1880600000.0 -0.2924172766 0.4668849265
1890550000.0 0.0391658557 0.5203184882
1900500000.0 0.3286008511 0.3575357927
1910450000.0 0.4467711617 0.0581702094
1920400000.0 0.3568686828 -0.2354664883
1930350000.0 0.123008034 -0.400687251
1940300000.0 -0.1410747859 -0.3924661489
1950250000.0 -0.3302955028 -0.2433503434
1960200000.0 -0.387528738 -0.032618958
1970150000.0 -0.3141563839 0.1478132844
1980100000.0 -0.1647540117 0.2309647671
1990050000.0 -0.0250145584 0.2031471269
2000000000.0 0.0398853025 0.1166659422
