!Created with skrf (http://scikit-rf.org).
# GHz S RI R 50.0 
!freq ReS11 ImS11
10000000.0 -0.7938480257 0.6012561642
19950000.0 -0.2851363899 0.9441789669
29900000.0 0.3255051921 0.9272087638
39850000.0 0.8153216911 0.5525357054
49800000.0 0.9892188791 -0.0512808008
59750000.0 0.7545940587 -0.6508834548
69700000.0 0.1821914583 -0.9807840613
79650000.0 -0.4856982129 -0.8636102462
89600000.0 -0.9244195525 -0.3232734797
99550000.0 -0.8871178373 0.3925523879
109500000.0 -0.3486870228 0.9035065327
119450000.0 0.4244161598 0.8774518902
129400000.0 0.946067331 0.2625351534
139350000.0 0.8150831493 -0.5468945347
149300000.0 0.1015114015 -0.9636710448
159250000.0 -0.6593624416 -0.6895177365
169200000.0 -0.9467013428 0.0358773153
179150000.0 -0.6268153809 0.7142843461
189100000.0 0.0526356452 0.9556040878
199050000.0 0.6862295546 0.6706481526
209000000.0 0.9519007837 0.0530822342
218950000.0 0.754920793 -0.5632068862
228900000.0 0.2239297602 -0.9031570957
238850000.0 -0.3930051667 -0.8356917269
248800000.0 -0.8010880422 -0.282003878
258750000.0 -0.913782368 0.1486534951
268700000.0 -0.6300488713 0.6819587911
278650000.0 -0.0828118982 0.9185438438
288600000.0 0.4884122045 0.7627277297
298550000.0 0.8331589727 0.2870800008
308500000.0 0.8005449582 -0.2949512022
318450000.0 0.4071940261 -0.7156213461
328400000.0 -0.1560808283 -0.7770502407
338350000.0 -0.6032861004 -0.4534787068
348300000.0 -0.6994047652 0.0657025577
358250000.0 -0.4198815154 0.472050069
368200000.0 0.0220920553 0.5457654279
378150000.0 0.3383916585 0.3074048963
388100000.0 0.374902554 -0.0325340839
398050000.0 0.1840271284 -0.2508090741
408000000.0 -0.0579163709 -0.2563185061
417950000.0 -0.1959238484 -0.1107631971
427900000.0 -0.1842968056 0.0572897458
437850000.0 -0.073123419 0.1470368321
447800000.0 0.048660693 0.1300338038
457750000.0 0.1097387924 0.0458858087
467700000.0 0.0952109502 -0.0403296764
477650000.0 0.0373725539 -0.0820623267
487600000.0 -0.0168883282 -0.0698356138
497550000.0 -0.0077299218 -0.0351212347
507500000.0 -0.0595459379 -0.0167791665
517450000.0 -0.0280670109 0.0005903436
527400000.0 -0.0147033381 -0.0134876509
537350000.0 -0.0292448646 -0.0308767581
547300000.0 -0.0648078702 -0.026311365
557250000.0 -0.0885564321 0.0185037341
567200000.0 -0.0729720188 0.0764828136
577150000.0 -0.0147979568 0.1179607933
587100000.0 0.0681452665 0.1132417366
597050000.0 0.1384011501 0.0520608485
607000000.0 0.1599715288 -0.047509743
616950000.0 0.1143280202 -0.14583542
626900000.0 0.0156965055 -0.2002052676
636850000.0 -0.0977934147 -0.1828583923
646800000.0 -0.1792510444 -0.0994088202
656750000.0 -0.1928608896 0.0163247395
666700000.0 -0.1317715617 0.1171105437
676650000.0 -0.022626735 0.1577168051
686600000.0 0.0849022498 0.1222572359
696550000.0 0.1433867297 0.0316464044
706500000.0 0.1305711287 -0.0674595186
716450000.0 0.0592584747 -0.1260585708
726400000.0 -0.0268663184 -0.1171362909
736350000.0 -0.0760236334 -0.0480767141
746300000.0 -0.0554768108 0.0370341377
756250000.0 0.0263594657 0.0805225504
766200000.0 0.1216654036 0.0482813106
776150000.0 0.1682572651 -0.0519064205
786100000.0 0.1258969616 -0.167596199
796050000.0 0.0006015168 -0.2294168024
806000000.0 -0.1538951912 -0.1852338583
815950000.0 -0.2544070029 -0.0334177577
825900000.0 -0.2318505277 0.1663387299
835850000.0 -0.0774551908 0.3145864183
845800000.0 0.1389484521 0.3335520278
855750000.0 0.3273610843 0.2206908621
865700000.0 0.41425674 0.0088273764
875650000.0 0.3529799919 -0.2238793079
885600000.0 0.1508799512 -0.3803261519
895550000.0 -0.1187116369 -0.3765057354
905500000.0 -0.3347619445 -0.1972762914
915450000.0 -0.3887634773 0.0838866187
925400000.0 -0.246222645 0.3358030757
935350000.0 0.0293136718 0.429523926
945300000.0 0.2983172515 0.305486621
955250000.0 0.404348331 0.0159389972
965200000.0 0.2518357171 -0.2787524278
975150000.0 -0.1038834936 -0.3606749189
985100000.0 -0.4158082485 -0.1044996641
995050000.0 -0.3955666262 0.3374066077
1005000000.0 0.0064256546 0.612370542
1014950000.0 0.5178481192 0.4450943027
1024900000.0 0.7253713222 -0.109932496
1034850000.0 0.401127477 -0.6632522067
1044800000.0 -0.2597731714 -0.7693562612
1054750000.0 -0.7671058475 -0.3362764371
1064700000.0 -0.7618641235 0.2876024051
1074650000.0 -0.4551251665 0.6808837032
1084600000.0 0.1043743688 0.8183862551
1094550000.0 0.6026819476 0.5237291192
1104500000.0 0.7522615875 -0.0425142766
1114450000.0 0.4518000313 -0.5410072666
1124400000.0 -0.0955076731 -0.6577326058
1134350000.0 -0.5214658268 -0.3605768669
1144300000.0 -0.5972349244 0.10837118
1154250000.0 -0.3384234631 0.4630535611
1164200000.0 0.0707411343 0.5265775129
1174150000.0 0.3958245282 0.291992454
1184100000.0 0.4582162468 -0.1026857077
1194050000.0 0.2249098116 -0.4180699139
1204000000.0 -0.1468127029 -0.4810205992
1213950000.0 -0.4518041167 -0.291677679
1223900000.0 -0.5650091054 0.0343936423
1233850000.0 -0.4581908869 0.3569937108
1243800000.0 -0.1757234369 0.5533133096
1253750000.0 0.1779456125 0.5432377931
1263700000.0 0.4646878869 0.3172324688
1273650000.0 0.562170287 -0.0404254123
1283600000.0 0.4340607255 -0.3851885875
1293550000.0 0.1423638847 -0.5909669577
1303500000.0 -0.2013025493 -0.604391679
1313450000.0 -0.491828624 -0.4385726203
1323400000.0 -0.6521370193 -0.1478905096
1333350000.0 -0.6360797801 0.1890296768
1343300000.0 -0.4355813149 0.4767822351
1353250000.0 -0.0959382633 0.6134580545
1363200000.0 0.2723299562 0.5348855938
1373150000.0 0.5353216949 0.2640580914
1383100000.0 0.6036437633 -0.0977614707
1393050000.0 0.473119388 -0.4240853666
1403000000.0 0.204260317 -0.6240737762
1412950000.0 -0.1184750756 -0.6547276919
1422900000.0 -0.4070838273 -0.515874926
1432850000.0 -0.5813753325 -0.2428645512
1442800000.0 -0.5825320579 0.0886455884
1452750000.0 -0.399851333 0.373389989
1462700000.0 -0.0887521903 0.5141798494
1472650000.0 0.2467694295 0.4620589954
1482600000.0 0.4893223916 0.2389063725
1492550000.0 0.563639976 -0.0665369101
1502500000.0 0.4619284562 -0.3475079359
1512450000.0 0.230318328 -0.5195418569
1522400000.0 -0.0563760573 -0.5324748134
1532350000.0 -0.3026739583 -0.3764845263
1542300000.0 -0.4132843902 -0.0987398985
1552250000.0 -0.3331075685 0.1919051564
1562200000.0 -0.0965870561 0.3681609583
1572150000.0 0.1843882246 0.3613863656
1582100000.0 0.3892638365 0.1934192634
1592050000.0 0.4453098716 -0.0536368159
1602000000.0 0.3372948895 -0.2798799255
1611950000.0 0.107561408 -0.3926859196
1621900000.0 -0.151843757 -0.3358764827
1631850000.0 -0.3258025289 -0.1212238956
1641800000.0 -0.3261994653 0.1623207259
1651750000.0 -0.1481289009 0.3836658449
1661700000.0 0.1246307868 0.445220225
1671650000.0 0.3691088843 0.3308013849
1681600000.0 0.5036252777 0.1129791973
1691550000.0 0.4997815427 -0.1665397941
1701500000.0 0.3258137332 -0.4034300131
1711450000.0 0.0302904794 -0.506366146
1721400000.0 -0.2875072694 -0.4127984365
1731350000.0 -0.4969846983 -0.1446954495
1741300000.0 -0.5120142718 0.194434498
1751250000.0 -0.3374626434 0.474639847
1761200000.0 -0.0493551699 0.6091929606
1771150000.0 0.2574771254 0.5737243961
1781100000.0 0.4998140888 0.3885522332
1791050000.0 0.616211896 0.1022696401
1801000000.0 0.565956266 -0.21381679
1810950000.0 0.3468260405 -0.4662883931
1820900000.0 0.0146708439 -0.5612670254
1830850000.0 -0.3165669164 -0.4548252561
1840800000.0 -0.529528241 -0.1903279827
1850750000.0 -0.5652044195 0.1303008002
1860700000.0 -0.4380173125 0.4049557708
1870650000.0 -0.2043969879 0.5690365317
1880600000.0 0.0685123091 0.5939678256
1890550000.0 0.3138104612 0.4804916899
1900500000.0 0.4674486773 0.2559153285
1910450000.0 0.4789941335 -0.0202141122
1920400000.0 0.3387663216 -0.2579922388
1930350000.0 0.098214962 -0.3752752565
1940300000.0 -0.1501676004 -0.3441377691
1950250000.0 -0.3212083653 -0.2026608548
1960200000.0 -0.38242906 -0.0207611536
1970150000.0 -0.3451957821 0.1354688163
1980100000.0 -0.2488693181 0.224355822
1990050000.0 -0.1492501569 0.2357894379
2000000000.0 -0.095071847 0.1968062759
