!Created with skrf (http://scikit-rf.org).
# GHz S RI R 50.0 
!freq ReS11 ImS11
10000000.0 -0.7764201653 0.6764564965
19950000.0 -0.1473432831 0.9899713858
29900000.0 0.5271417002 0.8234275807
39850000.0 0.9376597176 0.2572195267
49800000.0 0.8779737359 -0.4522764396
59750000.0 0.3435339864 -0.9546527128
69700000.0 -0.4155876771 -0.9475580505
79650000.0 -0.957865785 -0.3817376418
89600000.0 -0.9108581081 0.4214964146
99550000.0 -0.2650536305 0.9331501861
109500000.0 0.567744357 0.769306965
119450000.0 0.9749549325 -0.0147571966
129400000.0 0.5617779245 -0.8376852211
139350000.0 -0.3690749836 -0.9515747496
149300000.0 -0.9656666887 -0.2368796074
159250000.0 -0.7237739567 0.6241247927
169200000.0 0.0683290496 0.9367031623
179150000.0 0.7835089978 0.5450850513
189100000.0 0.9592721055 -0.2241748319
199050000.0 0.5256721639 -0.8568629785
209000000.0 -0.2101313954 -0.9771088608
218950000.0 -0.7955223602 -0.5585211539
228900000.0 -0.932164946 0.126606231
238850000.0 -0.5845615878 0.7142168079
248800000.0 0.0609058783 0.9160267628
258750000.0 0.6729744342 0.6663518568
268700000.0 0.9629554438 0.0591417061
278650000.0 0.7583600264 -0.5627628956
288600000.0 0.2401808433 -0.908466116
298550000.0 -0.4051501952 -0.813015021
308500000.0 -0.8077576818 -0.3065799647
318450000.0 -0.7571349345 0.3305067058
328400000.0 -0.2851754963 0.7482974804
338350000.0 0.3294930417 0.7043878422
348300000.0 0.6938990042 0.2420327904
358250000.0 0.5867972719 -0.2914736564
368200000.0 0.1583908385 -0.516576618
378150000.0 -0.2194277476 -0.3476853209
388100000.0 -0.2965049628 -0.0145981886
398050000.0 -0.1157419263 0.1894575294
408000000.0 0.0951438284 0.1571949899
417950000.0 0.1575032288 -0.0003995818
427900000.0 0.0655009038 -0.1123542392
437850000.0 -0.0663682119 -0.0933030446
447800000.0 -0.1238622947 0.0212726975
457750000.0 -0.0704441209 0.1337198486
467700000.0 0.0466651913 0.1637481639
477650000.0 0.1421322277 0.0988928089
487600000.0 0.1595401873 -0.0093435831
497550000.0 0.0984349155 -0.0904528485
507500000.0 0.0107367576 -0.106557916
517450000.0 -0.0527421474 -0.0640658291
527400000.0 -0.0644864154 -0.0055683937
537350000.0 -0.0390948779 0.0274775839
547300000.0 -0.0136044183 0.0252429427
557250000.0 -0.0129918353 0.00533505
567200000.0 -0.0386146628 0.0033492905
577150000.0 -0.058497007 0.0352238482
587100000.0 -0.0403472821 0.0838199758
597050000.0 0.0222434838 0.1089315144
607000000.0 0.0994286498 0.0767701432
616950000.0 0.1408288573 -0.0124177788
626900000.0 0.1104199094 -0.1187154575
636850000.0 0.0103955966 -0.1842820024
646800000.0 -0.1142903735 -0.1673179605
656750000.0 -0.198659752 -0.0684413513
666700000.0 -0.1934993281 0.0638147712
676650000.0 -0.0976273171 0.158354834
686600000.0 0.0390571531 0.1619231249
696550000.0 0.1415015729 0.0702944906
706500000.0 0.1513754613 -0.0652077706
716450000.0 0.0615979755 -0.1491782333
726400000.0 -0.0359228305 -0.1682073485
736350000.0 -0.1227514673 -0.1008334987
746300000.0 -0.1226087155 0.0051594589
756250000.0 -0.0375304605 0.0693666748
766200000.0 0.0677746493 0.039737239
776150000.0 0.1117077755 -0.0676958657
786100000.0 0.0515071109 -0.1767613884
796050000.0 -0.0837868158 -0.2017271192
806000000.0 -0.2031342256 -0.1036705647
815950000.0 -0.2107126759 0.0715928897
825900000.0 -0.0733970265 0.2143772001
835850000.0 0.1459885696 0.2187994383
845800000.0 0.3208218935 0.0566639428
855750000.0 0.3370260311 -0.1975659558
865700000.0 0.1653320242 -0.4055834761
875650000.0 -0.1169011254 -0.4406948522
885600000.0 -0.3588007782 -0.2632461738
895550000.0 -0.4163379291 0.04725572
905500000.0 -0.2362726806 0.3251293002
915450000.0 0.0977337302 0.4044637427
925400000.0 0.3996798992 0.2232848311
935350000.0 0.4881937181 -0.1253328025
945300000.0 0.2966497266 -0.4380364602
955250000.0 -0.0729389518 -0.5152616818
965200000.0 -0.3922212127 -0.2835922275
975150000.0 -0.4260956324 0.1355161825
985100000.0 -0.0922011819 0.4451708106
995050000.0 0.3941886256 0.3447699461
1005000000.0 0.5911546596 -0.1590552623
1014950000.0 0.2314522729 -0.6328156181
1024900000.0 -0.3820132226 -0.5159647624
1034850000.0 -0.6186684262 -0.0613228119
1044800000.0 -0.4481221171 0.548579543
1054750000.0 0.2560541585 0.7577268395
1064700000.0 0.8143791501 0.2466567395
1074650000.0 0.7497143367 -0.4571482294
1084600000.0 0.166928135 -0.8495326047
1094550000.0 -0.4977353702 -0.6803189522
1104500000.0 -0.8038235174 -0.0657380559
1114450000.0 -0.5353862901 0.566769979
1124400000.0 0.1198829113 0.7506801565
1134350000.0 0.6419773074 0.3621741116
1144300000.0 0.6601104945 -0.2374044846
1154250000.0 0.2569072251 -0.6071420776
1164200000.0 -0.2457930528 -0.56825268
1174150000.0 -0.5557045653 -0.1993499782
1184100000.0 -0.5018880248 0.2800649242
1194050000.0 -0.1034282179 0.5570071929
1204000000.0 0.3579486322 0.4355422893
1213950000.0 0.5664081356 0.0272195017
1223900000.0 0.4280411731 -0.3867430729
1233850000.0 0.061310925 -0.5876911479
1243800000.0 -0.340738729 -0.4998914853
1253750000.0 -0.591634056 -0.1702940948
1263700000.0 -0.5627958456 0.2537660677
1273650000.0 -0.2481303832 0.5571785199
1283600000.0 0.1945595826 0.5677468044
1293550000.0 0.5276739535 0.2823323558
1303500000.0 0.5950151768 -0.1390802823
1313450000.0 0.3933780586 -0.4997725446
1323400000.0 0.023379913 -0.6643105341
1333350000.0 -0.3701987799 -0.5779633511
1343300000.0 -0.6394259843 -0.2676713925
1353250000.0 -0.6629760018 0.1556362153
1363200000.0 -0.4064420475 0.5091565203
1373150000.0 0.0239392216 0.617757721
1383100000.0 0.4216583035 0.427012976
1393050000.0 0.6080220333 0.0413289196
1403000000.0 0.52649724 -0.3626660072
1412950000.0 0.2316321878 -0.6316745879
1422900000.0 -0.1581360018 -0.6775157718
1432850000.0 -0.4997355861 -0.4860716591
1442800000.0 -0.6601349007 -0.121446923
1452750000.0 -0.5581578215 0.2718503983
1462700000.0 -0.225228164 0.515623888
1472650000.0 0.1856530816 0.4916861931
1482600000.0 0.4806167807 0.2163564795
1492550000.0 0.5334091254 -0.1696894348
1502500000.0 0.3417781899 -0.4909198511
1512450000.0 0.0042731438 -0.6199850733
1522400000.0 -0.333645011 -0.5130468414
1532350000.0 -0.5277908421 -0.2182454492
1542300000.0 -0.4873680891 0.1340163892
1552250000.0 -0.2234713161 0.3741534122
1562200000.0 0.1328634633 0.3762347591
1572150000.0 0.3914415693 0.1401935427
1582100000.0 0.4179288684 -0.1993569104
1592050000.0 0.2117952059 -0.4565855799
1602000000.0 -0.1062286125 -0.5067200986
1611950000.0 -0.3743456583 -0.3311368207
1621900000.0 -0.4591486382 -0.0167193613
1631850000.0 -0.3078149642 0.283028273
1641800000.0 0.0155361893 0.4056000363
1651750000.0 0.3449837462 0.2687084195
1661700000.0 0.4911362283 -0.0616453174
1671650000.0 0.3722724011 -0.4034821867
1681600000.0 0.0572938447 -0.5775077935
1691550000.0 -0.2948834498 -0.5070851511
1701500000.0 -0.5288660121 -0.229784487
1711450000.0 -0.5436671356 0.1405758226
1721400000.0 -0.3183607908 0.452901402
1731350000.0 0.0686016705 0.5576793874
1741300000.0 0.4441301664 0.3846674437
1751250000.0 0.6181045457 0.0057526153
1761200000.0 0.5089477328 -0.3919637897
1771150000.0 0.1844209643 -0.6282430501
1781100000.0 -0.204658591 -0.6243670742
1791050000.0 -0.5143808972 -0.4027605295
1801000000.0 -0.6450346553 -0.0446256873
1810950000.0 -0.5467412883 0.3316937307
1820900000.0 -0.2353812594 0.5869137468
1830850000.0 0.1794008568 0.5973647132
1840800000.0 0.5138999658 0.3398579984
1850750000.0 0.60711425 -0.0661732122
1860700000.0 0.4352761393 -0.4264484145
1870650000.0 0.1026625265 -0.6039620904
1880600000.0 -0.2516976898 -0.5644556588
1890550000.0 -0.5142304687 -0.3469594664
1900500000.0 -0.6128043019 -0.0285512257
1910450000.0 -0.5149265338 0.2896038171
1920400000.0 -0.2471932547 0.4915995938
1930350000.0 0.086341302 0.4874130996
1940300000.0 0.3363381552 0.2776631091
1950250000.0 0.3928208592 -0.0291686897
1960200000.0 0.2430523538 -0.2647182683
1970150000.0 0.0600672716 -0.3595302045
1980100000.0 -0.1463291355 -0.3511810168
1990050000.0 -0.2908275165 -0.2351707085
2000000000.0 -0.3311582059 -0.0876654813
