!Created with skrf (http://scikit-rf.org).
# GHz S RI R 50.0 
!freq ReS11 ImS11
10000000.0 -0.773624932 0.6778106326
19950000.0 -0.1423123644 0.9899520363
29900000.0 0.5327481889 0.819486387
39850000.0 0.9403128646 0.2485371012
49800000.0 0.872867254 -0.4626573213
59750000.0 0.3289343736 -0.9593650686
69700000.0 -0.4336540885 -0.938175356
79650000.0 -0.9656565865 -0.3568348166
89600000.0 -0.8952039168 0.4492630482
99550000.0 -0.2277493874 0.9418082956
109500000.0 0.6033351116 0.7422270164
119450000.0 0.9739241383 -0.0655994729
129400000.0 0.5148682416 -0.8671669848
139350000.0 -0.4210401109 -0.9268584749
149300000.0 -0.9737058618 -0.1836513397
159250000.0 -0.6906549013 0.6574968352
169200000.0 0.1074200933 0.9331820988
179150000.0 0.8025559191 0.5188995647
189100000.0 0.9534874703 -0.2497226927
199050000.0 0.506909597 -0.8673296966
209000000.0 -0.226709797 -0.9719182527
218950000.0 -0.8022563567 -0.5467391708
228900000.0 -0.9303260584 0.136166719
238850000.0 -0.5798221579 0.7186593398
248800000.0 0.0775576123 0.8945714955
258750000.0 0.6698397417 0.6724158829
268700000.0 0.9690143059 0.0726007402
278650000.0 0.7910151995 -0.573341522
288600000.0 0.2274118957 -0.9292990073
298550000.0 -0.4207762429 -0.8143781391
308500000.0 -0.8174256952 -0.2988101556
318450000.0 -0.7584170583 0.3407830363
328400000.0 -0.2791184958 0.7550600566
338350000.0 0.3374345487 0.7032848863
348300000.0 0.6965315841 0.2342032738
358250000.0 0.5803615062 -0.2976485951
368200000.0 0.1493275216 -0.5130188423
378150000.0 -0.22070642 -0.3376668163
388100000.0 -0.2883494132 -0.008932596
398050000.0 -0.1061395069 0.1859241212
408000000.0 0.0985876286 0.1469164461
417950000.0 0.1518155639 -0.0101894026
427900000.0 0.0548601919 -0.1143756221
437850000.0 -0.0741577089 -0.0874242936
447800000.0 -0.124858506 0.0294270792
457750000.0 -0.0655371292 0.1390171401
467700000.0 0.052950151 0.1642165184
477650000.0 0.1469343493 0.0959300347
487600000.0 0.1613027463 -0.0141502734
497550000.0 0.0966395699 -0.0899513332
507500000.0 0.0094936353 -0.1124044917
517450000.0 -0.0570557651 -0.0677027474
527400000.0 -0.0701629448 -0.0052375178
537350000.0 -0.0425371128 0.0325359675
547300000.0 -0.0112704448 0.0304836987
557250000.0 -0.0077008525 0.0073627812
567200000.0 -0.0329414224 0.0006681803
577150000.0 -0.0559197148 0.0294642087
587100000.0 -0.0420416527 0.078231416
597050000.0 0.0174796387 0.1068102939
607000000.0 0.0946823693 0.07920037
616950000.0 0.1398964278 -0.0068650734
626900000.0 0.114576849 -0.1134861454
636850000.0 0.017897612 -0.183133883
646800000.0 -0.1071391227 -0.171664681
656750000.0 -0.1972858457 -0.0769562906
666700000.0 -0.1956568919 0.0616146878
676650000.0 -0.0997953509 0.1545705553
686600000.0 0.0340228693 0.1585248893
696550000.0 0.1294913268 0.0685301474
706500000.0 0.142617106 -0.0385941028
716450000.0 0.0868016727 -0.1423372213
726400000.0 -0.0253774271 -0.1686552799
736350000.0 -0.1116399194 -0.1058887255
746300000.0 -0.1153291286 -0.0066191686
756250000.0 -0.0393476211 0.0565141388
766200000.0 0.0586802737 0.0313003921
776150000.0 0.0995644691 -0.0678998845
786100000.0 0.0411031534 -0.1698100701
796050000.0 -0.0885483002 -0.189828436
806000000.0 -0.200805935 -0.0909177679
815950000.0 -0.2016464476 0.081577885
825900000.0 -0.0602267991 0.2179179669
835850000.0 0.1588678407 0.2145196495
845800000.0 0.3290153914 0.0465313808
855750000.0 0.3387795696 -0.2098458545
865700000.0 0.1597218025 -0.4164059598
875650000.0 -0.1273466959 -0.4473164966
885600000.0 -0.3716341003 -0.2639793299
895550000.0 -0.4286921646 0.0528249684
905500000.0 -0.2455696086 0.3367071195
915450000.0 0.0943593189 0.4211372781
925400000.0 0.4056546438 0.242372058
935350000.0 0.5063598824 -0.1088568358
945300000.0 0.3269719712 -0.4338393474
955250000.0 -0.0391455872 -0.533867585
965200000.0 -0.3742742703 -0.3290704875
975150000.0 -0.448324899 0.0771208276
985100000.0 -0.1650491052 0.4136192065
995050000.0 0.3059020192 0.3884200473
1005000000.0 0.5704634032 -0.0435359959
1014950000.0 0.3396941395 -0.5373429124
1024900000.0 -0.2461707417 -0.6239318786
1034850000.0 -0.6835143327 -0.1401925447
1044800000.0 -0.4994163421 0.5566688588
1054750000.0 0.2449813527 0.7881201012
1064700000.0 0.8455358419 0.2667046502
1074650000.0 0.759967628 -0.4973718835
1084600000.0 0.1251204856 -0.8708086863
1094550000.0 -0.4952623962 -0.6715958797
1104500000.0 -0.8164215303 -0.0576478399
1114450000.0 -0.5385965903 0.5843626029
1124400000.0 0.1288415057 0.7658437366
1134350000.0 0.658473722 0.3687982031
1144300000.0 0.6785906434 -0.2425584354
1154250000.0 0.2685810006 -0.6240710147
1164200000.0 -0.2494168834 -0.5867348426
1174150000.0 -0.5673197641 -0.208286084
1184100000.0 -0.5126692331 0.2791802475
1194050000.0 -0.1089899513 0.5610196966
1204000000.0 0.357744115 0.4389498382
1213950000.0 0.5670902789 0.026703881
1223900000.0 0.4249644031 -0.3890722472
1233850000.0 0.0540816867 -0.5866815554
1243800000.0 -0.3470879749 -0.4915619229
1253750000.0 -0.5899055401 -0.1544894663
1263700000.0 -0.5472637148 0.2688554991
1273650000.0 -0.2216610227 0.55823855
1283600000.0 0.2182632511 0.5484879267
1293550000.0 0.5341950384 0.2504348258
1303500000.0 0.5807507481 -0.168546692
1313450000.0 0.364401965 -0.5148585223
1323400000.0 -0.0090504234 -0.6590175844
1333350000.0 -0.3955400323 -0.5533392651
1343300000.0 -0.6465212624 -0.2300615787
1353250000.0 -0.6438950125 0.1929292086
1363200000.0 -0.3644534213 0.5281590069
1373150000.0 0.0713424218 0.6057728796
1383100000.0 0.4514328742 0.3888714197
1393050000.0 0.6086297828 -0.005662642
1403000000.0 0.4999108483 -0.3998331322
1412950000.0 0.1891196475 -0.6466750662
1422900000.0 -0.2010494339 -0.6654251917
1432850000.0 -0.5282156138 -0.4497312645
1442800000.0 -0.661020516 -0.0733490351
1452750000.0 -0.5292576375 0.3126574998
1462700000.0 -0.1774971965 0.5306308955
1472650000.0 0.2317383869 0.4736596046
1482600000.0 0.5056646055 0.1747797832
1492550000.0 0.5286087557 -0.2156477617
1502500000.0 0.3118472453 -0.5223777427
1512450000.0 -0.0374350033 -0.6260972646
1522400000.0 -0.3699741375 -0.4931018229
1532350000.0 -0.5442235814 -0.1819337494
1542300000.0 -0.4771592095 0.1700148352
1552250000.0 -0.1937495539 0.3933816621
1562200000.0 0.1633917062 0.37263451
1572150000.0 0.4083749839 0.1224699961
1582100000.0 0.4190011873 -0.2180623538
1592050000.0 0.203841197 -0.4691911941
1602000000.0 -0.1159366454 -0.5115851135
1611950000.0 -0.3816974836 -0.3311723817
1621900000.0 -0.4628136687 -0.0153774231
1631850000.0 -0.3104514983 0.2835236014
1641800000.0 0.0116430736 0.4053286517
1651750000.0 0.3385446848 0.2700874578
1661700000.0 0.4837395571 -0.0584493834
1671650000.0 0.3635587389 -0.3950325243
1681600000.0 0.049438109 -0.5472206996
1691550000.0 -0.2575226944 -0.5143292822
1701500000.0 -0.5165024619 -0.2442855274
1711450000.0 -0.5400404174 0.1264866847
1721400000.0 -0.3193501283 0.4392507178
1731350000.0 0.0627145659 0.5449951402
1741300000.0 0.4327886106 0.3749571951
1751250000.0 0.6026897442 0.0021892536
1761200000.0 0.4931887576 -0.3869271808
1771150000.0 0.1728823025 -0.6156753601
1781100000.0 -0.2082771628 -0.6078141128
1791050000.0 -0.5089416585 -0.3861111431
1801000000.0 -0.6300905816 -0.0322760059
1810950000.0 -0.524115821 0.3345523473
1820900000.0 -0.2114107469 0.5749977836
1830850000.0 0.1952247499 0.5705365323
1840800000.0 0.509988076 0.3054701455
1850750000.0 0.5824859294 -0.0928343871
1860700000.0 0.400045864 -0.4341579494
1870650000.0 0.0701077896 -0.5906695453
1880600000.0 -0.2705444837 -0.5350702617
1890550000.0 -0.5132396641 -0.3106734903
1900500000.0 -0.5896060197 0.0030515654
1910450000.0 -0.4747396544 0.3022007228
1920400000.0 -0.2051581105 0.4742121216
1930350000.0 0.1082940467 0.444223778
1940300000.0 0.3247684191 0.2330073182
1950250000.0 0.3592254195 -0.0470746097
1960200000.0 0.2305494293 -0.2682724535
1970150000.0 0.0223478085 -0.3607132374
1980100000.0 -0.1727065554 -0.3228201353
1990050000.0 -0.2900055469 -0.2013416331
2000000000.0 -0.3118981854 -0.0649845899
