!Created with skrf (http://scikit-rf.org).
# GHz S RI R 50.0 
!freq ReS11 ImS11
10000000.0 -0.7658736447 0.5828480628
19950000.0 -0.2777755336 0.9139614037
29900000.0 0.3113182504 0.8910983929
39850000.0 0.783536741 0.5159527621
49800000.0 0.9439806765 -0.0841152871
59750000.0 0.6991489748 -0.6761233611
69700000.0 0.1238631141 -0.9896045506
79650000.0 -0.527951785 -0.846069183
89600000.0 -0.9289276331 -0.2851443612
99550000.0 -0.8489903166 0.427509567
109500000.0 -0.2837607729 0.9111248005
119450000.0 0.4900929321 0.8460897706
129400000.0 0.9794953869 0.1917988166
139350000.0 0.8047808948 -0.6137192971
149300000.0 0.0656176995 -0.9854648417
159250000.0 -0.6717081671 -0.6643684746
169200000.0 -0.9189786404 0.0676280937
179150000.0 -0.585212449 0.7221824954
189100000.0 0.0762036464 0.9414510644
199050000.0 0.6814465144 0.6510279746
209000000.0 0.928842025 0.0424656889
218950000.0 0.7301865504 -0.5545794176
228900000.0 0.2130111799 -0.8759241831
238850000.0 -0.3820185642 -0.7998422528
248800000.0 -0.6101799352 -0.3453881139
258750000.0 -0.8721447292 0.1849184154
268700000.0 -0.5831367497 0.7008895206
278650000.0 -0.0476048665 0.918120574
288600000.0 0.4962895894 0.7476293341
298550000.0 0.8124479 0.2713366956
308500000.0 0.7643841645 -0.3010921989
318450000.0 0.3693253689 -0.7139206701
328400000.0 -0.1918709673 -0.7710793847
338350000.0 -0.6359618425 -0.4411450936
348300000.0 -0.7216047988 0.0853546339
358250000.0 -0.4287586413 0.490770439
368200000.0 0.0198414108 0.5571011482
378150000.0 0.3392807665 0.3125749445
388100000.0 0.3800530482 -0.0321541813
398050000.0 0.1953280765 -0.2556297957
408000000.0 -0.0431118695 -0.2666093024
417950000.0 -0.1815781107 -0.1266713413
427900000.0 -0.1738079657 0.0330359088
437850000.0 -0.0721188704 0.1153662439
447800000.0 0.0343694329 0.0966625663
457750000.0 0.0840732628 0.0196216275
467700000.0 0.066042759 -0.0539574034
477650000.0 0.0138807644 -0.0801385224
487600000.0 -0.0240819886 -0.0538344057
497550000.0 -0.0465263895 -0.0762614986
507500000.0 -0.0252849724 0.0115501368
517450000.0 0.0145123916 0.016352492
527400000.0 0.0318268131 -0.0076892128
537350000.0 0.0150756794 -0.0333182022
547300000.0 -0.0274286639 -0.0355077555
557250000.0 -0.0646706043 0.0013347888
567200000.0 -0.0683959318 0.0591255561
577150000.0 -0.0281872866 0.106404198
587100000.0 0.0414866529 0.1124142387
597050000.0 0.105975323 0.06309405
607000000.0 0.1280875008 -0.0237319969
616950000.0 0.0898425189 -0.1115020598
626900000.0 0.0056931691 -0.1572007061
636850000.0 -0.09072777 -0.140110985
646800000.0 -0.1545181372 -0.0647926018
656750000.0 -0.1581002301 0.035060964
666700000.0 -0.0999663726 0.1149096931
676650000.0 -0.006298716 0.1370080535
686600000.0 0.0789892955 0.0923110261
696550000.0 0.1137257011 -7.49475e-05
706500000.0 0.0816759907 -0.0917327567
716450000.0 0.0003453718 -0.1341733171
726400000.0 -0.0830670276 -0.1078110842
736350000.0 -0.1163032794 -0.0258947037
746300000.0 -0.0735541581 0.0617804254
756250000.0 0.0299074503 0.0980054763
766200000.0 0.139567835 0.0519913823
776150000.0 0.1920689154 -0.0631724889
786100000.0 0.1478847049 -0.1899671894
796050000.0 0.0171964287 -0.2559193355
806000000.0 -0.1413592284 -0.2106400223
815950000.0 -0.2444490054 -0.0576819457
825900000.0 -0.228333209 0.1415639383
835850000.0 -0.0866565762 0.2959739802
845800000.0 0.1276817255 0.32977541
855750000.0 0.3242555877 0.2187853804
865700000.0 0.416378959 -0.0005226912
875650000.0 0.35091986 -0.2372143013
885600000.0 0.1424750775 -0.3863686564
895550000.0 -0.1235514082 -0.3664682817
905500000.0 -0.3268368123 -0.1727029732
915450000.0 -0.3627809683 0.1149387735
925400000.0 -0.2046387527 0.3608462005
935350000.0 0.0747235495 0.4385951021
945300000.0 0.3317417375 0.2968747093
955250000.0 0.4140297195 -0.0074691447
965200000.0 0.236874054 -0.3007652608
975150000.0 -0.1337687084 -0.3687923265
985100000.0 -0.4498669354 -0.0971766261
995050000.0 -0.4234316686 0.3599792917
1005000000.0 6.83254e-05 0.6380817301
1014950000.0 0.5179626249 0.4397825082
1024900000.0 0.6818781618 -0.1389047593
1034850000.0 0.3386804158 -0.6220642437
1044800000.0 -0.242672668 -0.7165658464
1054750000.0 -0.73553526 -0.3173747157
1064700000.0 -0.7298439272 0.2621608174
1074650000.0 -0.4141513332 0.7063195517
1084600000.0 0.1578525683 0.801647089
1094550000.0 0.6335605512 0.4514172172
1104500000.0 0.7237044222 -0.1360263707
1114450000.0 0.3683590323 -0.6099252557
1124400000.0 -0.1962146702 -0.6649071648
1134350000.0 -0.5850066513 -0.3048990887
1144300000.0 -0.5920696112 0.1855483059
1154250000.0 -0.2771790616 0.515304369
1164200000.0 0.1558834788 0.5317389362
1174150000.0 0.4692588787 0.2506300276
1184100000.0 0.4965985208 -0.164760272
1194050000.0 0.2291488587 -0.4719314835
1204000000.0 -0.1601869934 -0.5055945023
1213950000.0 -0.4603359535 -0.2872639776
1223900000.0 -0.5593630302 0.0547873836
1233850000.0 -0.4399581524 0.3797670254
1243800000.0 -0.1525017572 0.5711995036
1253750000.0 0.2028127134 0.5509637201
1263700000.0 0.4848829398 0.3121048945
1273650000.0 0.5688195363 -0.0544134332
1283600000.0 0.4229815239 -0.3944548292
1293550000.0 0.1216882691 -0.5829025763
1303500000.0 -0.2160138787 -0.5760133275
1313450000.0 -0.4886727396 -0.3971710184
1323400000.0 -0.631284904 -0.10483547
1333350000.0 -0.6067672378 0.2270318674
1343300000.0 -0.4024930869 0.5043727768
1353250000.0 -0.0629190107 0.621809365
1363200000.0 0.2957269908 0.5170655686
1373150000.0 0.5329297266 0.223062841
1383100000.0 0.5667268972 -0.1435904983
1393050000.0 0.407586686 -0.4566113484
1403000000.0 0.1229297228 -0.6272453179
1412950000.0 -0.1879554331 -0.6270140742
1422900000.0 -0.4459079042 -0.4646003995
1432850000.0 -0.5833806855 -0.1811745618
1442800000.0 -0.5501344216 0.146932741
1452750000.0 -0.3366923052 0.4108685467
1462700000.0 -0.0081102621 0.5107298461
1472650000.0 0.3157692062 0.4099451438
1482600000.0 0.5195486094 0.1530657215
1492550000.0 0.5439046127 -0.1609713974
1502500000.0 0.3951837896 -0.4254054638
1512450000.0 0.1324765812 -0.5569338217
1522400000.0 -0.1537403318 -0.5133371494
1532350000.0 -0.3622177842 -0.3049320376
1542300000.0 -0.4107629688 -0.004418221
1552250000.0 -0.271761725 0.2705984808
1562200000.0 -0.001033035 0.404738803
1572150000.0 0.2820708358 0.3484115249
1582100000.0 0.4611451247 0.140118038
1592050000.0 0.4718958259 -0.1263425114
1602000000.0 0.3152697707 -0.3427174963
1611950000.0 0.0514330335 -0.4206508972
1621900000.0 -0.216130664 -0.3192289906
1631850000.0 -0.3736729829 -0.0685787483
1641800000.0 -0.3452788261 0.2298673356
1651750000.0 -0.1385773998 0.4452825428
1661700000.0 0.1534708708 0.4858689888
1671650000.0 0.4082240255 0.3436795472
1681600000.0 0.5326593091 0.0804394744
1691550000.0 0.4862372012 -0.2108521573
1701500000.0 0.2816549477 -0.432276182
1711450000.0 -0.0200557017 -0.5039619624
1721400000.0 -0.3232123752 -0.3855746794
1731350000.0 -0.512021874 -0.1064478381
1741300000.0 -0.5079051123 0.2316729212
1751250000.0 -0.3142128343 0.4968090511
1761200000.0 -0.0144336362 0.5984760707
1771150000.0 0.2806784665 0.5176674096
1781100000.0 0.4723030907 0.3002118246
1791050000.0 0.535561332 0.0525976417
1801000000.0 0.5012019345 -0.2277237016
1810950000.0 0.3014938136 -0.4711193105
1820900000.0 -0.0120401766 -0.5574027426
1830850000.0 -0.3254903456 -0.4413453628
1840800000.0 -0.5180939801 -0.1676211404
1850750000.0 -0.5297702339 0.1532183676
1860700000.0 -0.3813121381 0.41363959
1870650000.0 -0.1385168635 0.5525507159
1880600000.0 0.124320489 0.5497969906
1890550000.0 0.3399744789 0.416304708
1900500000.0 0.4540306959 0.1891421434
1910450000.0 0.4337189032 -0.06831293
1920400000.0 0.2797499027 -0.2728103067
1930350000.0 0.0464399189 -0.3500373594
1940300000.0 -0.1728675206 -0.2845475501
1950250000.0 -0.3038306885 -0.127666766
1960200000.0 -0.3244204586 0.0452657877
1970150000.0 -0.25915946 0.173459219
1980100000.0 -0.1590252583 0.2220347277
1990050000.0 -0.0851008868 0.1953763256
2000000000.0 -0.0845256365 0.1435424745
