!Created with skrf (http://scikit-rf.org).
# GHz S RI R 50.0 
!freq ReS11 ImS11
10000000.0 -0.7538481992 0.6770246096
19950000.0 -0.1164159952 0.9852334249
29900000.0 0.5647544584 0.7975085061
39850000.0 0.9557993093 0.1973258124
49800000.0 0.8387594905 -0.5228057273
59750000.0 0.2464551109 -0.9762480175
69700000.0 -0.5094687348 -0.8801282668
79650000.0 -0.975716347 -0.2574176198
89600000.0 -0.8344441075 0.5255707478
99550000.0 -0.1349405971 0.953222883
109500000.0 0.6727378411 0.678577138
119450000.0 0.9565801947 -0.1669314297
129400000.0 0.405015973 -0.9055869168
139350000.0 -0.5199827929 -0.8463746297
149300000.0 -0.9679299433 -0.0540243762
159250000.0 -0.5866054796 0.7369882968
169200000.0 0.2442253559 0.9009557113
179150000.0 0.8718014594 0.3705019149
189100000.0 0.869045123 -0.426905346
199050000.0 0.2884821513 -0.9341774063
209000000.0 -0.4491633147 -0.8564370551
218950000.0 -0.8949331606 -0.3020612497
228900000.0 -0.8401982466 0.385763255
238850000.0 -0.344597673 0.8492271344
248800000.0 0.3319075645 0.8496814343
258750000.0 0.8387068842 0.4231823181
268700000.0 0.9177967235 -0.2484159927
278650000.0 0.5203532557 -0.7906419347
288600000.0 -0.13147945 -0.9146336618
298550000.0 -0.6849547309 -0.5699838548
308500000.0 -0.8554135534 0.0503892682
318450000.0 -0.5575570926 0.6126364147
328400000.0 0.0441223479 0.802446527
338350000.0 0.585210468 0.5008840537
348300000.0 0.7091064974 -0.0780149022
358250000.0 0.3716926144 -0.5029141792
368200000.0 -0.106134848 -0.5046811604
378150000.0 -0.3584347038 -0.1918873497
388100000.0 -0.2765357589 0.1299739546
398050000.0 -0.0307240277 0.2267398889
408000000.0 0.1340307326 0.1042872923
417950000.0 0.1145790039 -0.0578218659
427900000.0 -0.013329598 -0.1088579961
437850000.0 -0.1122860919 -0.0320744478
447800000.0 -0.1026730439 0.0894654281
457750000.0 -0.000167773 0.1540262196
467700000.0 0.1132958246 0.1155702861
477650000.0 0.1571373674 0.0056214633
487600000.0 0.108449189 -0.0980038746
497550000.0 0.0121288271 -0.1318110054
507500000.0 -0.0745458807 -0.0929187164
517450000.0 -0.1018624004 -0.0181041126
527400000.0 -0.0755899148 0.0376876201
537350000.0 -0.031051041 0.04953078
547300000.0 -0.0061457927 0.0306291683
557250000.0 -0.0118201506 0.0109515824
567200000.0 -0.0313941082 0.0156861139
577150000.0 -0.0311706824 0.0442120504
587100000.0 0.0064885478 0.0666776003
597050000.0 0.0652056849 0.0489767606
607000000.0 0.0998748815 -0.019678314
616950000.0 0.072701327 -0.1075762865
626900000.0 -0.0159758285 -0.1596890366
636850000.0 -0.1236841102 -0.1361200892
646800000.0 -0.1897496428 -0.0399349665
656750000.0 -0.1728697204 0.0803740042
666700000.0 -0.0753569022 0.1587375394
676650000.0 0.0533998131 0.1492024436
686600000.0 0.1432114794 0.0535353595
696550000.0 0.1441506564 -0.0767191541
706500000.0 0.0562713441 -0.1682293755
716450000.0 -0.0659884356 -0.1715038668
726400000.0 -0.1480207425 -0.0874596668
736350000.0 -0.1372161673 0.0255592611
746300000.0 -0.044260277 0.0884472039
756250000.0 0.0635190192 0.0549567561
766200000.0 0.1041225502 -0.0529512259
776150000.0 0.0415825928 -0.1558836716
786100000.0 -0.0854891543 -0.1718938293
796050000.0 -0.1876170327 -0.073731915
806000000.0 -0.1773723303 0.0859851661
815950000.0 -0.0380156915 0.1977834276
825900000.0 0.1588823015 0.1705380462
835850000.0 0.2876696976 -0.0042098644
845800000.0 0.2518438436 -0.2351066375
855750000.0 0.0521326188 -0.3812717111
865700000.0 -0.2069108179 -0.3414533835
875650000.0 -0.3733704888 -0.1180845613
885600000.0 -0.33374056 0.1688964042
895550000.0 -0.0948512633 0.3435199074
905500000.0 0.20566215 0.3120640801
915450000.0 0.400724862 0.0832964563
925400000.0 0.3747469171 -0.2356594682
935350000.0 0.1227421098 -0.4488231494
945300000.0 -0.2129074237 -0.4055466188
955250000.0 -0.4150216872 -0.1114002015
965200000.0 -0.3213770035 0.2539008953
975150000.0 0.045877558 0.4170701536
985100000.0 0.4226363167 0.1967002567
995050000.0 0.4524276986 -0.2762125574
1005000000.0 0.0366323043 -0.5806159528
1014950000.0 -0.4903943278 -0.3790828137
1024900000.0 -0.6239976568 0.2284309779
1034850000.0 -0.1425190742 0.7148245229
1044800000.0 0.5737148028 0.5570922881
1054750000.0 0.8356956444 -0.1495713308
1064700000.0 0.4078684441 -0.7583138284
1074650000.0 -0.3132215089 -0.7843372882
1084600000.0 -0.7578920075 -0.2553208801
1094550000.0 -0.6856465533 0.3953470595
1104500000.0 -0.1147717547 0.768783805
1114450000.0 0.518062124 0.5517875757
1124400000.0 0.7256141243 -0.0528140647
1134350000.0 0.4066456398 -0.5593479733
1144300000.0 -0.1455118669 -0.6405690882
1154250000.0 -0.5485661031 -0.3020806053
1164200000.0 -0.5649387989 0.2011039969
1174150000.0 -0.2133575331 0.5381527734
1184100000.0 0.2648036086 0.4979079081
1194050000.0 0.5415954357 0.1194182997
1204000000.0 0.4495526665 -0.3236663226
1213950000.0 0.0827886376 -0.5576747064
1223900000.0 -0.3311170094 -0.4740957862
1233850000.0 -0.5736260332 -0.1359035171
1243800000.0 -0.5238497984 0.2780879144
1253750000.0 -0.2039390991 0.5517017218
1263700000.0 0.2186462612 0.5350403661
1273650000.0 0.5200231601 0.2390325554
1283600000.0 0.553106523 -0.1759556459
1293550000.0 0.318111361 -0.5092607933
1303500000.0 -0.06704734 -0.6207063464
1313450000.0 -0.4370824741 -0.4722243131
1323400000.0 -0.6380232402 -0.1241080177
1333350000.0 -0.5748764126 0.2784440336
1343300000.0 -0.2643809495 0.5547872772
1353250000.0 0.1559048661 0.56733649
1363200000.0 0.4854724541 0.3087193927
1373150000.0 0.5754672814 -0.0933136486
1383100000.0 0.4017935317 -0.455076616
1393050000.0 0.0520002372 -0.6307739131
1403000000.0 -0.3261648406 -0.5594963137
1412950000.0 -0.5824525405 -0.2737893863
1422900000.0 -0.6082503669 0.1112980585
1432850000.0 -0.3834425068 0.4306921283
1442800000.0 -0.0036140038 0.5349730461
1452750000.0 0.3529694685 0.3721444112
1462700000.0 0.5186441964 0.0246585706
1472650000.0 0.4263122644 -0.3371439493
1482600000.0 0.1351772627 -0.5494115275
1492550000.0 -0.2160400001 -0.5297848803
1502500000.0 -0.4693855773 -0.293243838
1512450000.0 -0.5070293671 0.0503474909
1522400000.0 -0.3080731151 0.3340377674
1532350000.0 0.0282403257 0.4106792886
1542300000.0 0.3208885933 0.2416974699
1552250000.0 0.4159924 -0.0709205487
1562200000.0 0.2825194229 -0.3542206885
1572150000.0 0.001945619 -0.4710239059
1582100000.0 -0.2825335127 -0.3701187893
1592050000.0 -0.4273951505 -0.1018955172
1602000000.0 -0.3513350124 0.2006933502
1611950000.0 -0.0821524213 0.371829787
1621900000.0 0.23874811 0.3116722319
1631850000.0 0.431329075 0.0429391675
1641800000.0 0.383114286 -0.2879419345
1651750000.0 0.1214995396 -0.4989716887
1661700000.0 -0.2160302722 -0.4807302131
1671650000.0 -0.4618560812 -0.2428369103
1681600000.0 -0.4985357227 0.1051157062
1691550000.0 -0.2997779803 0.4044753454
1701500000.0 0.0546036291 0.5069233886
1711450000.0 0.3988170564 0.3506698543
1721400000.0 0.5610171978 0.0026068325
1731350000.0 0.4575488992 -0.3660037507
1741300000.0 0.1454371958 -0.5825310535
1751250000.0 -0.2298180154 -0.561061312
1761200000.0 -0.5139344545 -0.3199123638
1771150000.0 -0.5993043841 0.0440701775
1781100000.0 -0.4494935739 0.3918668838
1791050000.0 -0.1140335295 0.5820618841
1801000000.0 0.273965245 0.5228502249
1810950000.0 0.5397759372 0.2289603655
1820900000.0 0.5599752813 -0.1632304912
1830850000.0 0.3362962943 -0.4747174207
1840800000.0 -0.019342065 -0.5826953457
1850750000.0 -0.358456693 -0.4631267632
1860700000.0 -0.5598238483 -0.1760720487
1870650000.0 -0.5568098374 0.1685576266
1880600000.0 -0.3515332911 0.4426485474
1890550000.0 -0.0246747409 0.5363354546
1900500000.0 0.2863901006 0.4108431461
1910450000.0 0.4456940027 0.1264822088
1920400000.0 0.3962596992 -0.1804141199
1930350000.0 0.1860108818 -0.3801496669
1940300000.0 -0.0779103308 -0.4126206963
1950250000.0 -0.2901176568 -0.2947735179
1960200000.0 -0.3849403032 -0.0969592718
1970150000.0 -0.3484487691 0.0953273376
1980100000.0 -0.2212866426 0.2102474254
1990050000.0 -0.0795666239 0.2194289005
2000000000.0 0.0075025681 0.1566500989
