!Created with skrf (http://scikit-rf.org).
# GHz S RI R 50.0 
!freq ReS11 ImS11
10000000.0 -0.7288235319 0.5554236142
19950000.0 -0.2637126428 0.8762075461
29900000.0 0.3049304283 0.8595456101
39850000.0 0.7643963874 0.4981133256
49800000.0 0.9185999534 -0.0857066295
59750000.0 0.6743284934 -0.6596581942
69700000.0 0.1082570896 -0.9571561014
79650000.0 -0.5289079446 -0.8066308644
89600000.0 -0.9156254344 -0.2472832881
99550000.0 -0.8197487487 0.4591804605
109500000.0 -0.2333767125 0.9224920844
119450000.0 0.5444692573 0.8097963184
129400000.0 0.9887750088 0.1166266851
139350000.0 0.7299062585 -0.6787386169
149300000.0 -0.0437222996 -0.9665266517
159250000.0 -0.7300019461 -0.5692507012
169200000.0 -0.8868835466 0.1653488788
179150000.0 -0.4982834357 0.751521223
189100000.0 0.1444858338 0.8927795955
199050000.0 0.6867237083 0.575489359
209000000.0 0.8842449207 -0.0037180117
218950000.0 0.6777466645 -0.5537620548
228900000.0 0.1859010451 -0.8447357939
238850000.0 -0.3705089623 -0.7701874401
248800000.0 -0.7460169254 -0.3832288182
258750000.0 -0.840688575 0.1681795198
268700000.0 -0.579966135 0.6504138306
278650000.0 -0.0903007092 0.8737704908
288600000.0 0.428151242 0.7514069699
298550000.0 0.7661729584 0.33440299
308500000.0 0.7815154611 -0.2093777338
318450000.0 0.4571774232 -0.6472064139
328400000.0 -0.0667599695 -0.7779058105
338350000.0 -0.5373940401 -0.5345910209
348300000.0 -0.708296322 -0.0526894132
358250000.0 -0.5080874023 0.3812848625
368200000.0 -0.1017990689 0.5270025509
378150000.0 0.2327041511 0.3601570722
388100000.0 0.3219068574 0.0612979097
398050000.0 0.1929134613 -0.1503260839
408000000.0 0.0030729633 -0.1777776419
417950000.0 -0.102352076 -0.0754394354
427900000.0 -0.0839063008 0.0401738722
437850000.0 0.0060508626 0.0796499386
447800000.0 0.0834018559 0.0294211652
457750000.0 0.0941175217 -0.0610375055
467700000.0 0.0351620089 -0.1299198729
477650000.0 -0.0513492623 -0.1360211035
487600000.0 -0.1160085279 -0.0805628264
497550000.0 -0.130237248 0.0043614384
507500000.0 -0.0860904906 0.0772038809
517450000.0 -0.0135043083 0.1041275345
527400000.0 0.0505296928 0.0827843805
537350000.0 0.0772636712 0.032514324
547300000.0 0.0636028486 -0.0125807133
557250000.0 0.0259933391 -0.0313623992
567200000.0 -0.0061038455 -0.0186091136
577150000.0 -0.0109555014 0.0067543539
587100000.0 0.0105280981 0.0177979975
597050000.0 0.0378648107 -0.0027965662
607000000.0 0.0419816986 -0.0483886715
616950000.0 0.0079149612 -0.0919963162
626900000.0 -0.0536579476 -0.1035666765
636850000.0 -0.1131656153 -0.0662868461
646800000.0 -0.1377959768 0.0082187916
656750000.0 -0.1093982852 0.0896466237
666700000.0 -0.0313240005 0.140351355
676650000.0 0.067074363 0.1311457057
686600000.0 0.1437847572 0.0571464513
696550000.0 0.1609483194 -0.0537951295
706500000.0 0.1044430927 -0.155604193
716450000.0 -0.0035627371 -0.2014754659
726400000.0 -0.1154681327 -0.1648730983
736350000.0 -0.1737185054 -0.0615897188
746300000.0 -0.1456038694 0.0587652851
756250000.0 -0.0406950158 0.1351565234
766200000.0 0.0907762481 0.1240938912
776150000.0 0.1821509582 0.0298737702
786100000.0 0.1836843766 -0.1008839601
796050000.0 0.0900633874 -0.1959492069
806000000.0 -0.0497352246 -0.1958624584
815950000.0 -0.160742407 -0.0903764951
825900000.0 -0.1733715415 0.0732128739
835850000.0 -0.0706493305 0.2116064582
845800000.0 0.1030014889 0.2484954962
855750000.0 0.266184783 0.1564341907
865700000.0 0.3345076462 -0.0324605893
875650000.0 0.2572339292 -0.2332722436
885600000.0 0.0505841283 -0.3386711324
895550000.0 -0.1929058026 -0.2720589715
905500000.0 -0.3389254305 -0.0416742167
915450000.0 -0.2839954455 0.2411047293
925400000.0 -0.0581195567 0.3937572265
935350000.0 0.1858773161 0.3801152214
945300000.0 0.3929447675 0.2063257811
955250000.0 0.4289591771 -0.1066409295
965200000.0 0.2061722287 -0.3897324185
975150000.0 -0.1970380848 -0.4240169938
985100000.0 -0.5153603852 -0.1086938182
995050000.0 -0.4724758423 0.3739294033
1005000000.0 -0.032117458 0.6629285886
1014950000.0 0.5049887265 0.4735684764
1024900000.0 0.6956917572 -0.115483695
1034850000.0 0.3238952066 -0.6551530728
1044800000.0 -0.3388259241 -0.6798628098
1054750000.0 -0.7572826912 -0.1794004664
1064700000.0 -0.6692674561 0.4217724641
1074650000.0 -0.2030289362 0.7715672889
1084600000.0 0.3561257148 0.6875829279
1094550000.0 0.6984187161 0.2446250269
1104500000.0 0.6405335406 -0.3148117689
1114450000.0 0.2171124359 -0.6731309457
1124400000.0 -0.3106082022 -0.6333701348
1134350000.0 -0.6428917538 -0.2616371387
1144300000.0 -0.6429882839 0.2066478962
1154250000.0 -0.358286161 0.5470373104
1164200000.0 0.0602876968 0.6273116505
1174150000.0 0.4324772969 0.4261678009
1184100000.0 0.5848176531 0.0263105094
1194050000.0 0.4333064695 -0.3698978332
1204000000.0 0.073095182 -0.5581980416
1213950000.0 -0.3015773317 -0.4740043755
1223900000.0 -0.5326716711 -0.1946077086
1233850000.0 -0.5540345682 0.1507212169
1243800000.0 -0.3738375816 0.4374821704
1253750000.0 -0.0568488983 0.5615136091
1263700000.0 0.2788344467 0.463700535
1273650000.0 0.4883340865 0.17421652
1283600000.0 0.4788456995 -0.1800849962
1293550000.0 0.2694187996 -0.448576391
1303500000.0 -0.0374409676 -0.5413250609
1313450000.0 -0.3260157035 -0.4526021937
1323400000.0 -0.5168367773 -0.2301606364
1333350000.0 -0.5666161036 0.0615686599
1343300000.0 -0.4492018994 0.3456546489
1353250000.0 -0.177422503 0.5190188682
1363200000.0 0.1601160141 0.4965016311
1373150000.0 0.4244863762 0.2710554751
1383100000.0 0.5079981201 -0.0611178425
1393050000.0 0.3949581885 -0.3692919551
1403000000.0 0.1488447034 -0.5527410995
1412950000.0 -0.1377562985 -0.5716950889
1422900000.0 -0.3799786261 -0.4383713183
1432850000.0 -0.5173713646 -0.1916734155
1442800000.0 -0.5049118599 0.1087321882
1452750000.0 -0.3177873932 0.3660202867
1462700000.0 -0.0068119707 0.4709719606
1472650000.0 0.3067193056 0.3767216965
1482600000.0 0.5019040501 0.124988999
1492550000.0 0.5181716215 -0.1807071006
1502500000.0 0.3652790967 -0.4331899304
1512450000.0 0.1034961856 -0.5525336943
1522400000.0 -0.177397868 -0.5016921434
1532350000.0 -0.3823550885 -0.2929569982
1542300000.0 -0.4329548672 0.0081671347
1552250000.0 -0.295758382 0.2903634372
1562200000.0 -0.0210541059 0.4369399139
1572150000.0 0.2763394546 0.3938436358
1582100000.0 0.4817711085 0.191746792
1592050000.0 0.5266025435 -0.0852926536
1602000000.0 0.4004059871 -0.3343044876
1611950000.0 0.1458755475 -0.4667293472
1621900000.0 -0.1492093037 -0.4254371997
1631850000.0 -0.3725641979 -0.2097829712
1641800000.0 -0.4262857667 0.102278398
1651750000.0 -0.2805905387 0.3829967257
1661700000.0 -0.001276464 0.5155373906
1671650000.0 0.2936218093 0.4568738222
1681600000.0 0.4950134341 0.243054487
1691550000.0 0.5414978723 -0.0438154663
1701500000.0 0.4205260211 -0.3107993445
1711450000.0 0.1691520712 -0.4701930889
1721400000.0 -0.139453558 -0.4602253225
1731350000.0 -0.3966704423 -0.270251127
1741300000.0 -0.501234968 0.0377912846
1751250000.0 -0.4108836507 0.3439302283
1761200000.0 -0.1705431356 0.5333864101
1771150000.0 0.122807864 0.5554067795
1781100000.0 0.3738057034 0.4206420909
1791050000.0 0.5163741091 0.177348663
1801000000.0 0.513476477 -0.106459233
1810950000.0 0.3641947286 -0.3519479628
1820900000.0 0.1024010932 -0.4810012033
1830850000.0 -0.193644161 -0.437657152
1840800000.0 -0.4149995962 -0.2307094795
1850750000.0 -0.4809204316 0.0566897213
1860700000.0 -0.3860575213 0.3171126693
1870650000.0 -0.1826291075 0.4758868942
1880600000.0 0.0564673839 0.501089288
1890550000.0 0.2601635777 0.3993378849
1900500000.0 0.3731398063 0.2077122126
1910450000.0 0.3685391672 -0.0139494478
1920400000.0 0.2475395828 -0.1969928002
1930350000.0 0.0512655181 -0.2758366142
1940300000.0 -0.1406515846 -0.231473753
1950250000.0 -0.2593281123 -0.0951954614
1960200000.0 -0.2718568333 0.0612583075
1970150000.0 -0.1938728369 0.1632499132
1980100000.0 -0.1010033411 0.1752274016
1990050000.0 -0.0409449049 0.1189619999
2000000000.0 -0.0741821713 0.0230036428
