!Created with skrf (http://scikit-rf.org).
# GHz S RI R 50.0 
!freq ReS11 ImS11
10000000.0 -0.8690538371 0.5298153729
19950000.0 -0.4689424052 0.8872468432
29900000.0 0.0569448798 0.9890414697
39850000.0 0.5668161258 0.8024190332
49800000.0 0.9097787643 0.368266419
59750000.0 0.9680351719 -0.1978134097
69700000.0 0.6948156727 -0.718983937
79650000.0 0.1533002645 -1.00000513
89600000.0 -0.4717605927 -0.9006155615
99550000.0 -0.918812931 -0.4202265115
109500000.0 -0.9604422823 0.2580811147
119450000.0 -0.5338164162 0.8173067701
129400000.0 0.1805086 0.9486212182
139350000.0 0.8059795305 0.5373310225
149300000.0 0.960331218 -0.2046205866
159250000.0 0.5481487336 -0.8300848274
169200000.0 -0.1580265175 -0.9828196937
179150000.0 -0.7482004232 -0.637552751
189100000.0 -0.9638422316 -0.0305437302
199050000.0 -0.7731898153 0.5491024825
209000000.0 -0.2978008561 0.8927630888
218950000.0 0.2699755742 0.9033393619
228900000.0 0.7399624171 0.5992353369
238850000.0 0.9592812554 0.0856302309
248800000.0 0.8635088984 -0.3493658251
258750000.0 0.5038001965 -0.8264232926
268700000.0 -0.0163692658 -0.9557732609
278650000.0 -0.5120361914 -0.7832410427
288600000.0 -0.8303973891 -0.3754740882
298550000.0 -0.8770075353 0.1347049948
308500000.0 -0.6362392435 0.5850448143
318450000.0 -0.1840424107 0.8219091148
328400000.0 0.3195147692 0.7517222911
338350000.0 0.6714999621 0.3966216094
348300000.0 0.7199480193 -0.0821339373
358250000.0 0.4643153958 -0.452871766
368200000.0 0.0694063838 -0.5525482605
378150000.0 -0.2470883384 -0.3870708898
388100000.0 -0.3537259759 -0.100167016
398050000.0 -0.2569295865 0.1379327435
408000000.0 -0.0640844195 0.2272021899
417950000.0 0.1019106941 0.1710126947
427900000.0 0.1679234031 0.041543136
437850000.0 0.1325336975 -0.0755480773
447800000.0 0.040313149 -0.1278384424
457750000.0 -0.0495154293 -0.1069592451
467700000.0 -0.0957543344 -0.0410087802
477650000.0 -0.0870663201 0.0284078788
487600000.0 -0.0368777611 0.0542800352
497550000.0 -0.0101010155 0.0921314272
507500000.0 0.0352021952 0.0589226327
517450000.0 0.041350414 0.0222268427
527400000.0 0.022865665 2.93884e-05
537350000.0 -0.0014133201 0.0022712943
547300000.0 -0.0123171218 0.0292016792
557250000.0 0.0084534474 0.0565361939
567200000.0 0.050058112 0.0625982662
577150000.0 0.0944772191 0.0357747999
587100000.0 0.1185470724 -0.021341744
597050000.0 0.1048481392 -0.0910219629
607000000.0 0.0501809413 -0.147005517
616950000.0 -0.0323693236 -0.1656744034
626900000.0 -0.1165336059 -0.1344604787
636850000.0 -0.172782579 -0.0594711031
646800000.0 -0.1790807874 0.0358740303
656750000.0 -0.131885768 0.1200853862
666700000.0 -0.0448933728 0.1636088856
676650000.0 0.0527215245 0.1512280529
686600000.0 0.126489802 0.0868653064
696550000.0 0.1511791803 -0.0053605602
706500000.0 0.1175525696 -0.0910878254
716450000.0 0.0421404838 -0.1380284285
726400000.0 -0.044196977 -0.1287685491
736350000.0 -0.1022956069 -0.0679652973
746300000.0 -0.1048869887 0.0167702673
756250000.0 -0.046723063 0.0837234846
766200000.0 0.0482567336 0.0966663495
776150000.0 0.1371104594 0.0397662293
786100000.0 0.1743587551 -0.0704777977
796050000.0 0.1323436651 -0.1930650763
806000000.0 0.0148281853 -0.27373067
815950000.0 -0.1419573686 -0.2689890504
825900000.0 -0.2785300718 -0.1664330504
835850000.0 -0.337008679 0.0092221863
845800000.0 -0.2832861778 0.2001809947
855750000.0 -0.1229410009 0.3381774009
865700000.0 0.0968951817 0.3660574423
875650000.0 0.3063735876 0.2652788715
885600000.0 0.4307303834 0.0592003447
895550000.0 0.4206383579 -0.1887757741
905500000.0 0.2699608998 -0.3947980098
915450000.0 0.0230496194 -0.4818173159
925400000.0 -0.2357327736 -0.4091257474
935350000.0 -0.4069897707 -0.1912420521
945300000.0 -0.4109974714 0.0969478877
955250000.0 -0.223352003 0.3353187104
965200000.0 0.0928754475 0.3961828311
975150000.0 0.3839115749 0.2111769585
985100000.0 0.4614148454 -0.155367451
995050000.0 0.2308121118 -0.4946821985
1005000000.0 -0.2145735993 -0.565362719
1014950000.0 -0.601388447 -0.2541355875
1024900000.0 -0.640428381 0.2920713314
1034850000.0 -0.246150119 0.726802591
1044800000.0 0.363859714 0.7336252911
1054750000.0 0.7818855731 0.2902841964
1064700000.0 0.8289467162 -0.2659233174
1074650000.0 0.4949916985 -0.7316883202
1084600000.0 -0.0461357798 -0.8636510634
1094550000.0 -0.5413894388 -0.6384555111
1104500000.0 -0.7835754713 -0.1617169827
1114450000.0 -0.6681460865 0.356587904
1124400000.0 -0.2477349902 0.6697497577
1134350000.0 0.2565654938 0.6248693704
1144300000.0 0.5807910041 0.2750910954
1154250000.0 0.593914428 -0.1640042487
1164200000.0 0.34768177 -0.4824661862
1174150000.0 -0.016702503 -0.5802612444
1184100000.0 -0.3519349773 -0.4446875735
1194050000.0 -0.5355063966 -0.1427582945
1204000000.0 -0.5037891546 0.2054790495
1213950000.0 -0.273623306 0.4662360223
1223900000.0 0.063980381 0.5410581556
1233850000.0 0.3769410149 0.4090225383
1243800000.0 0.5576213276 0.1320461512
1253750000.0 0.5623198783 -0.1885156029
1263700000.0 0.40722723 -0.4578860123
1273650000.0 0.1471253716 -0.6129768758
1283600000.0 -0.1520940804 -0.6251314851
1293550000.0 -0.4232029322 -0.4945617868
1303500000.0 -0.6034028205 -0.2487097612
1313450000.0 -0.6462117987 0.0597669321
1323400000.0 -0.5311455845 0.3569051478
1333350000.0 -0.2797762038 0.562256554
1343300000.0 0.0425493992 0.6169565859
1353250000.0 0.3484887516 0.5068611534
1363200000.0 0.5590830142 0.2668617521
1373150000.0 0.6292022523 -0.036455854
1383100000.0 0.5538325695 -0.3297618964
1393050000.0 0.35912704 -0.552872527
1403000000.0 0.0896438126 -0.6636041658
1412950000.0 -0.1988375485 -0.6422395503
1422900000.0 -0.4462742226 -0.492906184
1432850000.0 -0.597843836 -0.2461249149
1442800000.0 -0.6190734245 0.0432694722
1452750000.0 -0.5026298375 0.3109848582
1462700000.0 -0.2694055925 0.4927099593
1472650000.0 0.0250947593 0.53826691
1482600000.0 0.302056052 0.4335297071
1492550000.0 0.4878697741 0.2095289776
1502500000.0 0.5376852389 -0.0706130192
1512450000.0 0.4443550775 -0.3328897937
1522400000.0 0.2387536269 -0.5119130181
1532350000.0 -0.0240986825 -0.5641845298
1542300000.0 -0.2740450801 -0.4788034376
1552250000.0 -0.444072658 -0.2787025103
1562200000.0 -0.4864891354 -0.0206320841
1572150000.0 -0.387909143 0.221749573
1582100000.0 -0.175425964 0.3745089424
1592050000.0 0.0836025028 0.3877254147
1602000000.0 0.3080130739 0.2596946954
1611950000.0 0.4255811561 0.0300903147
1621900000.0 0.400091371 -0.2245017097
1631850000.0 0.2431779333 -0.4236972578
1641800000.0 0.0036338697 -0.5085851143
1651750000.0 -0.2462066622 -0.4559140066
1661700000.0 -0.4346889744 -0.2816453664
1671650000.0 -0.5096254495 -0.0330540505
1681600000.0 -0.4494017216 0.2245149615
1691550000.0 -0.2622629814 0.4223012772
1701500000.0 0.0052947854 0.4996404055
1711450000.0 0.2808438732 0.4291033353
1721400000.0 0.4860476873 0.2230991859
1731350000.0 0.5579503465 -0.0602056008
1741300000.0 0.4776959641 -0.3399445777
1751250000.0 0.273346811 -0.5421688467
1761200000.0 0.0024144873 -0.6222558588
1771150000.0 -0.2699899117 -0.5692757317
1781100000.0 -0.4869310502 -0.4019422355
1791050000.0 -0.6070152577 -0.1583018138
1801000000.0 -0.607443264 0.1141458065
1810950000.0 -0.4855359355 0.3612474945
1820900000.0 -0.2615971147 0.5282567508
1830850000.0 0.0182475574 0.5713953619
1840800000.0 0.2863549608 0.4762051147
1850750000.0 0.4740955893 0.2646408089
1860700000.0 0.5347021612 -0.0045137259
1870650000.0 0.4623309939 -0.2603178251
1880600000.0 0.2887116168 -0.4435543514
1890550000.0 0.0648052581 -0.523704483
1900500000.0 -0.1577918254 -0.4983148099
1910450000.0 -0.3359123844 -0.3851562321
1920400000.0 -0.4399187985 -0.2148458244
1930350000.0 -0.4548667879 -0.0272225102
1940300000.0 -0.3849420814 0.134730677
1950250000.0 -0.255983557 0.2334789095
1960200000.0 -0.1121999326 0.2505570787
1970150000.0 -0.0010033231 0.1964399036
1980100000.0 0.0463246335 0.1091750669
1990050000.0 0.0295742771 0.0389850538
2000000000.0 -0.0177214078 0.0257250446
