!Created with skrf (http://scikit-rf.org).
# GHz S RI R 50.0 
!freq ReS11 ImS11
10000000.0 -0.7684004037 0.5835269379
19950000.0 -0.2802448423 0.9166451662
29900000.0 0.3097747141 0.8993186765
39850000.0 0.7858417064 0.5310210149
49800000.0 0.9538790823 -0.0650254805
59750000.0 0.7170375426 -0.6588840592
69700000.0 0.1436198618 -0.9800491015
79650000.0 -0.5165723549 -0.843161786
89600000.0 -0.9278179869 -0.277901277
99550000.0 -0.8422356998 0.4463453465
109500000.0 -0.2510959408 0.92428114
119450000.0 0.5377957075 0.8154055818
129400000.0 0.9876296291 0.1138525477
139350000.0 0.7212848197 -0.6869895541
149300000.0 -0.0642383088 -0.9690803659
159250000.0 -0.7529159234 -0.5579720469
169200000.0 -0.9033179395 0.1885809441
179150000.0 -0.5016283149 0.784396433
189100000.0 0.1629589346 0.9268347157
199050000.0 0.7251654022 0.5942436844
209000000.0 0.9324183657 -0.011231133
218950000.0 0.7126705228 -0.5830041695
228900000.0 0.2009075025 -0.8853291577
238850000.0 -0.3772010137 -0.8142646022
248800000.0 -0.7706531573 -0.4013193429
258750000.0 -0.8909277798 0.1464924574
268700000.0 -0.6367519495 0.6585842166
278650000.0 -0.1308689469 0.9105233144
288600000.0 0.4184233217 0.798121653
298550000.0 0.7834819015 0.3744377585
308500000.0 0.8143566482 -0.1869308298
318450000.0 0.4929750765 -0.6452880038
328400000.0 -0.0393994677 -0.7925317089
338350000.0 -0.5237595601 -0.5568351316
348300000.0 -0.7082512202 -0.0737485388
358250000.0 -0.5130007199 0.3684684403
368200000.0 -0.1060907969 0.5190418474
378150000.0 0.2289969477 0.351423282
388100000.0 0.3158462701 0.0507541953
398050000.0 0.1805711716 -0.1612277173
408000000.0 -0.0163669153 -0.1845558454
417950000.0 -0.124845209 -0.0706196354
427900000.0 -0.1024540197 0.0566176284
437850000.0 -0.0026067402 0.1046780191
447800000.0 0.0907629898 0.0585171453
457750000.0 0.1151197731 -0.0384589636
467700000.0 0.066186865 -0.1201895301
477650000.0 -0.0193135502 -0.1423468303
487600000.0 -0.0916236739 -0.0996820894
497550000.0 -0.1131349029 -0.025284369
507500000.0 -0.0858734216 0.0449366032
517450000.0 -0.0263652507 0.0752698555
527400000.0 0.0249840384 0.0613282692
537350000.0 0.0435507378 0.024029162
547300000.0 0.0272856589 -0.0058260898
557250000.0 -0.0039560064 -0.0080721451
567200000.0 -0.0207640614 0.0173004713
577150000.0 -0.0052572876 0.0468993212
587100000.0 0.0364212707 0.0512423756
597050000.0 0.0777789897 0.0164854344
607000000.0 0.088640784 -0.0493010076
616950000.0 0.0502962857 -0.1156468303
626900000.0 -0.0267671897 -0.1450600933
636850000.0 -0.1109944841 -0.1177406831
646800000.0 -0.1619805595 -0.038227002
656750000.0 -0.1532055904 0.0622430526
666700000.0 -0.0825359347 0.1387802461
676650000.0 0.0225692486 0.155328035
686600000.0 0.1170421485 0.1008176737
696550000.0 0.1582663261 -0.0042170785
706500000.0 0.1269197655 -0.1111030829
716450000.0 0.0367606114 -0.1712088689
726400000.0 -0.0666349128 -0.1571244834
736350000.0 -0.128987346 -0.0754658562
746300000.0 -0.1147775102 0.0287945445
756250000.0 -0.0276007101 0.0968292898
766200000.0 0.085329702 0.0875527778
776150000.0 0.1613386066 0.000462494
786100000.0 0.1534386437 -0.1166829521
796050000.0 0.056807973 -0.1972571943
806000000.0 -0.0852806503 -0.1830866707
815950000.0 -0.1890673166 -0.0635042208
825900000.0 -0.1897386991 0.1107453904
835850000.0 -0.0701517343 0.2547906812
845800000.0 0.1237387765 0.2906434248
855750000.0 0.3053491246 0.1885564886
865700000.0 0.3859574085 -0.0185691733
875650000.0 0.3123279094 -0.2426986501
885600000.0 0.0997394677 -0.3757880415
895550000.0 -0.165330886 -0.3383297036
905500000.0 -0.3562817852 -0.1279626911
915450000.0 -0.3690189966 0.1673307983
925400000.0 -0.1861528328 0.4076027928
935350000.0 0.1128561948 0.4687115325
945300000.0 0.3818885774 0.3051914203
955250000.0 0.4703945956 -0.0178042395
965200000.0 0.2962692989 -0.3366029891
975150000.0 -0.0833672394 -0.4446097552
985100000.0 -0.4473728425 -0.2163463003
995050000.0 -0.5137184745 0.245100401
1005000000.0 -0.1760852619 0.6120819179
1014950000.0 0.3589146792 0.5756437156
1024900000.0 0.695052062 0.0944331239
1034850000.0 0.5181956249 -0.5189465273
1044800000.0 -0.1024602873 -0.7705775545
1054750000.0 -0.6897788646 -0.4318717584
1064700000.0 -0.806212799 0.2169147534
1074650000.0 -0.4346930912 0.7175301565
1084600000.0 0.1509721516 0.7928475084
1094550000.0 0.6288095768 0.4641026179
1104500000.0 0.7362421992 -0.1221851316
1114450000.0 0.394642426 -0.607357983
1124400000.0 -0.1663239628 -0.6913818587
1134350000.0 -0.5854380481 -0.3679075768
1144300000.0 -0.6554221027 0.1177381972
1154250000.0 -0.3990564171 0.4985427957
1164200000.0 0.0247772732 0.6081755255
1174150000.0 0.404541412 0.4141875019
1184100000.0 0.557015157 0.0147321202
1194050000.0 0.3966481712 -0.3781966575
1204000000.0 0.0275978101 -0.5502995326
1213950000.0 -0.3425516241 -0.4433409438
1223900000.0 -0.5540720038 -0.1451595887
1233850000.0 -0.5470772262 0.2067943583
1243800000.0 -0.3362065287 0.4838421708
1253750000.0 0.00247019 0.5813622934
1263700000.0 0.3401037863 0.4497015909
1273650000.0 0.5319523484 0.1329114731
1283600000.0 0.4964629197 -0.2341889436
1293550000.0 0.2620787992 -0.5019846734
1303500000.0 -0.0658751845 -0.5864729853
1313450000.0 -0.3721219301 -0.4838849694
1323400000.0 -0.5738249539 -0.2385059802
1333350000.0 -0.6192161692 0.0804044036
1343300000.0 -0.483732632 0.3843177462
1353250000.0 -0.1879873342 0.5663323573
1363200000.0 0.1710421137 0.5423763951
1373150000.0 0.454488615 0.310267697
1383100000.0 0.5549055979 -0.034805579
1393050000.0 0.4541313616 -0.3643085877
1403000000.0 0.2071233598 -0.5779528258
1412950000.0 -0.0988443969 -0.6244561422
1422900000.0 -0.3761793833 -0.5038504983
1432850000.0 -0.5480150763 -0.2469069264
1442800000.0 -0.5544378688 0.0772515194
1452750000.0 -0.3729921087 0.360777724
1462700000.0 -0.056270434 0.4910884586
1472650000.0 0.2725351616 0.4180442241
1482600000.0 0.4930395851 0.1797219026
1492550000.0 0.5379791212 -0.1267341148
1502500000.0 0.4094094413 -0.3935879009
1512450000.0 0.1592113551 -0.5372991989
1522400000.0 -0.126040852 -0.5112685805
1532350000.0 -0.3462079618 -0.3174865291
1542300000.0 -0.4109866505 -0.0205490744
1552250000.0 -0.2843614284 0.2611479081
1562200000.0 -0.0175815645 0.4064126506
1572150000.0 0.2711950996 0.3614670745
1582100000.0 0.4623578838 0.1581254429
1592050000.0 0.4902322933 -0.1104876322
1602000000.0 0.3506476859 -0.3414933891
1611950000.0 0.0920430522 -0.447008706
1621900000.0 -0.1905751758 -0.3736041358
1631850000.0 -0.3817139485 -0.1346633531
1641800000.0 -0.3895628654 0.1773670062
1651750000.0 -0.208062061 0.4294737544
1661700000.0 0.0835259904 0.518329495
1671650000.0 0.364776611 0.4183336235
1681600000.0 0.536797408 0.1776641301
1691550000.0 0.5457157212 -0.1214209035
1701500000.0 0.3868279128 -0.3835170084
1711450000.0 0.099817733 -0.5199073808
1721400000.0 -0.2280166587 -0.4682923627
1731350000.0 -0.4758197069 -0.2308763419
1741300000.0 -0.5452091281 0.1082494853
1751250000.0 -0.4147729282 0.4187159065
1761200000.0 -0.1450914176 0.5968899875
1771150000.0 0.166160161 0.6014014192
1781100000.0 0.4297517696 0.4476013034
1791050000.0 0.579314007 0.1808449173
1801000000.0 0.5752771799 -0.132591701
1810950000.0 0.4056789045 -0.4077502577
1820900000.0 0.1076348823 -0.5520052274
1830850000.0 -0.2261023961 -0.50307577
1840800000.0 -0.4738633813 -0.274981192
1850750000.0 -0.554685301 0.0403428121
1860700000.0 -0.4627094268 0.3315951211
1870650000.0 -0.2504888142 0.5228163719
1880600000.0 0.0131140887 0.5788469157
1890550000.0 0.2594330835 0.4960814315
1900500000.0 0.4264196404 0.2963789396
1910450000.0 0.4630352308 0.0336709187
1920400000.0 0.3497864208 -0.2080424328
1930350000.0 0.1246494341 -0.3335521922
1940300000.0 -0.0911723957 -0.3032046603
1950250000.0 -0.2521483583 -0.2077147057
1960200000.0 -0.3359415134 -0.0485444647
1970150000.0 -0.3194460801 0.1067554908
1980100000.0 -0.2349198763 0.203658011
1990050000.0 -0.1363049011 0.219263884
2000000000.0 -0.0841171714 0.1698408211
