!Created with skrf (http://scikit-rf.org).
# GHz S RI R 50.0 
!freq ReS11 ImS11
10000000.0 -0.9293878479 0.4578760545
19950000.0 -0.6278628677 0.7978173726
29900000.0 -0.2087428159 0.9724668927
39850000.0 0.2522720815 0.9476706638
49800000.0 0.6658970778 0.7164668786
59750000.0 0.9399040063 0.3062788868
69700000.0 0.9862652881 -0.2100408324
79650000.0 0.7496312819 -0.7043452091
89600000.0 0.2545622268 -1.005837284
99550000.0 -0.3543439029 -0.9639128488
109500000.0 -0.8368685075 -0.5475040305
119450000.0 -0.966827397 0.0987097877
129400000.0 -0.6564439555 0.7000638597
139350000.0 -0.0246288503 0.9710010669
149300000.0 0.6326349323 0.7700050574
159250000.0 0.9938741457 0.2063668277
169200000.0 0.9190722613 -0.4238985293
179150000.0 0.5111384217 -0.8493050616
189100000.0 -0.0213232338 -0.964410867
199050000.0 -0.500728334 -0.8015680254
209000000.0 -0.8259115013 -0.4477774313
218950000.0 -0.9466624104 -0.0073766877
228900000.0 -0.8608288593 0.4327385594
238850000.0 -0.5877789526 0.7862618661
248800000.0 -0.1851130741 0.9748230218
258750000.0 0.2587399724 0.9580133305
268700000.0 0.6476390917 0.7305113282
278650000.0 0.8830962098 0.3476308976
288600000.0 0.9123285658 -0.0985122254
298550000.0 0.7337001922 -0.503588486
308500000.0 0.3910746217 -0.7758868455
318450000.0 -0.0346519734 -0.852522921
328400000.0 -0.4382262248 -0.7110629348
338350000.0 -0.7038360351 -0.38382177
348300000.0 -0.7395979313 0.0243041594
358250000.0 -0.5369855088 0.3572285129
368200000.0 -0.2007982626 0.4845822019
378150000.0 0.1026589763 0.3858658922
388100000.0 0.2493928107 0.1582944196
398050000.0 0.225848599 -0.0612496588
408000000.0 0.1004833632 -0.1845841073
417950000.0 -0.0401104771 -0.1940602319
427900000.0 -0.1324825531 -0.1214062667
437850000.0 -0.1504973259 -0.0181617529
447800000.0 -0.1021888894 0.0661833931
457750000.0 -0.0192435035 0.1031531413
467700000.0 0.0623509044 0.0888396641
477650000.0 0.1160676544 0.0392728723
487600000.0 0.130906343 -0.0212725939
497550000.0 0.1137391673 -0.0668412299
507500000.0 0.073245337 -0.0935559613
517450000.0 0.0351070228 -0.0853264564
527400000.0 0.0138910584 -0.0570684872
537350000.0 0.0164213764 -0.0245027284
547300000.0 0.0397000221 -0.0041775529
557250000.0 0.0711043329 -0.0060675938
567200000.0 0.0940538091 -0.0331493833
577150000.0 0.0939396783 -0.0750607514
587100000.0 0.0658371687 -0.1168224238
597050000.0 0.0130314875 -0.1425007571
607000000.0 -0.0534540797 -0.1394638453
616950000.0 -0.1154700257 -0.1026707092
626900000.0 -0.1543887406 -0.0385871485
636850000.0 -0.1588633155 0.0384369185
646800000.0 -0.1248750234 0.1088108508
656750000.0 -0.0600574389 0.1538788716
666700000.0 0.0188587193 0.1603696401
676650000.0 0.0891095066 0.1282443332
686600000.0 0.1335596674 0.0687228181
696550000.0 0.1438691238 -0.0014692118
706500000.0 0.1181757549 -0.0626865038
716450000.0 0.066124615 -0.09591266
726400000.0 0.0075411462 -0.0891480746
736350000.0 -0.0315962728 -0.0447158796
746300000.0 -0.0326085616 0.0205541051
756250000.0 0.0112222042 0.0805595594
766200000.0 0.0904023718 0.1094435953
776150000.0 0.1826457978 0.0888023557
786100000.0 0.257244485 0.0164347242
796050000.0 0.2855402166 -0.093936298
806000000.0 0.249059693 -0.2143439023
815950000.0 0.1435096687 -0.3080798596
825900000.0 -0.0117541608 -0.3392271401
835850000.0 -0.1790854202 -0.2848181919
845800000.0 -0.3115065304 -0.1462701834
855750000.0 -0.3679823407 0.0482417069
865700000.0 -0.3290120113 0.2516392214
875650000.0 -0.2036175492 0.4169136198
885600000.0 -0.0199286031 0.5082080562
895550000.0 0.1841588224 0.5070081081
905500000.0 0.3662873823 0.4101973275
915450000.0 0.4828919719 0.2316654664
925400000.0 0.4961829854 0.0069511486
935350000.0 0.3857173346 -0.2068198642
945300000.0 0.1662285239 -0.3404549317
955250000.0 -0.1051415968 -0.3339866592
965200000.0 -0.3332167044 -0.1693538747
975150000.0 -0.4214344848 0.1028369797
985100000.0 -0.3218244524 0.3780768723
995050000.0 -0.0581551683 0.5368010851
1005000000.0 0.2774937901 0.4866161496
1014950000.0 0.5353807076 0.1963695718
1024900000.0 0.5446964335 -0.2500884509
1034850000.0 0.2231699931 -0.6312791858
1044800000.0 -0.2948812814 -0.7055249631
1054750000.0 -0.7323797176 -0.430095803
1064700000.0 -0.8969159033 0.0342903679
1074650000.0 -0.7786868242 0.4796346207
1084600000.0 -0.4355909566 0.7972200142
1094550000.0 0.0464795682 0.8775736555
1104500000.0 0.5205624903 0.6465149813
1114450000.0 0.7689687153 0.1379407777
1124400000.0 0.5995333557 -0.424940232
1134350000.0 0.1107912087 -0.69248827
1144300000.0 -0.36399831 -0.5696658545
1154250000.0 -0.6111351532 -0.2277430939
1164200000.0 -0.6102408835 0.1467381395
1174150000.0 -0.4146438854 0.4386123041
1184100000.0 -0.0966360127 0.5749319947
1194050000.0 0.2492694697 0.513253568
1204000000.0 0.5060797005 0.2667283043
1213950000.0 0.582082144 -0.0771664726
1223900000.0 0.4668223109 -0.3941692603
1233850000.0 0.2262143755 -0.5953216995
1243800000.0 -0.0541966752 -0.659068825
1253750000.0 -0.3139942988 -0.6061741368
1263700000.0 -0.5213629494 -0.4691556878
1273650000.0 -0.6617395999 -0.2748238269
1283600000.0 -0.7255269685 -0.0448102436
1293550000.0 -0.7029661438 0.2001306387
1303500000.0 -0.5848395734 0.4312388335
1313450000.0 -0.3712274067 0.6085420384
1323400000.0 -0.0853565882 0.6848488974
1333350000.0 0.2178696196 0.6266692601
1343300000.0 0.4674986771 0.4402205268
1353250000.0 0.610357092 0.1739061358
1363200000.0 0.6343261467 -0.1085768123
1373150000.0 0.5598912648 -0.3590527262
1383100000.0 0.4166946408 -0.5527284071
1393050000.0 0.2312524338 -0.6799563915
1403000000.0 0.0238486042 -0.737392021
1412950000.0 -0.1884097101 -0.7219533082
1422900000.0 -0.3849872687 -0.6310234061
1432850000.0 -0.5402242445 -0.4651457527
1442800000.0 -0.6223230044 -0.2354901879
1452750000.0 -0.5991304465 0.0256109926
1462700000.0 -0.4560042262 0.2635680497
1472650000.0 -0.216969636 0.4163210963
1482600000.0 0.0584726687 0.446201201
1492550000.0 0.3027257963 0.3585062956
1502500000.0 0.4689936556 0.1908397437
1512450000.0 0.5395355017 -0.0103798757
1522400000.0 0.5169206296 -0.2036162833
1532350000.0 0.4142348933 -0.3554606887
1542300000.0 0.2530703833 -0.4386089547
1552250000.0 0.064352629 -0.4300520704
1562200000.0 -0.1046324423 -0.3211273457
1572150000.0 -0.2009192487 -0.129872784
1582100000.0 -0.1859741271 0.0911596216
1592050000.0 -0.0604579019 0.2730957577
1602000000.0 0.1322513664 0.3637238373
1611950000.0 0.3335906743 0.3448432552
1621900000.0 0.4917284616 0.2351445459
1631850000.0 0.5770185868 0.0667450216
1641800000.0 0.5773747627 -0.1263114897
1651750000.0 0.4903732527 -0.3112277834
1661700000.0 0.3217061561 -0.456085752
1671650000.0 0.0873939987 -0.5264442504
1681600000.0 -0.1777199219 -0.4897574017
1691550000.0 -0.4161536251 -0.332658541
1701500000.0 -0.5653772077 -0.0791060584
1711450000.0 -0.5862073758 0.2093842291
1721400000.0 -0.4846581769 0.4666518564
1731350000.0 -0.3011920311 0.644814689
1741300000.0 -0.0822811669 0.7323930276
1751250000.0 0.1373244703 0.7377243372
1761200000.0 0.3370343377 0.674585066
1771150000.0 0.5050382374 0.5565814249
1781100000.0 0.6322425417 0.3918748999
1791050000.0 0.7077728374 0.1885990091
1801000000.0 0.7160222307 -0.0437896087
1810950000.0 0.638713808 -0.2844408419
1820900000.0 0.4626780149 -0.4965398312
1830850000.0 0.1986033244 -0.6267112359
1840800000.0 -0.1032659547 -0.6294078853
1850750000.0 -0.3650486108 -0.5072971621
1860700000.0 -0.549716916 -0.3113720023
1870650000.0 -0.6420285605 -0.073198706
1880600000.0 -0.6416196138 0.1574704386
1890550000.0 -0.5750864402 0.3522536879
1900500000.0 -0.4649958308 0.5017066963
1910450000.0 -0.3283445185 0.6044981058
1920400000.0 -0.1770830167 0.65983266
1930350000.0 -0.0208294439 0.6666904888
1940300000.0 0.1287704194 0.6226921484
1950250000.0 0.2560676437 0.5282238169
1960200000.0 0.342557257 0.3910557733
1970150000.0 0.3708238724 0.2304026688
1980100000.0 0.3376774838 0.0747797597
1990050000.0 0.2570429084 -0.0486064171
2000000000.0 0.1568271924 -0.1265727765
