!Created with skrf (http://scikit-rf.org).
# GHz S RI R 50.0 
!freq ReS11 ImS11
10000000.0 -0.7646183726 0.5803994289
19950000.0 -0.2795564801 0.9108876169
29900000.0 0.306464284 0.8916576859
39850000.0 0.7789834235 0.5231240719
49800000.0 0.9447797397 -0.0715443885
59750000.0 0.7076774145 -0.6636887038
69700000.0 0.1359565753 -0.9833827322
79650000.0 -0.5206273306 -0.845167907
89600000.0 -0.9274198973 -0.2804108788
99550000.0 -0.841127419 0.4412483721
109500000.0 -0.2546400543 0.9200643715
119450000.0 0.531920391 0.8204247718
129400000.0 0.9925400308 0.12926759
139350000.0 0.7433800694 -0.6774435814
149300000.0 -0.0357727025 -0.9770933177
159250000.0 -0.7343727748 -0.5809708191
169200000.0 -0.9025137792 0.1638091307
179150000.0 -0.5148898407 0.7698192398
189100000.0 0.1448273532 0.927484215
199050000.0 0.7120780937 0.6067974197
209000000.0 0.9236265879 0.0068914503
218950000.0 0.7148606675 -0.5650153932
228900000.0 0.2114047186 -0.8719237293
238850000.0 -0.3626502441 -0.8067694831
248800000.0 -0.769074257 -0.400026437
258750000.0 -0.8774731829 0.1470745584
268700000.0 -0.6257869605 0.6571372582
278650000.0 -0.1249020502 0.9076626058
288600000.0 0.4176054842 0.7969456803
298550000.0 0.7778922641 0.3733762705
308500000.0 0.8056989849 -0.1865787884
318450000.0 0.483395178 -0.6429214429
328400000.0 -0.048215713 -0.7893983677
338350000.0 -0.5319069843 -0.5527478119
348300000.0 -0.7124580779 -0.0673605109
358250000.0 -0.5138269183 0.3728586205
368200000.0 -0.1050046053 0.5197230814
378150000.0 0.2291858558 0.3499065006
388100000.0 0.3140837517 0.0481095199
398050000.0 0.1787247779 -0.1629350752
408000000.0 -0.0165360149 -0.1844695576
417950000.0 -0.1235693466 -0.0723802755
427900000.0 -0.1007071769 0.0534340536
437850000.0 -0.0004125999 0.1002254778
447800000.0 0.0907777357 0.0510050098
457750000.0 0.114068628 -0.0460970822
467700000.0 0.0620598778 -0.1274305687
477650000.0 -0.0249581465 -0.1466353197
487600000.0 -0.0962517505 -0.1008674794
497550000.0 -0.1162859628 -0.0223608904
507500000.0 -0.0873917448 0.0522556382
517450000.0 -0.0236662282 0.0843293021
527400000.0 0.0333190973 0.0714640579
537350000.0 0.0566387206 0.0323500546
547300000.0 0.0441955467 -0.00148003
557250000.0 0.0118313 -0.010086581
567200000.0 -0.0105708189 0.0095294773
577150000.0 -0.0034851292 0.0362160436
587100000.0 0.0292850007 0.0427262579
597050000.0 0.0650738881 0.0122119471
607000000.0 0.0720697636 -0.0467108665
616950000.0 0.0343172498 -0.1043106298
626900000.0 -0.0374516307 -0.1278563309
636850000.0 -0.1127136201 -0.0967811702
646800000.0 -0.1549757762 -0.0190762388
656750000.0 -0.1399049891 0.0740925709
666700000.0 -0.0670804696 0.1412541387
676650000.0 0.035160907 0.1476832793
686600000.0 0.1225032491 0.0846691681
696550000.0 0.1537799255 -0.0223904961
706500000.0 0.1112159998 -0.1277128771
716450000.0 0.014225127 -0.1831240526
726400000.0 -0.0921743275 -0.1594667065
736350000.0 -0.1509148061 -0.0691035821
746300000.0 -0.1283256817 0.0411450527
756250000.0 -0.0314257657 0.1118523062
766200000.0 0.091604883 0.0992516329
776150000.0 0.1753425026 0.0063103141
786100000.0 0.1702314777 -0.121115263
796050000.0 0.0713696022 -0.2108227562
806000000.0 -0.0734520553 -0.2021964392
815950000.0 -0.1853243652 -0.0853487904
825900000.0 -0.1927506275 0.0913744109
835850000.0 -0.0781130971 0.24121201
845800000.0 0.1129950449 0.2821245443
855750000.0 0.2936434441 0.1827881239
865700000.0 0.3721189912 -0.0241338218
875650000.0 0.2871873756 -0.2404572949
885600000.0 0.0845145792 -0.3305094242
895550000.0 -0.1340126406 -0.3041629934
905500000.0 -0.313774232 -0.1230153122
915450000.0 -0.3344936113 0.1544285599
925400000.0 -0.1630171519 0.385998101
935350000.0 0.1237970474 0.4423982673
945300000.0 0.3779800086 0.2778270034
955250000.0 0.4491258067 -0.042680288
965200000.0 0.2558082538 -0.3495147341
975150000.0 -0.136072286 -0.4275469888
985100000.0 -0.4827586719 -0.1563763374
995050000.0 -0.4915121951 0.3242984539
1005000000.0 -0.0886441844 0.6520888061
1014950000.0 0.4556721962 0.525253254
1024900000.0 0.7137970828 -0.027342599
1034850000.0 0.4262333406 -0.6167473264
1044800000.0 -0.2333867774 -0.758883632
1054750000.0 -0.7543574958 -0.3278394351
1064700000.0 -0.7690684305 0.3229282598
1074650000.0 -0.3427149797 0.7582404052
1084600000.0 0.2325034633 0.7676934446
1094550000.0 0.6640143359 0.3870347542
1104500000.0 0.7104974358 -0.1942144232
1114450000.0 0.34010492 -0.6400708104
1124400000.0 -0.211455762 -0.6872225664
1134350000.0 -0.6061448507 -0.3496678621
1144300000.0 -0.6575485021 0.1335565072
1154250000.0 -0.394313994 0.5084408879
1164200000.0 0.0291619611 0.6171862201
1174150000.0 0.4122756747 0.4270330272
1184100000.0 0.5723035514 0.0287034718
1194050000.0 0.4215902873 -0.3708387893
1204000000.0 0.0565579665 -0.5564355
1213950000.0 -0.3177534275 -0.4638082728
1223900000.0 -0.5421902882 -0.174386121
1233850000.0 -0.5517053266 0.178210279
1243800000.0 -0.3571224361 0.4659861071
1253750000.0 -0.0275699125 0.5836362482
1263700000.0 0.3143518669 0.4731759055
1273650000.0 0.5220859279 0.1692663722
1283600000.0 0.5043057149 -0.198447118
1293550000.0 0.2830132644 -0.4771164803
1303500000.0 -0.038991348 -0.5764651061
1313450000.0 -0.3461155775 -0.4873786774
1323400000.0 -0.5545562881 -0.2535304489
1333350000.0 -0.6133433961 0.0583306731
1343300000.0 -0.4947366692 0.3646793971
1353250000.0 -0.213195841 0.5579979612
1363200000.0 0.1420085335 0.550855714
1373150000.0 0.4317291638 0.3314672887
1383100000.0 0.5431363027 -0.0091956407
1393050000.0 0.4529685817 -0.3420571997
1403000000.0 0.2136508289 -0.5628782801
1412950000.0 -0.0866979285 -0.6195920002
1422900000.0 -0.361239609 -0.5107082597
1432850000.0 -0.5371416725 -0.2656674464
1442800000.0 -0.5566121893 0.0523563464
1452750000.0 -0.3899000751 0.3407090942
1462700000.0 -0.0818825481 0.4850804983
1472650000.0 0.2498923808 0.4283405076
1482600000.0 0.481612374 0.199213322
1492550000.0 0.5405281829 -0.1068317085
1502500000.0 0.4231592022 -0.3819027072
1512450000.0 0.1796340359 -0.5384669685
1522400000.0 -0.1044963807 -0.5273699229
1532350000.0 -0.331290824 -0.3482625906
1542300000.0 -0.4141639106 -0.0597683264
1552250000.0 -0.3098503195 0.2292289993
1562200000.0 -0.0583266565 0.3978107075
1572150000.0 0.2312261535 0.3812690073
1582100000.0 0.4400637005 0.2009564936
1592050000.0 0.4948048809 -0.0608881344
1602000000.0 0.3805663622 -0.3006240668
1611950000.0 0.1412482951 -0.4289736613
1621900000.0 -0.1377645693 -0.3879236806
1631850000.0 -0.3454300754 -0.1776692632
1641800000.0 -0.3859191397 0.1231148491
1651750000.0 -0.2343899348 0.3874675276
1661700000.0 0.0391197212 0.5010269815
1671650000.0 0.3175564726 0.4272798719
1681600000.0 0.4978550869 0.2061649863
1691550000.0 0.5240265008 -0.0806449425
1701500000.0 0.3857409008 -0.3415089926
1711450000.0 0.1213812507 -0.4877388857
1721400000.0 -0.1912607007 -0.4574929634
1731350000.0 -0.438276838 -0.2452916023
1741300000.0 -0.5207954134 0.0769453263
1751250000.0 -0.4078090569 0.3837413484
1761200000.0 -0.1528383088 0.5653180994
1771150000.0 0.1473957051 0.5774912064
1781100000.0 0.4027556162 0.43241357
1791050000.0 0.5481804934 0.1762324518
1801000000.0 0.5435251096 -0.1249949597
1810950000.0 0.3836508439 -0.3896956244
1820900000.0 0.1027675462 -0.5306892052
1830850000.0 -0.2131123995 -0.4861988071
1840800000.0 -0.4488458872 -0.2681674412
1850750000.0 -0.5234325313 0.0361996367
1860700000.0 -0.4324139706 0.3181353629
1870650000.0 -0.2249932881 0.5015509808
1880600000.0 0.0288824098 0.5509893232
1890550000.0 0.2593582258 0.4673128787
1900500000.0 0.4097131433 0.2767928222
1910450000.0 0.439274861 0.0312102373
1920400000.0 0.3337972094 -0.1943529931
1930350000.0 0.1265754548 -0.3189466816
1940300000.0 -0.0990720265 -0.303993148
1950250000.0 -0.260437586 -0.1785509285
1960200000.0 -0.3156385268 -0.0114506393
1970150000.0 -0.2803302373 0.1246289343
1980100000.0 -0.1972334462 0.2020386391
1990050000.0 -0.1073369474 0.2060337775
2000000000.0 -0.0688388118 0.1514874079
