!Created with skrf (http://scikit-rf.org).
# GHz S RI R 50.0 
!freq ReS11 ImS11
10000000.0 -1.000943613 0.1580389704
19950000.0 -0.9483430765 0.3027678662
29900000.0 -0.8740838632 0.4424100009
39850000.0 -0.7778682719 0.5812961485
49800000.0 -0.6612309629 0.714403554
59750000.0 -0.5184483084 0.835589937
69700000.0 -0.3411734232 0.9328027953
79650000.0 -0.1247352485 0.9870071162
89600000.0 0.1301692596 0.978255256
99550000.0 0.4094689151 0.8848980296
109500000.0 0.686281099 0.6901624895
119450000.0 0.9113741961 0.3803466066
129400000.0 0.9822550838 -0.0282250079
139350000.0 0.9234238589 -0.4444322758
149300000.0 0.6569782355 -0.7765365167
159250000.0 0.2974288415 -0.9516259422
169200000.0 -0.0632203355 -0.9809236154
179150000.0 -0.3727841818 -0.9075710092
189100000.0 -0.6137980568 -0.7731467051
199050000.0 -0.7830366168 -0.6057206491
209000000.0 -0.884004489 -0.4234619859
218950000.0 -0.9338476221 -0.2414255279
228900000.0 -0.9443924797 -0.0662605105
238850000.0 -0.9286166551 0.1004374119
248800000.0 -0.8644673343 0.2499758546
258750000.0 -0.8463670533 0.3988438323
268700000.0 -0.7766536866 0.5315257893
278650000.0 -0.6831625382 0.6440993205
288600000.0 -0.5642394532 0.7334759864
298550000.0 -0.4218684784 0.7957946583
308500000.0 -0.2602466362 0.8326714401
318450000.0 -0.0838140197 0.8391991988
328400000.0 0.1001270988 0.8076782056
338350000.0 0.2732884714 0.7268896657
348300000.0 0.4131737846 0.5919093437
358250000.0 0.4927480462 0.4109459279
368200000.0 0.495498004 0.2105049993
378150000.0 0.4259893531 0.0297045042
388100000.0 0.3101791741 -0.100729259
398050000.0 0.1807837132 -0.1686665313
408000000.0 0.0648718154 -0.1793704111
417950000.0 -0.0232231722 -0.147894859
427900000.0 -0.0817554209 -0.0928582178
437850000.0 -0.1146278722 -0.0299020565
447800000.0 -0.1274262925 0.0289091253
457750000.0 -0.1258176793 0.0749481568
467700000.0 -0.1129034702 0.1048400244
477650000.0 -0.0914344074 0.1170917957
487600000.0 -0.0633483328 0.1149531511
497550000.0 -0.0339082883 0.0983802853
507500000.0 -0.0048131614 0.0863301745
517450000.0 0.0186948177 0.0656977737
527400000.0 0.0313104968 0.0451199441
537350000.0 0.0299983672 0.0253290817
547300000.0 0.0171778963 0.0066859149
557250000.0 -0.0073192148 -0.0131691064
567200000.0 -0.0381931462 -0.0307132506
577150000.0 -0.0694686378 -0.0441978748
587100000.0 -0.0974594466 -0.0513565637
597050000.0 -0.1192070575 -0.0491923979
607000000.0 -0.1349949126 -0.0364216619
616950000.0 -0.1462003504 -0.0135207945
626900000.0 -0.1536736643 0.0177132597
636850000.0 -0.1579186444 0.0519465305
646800000.0 -0.1586655943 0.084790434
656750000.0 -0.15381233 0.1125824121
666700000.0 -0.1411160946 0.1324365123
676650000.0 -0.1184675572 0.1439913618
686600000.0 -0.0860109966 0.1480691256
696550000.0 -0.0463636159 0.1465532849
706500000.0 -0.0034180501 0.1397194189
716450000.0 0.0381851389 0.1274437125
726400000.0 0.0722696741 0.1072766184
736350000.0 0.0959832766 0.0772154321
746300000.0 0.1061751922 0.035625903
756250000.0 0.1032520084 -0.0178232978
766200000.0 0.0858658495 -0.078992146
776150000.0 0.0513276479 -0.1417727378
786100000.0 -0.0023523849 -0.1763301502
796050000.0 -0.0252815176 -0.1906516674
806000000.0 -0.0573951351 -0.2190757841
815950000.0 -0.1105546744 -0.2296419964
825900000.0 -0.1738362619 -0.2193872184
835850000.0 -0.2415281763 -0.1921684246
845800000.0 -0.3067765765 -0.1522128847
855750000.0 -0.3636733221 -0.1023899436
865700000.0 -0.4052287068 -0.0451070136
875650000.0 -0.4269673863 0.0201299733
885600000.0 -0.4254808068 0.0929263366
895550000.0 -0.4013618252 0.1713986747
905500000.0 -0.3561917933 0.253941656
915450000.0 -0.2934155981 0.3347662753
925400000.0 -0.2135405832 0.4052572884
935350000.0 -0.1173793309 0.4550613502
945300000.0 -0.0097778079 0.4752371081
955250000.0 0.1131976631 0.4625740247
965200000.0 0.2479962543 0.4019290239
975150000.0 0.3807461628 0.2876857696
985100000.0 0.489632118 0.1185809503
995050000.0 0.5441236573 -0.0992673749
1005000000.0 0.509776843 -0.3407295549
1014950000.0 0.364576119 -0.5633788802
1024900000.0 0.1150396511 -0.7117238573
1034850000.0 -0.1937081466 -0.7451097765
1044800000.0 -0.4988882932 -0.6521446313
1054750000.0 -0.7426429267 -0.4492309119
1064700000.0 -0.8709740271 -0.1726556714
1074650000.0 -0.8867114687 0.0949179988
1084600000.0 -0.8021138933 0.3648857778
1094550000.0 -0.6318032777 0.5841429401
1104500000.0 -0.394629185 0.74127637
1114450000.0 -0.1248003284 0.8141568881
1124400000.0 0.1481775543 0.7905161916
1134350000.0 0.3843682553 0.6708146442
1144300000.0 0.5516730529 0.4757475627
1154250000.0 0.6353427146 0.2456630742
1164200000.0 0.6479399456 0.0225690685
1174150000.0 0.6148815758 -0.1828396145
1184100000.0 0.5347498089 -0.3603628547
1194050000.0 0.4202856078 -0.4932567569
1204000000.0 0.2854264708 -0.5770056426
1213950000.0 0.1436775465 -0.6171767636
1223900000.0 0.0053478764 -0.6253196599
1233850000.0 -0.1230421028 -0.6132714919
1243800000.0 -0.2388617303 -0.5883767665
1253750000.0 -0.3395882196 -0.5547127356
1263700000.0 -0.423592569 -0.510402445
1273650000.0 -0.4911346838 -0.4569930961
1283600000.0 -0.5412472264 -0.3926882115
1293550000.0 -0.5782728025 -0.3201819603
1303500000.0 -0.6069752522 -0.2431066228
1313450000.0 -0.6310485992 -0.1655509132
1323400000.0 -0.652555545 -0.0912772616
1333350000.0 -0.6704584172 -0.0210898983
1343300000.0 -0.680589144 0.0450066953
1353250000.0 -0.6802969799 0.1063550833
1363200000.0 -0.6662502297 0.1647996228
1373150000.0 -0.63745825 0.2228629516
1383100000.0 -0.5992605506 0.2808071787
1393050000.0 -0.5558495229 0.3396479648
1403000000.0 -0.511223715 0.3970972828
1412950000.0 -0.4661975131 0.4513477198
1422900000.0 -0.4195993399 0.499285171
1432850000.0 -0.3699184023 0.5372465778
1442800000.0 -0.3134290472 0.5634693058
1452750000.0 -0.2489495626 0.5782352891
1462700000.0 -0.175423165 0.583667237
1472650000.0 -0.0950815301 0.5830052622
1482600000.0 -0.0113643451 0.5781797439
1492550000.0 0.0711686805 0.5680718417
1502500000.0 0.1509031287 0.5492336452
1512450000.0 0.2245781924 0.5179413898
1522400000.0 0.2897204233 0.4698066402
1532350000.0 0.3453644948 0.4026026298
1542300000.0 0.3918893124 0.319312223
1552250000.0 0.4296033848 0.2244416513
1562200000.0 0.4589698212 0.1244355658
1572150000.0 0.4761567884 0.0232184755
1582100000.0 0.4768483395 -0.0757083348
1592050000.0 0.4578984631 -0.1692847182
1602000000.0 0.416281734 -0.2545174142
1611950000.0 0.3553940455 -0.3297941615
1621900000.0 0.2801549167 -0.3969111461
1631850000.0 0.1961905712 -0.4560703908
1641800000.0 0.1088689872 -0.506159849
1651750000.0 0.0211679636 -0.5439358917
1661700000.0 -0.0633358076 -0.5659534798
1671650000.0 -0.1439980131 -0.5696699011
1681600000.0 -0.2195278709 -0.5549701681
1691550000.0 -0.2915643226 -0.5258726999
1701500000.0 -0.3607791642 -0.4873769507
1711450000.0 -0.427224833 -0.4454576183
1721400000.0 -0.4895590535 -0.4021379146
1731350000.0 -0.5459346206 -0.360657544
1741300000.0 -0.5923428583 -0.3179140923
1751250000.0 -0.6259826926 -0.2713163006
1761200000.0 -0.6458746366 -0.220187057
1771150000.0 -0.654685221 -0.1638346998
1781100000.0 -0.6577079376 -0.1041872306
1791050000.0 -0.659119797 -0.0434727395
1801000000.0 -0.6619447405 0.014731461
1810950000.0 -0.6672313903 0.069758956
1820900000.0 -0.6714094588 0.1203037137
1830850000.0 -0.6695030144 0.164510964
1840800000.0 -0.6568057482 0.2055334563
1850750000.0 -0.6317661338 0.2428677665
1860700000.0 -0.5951888424 0.278214916
1870650000.0 -0.5525908555 0.3132834108
1880600000.0 -0.5101242491 0.3467176434
1890550000.0 -0.4711750476 0.3784753967
1900500000.0 -0.4377503863 0.4053259428
1910450000.0 -0.4074256626 0.4252423552
1920400000.0 -0.3752947745 0.4368197044
1930350000.0 -0.3391349535 0.4369903426
1940300000.0 -0.2963722087 0.4269224763
1950250000.0 -0.2470770829 0.407790133
1960200000.0 -0.1941784015 0.3839459055
1970150000.0 -0.1438662117 0.3558269891
1980100000.0 -0.0989703044 0.3232115733
1990050000.0 -0.0603707657 0.2788362815
2000000000.0 -0.0287194759 0.1825048962
