!Created with skrf (http://scikit-rf.org).
# GHz S RI R 50.0 
!freq ReS11 ImS11
10000000.0 -0.8005752201 0.5998279557
19950000.0 -0.2938855577 0.9391566529
29900000.0 0.3130916621 0.9178480317
39850000.0 0.8003201433 0.5406049846
49800000.0 0.973951596 -0.06652796
59750000.0 0.7360834957 -0.6726418654
69700000.0 0.1522375185 -1.002728884
79650000.0 -0.5238728759 -0.8644634536
89600000.0 -0.9442700652 -0.2874754549
99550000.0 -0.8535174152 0.448628875
109500000.0 -0.2483363454 0.9285083139
119450000.0 0.5520599321 0.8093376196
129400000.0 0.9988642855 0.0922826589
139350000.0 0.7097074716 -0.7155491701
149300000.0 -0.0934548336 -0.9775792276
159250000.0 -0.7778899032 -0.5424754356
169200000.0 -0.9105156089 0.2174105235
179150000.0 -0.486142762 0.8149037415
189100000.0 0.2005454884 0.9463531754
199050000.0 0.7723585318 0.591167257
209000000.0 0.9625653061 -0.0338360353
218950000.0 0.7218435098 -0.6104167556
228900000.0 0.1927397924 -0.9059253125
238850000.0 -0.3956518095 -0.8241979611
248800000.0 -0.7880893254 -0.4037534318
258750000.0 -0.9146961415 0.1605479334
268700000.0 -0.652073732 0.6838144672
278650000.0 -0.1305314463 0.939670558
288600000.0 0.4335522508 0.8225681015
298550000.0 0.8060173539 0.3867615661
308500000.0 0.8365709415 -0.1852635361
318450000.0 0.5106883604 -0.6521994695
328400000.0 -0.0305580647 -0.8062640323
338350000.0 -0.5284595514 -0.5716612708
348300000.0 -0.7214120087 -0.0805171916
358250000.0 -0.5262388007 0.368369756
368200000.0 -0.1138035228 0.5187529404
378150000.0 0.2216175188 0.348645447
388100000.0 0.3023818159 0.046236904
398050000.0 0.163862568 -0.1594297825
408000000.0 -0.0319056102 -0.1709870243
417950000.0 -0.1282011149 -0.0509572909
427900000.0 -0.0896571707 0.0724341066
437850000.0 0.019637898 0.1098403791
447800000.0 0.1153597207 0.0497395432
457750000.0 0.1359287582 -0.0574451429
467700000.0 0.07491986 -0.1435944426
477650000.0 -0.0235741546 -0.1642513925
487600000.0 -0.1053791277 -0.1116194389
497550000.0 -0.1336097686 -0.0274379231
507500000.0 -0.101466125 0.0535210056
517450000.0 -0.0322243078 0.0889648313
527400000.0 0.0280460936 0.0761274373
537350000.0 0.0533142997 0.0388717607
547300000.0 0.04108521 0.0055440374
557250000.0 0.0118725493 -0.0007819385
567200000.0 -0.0054959346 0.0181084393
577150000.0 0.0065127516 0.043834026
587100000.0 0.0449654695 0.0460341694
597050000.0 0.0812334741 0.0106093025
607000000.0 0.0853633517 -0.0536115262
616950000.0 0.0429076927 -0.1163893677
626900000.0 -0.0383293526 -0.1409915908
636850000.0 -0.1256543108 -0.1097252955
646800000.0 -0.1742095703 -0.0261079115
656750000.0 -0.1614158294 0.0760881472
666700000.0 -0.0857107563 0.1502725231
676650000.0 0.0235896966 0.1618800735
686600000.0 0.1186571777 0.1021913801
696550000.0 0.1574194388 -0.008226342
706500000.0 0.1214185965 -0.1159616054
716450000.0 0.0287417024 -0.1732622027
726400000.0 -0.072314853 -0.1555575111
736350000.0 -0.1320273918 -0.0729478086
746300000.0 -0.1137050664 0.0285988434
756250000.0 -0.0258544749 0.0913973714
766200000.0 0.0824882359 0.075229635
776150000.0 0.1537229376 -0.0151087361
786100000.0 0.1370635278 -0.1292655549
796050000.0 0.0359579962 -0.202977978
806000000.0 -0.1017154887 -0.1763053837
815950000.0 -0.1978710662 -0.0476081574
825900000.0 -0.1822429127 0.1289487273
835850000.0 -0.0467679645 0.2668620256
845800000.0 0.1566219974 0.2857960494
855750000.0 0.3360256956 0.1645833903
865700000.0 0.4010093577 -0.0566709848
875650000.0 0.3038143624 -0.2807686788
885600000.0 0.0721076763 -0.3987926545
895550000.0 -0.197990888 -0.3387311284
905500000.0 -0.3801251211 -0.1091054689
915450000.0 -0.3764438805 0.1955858694
925400000.0 -0.1748954909 0.4313461888
935350000.0 0.1351167472 0.4778130038
945300000.0 0.4022641863 0.2971623907
955250000.0 0.4766993497 -0.0370937861
965200000.0 0.2851070203 -0.3480899459
975150000.0 -0.0996951197 -0.4317340418
985100000.0 -0.4450352855 -0.1830658076
995050000.0 -0.4780212832 0.262983003
1005000000.0 -0.1344072315 0.5865771135
1014950000.0 0.3766981525 0.5274961841
1024900000.0 0.6840728712 0.0404030454
1034850000.0 0.4660670077 -0.5677785671
1044800000.0 -0.1993300161 -0.7733381351
1054750000.0 -0.775714293 -0.3482885142
1064700000.0 -0.7979683445 0.349065715
1074650000.0 -0.3050954348 0.7906719502
1084600000.0 0.2162796799 0.7407754221
1094550000.0 0.6935629799 0.3989313396
1104500000.0 0.7467299254 -0.2195181489
1114450000.0 0.3431691375 -0.6821100312
1124400000.0 -0.2449203669 -0.7075490062
1134350000.0 -0.6445105184 -0.3293683595
1144300000.0 -0.6686650482 0.1805121636
1154250000.0 -0.3669231513 0.5490341315
1164200000.0 0.0801129385 0.6257198611
1174150000.0 0.461000068 0.3951354378
1184100000.0 0.5889893477 -0.0313430671
1194050000.0 0.3935998312 -0.4247817977
1204000000.0 -0.0029031643 -0.5750396292
1213950000.0 -0.3789477078 -0.4357438786
1223900000.0 -0.5762138723 -0.1099877108
1233850000.0 -0.5402432055 0.2543049102
1243800000.0 -0.2985590844 0.5239826721
1253750000.0 0.0627404588 0.5957291925
1263700000.0 0.4016616583 0.4281269605
1273650000.0 0.5696098891 0.0819115699
1283600000.0 0.4945185586 -0.2918237083
1293550000.0 0.2250286416 -0.5419143687
1303500000.0 -0.1225462579 -0.5958483164
1313450000.0 -0.4318445609 -0.4577991175
1323400000.0 -0.6189888526 -0.1797175746
1333350000.0 -0.6308735263 0.1604297408
1343300000.0 -0.4485161777 0.4613009159
1353250000.0 -0.114379366 0.6091015458
1363200000.0 0.2548118054 0.5331634439
1373150000.0 0.5143209463 0.2564733109
1383100000.0 0.572684839 -0.1089474103
1393050000.0 0.430227825 -0.4334259048
1403000000.0 0.1516675281 -0.6239992024
1412950000.0 -0.1727275132 -0.6382246296
1422900000.0 -0.4531135069 -0.4779194224
1432850000.0 -0.6041911671 -0.1823966231
1442800000.0 -0.5673373119 0.1607123236
1452750000.0 -0.3370928454 0.430990575
1462700000.0 0.0081827068 0.5238795763
1472650000.0 0.339335211 0.4075263717
1482600000.0 0.540439203 0.1373680762
1492550000.0 0.5568521952 -0.1837670483
1502500000.0 0.3981594523 -0.4505053279
1512450000.0 0.1236327378 -0.5794507289
1522400000.0 -0.1767688924 -0.5270923844
1532350000.0 -0.3944657102 -0.3038261729
1542300000.0 -0.4429466078 0.0137103354
1552250000.0 -0.292145148 0.3023350757
1562200000.0 -0.0065531402 0.4398791255
1572150000.0 0.292821611 0.3832562616
1582100000.0 0.4886785075 0.1663396094
1592050000.0 0.5123866258 -0.1164758671
1602000000.0 0.3613785508 -0.3559666913
1611950000.0 0.0904068338 -0.4607821982
1621900000.0 -0.2010806661 -0.3820338249
1631850000.0 -0.3953030472 -0.1366457543
1641800000.0 -0.4018024116 0.1830307354
1651750000.0 -0.2128957816 0.4391008018
1661700000.0 0.0878981379 0.5250393893
1671650000.0 0.3748550256 0.4159332227
1681600000.0 0.5428602551 0.1626801512
1691550000.0 0.538952848 -0.144226958
1701500000.0 0.3623627172 -0.4027637607
1711450000.0 0.0625265974 -0.5254412949
1721400000.0 -0.2686851562 -0.4543343433
1731350000.0 -0.5061028428 -0.1982465215
1741300000.0 -0.5521401752 0.1494013324
1751250000.0 -0.3926552262 0.4531212899
1761200000.0 -0.0996838294 0.6080715894
1771150000.0 0.2200341086 0.580353122
1781100000.0 0.4733163407 0.3941135558
1791050000.0 0.5969176523 0.1037521547
1801000000.0 0.5538894772 -0.2160098103
1810950000.0 0.3430843474 -0.4738115837
1820900000.0 0.0170038854 -0.5751893636
1830850000.0 -0.3138011081 -0.4704821112
1840800000.0 -0.5247818093 -0.2003243405
1850750000.0 -0.5515961644 0.1264444359
1860700000.0 -0.4109441179 0.3997457934
1870650000.0 -0.1659986608 0.5526108283
1880600000.0 0.1074758628 0.5565535905
1890550000.0 0.3265283226 0.4145036109
1900500000.0 0.4358647348 0.2240602211
1910450000.0 0.4546148515 -0.0293989463
1920400000.0 0.316655917 -0.254786889
1930350000.0 0.0816814919 -0.3555464574
1940300000.0 -0.1505426046 -0.3102904931
1950250000.0 -0.3030299421 -0.164109735
1960200000.0 -0.3500289209 0.0140126695
1970150000.0 -0.3030655821 0.1624028773
1980100000.0 -0.202646753 0.2408872701
1990050000.0 -0.1031035131 0.2396793609
2000000000.0 -0.0553607302 0.1845434118
