!Created with skrf (http://scikit-rf.org).
# GHz S RI R 50.0 
!freq ReS11 ImS11
10000000.0 -0.7655493344 0.6764749157
19950000.0 -0.1339268645 0.9880584723
29900000.0 0.5414433151 0.8150617295
39850000.0 0.9447723365 0.2404842083
49800000.0 0.8691292562 -0.4695251543
59750000.0 0.3212454331 -0.9576244954
69700000.0 -0.4347659553 -0.9289182634
79650000.0 -0.9583019045 -0.3530597497
89600000.0 -0.8945618785 0.4413413767
99550000.0 -0.2487096921 0.9375447287
109500000.0 0.5712414965 0.7700841791
119450000.0 0.9739549813 0.0015553658
129400000.0 0.5883754589 -0.8092847592
139350000.0 -0.3200452493 -0.9590359979
149300000.0 -0.9459757499 -0.2913206329
159250000.0 -0.7628281188 0.577359767
169200000.0 0.0067650466 0.9411717365
179150000.0 0.7483732233 0.58882858
189100000.0 0.9607485441 -0.1782958464
199050000.0 0.5452153541 -0.8319263965
209000000.0 -0.1955060946 -0.9706589698
218950000.0 -0.7930356155 -0.5526414057
228900000.0 -0.9284227587 0.14495802
238850000.0 -0.555369959 0.738062118
248800000.0 0.0014394887 0.8969202493
258750000.0 0.6917189468 0.6413576215
268700000.0 0.9602769798 0.0120450741
278650000.0 0.7291462266 -0.625885761
288600000.0 0.1298449164 -0.9299131584
298550000.0 -0.506868571 -0.7441946053
308500000.0 -0.8396279201 -0.1797510613
318450000.0 -0.69059112 0.4491782245
328400000.0 -0.1484845272 0.7834200191
338350000.0 0.4528314982 0.625264082
348300000.0 0.7217197026 0.0994718791
358250000.0 0.5092588216 -0.4051493992
368200000.0 0.0364463141 -0.5489143104
378150000.0 -0.3191866023 -0.3082681641
388100000.0 -0.3441480201 0.0587252298
398050000.0 -0.1148472704 0.2637467054
408000000.0 0.1301430865 0.2121287034
417950000.0 0.2108365043 0.0234730432
427900000.0 0.1216943752 -0.1225543007
437850000.0 -0.021872812 -0.1337119985
447800000.0 -0.1040791325 -0.0390449065
457750000.0 -0.0831737878 0.0688127317
467700000.0 0.001528996 0.1115597402
477650000.0 0.0744490622 0.0745656315
487600000.0 0.0749260312 0.0063151643
497550000.0 0.0934464136 -0.0393249475
507500000.0 0.0179640394 -0.0554334825
517450000.0 -0.015329102 -0.0243476984
527400000.0 -0.0078146273 0.0052356578
537350000.0 0.0172832349 0.0044292791
547300000.0 0.0227367219 -0.0307498272
557250000.0 -0.0157867192 -0.0587088654
567200000.0 -0.0728766839 -0.0453188498
577150000.0 -0.107951414 0.0158834632
587100000.0 -0.0856035069 0.0950314955
597050000.0 -0.004472033 0.1414227372
607000000.0 0.0969032127 0.1157000386
616950000.0 0.1598584358 0.0201276627
626900000.0 0.1430890526 -0.1007616152
636850000.0 0.047394848 -0.1840658809
646800000.0 -0.0811099358 -0.1832533468
656750000.0 -0.1757560939 -0.095965736
666700000.0 -0.1846326564 0.0312454965
676650000.0 -0.1049939159 0.1281239972
686600000.0 0.0154904634 0.1396240564
696550000.0 0.1045749782 0.0622939966
706500000.0 0.1144603116 -0.04745686
716450000.0 0.0534726977 -0.1119459863
726400000.0 -0.0349329005 -0.1189505541
736350000.0 -0.0916043805 -0.0599820341
746300000.0 -0.0724291301 0.023396727
756250000.0 0.0142411515 0.0578868807
766200000.0 0.1021583477 0.0022513418
776150000.0 0.1156850829 -0.1155910244
786100000.0 0.0239525567 -0.2152782203
796050000.0 -0.1300359998 -0.2138152545
806000000.0 -0.2481505185 -0.0847806206
815950000.0 -0.2376669985 0.1128769996
825900000.0 -0.0752677397 0.2622719257
835850000.0 0.1653914742 0.2585699084
845800000.0 0.352084226 0.0804024615
855750000.0 0.3710868853 -0.1913446134
865700000.0 0.1951674774 -0.414856427
875650000.0 -0.0966917338 -0.4639339642
885600000.0 -0.3558100022 -0.2968437471
895550000.0 -0.4370198917 0.0133573726
905500000.0 -0.2793658847 0.3059668802
915450000.0 0.0453187026 0.4130258177
925400000.0 0.3570919908 0.2605146793
935350000.0 0.4704250065 -0.0708335342
945300000.0 0.3094859781 -0.3843398899
955250000.0 -0.0352645959 -0.4798521332
965200000.0 -0.3438409458 -0.2768950868
975150000.0 -0.3835596225 0.1111263937
985100000.0 -0.0726256723 0.3938547711
995050000.0 0.3711919211 0.2848285982
1005000000.0 0.5292219882 -0.1910841956
1014950000.0 0.1796493834 -0.6142446109
1024900000.0 -0.4200158085 -0.5450617607
1034850000.0 -0.7268614724 0.047782114
1044800000.0 -0.3674545656 0.6867003004
1054750000.0 0.3875126746 0.7003872527
1064700000.0 0.827825997 0.1968852631
1074650000.0 0.719675126 -0.5249112176
1084600000.0 0.0980120375 -0.8671996293
1094550000.0 -0.5422666164 -0.6316056806
1104500000.0 -0.7880421655 -0.0023049385
1114450000.0 -0.4606578688 0.5878361285
1124400000.0 0.1941746002 0.6819232186
1134350000.0 0.6299966947 0.2370883798
1144300000.0 0.5455323473 -0.3211984901
1154250000.0 0.1046453913 -0.579835195
1164200000.0 -0.3392469006 -0.4338341603
1174150000.0 -0.5266642768 -0.0225650459
1184100000.0 -0.3347854384 0.391334599
1194050000.0 0.1053486342 0.5049284754
1204000000.0 0.4675081269 0.2458694445
1213950000.0 0.5177361542 -0.1797888237
1223900000.0 0.264289928 -0.505391759
1233850000.0 -0.1313358101 -0.5757344196
1243800000.0 -0.4778345268 -0.3715704044
1253750000.0 -0.6124637038 0.0155845245
1263700000.0 -0.4557889315 0.4082932477
1273650000.0 -0.067426675 0.6021848322
1283600000.0 0.3544573994 0.4878565723
1293550000.0 0.5959065318 0.1309836761
1303500000.0 0.5604995306 -0.2866470201
1313450000.0 0.2878797789 -0.5885326389
1323400000.0 -0.1050432085 -0.6708129909
1333350000.0 -0.4729432543 -0.5072231197
1343300000.0 -0.6775083957 -0.1487721892
1353250000.0 -0.6187947917 0.2732131158
1363200000.0 -0.2991281927 0.5740909714
1373150000.0 0.1440109905 0.6031836778
1383100000.0 0.5007316673 0.3488203915
1393050000.0 0.6205086346 -0.0579579024
1403000000.0 0.4781926722 -0.4393411565
1412950000.0 0.1515003922 -0.6568717866
1422900000.0 -0.2318575925 -0.6449626515
1432850000.0 -0.5335385995 -0.4148146582
1442800000.0 -0.6424550846 -0.0496755575
1452750000.0 -0.5090140311 0.3140981176
1462700000.0 -0.1710512344 0.5229555289
1472650000.0 0.2274244867 0.4716093744
1482600000.0 0.4987475795 0.1814818962
1492550000.0 0.5238174004 -0.2028307036
1502500000.0 0.3107768596 -0.5065359408
1512450000.0 -0.0317308131 -0.6087211049
1522400000.0 -0.3565905804 -0.4795097623
1532350000.0 -0.5256685349 -0.1772749222
1542300000.0 -0.4618343997 0.1637667739
1552250000.0 -0.1891664455 0.3781384146
1562200000.0 0.1524648431 0.3548779113
1572150000.0 0.3824641959 0.1124447785
1582100000.0 0.384698325 -0.2112165323
1592050000.0 0.1733720986 -0.4415508589
1602000000.0 -0.1311158804 -0.4673248668
1611950000.0 -0.3726493722 -0.2813602143
1621900000.0 -0.4277563511 0.0227050445
1631850000.0 -0.2582626423 0.2916020316
1641800000.0 0.0586771269 0.3742573245
1651750000.0 0.3525385552 0.2104881064
1661700000.0 0.4517002603 -0.114605227
1671650000.0 0.3018815122 -0.4204523765
1681600000.0 -0.0125829006 -0.5482111888
1691550000.0 -0.3369890106 -0.4426740005
1701500000.0 -0.5265317803 -0.1531297448
1711450000.0 -0.4954247093 0.2012780442
1721400000.0 -0.239186399 0.4696498978
1731350000.0 0.1438661577 0.5156200057
1741300000.0 0.4742685896 0.2972647438
1751250000.0 0.5842676819 -0.0862372131
1761200000.0 0.4250221907 -0.4460764948
1771150000.0 0.0868436495 -0.6249666218
1781100000.0 -0.2816472939 -0.5691728789
1791050000.0 -0.5466888894 -0.3162302828
1801000000.0 -0.6207388701 0.0444755929
1810950000.0 -0.4694789385 0.3891982028
1820900000.0 -0.1307057187 0.5816592606
1830850000.0 0.2640565313 0.5198593059
1840800000.0 0.5311526956 0.2210022793
1850750000.0 0.5475473604 -0.1709638368
1860700000.0 0.3294467544 -0.4741961235
1870650000.0 -0.0056021367 -0.583193893
1880600000.0 -0.324463792 -0.4884015688
1890550000.0 -0.5281347294 -0.2436180324
1900500000.0 -0.5589825781 0.0654286877
1910450000.0 -0.4081499668 0.3333422825
1920400000.0 -0.1294999783 0.455644509
1930350000.0 0.1566704533 0.3795257286
1940300000.0 0.3197580016 0.1515340815
1950250000.0 0.3033461963 -0.1033721592
1960200000.0 0.153160037 -0.2707561013
1970150000.0 -0.0339533055 -0.3068647391
1980100000.0 -0.1718387371 -0.2390021093
1990050000.0 -0.2222955833 -0.1374358866
2000000000.0 -0.2062773747 -0.0735503631
