!Created with skrf (http://scikit-rf.org).
# GHz S RI R 50.0 
!freq ReS11 ImS11
10000000.0 -0.8165777525 0.6121394122
19950000.0 -0.2943443526 0.9528804312
29900000.0 0.3230979689 0.9260141342
39850000.0 0.8139802459 0.5432629081
49800000.0 0.9891426393 -0.0660843869
59750000.0 0.7541178023 -0.6739162108
69700000.0 0.1728990142 -1.009594331
79650000.0 -0.505939542 -0.884198367
89600000.0 -0.9412921502 -0.3261203012
99550000.0 -0.886395838 0.3975150478
109500000.0 -0.3337448892 0.9024603798
119450000.0 0.4450555589 0.8691059617
129400000.0 0.9701145705 0.2429877734
139350000.0 0.8318540098 -0.5733457396
149300000.0 0.102166001 -0.9850144965
159250000.0 -0.6614350054 -0.6938324768
169200000.0 -0.9416394277 0.0406676433
179150000.0 -0.6183298836 0.7234620438
189100000.0 0.0676058912 0.9716443877
199050000.0 0.7124978154 0.6851569285
209000000.0 0.9803465723 0.0550371867
218950000.0 0.772240964 -0.567758977
228900000.0 0.2298816515 -0.9048110318
238850000.0 -0.3929449035 -0.8323711985
248800000.0 -0.6431922052 -0.4010234874
258750000.0 -0.9250733102 0.1711985787
268700000.0 -0.6386613151 0.7100580142
278650000.0 -0.0826840261 0.9486483097
288600000.0 0.4951055071 0.7853184941
298550000.0 0.8386446944 0.3007249744
308500000.0 0.802984257 -0.2864776994
318450000.0 0.4095450125 -0.7137358354
328400000.0 -0.1579913365 -0.7866134681
338350000.0 -0.6184638346 -0.4710969402
348300000.0 -0.7287350962 0.0513689452
358250000.0 -0.4566011481 0.4680665444
368200000.0 -0.0126358273 0.5542899056
378150000.0 0.3160297007 0.3256061776
388100000.0 0.3701000946 -0.0163089462
398050000.0 0.1914995716 -0.2466899285
408000000.0 -0.0475642075 -0.265082378
417950000.0 -0.1880221043 -0.1276300398
427900000.0 -0.1787495695 0.0359274961
437850000.0 -0.0694697897 0.1221584008
447800000.0 0.0483167895 0.1051197793
457750000.0 0.1073240311 0.0231728299
467700000.0 0.0903952536 -0.0601557325
477650000.0 0.0297643445 -0.0949361272
487600000.0 -0.0245133302 -0.0708934748
497550000.0 0.0190975384 -0.0845115908
507500000.0 -0.0489934737 -0.0059551012
517450000.0 -0.014314962 0.0137255796
527400000.0 0.0071531612 0.0007171041
537350000.0 0.0001574019 -0.0206965698
547300000.0 -0.0349029106 -0.0261100655
557250000.0 -0.0653961882 0.0121498057
567200000.0 -0.0595043919 0.0673735663
577150000.0 -0.0117185483 0.1108749777
587100000.0 0.061006055 0.1120982733
597050000.0 0.1256664668 0.0599373403
607000000.0 0.1447636664 -0.03131368
616950000.0 0.1009462978 -0.1228787632
626900000.0 0.0064114639 -0.1726460747
636850000.0 -0.102474252 -0.1563076009
646800000.0 -0.1796458649 -0.0767229386
656750000.0 -0.1905697365 0.033830822
666700000.0 -0.1285248726 0.12633757
676650000.0 -0.0210973208 0.1588300188
686600000.0 0.0830152226 0.1157134677
696550000.0 0.1364889077 0.0183024499
706500000.0 0.115942056 -0.0848923832
716450000.0 0.0379297218 -0.1447968008
726400000.0 -0.054340453 -0.1326046847
736350000.0 -0.1058225469 -0.0574499496
746300000.0 -0.0834269404 0.034738309
756250000.0 0.0059848556 0.0857340623
766200000.0 0.1118243987 0.0572026116
776150000.0 0.1709115988 -0.0417349935
786100000.0 0.1442998848 -0.1619945301
796050000.0 0.0310570428 -0.2374631606
806000000.0 -0.1205819419 -0.2118257934
815950000.0 -0.2305563079 -0.0762602437
825900000.0 -0.2294137513 0.1172537877
835850000.0 -0.0986331066 0.2808527062
845800000.0 0.1155103694 0.332140197
855750000.0 0.3234444437 0.2361811043
865700000.0 0.4293224008 0.0237608228
875650000.0 0.3751369171 -0.2174442091
885600000.0 0.1705642021 -0.379366113
895550000.0 -0.1048821056 -0.3762622005
905500000.0 -0.3266970158 -0.1944750765
915450000.0 -0.3849154148 0.0952551759
925400000.0 -0.239823008 0.3558741969
935350000.0 0.043567352 0.4519848766
945300000.0 0.3178328139 0.3246128152
955250000.0 0.4268402932 0.0294003577
965200000.0 0.2787416359 -0.2760713196
975150000.0 -0.0793859265 -0.3818297531
985100000.0 -0.4234924538 -0.151693517
995050000.0 -0.4557593718 0.3040497286
1005000000.0 -0.0763166964 0.631676911
1014950000.0 0.4633648224 0.5167055639
1024900000.0 0.7325318255 -0.0275157997
1034850000.0 0.4553090851 -0.6291368013
1044800000.0 -0.225504738 -0.7971109154
1054750000.0 -0.7806655845 -0.3605818774
1064700000.0 -0.7743233081 0.2672009702
1074650000.0 -0.3846873458 0.6832178226
1084600000.0 0.0522466211 0.7785076406
1094550000.0 0.5887526476 0.5213643802
1104500000.0 0.7527965499 -0.0598990311
1114450000.0 0.4445210891 -0.571526481
1124400000.0 -0.1171634448 -0.6840189867
1134350000.0 -0.5452796566 -0.3710516487
1144300000.0 -0.6115513472 0.1079886864
1154250000.0 -0.3474036991 0.4663804483
1164200000.0 0.0631431901 0.5403477589
1174150000.0 0.4045571958 0.3269650249
1184100000.0 0.5062425037 -0.0651483568
1194050000.0 0.3030376298 -0.4122934776
1204000000.0 -0.0721642962 -0.5171308651
1213950000.0 -0.4055369377 -0.3555418835
1223900000.0 -0.5583954371 -0.0350745116
1233850000.0 -0.490469672 0.3046676156
1243800000.0 -0.2339316966 0.5396856998
1253750000.0 0.1201354615 0.5782071164
1263700000.0 0.4359378516 0.390904531
1273650000.0 0.576994109 0.0435945156
1283600000.0 0.4836876996 -0.3187819736
1293550000.0 0.2079823348 -0.5558932879
1303500000.0 -0.1402079316 -0.6023480489
1313450000.0 -0.4508050949 -0.4621642884
1323400000.0 -0.6402393973 -0.1841075365
1333350000.0 -0.6551552066 0.1557230399
1343300000.0 -0.4776256062 0.4606551511
1353250000.0 -0.1466947854 0.6208202268
1363200000.0 0.2279226769 0.5630166746
1373150000.0 0.5062113031 0.3023226287
1383100000.0 0.5916982529 -0.0604477477
1393050000.0 0.4752332513 -0.3974567632
1403000000.0 0.2120398866 -0.6136194119
1412950000.0 -0.1138355935 -0.6594175349
1422900000.0 -0.4116032832 -0.52967711
1432850000.0 -0.5943506502 -0.2572571211
1442800000.0 -0.5990710449 0.0790147095
1452750000.0 -0.4131846161 0.369653464
1462700000.0 -0.092529562 0.5123291873
1472650000.0 0.2503395061 0.4550879723
1482600000.0 0.4968128035 0.2258617012
1492550000.0 0.5729742028 -0.0855730576
1502500000.0 0.4691420708 -0.3731467011
1512450000.0 0.2292512747 -0.5489031714
1522400000.0 -0.0677363041 -0.5565360687
1532350000.0 -0.319251985 -0.3868337341
1542300000.0 -0.4261439498 -0.0951302741
1552250000.0 -0.3398194597 0.2056926763
1562200000.0 -0.0957940552 0.3917597782
1572150000.0 0.1981496765 0.3943153052
1582100000.0 0.4214400499 0.2267196183
1592050000.0 0.4929756798 -0.0314748129
1602000000.0 0.3928202428 -0.2762827923
1611950000.0 0.1591742147 -0.4129271897
1621900000.0 -0.1198662621 -0.3800687282
1631850000.0 -0.3286762561 -0.1775105103
1641800000.0 -0.3733352722 0.1080230604
1651750000.0 -0.2411274889 0.376473262
1661700000.0 0.032042117 0.5006804016
1671650000.0 0.3186340851 0.4321796406
1681600000.0 0.5069000232 0.2093271333
1691550000.0 0.5345885039 -0.0840126903
1701500000.0 0.3896769126 -0.3509260045
1711450000.0 0.1102136217 -0.4995428258
1721400000.0 -0.2204724554 -0.4630411164
1731350000.0 -0.4768687961 -0.2366980422
1741300000.0 -0.5534271262 0.0983835065
1751250000.0 -0.424520506 0.4104547399
1761200000.0 -0.152163057 0.5899357542
1771150000.0 0.1632591593 0.5954059679
1781100000.0 0.4313498675 0.4408069532
1791050000.0 0.5850888148 0.172004145
1801000000.0 0.5805593278 -0.1451976047
1810950000.0 0.4037504479 -0.4231153234
1820900000.0 0.0928393982 -0.5639977862
1830850000.0 -0.2481433453 -0.5038402143
1840800000.0 -0.4909892937 -0.2646501734
1850750000.0 -0.558158974 0.0542560986
1860700000.0 -0.4535294822 0.3405514903
1870650000.0 -0.2334461976 0.5229536944
1880600000.0 0.0329834021 0.569975591
1890550000.0 0.2800902917 0.48071661
1900500000.0 0.4456382492 0.2779591888
1910450000.0 0.475943109 0.0156641392
1920400000.0 0.3544781578 -0.2182070631
1930350000.0 0.1296748208 -0.3375778298
1940300000.0 -0.1075239654 -0.3134258717
1950250000.0 -0.2708196163 -0.1798568105
1960200000.0 -0.326516687 -0.010605349
1970150000.0 -0.2898408782 0.1282062412
1980100000.0 -0.205109481 0.1960587569
1990050000.0 -0.1316010977 0.1894970719
2000000000.0 -0.120543144 0.1480195365
