!Created with skrf (http://scikit-rf.org).
# GHz S RI R 50.0 
!freq ReS11 ImS11
10000000.0 -0.7301396465 0.5652753367
19950000.0 -0.2627818273 0.8946365003
29900000.0 0.3119516212 0.882230725
39850000.0 0.7776559323 0.5187111509
49800000.0 0.93378748 -0.0715951172
59750000.0 0.6874605821 -0.651494232
69700000.0 0.1190995723 -0.9535712379
79650000.0 -0.5211306032 -0.8076896142
89600000.0 -0.9146317441 -0.2489473922
99550000.0 -0.8234240687 0.4641230575
109500000.0 -0.233594733 0.9310124255
119450000.0 0.5450693428 0.8089808402
129400000.0 0.9754792181 0.1074439388
139350000.0 0.7043554455 -0.6793841528
149300000.0 -0.0665102302 -0.9551290387
159250000.0 -0.7463780302 -0.5528138959
169200000.0 -0.8975777313 0.1833923107
179150000.0 -0.5026966402 0.7680887937
189100000.0 0.1442935052 0.9023796958
199050000.0 0.6872242568 0.5763345671
209000000.0 0.8860811964 -0.0097559709
218950000.0 0.6823666324 -0.5681069372
228900000.0 0.1900673324 -0.8677924578
238850000.0 -0.3720927481 -0.7985283249
248800000.0 -0.7517302235 -0.4121076052
258750000.0 -0.8545942185 0.1465690238
268700000.0 -0.597140238 0.6391933605
278650000.0 -0.1065520436 0.8755980398
288600000.0 0.4201581563 0.7642603231
298550000.0 0.7713287256 0.3492505373
308500000.0 0.7974428286 -0.2018866152
318450000.0 0.4759217285 -0.6496050768
328400000.0 -0.0498077521 -0.7855825121
338350000.0 -0.5216264355 -0.5443400255
348300000.0 -0.6948463562 -0.0636966787
358250000.0 -0.4991263214 0.3733843229
368200000.0 -0.0945367961 0.5246442306
378150000.0 0.2417443796 0.3616349059
388100000.0 0.332127478 0.0621085419
398050000.0 0.2010107313 -0.1514635572
408000000.0 0.0055373669 -0.1788805339
417950000.0 -0.1082895225 -0.0729538109
427900000.0 -0.095869428 0.0502121691
437850000.0 -0.0069448355 0.0983228821
447800000.0 0.0741417003 0.0542548258
457750000.0 0.0926481502 -0.0343811116
467700000.0 0.0422417073 -0.1079415953
477650000.0 -0.0386675046 -0.123636182
487600000.0 -0.10271198 -0.0791948816
497550000.0 -0.1189704325 -0.0054640086
507500000.0 -0.0824388372 0.0623058061
517450000.0 -0.018864438 0.0841406197
527400000.0 0.0354034329 0.0621337538
537350000.0 0.0526563032 0.0161263667
547300000.0 0.032407917 -0.0198231758
557250000.0 -0.0050503231 -0.0269090305
567200000.0 -0.0310573922 -0.0042277286
577150000.0 -0.0246929485 0.0268902253
587100000.0 0.0109999469 0.0375782775
597050000.0 0.0520257439 0.0102175218
607000000.0 0.0672375006 -0.047388205
616950000.0 0.038141694 -0.1066263893
626900000.0 -0.0269695576 -0.1332947011
636850000.0 -0.0971707176 -0.1060060933
646800000.0 -0.1365541312 -0.0323809999
656750000.0 -0.1221795934 0.0575354206
666700000.0 -0.053192648 0.1237663947
676650000.0 0.0436711184 0.1328645285
686600000.0 0.1269306747 0.0738609715
696550000.0 0.1558634771 -0.0264651599
706500000.0 0.1130355311 -0.1246202131
716450000.0 0.0171956566 -0.174175115
726400000.0 -0.086327286 -0.1465625203
736350000.0 -0.1419806674 -0.0543906256
746300000.0 -0.116049095 0.0557781135
756250000.0 -0.0174063451 0.123467153
766200000.0 0.1033770539 0.1081728198
776150000.0 0.183760266 0.0143811992
786100000.0 0.1753240363 -0.1112202734
796050000.0 0.0747457821 -0.1994192528
806000000.0 -0.0713021266 -0.1915297101
815950000.0 -0.1869990883 -0.0765621796
825900000.0 -0.1999803239 0.0966961151
835850000.0 -0.0923987623 0.2445486552
845800000.0 0.0913812233 0.2867291645
855750000.0 0.2680901099 0.1936833538
865700000.0 0.3516611663 -0.003347842
875650000.0 0.2892392576 -0.2200016641
885600000.0 0.0921069125 -0.3506713327
895550000.0 -0.1550418012 -0.3158301215
905500000.0 -0.3269536819 -0.1180068697
915450000.0 -0.3303339284 0.1521415481
925400000.0 -0.1619203242 0.3620237658
935350000.0 0.0994325332 0.4157920267
945300000.0 0.3383815702 0.2808697896
955250000.0 0.4331595222 -0.0015877561
965200000.0 0.2978367196 -0.3030426517
975150000.0 -0.0423902662 -0.4334893628
985100000.0 -0.4001442277 -0.2540857207
995050000.0 -0.5066440434 0.1679964092
1005000000.0 -0.2393779684 0.5479026774
1014950000.0 0.2607050683 0.5921434411
1024900000.0 0.6527593535 0.1939542114
1034850000.0 0.5829289247 -0.4140271987
1044800000.0 0.0250265742 -0.7506950159
1054750000.0 -0.5957621174 -0.4977483872
1064700000.0 -0.7853933941 0.1397547661
1074650000.0 -0.4445346798 0.6725619201
1084600000.0 0.0979090816 0.7162944547
1094550000.0 0.5660516741 0.5212384806
1104500000.0 0.7364040692 -0.0635446349
1114450000.0 0.4169225211 -0.5767186859
1124400000.0 -0.1471388535 -0.682463445
1134350000.0 -0.5786067609 -0.3652940609
1144300000.0 -0.6570211596 0.1265634617
1154250000.0 -0.3983886365 0.5142464653
1164200000.0 0.0308619378 0.6216972731
1174150000.0 0.4124342252 0.4219999068
1184100000.0 0.5632781965 0.0164859161
1194050000.0 0.3995909565 -0.378996071
1204000000.0 0.0250415418 -0.5522075973
1213950000.0 -0.3468520808 -0.4472597312
1223900000.0 -0.5625673661 -0.1505411118
1233850000.0 -0.5595847967 0.2006043918
1243800000.0 -0.3538890806 0.4774670876
1253750000.0 -0.0202001016 0.5785313166
1263700000.0 0.3172179437 0.4538957649
1273650000.0 0.5168670985 0.1436940456
1283600000.0 0.4934634762 -0.2221503984
1293550000.0 0.2704366906 -0.4953582067
1303500000.0 -0.049241851 -0.587651305
1313450000.0 -0.3500891054 -0.4922013199
1323400000.0 -0.5498133413 -0.2555272424
1333350000.0 -0.6006491685 0.0538035724
1343300000.0 -0.4787001956 0.353749464
1353250000.0 -0.2002578232 0.5413659169
1363200000.0 0.150177997 0.5327212093
1373150000.0 0.4354257456 0.317160163
1383100000.0 0.545474697 -0.0191630036
1393050000.0 0.4533002338 -0.3458564535
1403000000.0 0.2143535225 -0.5575112275
1412950000.0 -0.080886704 -0.6049461472
1422900000.0 -0.344407951 -0.489560898
1432850000.0 -0.5102202238 -0.2478283786
1442800000.0 -0.526633687 0.0623466022
1452750000.0 -0.3630069237 0.3418178055
1462700000.0 -0.0632264652 0.4800935859
1472650000.0 0.2589896796 0.4175469434
1482600000.0 0.4758331087 0.1864002206
1492550000.0 0.5186556416 -0.1136395771
1502500000.0 0.3897686382 -0.3744428395
1512450000.0 0.1450503743 -0.513074938
1522400000.0 -0.130145746 -0.4866041534
1532350000.0 -0.3406817454 -0.3011999419
1542300000.0 -0.4034110408 -0.0149642128
1552250000.0 -0.2792576453 0.2574135689
1562200000.0 -0.0170309457 0.3964712809
1572150000.0 0.263418514 0.3469567433
1582100000.0 0.4478044886 0.1455949464
1592050000.0 0.4706982115 -0.1197884395
1602000000.0 0.3319468114 -0.3453566871
1611950000.0 0.0769406319 -0.4466359895
1621900000.0 -0.2012670608 -0.3725481163
1631850000.0 -0.3871003714 -0.1347824898
1641800000.0 -0.3906040706 0.1758334227
1651750000.0 -0.2040356682 0.4216685974
1661700000.0 0.0880810733 0.503402559
1671650000.0 0.3666616943 0.3998705421
1681600000.0 0.5350250042 0.1597227865
1691550000.0 0.5434403151 -0.1355589001
1701500000.0 0.3846310928 -0.3916913715
1711450000.0 0.102380782 -0.5214258956
1721400000.0 -0.2168233118 -0.4650145681
1731350000.0 -0.4572930561 -0.2279382401
1741300000.0 -0.525027783 0.1060958049
1751250000.0 -0.3982428412 0.412508382
1761200000.0 -0.1351663013 0.5888876494
1771150000.0 0.1699121895 0.5951263896
1781100000.0 0.4278295805 0.4449802467
1791050000.0 0.5728969294 0.1828440423
1801000000.0 0.56564985 -0.1231249232
1810950000.0 0.4000087712 -0.3900041364
1820900000.0 0.112503353 -0.5294347769
1830850000.0 -0.2101177653 -0.483434121
1840800000.0 -0.4550034693 -0.2632217131
1850750000.0 -0.5388100864 0.0447557101
1860700000.0 -0.4531337238 0.3324652624
1870650000.0 -0.2462290246 0.5212552382
1880600000.0 0.0113252853 0.5738656492
1890550000.0 0.2468593223 0.4875760524
1900500000.0 0.4001044469 0.2905602404
1910450000.0 0.4259644053 0.0368643661
1920400000.0 0.3147181245 -0.1746178049
1930350000.0 0.150550596 -0.2970543814
1940300000.0 -0.0710814702 -0.3244923399
1950250000.0 -0.2545548311 -0.2257075843
1960200000.0 -0.3402964993 -0.0621198135
1970150000.0 -0.3238615451 0.0951757717
1980100000.0 -0.2387526528 0.1940363053
1990050000.0 -0.1392448373 0.2135430833
2000000000.0 -0.083110586 0.1700765995
