!Created with skrf (http://scikit-rf.org).
# GHz S RI R 50.0 
!freq ReS11 ImS11
10000000.0 -0.9995836621 0.1647606636
19950000.0 -0.9435405369 0.315119415
29900000.0 -0.8645425677 0.4592855296
39850000.0 -0.7619755477 0.6010863798
49800000.0 -0.63766939 0.7350588638
59750000.0 -0.4865074694 0.8541250343
69700000.0 -0.3016465514 0.9458858209
79650000.0 -0.0798829278 0.9905038291
89600000.0 0.17539564 0.9700656345
99550000.0 0.4479710563 0.865552704
109500000.0 0.7114869533 0.6650559085
119450000.0 0.9208919319 0.3600564648
129400000.0 1.007250077 -0.0374193709
139350000.0 0.9303386475 -0.4301843796
149300000.0 0.6829032575 -0.7546493242
159250000.0 0.3405687625 -0.9376761156
169200000.0 -0.0127454505 -0.9827284474
179150000.0 -0.326195299 -0.9243063928
189100000.0 -0.5777237592 -0.7981653663
199050000.0 -0.7593788373 -0.6322345001
209000000.0 -0.8715880757 -0.4447219303
218950000.0 -0.9289421217 -0.2522310281
228900000.0 -0.9416523957 -0.0632697333
238850000.0 -0.9216874435 0.1219849282
248800000.0 -0.7422745256 0.1369215349
258750000.0 -0.8285479798 0.4211672471
268700000.0 -0.74184998 0.5670664327
278650000.0 -0.6282142933 0.6852712938
288600000.0 -0.486361972 0.772920454
298550000.0 -0.3207716717 0.826753477
308500000.0 -0.1364867666 0.8468713189
318450000.0 0.0591931854 0.8268955874
328400000.0 0.2540247254 0.7594662701
338350000.0 0.4238961998 0.636858446
348300000.0 0.5415189975 0.4616433115
358250000.0 0.5822142458 0.2537694734
368200000.0 0.5415241339 0.0487484074
378150000.0 0.4374469318 -0.1176423216
388100000.0 0.3021239069 -0.2265486574
398050000.0 0.1660051836 -0.2753519112
408000000.0 0.0505620704 -0.272091153
417950000.0 -0.0352601695 -0.2317874799
427900000.0 -0.0903475268 -0.1717602125
437850000.0 -0.1205104403 -0.1059551935
447800000.0 -0.1313629628 -0.0465102251
457750000.0 -0.1270593782 -0.0009824426
467700000.0 -0.1116037632 0.0269249967
477650000.0 -0.0871262393 0.0345528231
487600000.0 -0.0522205307 0.0210490272
497550000.0 -0.1073306572 -0.096044262
507500000.0 -0.0416106412 0.0026074221
517450000.0 -0.0177449538 -0.0258867644
527400000.0 -0.0320728326 -0.0569586866
537350000.0 -0.0356596512 0.0260978467
547300000.0 0.0027952617 -0.0351124206
557250000.0 -0.0339008473 -0.0747532907
567200000.0 -0.0701531371 -0.0922450904
577150000.0 -0.1042539959 -0.1036021714
587100000.0 -0.1331665327 -0.107859077
597050000.0 -0.1547373071 -0.1036668941
607000000.0 -0.1693132317 -0.0887414237
616950000.0 -0.1790594821 -0.0643958131
626900000.0 -0.184794207 -0.032992503
636850000.0 -0.1875330361 0.0006169215
646800000.0 -0.1864859643 0.0323176422
656750000.0 -0.1808615746 0.0589294249
666700000.0 -0.1671714936 0.077456317
676650000.0 -0.143694905 0.0871883957
686600000.0 -0.1111956924 0.0892128399
696550000.0 -0.0710718548 0.0847166844
706500000.0 -0.0290845816 0.0744679783
716450000.0 0.010270821 0.0581060755
726400000.0 0.0411801056 0.0340411052
736350000.0 0.0599024702 0.0010428097
746300000.0 0.0638704701 -0.0417853057
756250000.0 0.055191284 -0.0934051974
766200000.0 0.0333389386 -0.1498424102
776150000.0 0.0027026385 -0.2050142931
786100000.0 -0.0367706666 -0.2524970513
796050000.0 -0.0836058405 -0.2859682959
806000000.0 -0.1358799967 -0.3018936041
815950000.0 -0.1940922911 -0.2981893511
825900000.0 -0.2561519442 -0.2774804851
835850000.0 -0.3194678017 -0.2438929668
845800000.0 -0.3798869005 -0.2013859739
855750000.0 -0.4326520897 -0.1526515636
865700000.0 -0.4720077028 -0.0985290823
875650000.0 -0.4939949632 -0.0381225452
885600000.0 -0.4959509364 0.0282943041
895550000.0 -0.47864002 0.1014587673
905500000.0 -0.4437754793 0.1800596568
915450000.0 -0.3937951774 0.25986406
925400000.0 -0.3295432547 0.3347450142
935350000.0 -0.2483437931 0.3968145767
945300000.0 -0.1490967666 0.4353866291
955250000.0 -0.0301447924 0.4400229488
965200000.0 0.1048826747 0.3994674037
975150000.0 0.2454732846 0.3057425333
985100000.0 0.3698262149 0.1519154992
995050000.0 0.4436415407 -0.0608525307
1005000000.0 0.4206556729 -0.3081932117
1014950000.0 0.27009978 -0.5320115207
1024900000.0 0.0058717085 -0.6526388793
1034850000.0 -0.2803186537 -0.6063776921
1044800000.0 -0.4513996637 -0.5246208555
1054750000.0 -0.6489340379 -0.4205116002
1064700000.0 -0.7583352076 -0.1922252949
1074650000.0 -0.8361239161 -0.0203971495
1084600000.0 -0.7788583286 0.2684540233
1094550000.0 -0.6989789328 0.4110652324
1104500000.0 -0.5073459392 0.6374487473
1114450000.0 -0.2310069639 0.7566380503
1124400000.0 0.0735072526 0.7516671681
1134350000.0 0.3424989214 0.6132579651
1144300000.0 0.5148824327 0.3745815721
1154250000.0 0.5703548674 0.1028054497
1164200000.0 0.5304451263 -0.1463455666
1174150000.0 0.4333314726 -0.3435441312
1184100000.0 0.3033944487 -0.4884508122
1194050000.0 0.1537757889 -0.5733112758
1204000000.0 0.0051540601 -0.6028887485
1213950000.0 -0.1318836173 -0.5930603377
1223900000.0 -0.2529018677 -0.5606617128
1233850000.0 -0.3580217265 -0.5180612923
1243800000.0 -0.4479678099 -0.4705698429
1253750000.0 -0.5224258663 -0.4208182801
1263700000.0 -0.5795449828 -0.3666990766
1273650000.0 -0.6192751868 -0.3087837052
1283600000.0 -0.6447141597 -0.2479731746
1293550000.0 -0.6639480757 -0.1782340397
1303500000.0 -0.6754474391 -0.1060148001
1313450000.0 -0.6843225923 -0.0361454179
1323400000.0 -0.6925626862 0.0304468317
1333350000.0 -0.6992276967 0.092246316
1343300000.0 -0.7001577372 0.1493363846
1353250000.0 -0.6915486697 0.2009176439
1363200000.0 -0.6704699308 0.2500427149
1373150000.0 -0.6366590886 0.2971845316
1383100000.0 -0.5946048554 0.3449343202
1393050000.0 -0.5483348367 0.3931421369
1403000000.0 -0.5021475756 0.4403372918
1412950000.0 -0.456184418 0.4837636575
1422900000.0 -0.4109013879 0.5197384691
1432850000.0 -0.3652969328 0.5438402215
1442800000.0 -0.3183269652 0.5570508517
1452750000.0 -0.269308622 0.5629054416
1462700000.0 -0.2133172602 0.5672116413
1472650000.0 -0.1460959391 0.5714401646
1482600000.0 -0.070070968 0.5739276739
1492550000.0 0.0093327073 0.5707079889
1502500000.0 0.0880797085 0.5572338986
1512450000.0 0.1625459195 0.5296730625
1522400000.0 0.2286349614 0.4843141508
1532350000.0 0.2857583582 0.4187052946
1542300000.0 0.3326027763 0.3340580408
1552250000.0 0.3674445286 0.2355489159
1562200000.0 0.3897318006 0.1331596473
1572150000.0 0.4012044821 0.0365721149
1582100000.0 0.4027401628 -0.0588764183
1592050000.0 0.3834845999 -0.1528295865
1602000000.0 0.3390269212 -0.2393795755
1611950000.0 0.2724254561 -0.3135264411
1621900000.0 0.1899957688 -0.3762117887
1631850000.0 0.0990486344 -0.4282598679
1641800000.0 0.0062546216 -0.4697801146
1651750000.0 -0.0843430136 -0.4975819021
1661700000.0 -0.1698234742 -0.5087230792
1671650000.0 -0.2480368605 -0.50062242
1681600000.0 -0.3189225648 -0.4753329244
1691550000.0 -0.3845940317 -0.4372132667
1701500000.0 -0.446285417 -0.3911051176
1711450000.0 -0.5052782575 -0.3420150351
1721400000.0 -0.559992463 -0.2926629636
1731350000.0 -0.6080059423 -0.2450126295
1741300000.0 -0.6455720826 -0.1959828836
1751250000.0 -0.6673670468 -0.1415197805
1761200000.0 -0.6463206488 -0.0722221405
1771150000.0 -0.6457876191 -0.0820494469
1781100000.0 -0.6634865043 -0.0229499723
1791050000.0 -0.6618180432 0.0416834809
1801000000.0 -0.6602232155 0.0989676215
1810950000.0 -0.6609149698 0.1510053475
1820900000.0 -0.6605367138 0.197938907
1830850000.0 -0.6545068478 0.2380347868
1840800000.0 -0.6377969907 0.2731355317
1850750000.0 -0.6093984475 0.3044382158
1860700000.0 -0.5704700789 0.332637364
1870650000.0 -0.527162783 0.360031079
1880600000.0 -0.4844052565 0.3853330798
1890550000.0 -0.4467777281 0.4091124637
1900500000.0 -0.4153679723 0.4271487274
1910450000.0 -0.3881860155 0.4399172087
1920400000.0 -0.3616596482 0.4430184677
1930350000.0 -0.3328593265 0.4367998348
1940300000.0 -0.2988316231 0.4211886094
1950250000.0 -0.2602979964 0.3989233715
1960200000.0 -0.2199350911 0.3727051901
1970150000.0 -0.1854242516 0.3442934617
1980100000.0 -0.1613108898 0.3142255795
1990050000.0 -0.1521267803 0.2821675521
2000000000.0 -0.1612021683 0.2455972582
