!Created with skrf (http://scikit-rf.org).
# GHz S RI R 50.0 
!freq ReS11 ImS11
10000000.0 -0.7659388257 0.5784852129
19950000.0 -0.281182443 0.909805595
29900000.0 0.3066252643 0.8907232342
39850000.0 0.7804567156 0.5196687767
49800000.0 0.9440127941 -0.0789153748
59750000.0 0.700417651 -0.6719790125
69700000.0 0.121501316 -0.985718886
79650000.0 -0.536527616 -0.8353693517
89600000.0 -0.9345236292 -0.2580816488
99550000.0 -0.8281691111 0.4678770774
109500000.0 -0.2174559356 0.9313279108
119450000.0 0.5753510526 0.7928705523
129400000.0 1.000510547 0.0659158061
139350000.0 0.6952833363 -0.7273953169
149300000.0 -0.1036993258 -0.9705014992
159250000.0 -0.7710647367 -0.5288310042
169200000.0 -0.8909884161 0.2200388579
179150000.0 -0.4720966363 0.7987181011
189100000.0 0.1918865397 0.9201388026
199050000.0 0.7405198651 0.5739021328
209000000.0 0.9251269407 -0.0307608459
218950000.0 0.6968124635 -0.5905869699
228900000.0 0.1867040621 -0.879254045
238850000.0 -0.3833582224 -0.7988166664
248800000.0 -0.7667934656 -0.3902336106
258750000.0 -0.8773263051 0.1649942065
268700000.0 -0.6164898341 0.669865284
278650000.0 -0.111792911 0.9115743989
288600000.0 0.4286971281 0.7932890961
298550000.0 0.7840664219 0.3674228756
308500000.0 0.8088446075 -0.1914056147
318450000.0 0.4859486027 -0.6473570619
328400000.0 -0.047722946 -0.7939919565
338350000.0 -0.5351923643 -0.5560316821
348300000.0 -0.717837972 -0.0663252844
358250000.0 -0.5168236492 0.3779778208
368200000.0 -0.1040975193 0.5237755366
378150000.0 0.231331356 0.3516620685
388100000.0 0.3139749107 0.0481677726
398050000.0 0.1773056142 -0.1613116548
408000000.0 -0.0184312125 -0.177614367
417950000.0 -0.1199421078 -0.0626318008
427900000.0 -0.0898651805 0.0584234845
437850000.0 0.0102446961 0.0968172387
447800000.0 0.0972709098 0.0416541488
457750000.0 0.1135990123 -0.0576069564
467700000.0 0.0550810499 -0.1351381351
477650000.0 -0.0358119279 -0.1487115858
487600000.0 -0.1065066652 -0.0937867126
497550000.0 -0.1234530244 -0.0107475565
507500000.0 -0.0840691204 0.0624062398
517450000.0 -0.0139281452 0.0900844818
527400000.0 0.0448463928 0.071048276
537350000.0 0.0656568295 0.0280979898
547300000.0 0.0478401625 -0.007792529
557250000.0 0.0106947812 -0.0159241164
567200000.0 -0.0150772074 0.0056211912
577150000.0 -0.0091304306 0.0360372824
587100000.0 0.0259258085 0.0445747314
597050000.0 0.0628414692 0.0160611989
607000000.0 0.0714021873 -0.0421308942
616950000.0 0.0362776566 -0.1000177958
626900000.0 -0.0342713733 -0.1231800372
636850000.0 -0.109497116 -0.0941699438
646800000.0 -0.149856485 -0.0184379675
656750000.0 -0.1348231498 0.0722603199
666700000.0 -0.0648996132 0.1361209947
676650000.0 0.0328462521 0.14176287
686600000.0 0.1148553833 0.0816841562
696550000.0 0.1426480432 -0.0228129267
706500000.0 0.1001906229 -0.1218397588
716450000.0 0.0059885145 -0.1691422468
726400000.0 -0.0910469321 -0.1420041445
736350000.0 -0.1411992438 -0.053529537
746300000.0 -0.1112394484 0.0482616405
756250000.0 -0.0133967646 0.1055310748
766200000.0 0.1001279299 0.0810451554
776150000.0 0.1713451508 -0.0166878993
786100000.0 0.1520788067 -0.1364837136
796050000.0 0.0453243568 -0.2127757737
806000000.0 -0.0962048922 -0.1873816315
815950000.0 -0.1971298853 -0.0589184617
825900000.0 -0.1876657202 0.1182202268
835850000.0 -0.0595402503 0.2573262901
845800000.0 0.1362180405 0.2811019093
855750000.0 0.3114997284 0.1687104675
865700000.0 0.3808864344 -0.0412225876
875650000.0 0.2957567279 -0.2580902429
885600000.0 0.0790911955 -0.3756935321
895550000.0 -0.176116887 -0.3234473817
905500000.0 -0.3488931952 -0.1095502528
915450000.0 -0.3498386125 0.1787431991
925400000.0 -0.1640520078 0.4070060015
935350000.0 0.128698469 0.4576971242
945300000.0 0.3859195934 0.289903169
955250000.0 0.4633144634 -0.0310922347
965200000.0 0.2827718314 -0.3406274264
975150000.0 -0.0957586329 -0.4376477288
985100000.0 -0.4524580811 -0.2028280312
995050000.0 -0.5073325541 0.25750747
1005000000.0 -0.1592459691 0.6151939604
1014950000.0 0.3780431832 0.5568078545
1024900000.0 0.6936974829 0.0557293014
1034850000.0 0.4827990244 -0.5510668688
1044800000.0 -0.159355358 -0.7623504323
1054750000.0 -0.7253768388 -0.3661990602
1064700000.0 -0.7655413796 0.2819475099
1074650000.0 -0.3736554204 0.7489180142
1084600000.0 0.2299064566 0.7872150616
1094550000.0 0.6834837456 0.3866902424
1104500000.0 0.7213450558 -0.2186555081
1114450000.0 0.321543741 -0.6687447781
1124400000.0 -0.2551250626 -0.6873807663
1134350000.0 -0.641338499 -0.3071165263
1144300000.0 -0.6524925397 0.1989570058
1154250000.0 -0.3418341724 0.5552968375
1164200000.0 0.1030033645 0.6167509279
1174150000.0 0.4746195527 0.3770056752
1184100000.0 0.5894210339 -0.0535403919
1194050000.0 0.3817047855 -0.4405880315
1204000000.0 -0.0177324696 -0.5783309807
1213950000.0 -0.3882282093 -0.4296959485
1223900000.0 -0.578281498 -0.102756707
1233850000.0 -0.5399148899 0.2577861883
1243800000.0 -0.3010268092 0.5237114817
1253750000.0 0.0550033297 0.5944639644
1263700000.0 0.3907168303 0.429087084
1273650000.0 0.559956025 0.0873692831
1283600000.0 0.4896752106 -0.2824171828
1293550000.0 0.2281031503 -0.5305923367
1303500000.0 -0.1090261092 -0.585594423
1313450000.0 -0.4072248857 -0.4542567018
1323400000.0 -0.5900947648 -0.1897663856
1333350000.0 -0.611805567 0.1363419961
1343300000.0 -0.4499637293 0.4329523172
1353250000.0 -0.1353946199 0.5893393738
1363200000.0 0.2251959749 0.5289277245
1373150000.0 0.4868287354 0.2664505381
1383100000.0 0.5526418395 -0.0898913677
1393050000.0 0.4198241715 -0.4095623173
1403000000.0 0.154163755 -0.5983039429
1412950000.0 -0.1532714393 -0.6164135997
1422900000.0 -0.416835559 -0.4702629804
1432850000.0 -0.5656843506 -0.1964975565
1442800000.0 -0.5441261576 0.1308872156
1452750000.0 -0.335896056 0.3995996803
1462700000.0 -0.0068752824 0.5019240978
1472650000.0 0.3164026489 0.3987506604
1482600000.0 0.5159567272 0.1396544975
1492550000.0 0.5343479666 -0.1731516416
1502500000.0 0.3797937473 -0.4328871411
1512450000.0 0.1136057859 -0.556259381
1522400000.0 -0.1725125162 -0.5030742997
1532350000.0 -0.3765388912 -0.2862813059
1542300000.0 -0.4174316832 0.019450762
1552250000.0 -0.2661778139 0.294755117
1562200000.0 0.0135911761 0.4218870134
1572150000.0 0.3025760281 0.3576689755
1582100000.0 0.4843346009 0.1387673498
1592050000.0 0.4941490209 -0.1386290751
1602000000.0 0.3327935952 -0.3655952593
1611950000.0 0.059436929 -0.4529043985
1621900000.0 -0.223981289 -0.3569014205
1631850000.0 -0.4006655166 -0.1007454013
1641800000.0 -0.385738322 0.2158896788
1651750000.0 -0.1812461245 0.4555096083
1661700000.0 0.122324797 0.5183867039
1671650000.0 0.3987103048 0.389935415
1681600000.0 0.5486574016 0.1278007141
1691550000.0 0.5254526854 -0.1752973072
1701500000.0 0.3370874165 -0.4194606437
1711450000.0 0.0374865712 -0.5228781158
1721400000.0 -0.282384604 -0.4362279008
1731350000.0 -0.50442487 -0.1746727105
1741300000.0 -0.5391305733 0.1694594087
1751250000.0 -0.3745085952 0.4638594308
1761200000.0 -0.0828118824 0.6077731332
1771150000.0 0.2298042562 0.5709058433
1781100000.0 0.4724957914 0.3802161548
1791050000.0 0.5846912001 0.0928123238
1801000000.0 0.5368519102 -0.217202358
1810950000.0 0.3334349352 -0.464487568
1820900000.0 0.0219208646 -0.5637293164
1830850000.0 -0.298531416 -0.4660816424
1840800000.0 -0.5093293721 -0.2048699077
1850750000.0 -0.5427562837 0.1165763147
1860700000.0 -0.4107026172 0.3892066254
1870650000.0 -0.1749117476 0.5457002791
1880600000.0 0.090053359 0.561163951
1890550000.0 0.3168459605 0.4437623221
1900500000.0 0.4492603177 0.2253199742
1910450000.0 0.4502712205 -0.0343853979
1920400000.0 0.3133724025 -0.2541387473
1930350000.0 0.0840747212 -0.3563330134
1940300000.0 -0.1483995987 -0.3145719048
1950250000.0 -0.3022817248 -0.1689091629
1960200000.0 -0.3493139034 0.0103702664
1970150000.0 -0.3019496012 0.1601957285
1980100000.0 -0.2001152697 0.2398731934
1990050000.0 -0.1007745479 0.2388157001
2000000000.0 -0.0555064891 0.1844858503
