!Created with skrf (http://scikit-rf.org).
# GHz S RI R 50.0 
!freq ReS11 ImS11
10000000.0 -0.7654177707 0.5829756665
19950000.0 -0.2775640878 0.918979507
29900000.0 0.314975565 0.9049812012
39850000.0 0.7936294612 0.5372295973
49800000.0 0.9611030941 -0.0594662688
59750000.0 0.7222930542 -0.651225779
69700000.0 0.1500339545 -0.9696209793
79650000.0 -0.5083766385 -0.835681194
89600000.0 -0.9240260999 -0.2768569078
99550000.0 -0.8468172511 0.4460781143
109500000.0 -0.259345229 0.9274523606
119450000.0 0.528584239 0.8195959964
129400000.0 0.9762952942 0.1222598944
139350000.0 0.7141512574 -0.6745411726
149300000.0 -0.0637991788 -0.9617136325
159250000.0 -0.7555668138 -0.5604848575
169200000.0 -0.9127596526 0.184690544
179150000.0 -0.5111066281 0.7826584448
189100000.0 0.1556329072 0.9246015645
199050000.0 0.7189103185 0.5924207197
209000000.0 0.9229645052 -0.0088571049
218950000.0 0.7100749129 -0.5804523794
228900000.0 0.2027178266 -0.8877731796
238850000.0 -0.3756516777 -0.8216489997
248800000.0 -0.7847833212 -0.4121488471
258750000.0 -0.8898797109 0.1377609848
268700000.0 -0.6350110452 0.6472773557
278650000.0 -0.131078069 0.8990259354
288600000.0 0.4177895078 0.7927666552
298550000.0 0.7877500919 0.3725428321
308500000.0 0.8235820865 -0.1890362155
318450000.0 0.5030026101 -0.6487493476
328400000.0 -0.0299505597 -0.79537647
338350000.0 -0.5148338293 -0.5590233055
348300000.0 -0.6998203154 -0.075320683
358250000.0 -0.5080144035 0.3677283497
368200000.0 -0.1012235543 0.5219025532
378150000.0 0.2363218125 0.3570149586
388100000.0 0.3235647051 0.0551517494
398050000.0 0.1869758941 -0.1574224264
408000000.0 -0.0116627237 -0.1795588243
417950000.0 -0.1229233563 -0.0665685153
427900000.0 -0.102431036 0.0619040564
437850000.0 -0.0029852183 0.1118993946
447800000.0 0.0887009362 0.0651446848
457750000.0 0.1139237119 -0.0299598146
467700000.0 0.0637924513 -0.1116288487
477650000.0 -0.0229951613 -0.1335789196
487600000.0 -0.0953275643 -0.0917439597
497550000.0 -0.1190129503 -0.0168783094
507500000.0 -0.0889567429 0.0525595486
517450000.0 -0.0288609678 0.0767402831
527400000.0 0.023077167 0.0576425516
537350000.0 0.03923152 0.0151651283
547300000.0 0.0191762106 -0.0156493367
557250000.0 -0.0146049131 -0.0169010045
567200000.0 -0.0339119171 0.0107806949
577150000.0 -0.0187822277 0.0443344011
587100000.0 0.0254976819 0.0539729935
597050000.0 0.0731800184 0.021721212
607000000.0 0.0910815044 -0.0441444355
616950000.0 0.0590061429 -0.1134058005
626900000.0 -0.0150796714 -0.1492273817
636850000.0 -0.0989965502 -0.1272941854
646800000.0 -0.1537791242 -0.05242037
656750000.0 -0.150701333 0.0456757272
666700000.0 -0.0851235669 0.1240216945
676650000.0 0.0166482683 0.1454348496
686600000.0 0.111005 0.0966918398
696550000.0 0.1550907677 -0.0003186315
706500000.0 0.1266060669 -0.1017914034
716450000.0 0.0417159158 -0.1605623845
726400000.0 -0.0578134935 -0.1456534838
736350000.0 -0.1175052924 -0.0665849493
746300000.0 -0.102647 0.0345101199
756250000.0 -0.0174755944 0.1001290973
766200000.0 0.092189848 0.0878852076
776150000.0 0.1652421398 0.0005599794
786100000.0 0.1533404567 -0.1178997563
796050000.0 0.0525487987 -0.1991522037
806000000.0 -0.0900020986 -0.1845617426
815950000.0 -0.1983605699 -0.0649579501
825900000.0 -0.2020144719 0.1113829296
835850000.0 -0.0817517183 0.2580755581
845800000.0 0.1118432441 0.2906090468
855750000.0 0.2835254504 0.189076561
865700000.0 0.3630310798 -0.0007473868
875650000.0 0.3074318525 -0.2150246629
885600000.0 0.1147863834 -0.3554993276
895550000.0 -0.1400789498 -0.337450681
905500000.0 -0.3344282547 -0.1494804945
915450000.0 -0.3628996482 0.1323762223
925400000.0 -0.1983370441 0.3706611974
935350000.0 0.0859552341 0.4411826711
945300000.0 0.3499154285 0.2962063301
955250000.0 0.4473704724 -0.0084204848
965200000.0 0.2919452444 -0.3186518081
975150000.0 -0.0698077839 -0.4308601183
985100000.0 -0.4234470195 -0.2160736653
995050000.0 -0.4924946612 0.2257676872
1005000000.0 -0.1761156891 0.5851044472
1014950000.0 0.3427510566 0.568459751
1024900000.0 0.6907744391 0.1169738881
1034850000.0 0.5505080941 -0.4902262877
1044800000.0 -0.046836152 -0.7738626244
1054750000.0 -0.6532914266 -0.4744037419
1064700000.0 -0.8150261599 0.1700515564
1074650000.0 -0.4681501501 0.7005473605
1084600000.0 0.1287217059 0.8116272226
1094550000.0 0.6215948788 0.4924912837
1104500000.0 0.7483657728 -0.0981905087
1114450000.0 0.4094408589 -0.596261943
1124400000.0 -0.1615080181 -0.683349305
1134350000.0 -0.5869280653 -0.3508770059
1144300000.0 -0.649722641 0.1451492384
1154250000.0 -0.3754828761 0.5232989632
1164200000.0 0.060378345 0.6115974363
1174150000.0 0.4323038652 0.3893401793
1184100000.0 0.5581150196 -0.0242648017
1194050000.0 0.3694591339 -0.4078835942
1204000000.0 -0.0148168907 -0.5573112731
1213950000.0 -0.3821455212 -0.427151687
1223900000.0 -0.5804432285 -0.114172199
1233850000.0 -0.5540377661 0.2410115367
1243800000.0 -0.3260468961 0.5094559737
1253750000.0 0.0219006993 0.5925236441
1263700000.0 0.3605936654 0.4463164537
1273650000.0 0.5484435537 0.119403588
1283600000.0 0.5063561666 -0.2523552918
1293550000.0 0.2656814754 -0.521924734
1303500000.0 -0.0677031497 -0.6058149523
1313450000.0 -0.3787760421 -0.4994993012
1323400000.0 -0.5829446547 -0.2500092756
1333350000.0 -0.6288630589 0.0716854843
1343300000.0 -0.4939749746 0.3789797801
1353250000.0 -0.2007153066 0.5666842801
1363200000.0 0.1615841779 0.5532631927
1373150000.0 0.4544761367 0.3303328304
1383100000.0 0.568760175 -0.0136472731
1393050000.0 0.4778664682 -0.3490966085
1403000000.0 0.2349231588 -0.5703857484
1412950000.0 -0.0718366808 -0.625983175
1422900000.0 -0.3530646374 -0.5125766852
1432850000.0 -0.533354609 -0.2638183807
1442800000.0 -0.5547677374 0.0570824548
1452750000.0 -0.3878795175 0.3461098495
1462700000.0 -0.0808755982 0.4907151091
1472650000.0 0.2503122695 0.4314872336
1482600000.0 0.476973086 0.2005950018
1492550000.0 0.5283882475 -0.1026344429
1502500000.0 0.4052693637 -0.3694444573
1512450000.0 0.1607902718 -0.5144137302
1522400000.0 -0.1192124877 -0.4917231496
1532350000.0 -0.3354469322 -0.3060594833
1542300000.0 -0.4008362856 -0.0177292675
1552250000.0 -0.2755191567 0.2549046313
1562200000.0 -0.0118661904 0.3907984792
1572150000.0 0.2673551959 0.3359903715
1582100000.0 0.4463609205 0.1304473873
1592050000.0 0.4604531571 -0.1355934762
1602000000.0 0.3098526515 -0.3550393704
1611950000.0 0.0483734119 -0.4424980047
1621900000.0 -0.2266863066 -0.3507167281
1631850000.0 -0.3977261791 -0.0993293374
1641800000.0 -0.3794672219 0.2131766998
1651750000.0 -0.1735378367 0.4476277679
1661700000.0 0.1271897282 0.5100192644
1671650000.0 0.4025958552 0.386523485
1681600000.0 0.5583935092 0.1310539826
1691550000.0 0.5481155634 -0.17159427
1701500000.0 0.3680072594 -0.4255796567
1711450000.0 0.0667971768 -0.543390695
1721400000.0 -0.2636626801 -0.4675154657
1731350000.0 -0.5003013279 -0.2090888656
1741300000.0 -0.5514425839 0.1389101697
1751250000.0 -0.4033065498 0.4473680897
1761200000.0 -0.1222359887 0.6166901968
1771150000.0 0.1942766936 0.6119184519
1781100000.0 0.4584106215 0.4498170142
1791050000.0 0.6057083181 0.1759683569
1801000000.0 0.5949000346 -0.1425371185
1810950000.0 0.4178947411 -0.4197861364
1820900000.0 0.1117533447 -0.5638746835
1830850000.0 -0.2296304024 -0.5131168933
1840800000.0 -0.4854115106 -0.2820989918
1850750000.0 -0.5724925254 0.0381906229
1860700000.0 -0.4846696832 0.3372897991
1870650000.0 -0.2721666183 0.5368507421
1880600000.0 -0.0041818683 0.5996181172
1890550000.0 0.2494801191 0.52147564
1900500000.0 0.429179978 0.3259856754
1910450000.0 0.478940453 0.0615703079
1920400000.0 0.3832114218 -0.1865016024
1930350000.0 0.1807065383 -0.3417830365
1940300000.0 -0.0636887632 -0.3655721565
1950250000.0 -0.2650406033 -0.2615545406
1960200000.0 -0.3674832806 -0.0892538457
1970150000.0 -0.3649064719 0.0830577817
1980100000.0 -0.2856883613 0.2033107787
1990050000.0 -0.1790561127 0.2479285308
2000000000.0 -0.0973608528 0.2244795653
