!Created with skrf (http://scikit-rf.org).
# GHz S RI R 50.0 
!freq ReS11 ImS11
10000000.0 -0.9990787836 0.1619996078
19950000.0 -0.9451877947 0.3096236518
29900000.0 -0.869387248 0.4514367027
39850000.0 -0.7702884488 0.5916060271
49800000.0 -0.649620669 0.7249592718
59750000.0 -0.5019082244 0.8448343998
69700000.0 -0.3188988228 0.9391205631
79650000.0 -0.0973655661 0.9881475629
89600000.0 0.1615276705 0.9721846849
99550000.0 0.441602688 0.869202649
109500000.0 0.7141467298 0.6630864443
119450000.0 0.9278374709 0.343076681
129400000.0 1.009387892 -0.0678253826
139350000.0 0.9041390805 -0.4800712477
149300000.0 0.6269323537 -0.7986743638
159250000.0 0.2659371716 -0.9594928598
169200000.0 -0.0899143511 -0.9780685936
179150000.0 -0.3930897799 -0.897844207
189100000.0 -0.6271382186 -0.7593678029
199050000.0 -0.7907231821 -0.590416612
209000000.0 -0.8874037088 -0.4079947246
218950000.0 -0.9342554958 -0.2269919909
228900000.0 -0.9431520562 -0.0535047628
238850000.0 -0.9261095603 0.1107840514
248800000.0 -0.878431939 0.2618965757
258750000.0 -0.8408102527 0.406442271
268700000.0 -0.7705505989 0.5361071685
278650000.0 -0.6774552814 0.6466601766
288600000.0 -0.5598865698 0.7339672363
298550000.0 -0.4201525781 0.7957142672
308500000.0 -0.2619688005 0.8323703315
318450000.0 -0.0897143062 0.8394179781
328400000.0 0.0901905179 0.8094137446
338350000.0 0.2610002567 0.7305351712
348300000.0 0.400791025 0.5974138117
358250000.0 0.4813361492 0.423792125
368200000.0 0.4871554257 0.2398952462
378150000.0 0.4238868259 0.0602564268
388100000.0 0.3143105921 -0.0791862326
398050000.0 0.1868867576 -0.1550046663
408000000.0 0.0700363616 -0.1693426113
417950000.0 -0.0209873487 -0.138662317
427900000.0 -0.08221139 -0.0823097821
437850000.0 -0.1167910092 -0.0174197663
447800000.0 -0.1307045659 0.0431571217
457750000.0 -0.1291662054 0.0915241234
467700000.0 -0.1156888768 0.1238137366
477650000.0 -0.0928924767 0.1381326182
487600000.0 -0.0642308897 0.1378560961
497550000.0 -0.0330698983 0.1293148616
507500000.0 -0.0017048207 0.112066651
517450000.0 0.0226911802 0.0934189926
527400000.0 0.0374147598 0.0741432884
537350000.0 0.038816458 0.0545134127
547300000.0 0.0281956052 0.0351379949
557250000.0 0.0071270814 0.014969426
567200000.0 -0.020151497 -0.0043658135
577150000.0 -0.0494796946 -0.019528585
587100000.0 -0.0759304721 -0.0286011808
597050000.0 -0.0974478886 -0.0282884798
607000000.0 -0.1134848665 -0.0170416194
616950000.0 -0.1251662424 0.0044568291
626900000.0 -0.132926572 0.0338446782
636850000.0 -0.1374680875 0.066153749
646800000.0 -0.1381250483 0.0973505704
656750000.0 -0.1333299297 0.1236121551
666700000.0 -0.1211100254 0.1426011576
676650000.0 -0.0990658414 0.1536983047
686600000.0 -0.0679428524 0.157930457
696550000.0 -0.0299111098 0.1570463632
706500000.0 0.0107709521 0.1506578833
716450000.0 0.0510197146 0.1390765649
726400000.0 0.0844102955 0.1202288641
736350000.0 0.1078749307 0.091233681
746300000.0 0.1187184346 0.0518920732
756250000.0 0.1182570693 0.0013584953
766200000.0 0.1060682154 -0.0556669559
776150000.0 0.0841392378 -0.1144806303
786100000.0 0.0521383377 -0.1682490858
796050000.0 0.0098127418 -0.2104973347
806000000.0 -0.0416184834 -0.2359634688
815950000.0 -0.1029945359 -0.2416421707
825900000.0 -0.1707878396 -0.2282908342
835850000.0 -0.2419115766 -0.1991249489
845800000.0 -0.3101304399 -0.1570852946
855750000.0 -0.3699321568 -0.1051923565
865700000.0 -0.4146225968 -0.0445397769
875650000.0 -0.4384222723 0.0242086913
885600000.0 -0.4394204201 0.1001934467
895550000.0 -0.4181048187 0.1816169555
905500000.0 -0.3765449916 0.2667274537
915450000.0 -0.318440619 0.3504472994
925400000.0 -0.2443357463 0.4253928565
935350000.0 -0.1543023646 0.4842191683
945300000.0 -0.048329129 0.5163147779
955250000.0 0.0723728197 0.5129350022
965200000.0 0.2032402499 0.4656472675
975150000.0 0.3338453076 0.3690277481
985100000.0 0.4404702078 0.2209879569
995050000.0 0.4987461041 0.0502573029
1005000000.0 0.5190443192 -0.1282960514
1014950000.0 0.4650422539 -0.3317727669
1024900000.0 0.3219026089 -0.5161875441
1034850000.0 0.0854562772 -0.6648934982
1044800000.0 -0.2332216815 -0.7039008902
1054750000.0 -0.5555104164 -0.5901993239
1064700000.0 -0.7845888382 -0.3390340465
1074650000.0 -0.8764316955 -0.0497055363
1084600000.0 -0.8433279282 0.2651791609
1094550000.0 -0.6700082368 0.523713043
1104500000.0 -0.4746222601 0.7034923473
1114450000.0 -0.2088328849 0.8165389802
1124400000.0 0.0674021777 0.8276493347
1134350000.0 0.3156533891 0.7417454204
1144300000.0 0.5067558605 0.5760844428
1154250000.0 0.6239974439 0.3650605563
1164200000.0 0.6680264236 0.1432668806
1174150000.0 0.6618543869 -0.0608568619
1184100000.0 0.6128610919 -0.2478748577
1194050000.0 0.5210487073 -0.402107128
1204000000.0 0.3981655183 -0.512325159
1213950000.0 0.2586959683 -0.5785412111
1223900000.0 0.1153411 -0.6086182991
1233850000.0 -0.0217006937 -0.6132278142
1243800000.0 -0.1475098978 -0.600185011
1253750000.0 -0.2594490416 -0.5736678421
1263700000.0 -0.3541819755 -0.5338980715
1273650000.0 -0.4324538609 -0.482279608
1283600000.0 -0.4927819657 -0.4178656337
1293550000.0 -0.5388881117 -0.3435986712
1303500000.0 -0.5749176422 -0.2633149956
1313450000.0 -0.6046032059 -0.1827289997
1323400000.0 -0.6301424643 -0.1045401339
1333350000.0 -0.6501522272 -0.0303001493
1343300000.0 -0.6619235629 0.0399768605
1353250000.0 -0.6616310859 0.1052494671
1363200000.0 -0.6475170409 0.1677353205
1373150000.0 -0.6185946673 0.2289936437
1383100000.0 -0.5801741657 0.2890839172
1393050000.0 -0.5364896639 0.3488388926
1403000000.0 -0.4919735602 0.4070709108
1412950000.0 -0.4470955059 0.4616458628
1422900000.0 -0.4017977757 0.5103845793
1432850000.0 -0.3534091049 0.5493637745
1442800000.0 -0.2985748161 0.5784786862
1452750000.0 -0.235164573 0.5960406735
1462700000.0 -0.1631353873 0.6042536327
1472650000.0 -0.0841944228 0.6063223496
1482600000.0 -0.0030466252 0.6047408171
1492550000.0 0.0776987308 0.5983679831
1502500000.0 0.1547334261 0.5845958227
1512450000.0 0.2262079631 0.559383072
1522400000.0 0.2894330967 0.5194235026
1532350000.0 0.3444537901 0.4627723155
1542300000.0 0.392769653 0.3917785817
1552250000.0 0.4356290465 0.3101936035
1562200000.0 0.4743201973 0.2232541508
1572150000.0 0.5055137166 0.1342738853
1582100000.0 0.5252936523 0.0443197137
1592050000.0 0.5286776961 -0.0448998172
1602000000.0 0.5100397598 -0.1326732351
1611950000.0 0.4707368977 -0.2159064863
1621900000.0 0.4130234465 -0.2951376627
1631850000.0 0.3435110602 -0.3689111775
1641800000.0 0.2670727508 -0.4357147991
1651750000.0 0.188485952 -0.4920884299
1661700000.0 0.1090851406 -0.5338523816
1671650000.0 0.0304414639 -0.5580439748
1681600000.0 -0.0482252284 -0.5625585846
1691550000.0 -0.1266847946 -0.5511157232
1701500000.0 -0.2060277434 -0.5270430097
1711450000.0 -0.284039929 -0.495969674
1721400000.0 -0.359175625 -0.461305744
1731350000.0 -0.4280575403 -0.4255428555
1741300000.0 -0.486850465 -0.3855539276
1751250000.0 -0.533375027 -0.3401092072
1761200000.0 -0.5653302727 -0.2879162462
1771150000.0 -0.5844511564 -0.228806469
1781100000.0 -0.5960789961 -0.1647815926
1791050000.0 -0.6037583792 -0.0994507662
1801000000.0 -0.6113748571 -0.0361841252
1810950000.0 -0.6197362973 0.0235936686
1820900000.0 -0.6260861464 0.0788780835
1830850000.0 -0.6257038446 0.1283701711
1840800000.0 -0.6143606688 0.172809871
1850750000.0 -0.5904816581 0.2139180596
1860700000.0 -0.5547888384 0.2524691261
1870650000.0 -0.5131938581 0.2902051117
1880600000.0 -0.4704932738 0.3252290597
1890550000.0 -0.4309614412 0.3579894183
1900500000.0 -0.3955016445 0.3859450273
1910450000.0 -0.3634846334 0.4061886732
1920400000.0 -0.3321142196 0.4163156897
1930350000.0 -0.2976878758 0.4160480114
1940300000.0 -0.2584790763 0.4068560183
1950250000.0 -0.2148538804 0.3899592808
1960200000.0 -0.1686177559 0.3704933506
1970150000.0 -0.1258413156 0.3488209229
1980100000.0 -0.0904125111 0.3256941163
1990050000.0 -0.0656740568 0.2984715793
2000000000.0 -0.0539548813 0.2640323634
