!Created with skrf (http://scikit-rf.org).
# GHz S RI R 50.0 
!freq ReS11 ImS11
10000000.0 -0.9966591391 0.1641417935
19950000.0 -0.9427466107 0.3143414068
29900000.0 -0.8660379737 0.4576656768
39850000.0 -0.7655538701 0.5981627593
49800000.0 -0.6432788156 0.7301057536
59750000.0 -0.4949387762 0.8468693812
69700000.0 -0.3141134595 0.9379485679
79650000.0 -0.098461312 0.985417882
89600000.0 0.150350846 0.9724146372
99550000.0 0.4178253332 0.8806552555
109500000.0 0.6806038316 0.6969189591
119450000.0 0.8976603464 0.4099853167
129400000.0 1.005577501 0.0273236417
139350000.0 0.9512816323 -0.3689274047
149300000.0 0.7249636777 -0.7113069374
159250000.0 0.3900420057 -0.9187599564
169200000.0 0.0312359002 -0.9838555877
179150000.0 -0.2934325828 -0.9352044655
189100000.0 -0.5560988059 -0.8107520482
199050000.0 -0.7463530703 -0.6413179221
209000000.0 -0.8646963387 -0.449195716
218950000.0 -0.9259513394 -0.2523356428
228900000.0 -0.9409003662 -0.0604544112
238850000.0 -0.9213511573 0.1250316909
248800000.0 -0.7273285971 0.2095274181
258750000.0 -0.822418074 0.4298686153
268700000.0 -0.7340502951 0.572660846
278650000.0 -0.6202544217 0.6888424975
288600000.0 -0.4807186007 0.7751864208
298550000.0 -0.319779639 0.829242715
308500000.0 -0.141757094 0.8509954735
318450000.0 0.0469013033 0.8350832328
328400000.0 0.2364687903 0.7737816818
338350000.0 0.4052843447 0.6595287236
348300000.0 0.5279312511 0.4925156461
358250000.0 0.5789446697 0.2896870156
368200000.0 0.549918233 0.0842728748
378150000.0 0.454621921 -0.0871774137
388100000.0 0.3229179472 -0.2024599688
398050000.0 0.1846625055 -0.2562129249
408000000.0 0.064610735 -0.2555296227
417950000.0 -0.0256025979 -0.2153829053
427900000.0 -0.0835740915 -0.1545726145
437850000.0 -0.1125794782 -0.089675268
447800000.0 -0.1270913301 -0.0381269656
457750000.0 -0.1298488208 0.0114752367
467700000.0 -0.116077554 0.0450444782
477650000.0 -0.0927657044 0.0584261367
487600000.0 -0.0631767058 0.0532187579
497550000.0 -0.0961878527 0.0168274724
507500000.0 -0.0204473288 0.0426819121
517450000.0 0.0020118202 0.0196776599
527400000.0 0.0114598032 -0.0007700958
537350000.0 0.0075773905 -0.0194460655
547300000.0 -0.0082420935 -0.0385591118
557250000.0 -0.035580431 -0.0529427874
567200000.0 -0.0659404898 -0.0645782642
577150000.0 -0.0965973059 -0.0722690397
587100000.0 -0.123474979 -0.0741171237
597050000.0 -0.1442284386 -0.0675618159
607000000.0 -0.1585759184 -0.0513361126
616950000.0 -0.1677105349 -0.0265332879
626900000.0 -0.1723674056 0.0045587762
636850000.0 -0.1732290278 0.037833409
646800000.0 -0.1695710447 0.0693468617
656750000.0 -0.160948432 0.0960800501
666700000.0 -0.1443709451 0.1155238978
676650000.0 -0.1189038096 0.1263014092
686600000.0 -0.0846181869 0.1294802945
696550000.0 -0.0442624588 0.1258232926
706500000.0 -0.0020022511 0.1157120509
716450000.0 0.0379467637 0.0992641734
726400000.0 0.0705396535 0.0747465364
736350000.0 0.0920253715 0.0408811314
746300000.0 0.0997711891 -0.0022148138
756250000.0 0.0949233428 -0.0548808144
766200000.0 0.0766818365 -0.1123276055
776150000.0 0.0485320952 -0.1680655672
786100000.0 0.0093240612 -0.2172959108
796050000.0 -0.0381073988 -0.2534442285
806000000.0 -0.0940143075 -0.2725017097
815950000.0 -0.1570736316 -0.2716962024
825900000.0 -0.2249664047 -0.2529148272
835850000.0 -0.2946577654 -0.218359685
845800000.0 -0.3587688294 -0.1713822542
855750000.0 -0.3909052173 -0.1123413404
865700000.0 -0.4122614117 -0.0382448733
875650000.0 -0.4417669497 0.0223261962
885600000.0 -0.4477949662 0.0630173557
895550000.0 -0.4308893986 0.1357551191
905500000.0 -0.3936584901 0.2163770172
915450000.0 -0.3391542526 0.2961429634
925400000.0 -0.2681810817 0.368142596
935350000.0 -0.1796174622 0.4246343333
945300000.0 -0.0733680891 0.4545810598
955250000.0 0.050153744 0.4487821125
965200000.0 0.1854798413 0.3958979238
975150000.0 0.3209771456 0.2889366718
985100000.0 0.4334589539 0.1226905749
995050000.0 0.4887594715 -0.0988996052
1005000000.0 0.4460059262 -0.3494928158
1014950000.0 0.2784941558 -0.5724084491
1024900000.0 0.0043478592 -0.7015132554
1034850000.0 -0.3159282088 -0.6944797376
1044800000.0 -0.6076273474 -0.5512988172
1054750000.0 -0.8078246078 -0.3027900059
1064700000.0 -0.8529124363 -0.0145397179
1074650000.0 -0.835282583 0.2146728964
1084600000.0 -0.698927123 0.4357288163
1094550000.0 -0.5508310158 0.6229200289
1104500000.0 -0.3195474243 0.7492826275
1114450000.0 -0.0705533907 0.7807040809
1124400000.0 0.192941171 0.7367261211
1134350000.0 0.411134075 0.6028227543
1144300000.0 0.5516571856 0.3952462156
1154250000.0 0.6081206339 0.1626035919
1164200000.0 0.5925523557 -0.0613889238
1174150000.0 0.5231673757 -0.2525567511
1184100000.0 0.4219134601 -0.4047136526
1194050000.0 0.2923124162 -0.5138871514
1204000000.0 0.1492962659 -0.5723351817
1213950000.0 0.0076463487 -0.5887222328
1223900000.0 -0.1239567791 -0.5760069499
1233850000.0 -0.2417850117 -0.5458671479
1243800000.0 -0.3443106672 -0.5051770319
1253750000.0 -0.431372344 -0.4578175674
1263700000.0 -0.5007548191 -0.4028370866
1273650000.0 -0.553832109 -0.341512
1283600000.0 -0.5903182691 -0.2729070114
1293550000.0 -0.6150570409 -0.199247532
1303500000.0 -0.6325996658 -0.1235353543
1313450000.0 -0.6451759098 -0.0490695025
1323400000.0 -0.6555877841 0.0225776714
1333350000.0 -0.6624698817 0.0899473576
1343300000.0 -0.6620340857 0.1536302809
1353250000.0 -0.6520294971 0.2120728704
1363200000.0 -0.6294816582 0.2673849364
1373150000.0 -0.5945785808 0.320451882
1383100000.0 -0.5514760043 0.3723489871
1393050000.0 -0.5044896508 0.4234225009
1403000000.0 -0.4564296823 0.4722044181
1412950000.0 -0.4083548636 0.5175954051
1422900000.0 -0.3597546302 0.5563184473
1432850000.0 -0.3092708181 0.5853634635
1442800000.0 -0.2539688513 0.6044567388
1452750000.0 -0.19289006 0.6137300602
1462700000.0 -0.1246854712 0.6146790744
1472650000.0 -0.050195999 0.6106752931
1482600000.0 0.0270469475 0.6025808555
1492550000.0 0.1040796914 0.5890860412
1502500000.0 0.178124166 0.5676226996
1512450000.0 0.2461911639 0.5343638287
1522400000.0 0.306396356 0.4871398858
1532350000.0 0.3571601732 0.423453827
1542300000.0 0.3989451039 0.3455531111
1552250000.0 0.4321475285 0.2574448217
1562200000.0 0.4576014861 0.1662043714
1572150000.0 0.4749094545 0.0771616697
1582100000.0 0.4826236453 -0.0129137659
1592050000.0 0.4726709031 -0.1026436403
1602000000.0 0.4404642982 -0.1874986287
1611950000.0 0.3889624247 -0.263806422
1621900000.0 0.3219430717 -0.3323429278
1631850000.0 0.2449145927 -0.3940397655
1641800000.0 0.1625450433 -0.4477178093
1651750000.0 0.0782409971 -0.4900611303
1661700000.0 -0.0054529335 -0.5169422099
1671650000.0 -0.0864705731 -0.5258898638
1681600000.0 -0.1648366559 -0.51614179
1691550000.0 -0.2396068703 -0.4920973533
1701500000.0 -0.3119448453 -0.4565168368
1711450000.0 -0.3809765691 -0.4148827758
1721400000.0 -0.4454828881 -0.3704455951
1731350000.0 -0.5029114917 -0.3251209791
1741300000.0 -0.5498235843 -0.2783442429
1751250000.0 -0.5841255944 -0.2270548452
1761200000.0 -0.6044122357 -0.1722406898
1771150000.0 -0.6127551854 -0.1134932822
1781100000.0 -0.6145632278 -0.0519674419
1791050000.0 -0.6132605948 0.009308392
1801000000.0 -0.6118314603 0.0694537171
1810950000.0 -0.6111286349 0.1255205973
1820900000.0 -0.6079300301 0.1771134559
1830850000.0 -0.597917402 0.2226199595
1840800000.0 -0.5779643046 0.2634182214
1850750000.0 -0.5466560012 0.2991568265
1860700000.0 -0.5053039835 0.3306774576
1870650000.0 -0.459599788 0.3601441555
1880600000.0 -0.4136409844 0.3863136741
1890550000.0 -0.3715172955 0.409638124
1900500000.0 -0.3334040844 0.427938422
1910450000.0 -0.2980709363 0.4384732847
1920400000.0 -0.2630550173 0.4406448584
1930350000.0 -0.2254250372 0.4309843597
1940300000.0 -0.1847054011 0.4105386699
1950250000.0 -0.1420315603 0.3808130642
1960200000.0 -0.1008964849 0.3454300589
1970150000.0 -0.0683140145 0.3057606223
1980100000.0 -0.0478126464 0.2635832338
1990050000.0 -0.0449551643 0.2181450225
2000000000.0 -0.0614386705 0.1691698467
