!Created with skrf (http://scikit-rf.org).
# GHz S RI R 50.0 
!freq ReS11 ImS11
10000000.0 -0.7237370414 0.5493282462
19950000.0 -0.2625401767 0.8703208776
29900000.0 0.305563901 0.8568999366
39850000.0 0.7661461921 0.496698269
49800000.0 0.9188260331 -0.0879072603
59750000.0 0.6694048615 -0.6596588492
69700000.0 0.0994109367 -0.9499551438
79650000.0 -0.5367951413 -0.7910227941
89600000.0 -0.9175288778 -0.2256649563
99550000.0 -0.8087675648 0.4822559406
109500000.0 -0.204035423 0.9329464004
119450000.0 0.5770596985 0.7875214842
129400000.0 0.9887935946 0.068861647
139350000.0 0.6857853332 -0.7119429599
149300000.0 -0.0957503338 -0.956375497
159250000.0 -0.7559736705 -0.5336528608
169200000.0 -0.8823709904 0.1968172084
179150000.0 -0.4785387603 0.7621742857
189100000.0 0.1610948748 0.8839257804
199050000.0 0.6910590693 0.5604968014
209000000.0 0.8796797544 -0.0123330757
218950000.0 0.6731168095 -0.55483061
228900000.0 0.1862829769 -0.8442755264
238850000.0 -0.3673223755 -0.7735067579
248800000.0 -0.7520909752 -0.3699595433
258750000.0 -0.8408348008 0.1583941689
268700000.0 -0.5823439402 0.6398289814
278650000.0 -0.093308215 0.8640843803
288600000.0 0.4263512306 0.7439394144
298550000.0 0.7667672763 0.3281626075
308500000.0 0.7819152221 -0.216345574
318450000.0 0.4516874236 -0.6535320208
328400000.0 -0.0801582141 -0.7742445455
338350000.0 -0.5479578063 -0.5128716354
348300000.0 -0.7002714487 -0.0183887179
358250000.0 -0.4730795744 0.4089615597
368200000.0 -0.0547263872 0.5289563976
378150000.0 0.2696395581 0.3357974329
388100000.0 0.3342782981 0.0248015399
398050000.0 0.1817942481 -0.1802288486
408000000.0 -0.0196041867 -0.1929781965
417950000.0 -0.126703859 -0.075811079
427900000.0 -0.1050290851 0.0496074656
437850000.0 -0.0097010313 0.0953429239
447800000.0 0.0735360818 0.0495683743
457750000.0 0.0882253553 -0.0360016133
467700000.0 0.039529417 -0.1012070619
477650000.0 -0.0351118286 -0.1101641908
487600000.0 -0.0912737951 -0.0634891678
497550000.0 -0.0978405936 0.006342197
507500000.0 -0.0572207451 0.0624647938
517450000.0 0.0057627989 0.0719270694
527400000.0 0.0497695946 0.0390687297
537350000.0 0.0522449171 -0.0103016175
547300000.0 0.0176290833 -0.0410392831
557250000.0 -0.0278767364 -0.0361369636
567200000.0 -0.054188479 0.0023985357
577150000.0 -0.040266367 0.048434368
587100000.0 0.0084333983 0.0673555869
597050000.0 0.0626906864 0.0408213717
607000000.0 0.0860708301 -0.0222207015
616950000.0 0.0608993569 -0.0902373039
626900000.0 -0.0038387414 -0.1268574363
636850000.0 -0.0795307319 -0.1104532086
646800000.0 -0.1277072401 -0.0468969947
656750000.0 -0.1237409106 0.0355063007
666700000.0 -0.0685476827 0.0992027046
676650000.0 0.0159616319 0.1130325305
686600000.0 0.0905030169 0.0668047475
696550000.0 0.1170951176 -0.0188899445
706500000.0 0.0818233674 -0.1005899642
716450000.0 0.0027238806 -0.1366111748
726400000.0 -0.078579531 -0.106472209
736350000.0 -0.111923736 -0.0230700937
746300000.0 -0.0720937011 0.0645348133
756250000.0 0.0262222887 0.1023519939
766200000.0 0.129959915 0.0611583264
776150000.0 0.1791335163 -0.0463745979
786100000.0 0.1374691291 -0.1651609105
796050000.0 0.0141699168 -0.2245432837
806000000.0 -0.1313354235 -0.1800199976
815950000.0 -0.2215539517 -0.0371245684
825900000.0 -0.1980850456 0.1448170286
835850000.0 -0.0571842633 0.2763809441
845800000.0 0.1412972756 0.2874215941
855750000.0 0.3050068508 0.1689490646
865700000.0 0.3682226915 -0.029401537
875650000.0 0.2941480775 -0.2378116772
885600000.0 0.0931495598 -0.360681275
895550000.0 -0.1545890074 -0.3250228939
905500000.0 -0.3332715019 -0.1282753503
915450000.0 -0.3448015351 0.1471068062
925400000.0 -0.173576531 0.3680992063
935350000.0 0.1003938566 0.4225196948
945300000.0 0.3436620655 0.2743884699
955250000.0 0.4246757973 -0.0160038528
965200000.0 0.2709496731 -0.3022546219
975150000.0 -0.0679485344 -0.4014715503
985100000.0 -0.3963420753 -0.2019742579
995050000.0 -0.4625001015 0.2077847075
1005000000.0 -0.1745908937 0.5406113599
1014950000.0 0.2958070916 0.5351599008
1024900000.0 0.6236413389 0.140473352
1034850000.0 0.5285784521 -0.4089144071
1044800000.0 0.0147065212 -0.7055342489
1054750000.0 -0.5618772072 -0.4859609531
1064700000.0 -0.7587541848 0.096979078
1074650000.0 -0.5009081477 0.6082928666
1084600000.0 0.0545119565 0.7867212147
1094550000.0 0.5664697894 0.524197269
1104500000.0 0.737281609 -0.0617503629
1114450000.0 0.4137468343 -0.5848171478
1124400000.0 -0.1751142394 -0.680013891
1134350000.0 -0.6061662178 -0.3173277158
1144300000.0 -0.6302388486 0.2071021461
1154250000.0 -0.2986796544 0.5659425073
1164200000.0 0.1666413046 0.5860026845
1174150000.0 0.5054584519 0.2838236461
1184100000.0 0.5366744559 -0.1652069473
1194050000.0 0.2507423789 -0.4978894766
1204000000.0 -0.163786879 -0.5398309204
1213950000.0 -0.4820218888 -0.3159952969
1223900000.0 -0.5904793651 0.0345003226
1233850000.0 -0.4761619244 0.3685735616
1243800000.0 -0.1893217204 0.570582015
1253750000.0 0.170089739 0.5636003576
1263700000.0 0.4634312684 0.3341850978
1273650000.0 0.5618150815 -0.0300587145
1283600000.0 0.4271862633 -0.3750518299
1293550000.0 0.1323115053 -0.5692337647
1303500000.0 -0.1985236693 -0.5662668717
1313450000.0 -0.4614687716 -0.3966874201
1323400000.0 -0.5989432122 -0.122805886
1333350000.0 -0.5823381437 0.1872648486
1343300000.0 -0.3981533255 0.4555313948
1353250000.0 -0.078115021 0.5796446419
1363200000.0 0.269021502 0.4925918495
1373150000.0 0.5057774536 0.2171362039
1383100000.0 0.5434576413 -0.1351888993
1393050000.0 0.3895038784 -0.4343205986
1403000000.0 0.1168653216 -0.5920275369
1412950000.0 -0.1782242398 -0.5803331489
1422900000.0 -0.4150910833 -0.4201802499
1432850000.0 -0.5371769013 -0.1557812319
1442800000.0 -0.5016952724 0.1490997791
1452750000.0 -0.2938840952 0.3934300688
1462700000.0 0.0232490177 0.474738546
1472650000.0 0.3252573774 0.3570450719
1482600000.0 0.4958822487 0.0966511391
1492550000.0 0.4849849492 -0.201325964
1502500000.0 0.312718806 -0.4276602347
1512450000.0 0.0489001727 -0.5080984572
1522400000.0 -0.2081698407 -0.4162235656
1532350000.0 -0.360066612 -0.184828044
1542300000.0 -0.3413693141 0.0981652119
1552250000.0 -0.1520449899 0.3099792804
1562200000.0 0.1213215327 0.3553908767
1572150000.0 0.3532349906 0.2233613437
1582100000.0 0.4464685069 -0.0164459723
1592050000.0 0.3691869935 -0.2601152496
1602000000.0 0.152923122 -0.4051689227
1611950000.0 -0.1206758487 -0.3856925944
1621900000.0 -0.3365386529 -0.1931059324
1631850000.0 -0.3914955021 0.1022105989
1641800000.0 -0.2518796777 0.3728863909
1651750000.0 0.0234894386 0.5000241635
1661700000.0 0.3171668563 0.4362875521
1671650000.0 0.5172001481 0.2149002375
1681600000.0 0.5574574804 -0.0815159651
1691550000.0 0.4253222485 -0.3547585252
1701500000.0 0.1583337216 -0.5144341082
1711450000.0 -0.1595593064 -0.4987287504
1721400000.0 -0.4247145393 -0.3031604135
1731350000.0 -0.5423810714 0.0124398324
1741300000.0 -0.4666784666 0.3395288006
1751250000.0 -0.2281432457 0.5632608691
1761200000.0 0.0852068319 0.6178167458
1771150000.0 0.3729418085 0.5014174587
1781100000.0 0.5576791174 0.2564010579
1791050000.0 0.5927027934 -0.0498367369
1801000000.0 0.464028154 -0.3362530891
1810950000.0 0.2049233913 -0.5166210859
1820900000.0 -0.1168764003 -0.529624273
1830850000.0 -0.3994302807 -0.3588153834
1840800000.0 -0.5413440418 -0.0638017697
1850750000.0 -0.5040291908 0.2462720801
1860700000.0 -0.321658895 0.4730900228
1870650000.0 -0.0626651735 0.5676519276
1880600000.0 0.1932921814 0.5158283147
1890550000.0 0.3770303767 0.3437369597
1900500000.0 0.4445119014 0.1047862993
1910450000.0 0.3780688349 -0.1292780974
1920400000.0 0.1994511298 -0.2860256296
1930350000.0 -0.0249532218 -0.3103773718
1940300000.0 -0.2095086067 -0.2115847791
1950250000.0 -0.2926027459 -0.051051673
1960200000.0 -0.2678164116 0.0881427093
1970150000.0 -0.1842373833 0.1462937278
1980100000.0 -0.1217256145 0.1213752166
1990050000.0 -0.1259745978 0.0845090073
2000000000.0 -0.1645742274 0.1040999747
