!Created with skrf (http://scikit-rf.org).
# GHz S RI R 50.0 
!freq ReS11 ImS11
10000000.0 -0.7782756028 0.587667631
19950000.0 -0.2810416051 0.9249733354
29900000.0 0.3197012464 0.9046794885
39850000.0 0.8011229472 0.525938253
49800000.0 0.9630353843 -0.0821508108
59750000.0 0.7089058805 -0.6797524993
69700000.0 0.1158502823 -0.9882432486
79650000.0 -0.5519807934 -0.8243432894
89600000.0 -0.9465105471 -0.2307721089
99550000.0 -0.8190353012 0.5010905263
109500000.0 -0.1827005763 0.9449506013
119450000.0 0.6090355663 0.7655432175
129400000.0 0.9925827862 0.0148862344
139350000.0 0.6414593905 -0.756941576
149300000.0 -0.1640499437 -0.9560448328
159250000.0 -0.8057564963 -0.4888516981
169200000.0 -0.8940903403 0.2604748552
179150000.0 -0.4511872038 0.8228483601
189100000.0 0.2225124929 0.9219961508
199050000.0 0.7669729289 0.557870708
209000000.0 0.9386751589 -0.0547366948
218950000.0 0.6962972571 -0.6151896339
228900000.0 0.1747143232 -0.8999339072
238850000.0 -0.4031223731 -0.8127466572
248800000.0 -0.8004828513 -0.4096605444
258750000.0 -0.8970301046 0.1675994426
268700000.0 -0.6275321266 0.677257511
278650000.0 -0.1105081783 0.918844335
288600000.0 0.4412898211 0.7957823611
298550000.0 0.8023847464 0.36270362
308500000.0 0.82450097 -0.2020765892
318450000.0 0.4924821553 -0.6579628375
328400000.0 -0.0488595468 -0.7959683636
338350000.0 -0.5340306282 -0.545533801
348300000.0 -0.7054470612 -0.0521422794
358250000.0 -0.4937265131 0.383722843
368200000.0 -0.0833410921 0.5164137992
378150000.0 0.2397229864 0.3352611159
388100000.0 0.3064868127 0.0340280602
398050000.0 0.15728154 -0.1645091285
408000000.0 -0.0381538458 -0.1690194305
417950000.0 -0.1335338813 -0.0459206399
427900000.0 -0.0953208983 0.0787635503
437850000.0 0.0146823488 0.1166489316
447800000.0 0.1078884043 0.0571156157
457750000.0 0.1261417176 -0.0486457006
467700000.0 0.0671316105 -0.1328214835
477650000.0 -0.0280798396 -0.1512816711
487600000.0 -0.1056857413 -0.1020132317
497550000.0 -0.1281111927 -0.0221118986
507500000.0 -0.0972024347 0.051050502
517450000.0 -0.0352930084 0.0813638613
527400000.0 0.0193102199 0.0662936037
537350000.0 0.0408972665 0.0275961236
547300000.0 0.0286430742 -0.0052967961
557250000.0 -0.0012503805 -0.0096383769
567200000.0 -0.0158897557 0.0133432724
577150000.0 0.0005057648 0.0400988829
587100000.0 0.0408563427 0.0421208169
597050000.0 0.0788757916 0.0062550105
607000000.0 0.0843926295 -0.057108364
616950000.0 0.0429342647 -0.117273966
626900000.0 -0.0336869725 -0.140398926
636850000.0 -0.1138662003 -0.1076562829
646800000.0 -0.1585217617 -0.0270576556
656750000.0 -0.1433654375 0.0688094633
666700000.0 -0.0695418711 0.1371537842
676650000.0 0.0329781725 0.14452894
686600000.0 0.1189811541 0.0841401468
696550000.0 0.1488207532 -0.0179700691
706500000.0 0.1076560436 -0.1141073616
716450000.0 0.0165021424 -0.1590399176
726400000.0 -0.0779431836 -0.1303298431
736350000.0 -0.1236518328 -0.0438739072
746300000.0 -0.0931862615 0.0524520243
756250000.0 0.0006362011 0.1022442657
766200000.0 0.1067312138 0.0717243294
776150000.0 0.1629146651 -0.0293369379
786100000.0 0.1294592333 -0.1472509937
796050000.0 0.0130049028 -0.2121551851
806000000.0 -0.1301430975 -0.1738190047
815950000.0 -0.2207825433 -0.0335904491
825900000.0 -0.1967668354 0.1486052289
835850000.0 -0.0524341088 0.2833900613
845800000.0 0.1555161087 0.2966437859
855750000.0 0.334737105 0.1682062949
865700000.0 0.3969561031 -0.0569455352
875650000.0 0.2984904233 -0.2825710064
885600000.0 0.0664311329 -0.4013024211
895550000.0 -0.2027395709 -0.3425747676
905500000.0 -0.3824849436 -0.1146680525
915450000.0 -0.375777501 0.1873812242
925400000.0 -0.1724279884 0.4196639047
935350000.0 0.1374981775 0.4613275641
945300000.0 0.4003322034 0.2773463888
955250000.0 0.4681549294 -0.0542001597
965200000.0 0.2709836685 -0.3604590346
975150000.0 -0.1179447517 -0.4352902295
985100000.0 -0.4557205694 -0.1665763731
995050000.0 -0.4624320537 0.2992819959
1005000000.0 -0.0726116742 0.6152771167
1014950000.0 0.457774165 0.478618995
1024900000.0 0.6740313696 -0.0700785229
1034850000.0 0.3666245148 -0.5751132179
1044800000.0 -0.2259854647 -0.6989180749
1054750000.0 -0.7343722192 -0.2990872954
1064700000.0 -0.7528715702 0.3574966606
1074650000.0 -0.2797598258 0.7893555771
1084600000.0 0.2783182649 0.7462045542
1094550000.0 0.7156065465 0.3410023556
1104500000.0 0.7102859599 -0.2743192449
1114450000.0 0.264780375 -0.6899772316
1124400000.0 -0.3156864393 -0.6501917372
1134350000.0 -0.6624816495 -0.2353339424
1144300000.0 -0.6268776214 0.2624057537
1154250000.0 -0.2905189478 0.5843966234
1164200000.0 0.1536670428 0.602265569
1174150000.0 0.4934619433 0.3278059654
1184100000.0 0.5622801621 -0.1074602084
1194050000.0 0.3188654216 -0.4685972643
1204000000.0 -0.0855083974 -0.5675586229
1213950000.0 -0.4360209552 -0.3921178104
1223900000.0 -0.5958542451 -0.0566326717
1233850000.0 -0.5290717175 0.2963244129
1243800000.0 -0.2693879032 0.5425558541
1253750000.0 0.0928810256 0.587795676
1263700000.0 0.4185536738 0.399935673
1273650000.0 0.5662899239 0.0477755395
1283600000.0 0.475709744 -0.3193591123
1293550000.0 0.2008175669 -0.5565119901
1303500000.0 -0.1415661393 -0.5971394631
1313450000.0 -0.4385634799 -0.4512870449
1323400000.0 -0.6120823099 -0.1735447922
1333350000.0 -0.6139631443 0.1599109314
1343300000.0 -0.4294386959 0.4522836902
1353250000.0 -0.0988782358 0.5942369462
1363200000.0 0.2630345875 0.5163685199
1373150000.0 0.5145442731 0.2426489958
1383100000.0 0.5661718995 -0.1161452995
1393050000.0 0.420180297 -0.4304167382
1403000000.0 0.1434504613 -0.6089550338
1412950000.0 -0.1724012604 -0.6122862577
1422900000.0 -0.4374228422 -0.4481744634
1432850000.0 -0.5758540357 -0.1597070919
1442800000.0 -0.5331656011 0.1706266653
1452750000.0 -0.3063314958 0.4271023824
1462700000.0 0.0283220626 0.50810646
1472650000.0 0.3420891828 0.3856713751
1482600000.0 0.5232115196 0.1169984575
1492550000.0 0.5209825698 -0.1937667441
1502500000.0 0.3502361973 -0.44024999
1512450000.0 0.0753879187 -0.5434725089
1522400000.0 -0.2072654662 -0.4664309996
1532350000.0 -0.3916480223 -0.2318028751
1542300000.0 -0.3991576264 0.0728457085
1552250000.0 -0.2220607082 0.3204397233
1562200000.0 0.0600222022 0.4074483041
1572150000.0 0.326482687 0.3115057349
1582100000.0 0.4755220502 0.0800367316
1592050000.0 0.4529316149 -0.1903700384
1602000000.0 0.2701876408 -0.3948620303
1611950000.0 -0.007437269 -0.4502568676
1621900000.0 -0.2739978392 -0.3226616645
1631850000.0 -0.4157446827 -0.0496477444
1641800000.0 -0.3617573853 0.2606030908
1651750000.0 -0.1309134935 0.4743074294
1661700000.0 0.1773486565 0.5051178258
1671650000.0 0.4397812928 0.3510409762
1681600000.0 0.5660759841 0.0768514106
1691550000.0 0.5189265882 -0.2249300891
1701500000.0 0.3088845959 -0.4571818598
1711450000.0 -0.0043638184 -0.5377281518
1721400000.0 -0.3208861835 -0.4222467553
1731350000.0 -0.5186050839 -0.1411027217
1741300000.0 -0.5294630639 0.2006055806
1751250000.0 -0.3499354765 0.4854586173
1761200000.0 -0.0505653344 0.619947009
1771150000.0 0.2621576742 0.5742727872
1781100000.0 0.5007736097 0.3768785417
1791050000.0 0.6061921804 0.0848613464
1801000000.0 0.5474012782 -0.2278653713
1810950000.0 0.3286770291 -0.4728376137
1820900000.0 0.0030636157 -0.5618163923
1830850000.0 -0.3206757089 -0.4504397028
1840800000.0 -0.523967114 -0.1804733016
1850750000.0 -0.5468586218 0.1409419608
1860700000.0 -0.4080787738 0.4077240021
1870650000.0 -0.17024075 0.55684818
1880600000.0 0.0950088543 0.5651684404
1890550000.0 0.3198782685 0.4410462121
1900500000.0 0.4474171551 0.2182554113
1910450000.0 0.4388296299 -0.0402996967
1920400000.0 0.2939758459 -0.2503852338
1930350000.0 0.0680178132 -0.339883452
1940300000.0 -0.1491795445 -0.293189862
1950250000.0 -0.2868976841 -0.1559644141
1960200000.0 -0.3230982196 0.0032884518
1970150000.0 -0.2777146365 0.127051271
1980100000.0 -0.1954824339 0.1831043959
1990050000.0 -0.1302186676 0.1731547946
2000000000.0 -0.1227238786 0.1383402279
