!Created with skrf (http://scikit-rf.org).
# GHz S RI R 50.0 
!freq ReS11 ImS11
10000000.0 0.9886146284 0.0639090156
19950000.0 0.9829708031 0.133716962
29900000.0 0.9720513238 0.2044159007
39850000.0 0.9575875924 0.272165263
49800000.0 0.9385834248 0.3389601417
59750000.0 0.9147894738 0.404341925
69700000.0 0.8860509217 0.4678134986
79650000.0 0.8521684607 0.5298377173
89600000.0 0.8136983178 0.5901493018
99550000.0 0.7707563481 0.648348957
109500000.0 0.7236740274 0.7043684478
119450000.0 0.6732956826 0.7579720296
129400000.0 0.6198332145 0.8086242481
139350000.0 0.5637209251 0.8554931379
149300000.0 0.5018921054 0.8945893693
159250000.0 0.4409903898 0.9329625544
169200000.0 0.3747745238 0.9640466433
179150000.0 0.3044984145 0.9906580512
189100000.0 0.2318590096 1.012272644
199050000.0 0.1569857688 1.029270843
209000000.0 0.083924428 1.041900574
218950000.0 0.0048398961 1.047439719
228900000.0 -0.0720653341 1.047810102
238850000.0 -0.1478794611 1.042058896
248800000.0 -0.2239346119 1.027911299
258750000.0 -0.2997310617 1.011804021
268700000.0 -0.3729312936 0.9879073813
278650000.0 -0.4444830249 0.9577932692
288600000.0 -0.5138394933 0.9221338095
298550000.0 -0.5811485028 0.8808439522
308500000.0 -0.6451528038 0.8351279004
318450000.0 -0.7054154653 0.7849996322
328400000.0 -0.7609194815 0.7312323893
338350000.0 -0.8113425268 0.6736060898
348300000.0 -0.8561469752 0.6121944593
358250000.0 -0.8967041518 0.5461417111
368200000.0 -0.9314826255 0.4784389912
378150000.0 -0.9606137379 0.4075903669
388100000.0 -0.9842960818 0.334827515
398050000.0 -1.002900349 0.2611757462
408000000.0 -1.016241365 0.1868757414
417950000.0 -1.024097262 0.1116961327
427900000.0 -1.026504632 0.0368137438
437850000.0 -1.023420637 -0.0374708107
447800000.0 -1.014875993 -0.1108465164
457750000.0 -1.001347117 -0.1830969243
467700000.0 -0.9826601825 -0.2537429702
477650000.0 -0.9593627824 -0.3223640132
487600000.0 -0.93138942 -0.3889831149
497550000.0 -0.8991032142 -0.4531516051
507500000.0 -0.8624640197 -0.5146967419
517450000.0 -0.8217816015 -0.5732111658
527400000.0 -0.7774715495 -0.6287374522
537350000.0 -0.7293167414 -0.6810971852
547300000.0 -0.6779481945 -0.7297127274
557250000.0 -0.6237745589 -0.7750392933
567200000.0 -0.5663728054 -0.8166130227
577150000.0 -0.5071026296 -0.853976561
587100000.0 -0.4451979532 -0.88781132
597050000.0 -0.3812075794 -0.9173384313
607000000.0 -0.3155810342 -0.9430491742
616950000.0 -0.2483776459 -0.9646688499
626900000.0 -0.1798135957 -0.9812665887
636850000.0 -0.110487835 -0.9938057142
646800000.0 -0.0402687366 -1.00122985
656750000.0 0.0305902404 -1.004085221
666700000.0 0.1019144042 -1.001919712
676650000.0 0.1730893499 -0.994968887
686600000.0 0.2443549175 -0.9827953107
696550000.0 0.3151913905 -0.965596703
706500000.0 0.3850751277 -0.9428435443
716450000.0 0.4533722696 -0.9150532174
726400000.0 0.5202598069 -0.8822388151
736350000.0 0.585217313 -0.8442199775
746300000.0 0.6472917331 -0.8013076903
756250000.0 0.7064988717 -0.7535856467
766200000.0 0.7625709727 -0.7012644414
776150000.0 0.814707226 -0.645513553
786100000.0 0.8623221319 -0.585547655
796050000.0 0.9053528565 -0.5223799757
806000000.0 0.9446492813 -0.4562583231
815950000.0 0.9785116049 -0.38653562
825900000.0 1.006873091 -0.3142481869
835850000.0 1.029272119 -0.2400163022
845800000.0 1.045395891 -0.1634207453
855750000.0 1.055630464 -0.0860246873
865700000.0 1.059849024 -0.0078561703
875650000.0 1.057504294 0.0701588317
885600000.0 1.049085524 0.1474060081
895550000.0 1.034302442 0.2240705544
905500000.0 1.011927858 0.299268413
915450000.0 0.9837411191 0.3755938632
925400000.0 0.953395131 0.4491073263
935350000.0 0.9170431201 0.5170407536
945300000.0 0.8750012482 0.5820615697
955250000.0 0.8284420544 0.6433888681
965200000.0 0.7772465786 0.7006631136
975150000.0 0.7227437572 0.7532989165
985100000.0 0.6645971432 0.8005860021
995050000.0 0.5999635654 0.8404256998
1005000000.0 0.5323067768 0.8850323282
1014950000.0 0.4688235711 0.9188927112
1024900000.0 0.4009280735 0.9462878951
1034850000.0 0.3306777283 0.9690933793
1044800000.0 0.2595020698 0.9870471221
1054750000.0 0.1881447022 0.9994625861
1064700000.0 0.1176203473 1.006992097
1074650000.0 0.0506633507 1.006850999
1084600000.0 -0.0443535426 0.9840572634
1094550000.0 -0.1083376584 0.9983043332
1104500000.0 -0.1749349516 0.9866235268
1114450000.0 -0.2428082382 0.9695170562
1124400000.0 -0.3099925457 0.9476260376
1134350000.0 -0.3760540529 0.9220190991
1144300000.0 -0.4399535061 0.8926281553
1154250000.0 -0.5004350031 0.8591974565
1164200000.0 -0.5568316552 0.8199131206
1174150000.0 -0.6135320702 0.771581559
1184100000.0 -0.674025178 0.7271754596
1194050000.0 -0.7247416191 0.6811601504
1204000000.0 -0.7714136489 0.6300356678
1213950000.0 -0.8145841474 0.5744282598
1223900000.0 -0.8542669002 0.51600939
1233850000.0 -0.8903386319 0.4541209735
1243800000.0 -0.9224442562 0.3904772802
1253750000.0 -0.9497153946 0.3247033983
1263700000.0 -0.9720562325 0.2571858032
1273650000.0 -0.9854082946 0.187675824
1283600000.0 -0.993150408 0.1043526673
1293550000.0 -1.011814808 0.0257549091
1303500000.0 -1.019637603 -0.0461592835
1313450000.0 -1.019080225 -0.1188552466
1323400000.0 -1.012275512 -0.1923645262
1333350000.0 -0.9986456466 -0.2667562933
1343300000.0 -0.9798928398 -0.3404608453
1353250000.0 -0.9555124046 -0.4134843592
1363200000.0 -0.9261727497 -0.484289911
1373150000.0 -0.8911497947 -0.5523462072
1383100000.0 -0.8514897317 -0.6172922915
1393050000.0 -0.8061712455 -0.6781355446
1403000000.0 -0.7537702682 -0.7318112434
1412950000.0 -0.6859599655 -0.7811887378
1422900000.0 -0.6174906098 -0.8476168977
1432850000.0 -0.5590862583 -0.8999975955
1442800000.0 -0.494925489 -0.9421427954
1452750000.0 -0.4257245331 -0.9780562449
1462700000.0 -0.3527149435 -1.007691808
1472650000.0 -0.2773533562 -1.031514323
1482600000.0 -0.2002001638 -1.049708714
1492550000.0 -0.1225367607 -1.061735125
1502500000.0 -0.04482893 -1.067224557
1512450000.0 0.0322675733 -1.066030965
1522400000.0 0.1075609699 -1.057334455
1532350000.0 0.1822153021 -1.038771875
1542300000.0 0.262806345 -1.011629028
1552250000.0 0.3449003727 -0.9890991448
1562200000.0 0.4172075874 -0.9638106601
1572150000.0 0.484421297 -0.9306301647
1582100000.0 0.5480125825 -0.8910530222
1592050000.0 0.6087446644 -0.8466981928
1602000000.0 0.6656544718 -0.7991655607
1611950000.0 0.7174541508 -0.7476245096
1621900000.0 0.7649838431 -0.6923746691
1631850000.0 0.8066358593 -0.6338221051
1641800000.0 0.8422838096 -0.5713033709
1651750000.0 0.8733174378 -0.5002690687
1661700000.0 0.9098871057 -0.4271615637
1671650000.0 0.9420052292 -0.361676317
1681600000.0 0.96502907 -0.2956108707
1691550000.0 0.9813133773 -0.2289750375
1701500000.0 0.9919998997 -0.1607924033
1711450000.0 0.9986595308 -0.0912068652
1721400000.0 0.9995579811 -0.0230376729
1731350000.0 0.9962937711 0.0453453607
1741300000.0 0.9883073393 0.1127418097
1751250000.0 0.9758381666 0.1791785549
1761200000.0 0.9571967767 0.2423220538
1771150000.0 0.9281543788 0.3028287021
1781100000.0 0.8847779405 0.376609908
1791050000.0 0.8623153928 0.4596755303
1801000000.0 0.8385219378 0.522876084
1810950000.0 0.8058978655 0.5807681759
1820900000.0 0.7664968372 0.6359175464
1830850000.0 0.7224120824 0.6889887111
1840800000.0 0.6740164687 0.7396519755
1850750000.0 0.6213301944 0.7870731979
1860700000.0 0.565743232 0.8310858509
1870650000.0 0.5067048501 0.8712867134
1880600000.0 0.4449623377 0.9070831334
1890550000.0 0.3800776703 0.9373015821
1900500000.0 0.3116307067 0.9601354052
1910450000.0 0.2363392299 0.9749769359
1920400000.0 0.151368304 0.9918801592
1930350000.0 0.069988735 1.012441384
1940300000.0 -0.0061830023 1.024165985
1950250000.0 -0.0828086961 1.028287378
1960200000.0 -0.1584697224 1.025240203
1970150000.0 -0.2344836275 1.014902499
1980100000.0 -0.3105271673 0.9984876795
1990050000.0 -0.3855171094 0.9746142181
2000000000.0 -0.4593846124 0.9452527521
