!Created with skrf (http://scikit-rf.org).
# GHz S RI R 50.0 
!freq ReS11 ImS11
10000000.0 -1.000010809 0.1611586025
19950000.0 -0.9457252243 0.3083513354
29900000.0 -0.8694321003 0.449903475
39850000.0 -0.770395902 0.5902805263
49800000.0 -0.6495946209 0.7238779941
59750000.0 -0.502221854 0.8444070156
69700000.0 -0.3195716609 0.9391891378
79650000.0 -0.0975449194 0.988525318
89600000.0 0.1619760219 0.972379647
99550000.0 0.443078287 0.8683485205
109500000.0 0.7164964416 0.6602116153
119450000.0 0.9299703745 0.3375886118
129400000.0 1.009278464 -0.0760389094
139350000.0 0.9010903155 -0.4874390097
149300000.0 0.6212742777 -0.8033946264
159250000.0 0.2601923579 -0.9605387082
169200000.0 -0.0944229018 -0.9768533515
179150000.0 -0.3957269026 -0.8960621018
189100000.0 -0.6289480285 -0.7580633913
199050000.0 -0.7915551392 -0.5899950092
209000000.0 -0.8875789299 -0.4088242644
218950000.0 -0.9338290308 -0.2284970377
228900000.0 -0.9425141671 -0.0555475966
238850000.0 -0.9253567809 0.1087404983
248800000.0 -0.8806104944 0.2453814978
258750000.0 -0.8415880413 0.4034511486
268700000.0 -0.772091955 0.5335446761
278650000.0 -0.6796021162 0.6445604417
288600000.0 -0.5622023355 0.7324257932
298550000.0 -0.4224668668 0.7944213124
308500000.0 -0.263820787 0.8314897944
318450000.0 -0.0906123235 0.8394887337
328400000.0 0.091074178 0.8112335044
338350000.0 0.2645131667 0.7344890105
348300000.0 0.4063920906 0.6013729675
358250000.0 0.4862613365 0.4213984568
368200000.0 0.4920841029 0.2264391999
378150000.0 0.4282351813 0.0458530386
388100000.0 0.3156535593 -0.0881196389
398050000.0 0.1867015905 -0.1592243321
408000000.0 0.0705560379 -0.1715222396
417950000.0 -0.0187155458 -0.1409079712
427900000.0 -0.0779345755 -0.0858661191
437850000.0 -0.1115226626 -0.0229200795
447800000.0 -0.1254209834 0.0361672929
457750000.0 -0.1242828648 0.0829598081
467700000.0 -0.1118768028 0.1130025291
477650000.0 -0.0904348085 0.1259561029
487600000.0 -0.0631025503 0.1244817883
497550000.0 -0.0342148079 0.1131069039
507500000.0 -0.0016024867 0.0987535101
517450000.0 0.0223077606 0.0791485755
527400000.0 0.0361667262 0.0597554685
537350000.0 0.0364849656 0.0404877108
547300000.0 0.0246428714 0.0217164381
557250000.0 0.002090524 0.001999506
567200000.0 -0.0269890749 -0.0170706794
577150000.0 -0.0578745142 -0.0321448653
587100000.0 -0.0853544183 -0.0409749276
597050000.0 -0.1073788897 -0.0401212654
607000000.0 -0.1235031255 -0.0282919644
616950000.0 -0.1352001684 -0.0059925403
626900000.0 -0.1432057355 0.0242707982
636850000.0 -0.1476045717 0.0578410671
646800000.0 -0.1484803313 0.0902638953
656750000.0 -0.1439178683 0.1179369245
666700000.0 -0.1312731923 0.1377100871
676650000.0 -0.1089153363 0.1492849975
686600000.0 -0.0772327521 0.1537623481
696550000.0 -0.0381361996 0.152758416
706500000.0 0.0043146284 0.1465701119
716450000.0 0.0456473457 0.1345164956
726400000.0 0.0807673381 0.1144605499
736350000.0 0.1050631946 0.0821405823
746300000.0 0.1114295458 0.0400858553
756250000.0 0.1077686577 -0.002931389
766200000.0 0.0978122794 -0.0573447735
776150000.0 0.0777065249 -0.1153486207
786100000.0 0.0477278773 -0.1692618054
796050000.0 0.0073779671 -0.2119486663
806000000.0 -0.0421723087 -0.2383187847
815950000.0 -0.1016823488 -0.2449371124
825900000.0 -0.1682590371 -0.232775547
835850000.0 -0.238340626 -0.2046666212
845800000.0 -0.3063885113 -0.1645021937
855750000.0 -0.3663328834 -0.114390967
865700000.0 -0.4119353626 -0.0559651464
875650000.0 -0.4370588618 0.0107448541
885600000.0 -0.4397659888 0.0847010835
895550000.0 -0.4203888894 0.1652827852
905500000.0 -0.3809110611 0.2501664203
915450000.0 -0.3236769143 0.3345972051
925400000.0 -0.250235656 0.4111770572
935350000.0 -0.1591314425 0.4710255494
945300000.0 -0.0505010494 0.5021434275
955250000.0 0.073271029 0.4893564727
965200000.0 0.1907646234 0.4214951866
975150000.0 0.283507272 0.3610253943
985100000.0 0.4053650984 0.261014976
995050000.0 0.5130969192 0.0964501896
1005000000.0 0.5600793736 -0.1173272054
1014950000.0 0.5114345165 -0.3526383926
1024900000.0 0.3498306862 -0.5662642572
1034850000.0 0.0854420601 -0.7057926754
1044800000.0 -0.2356501551 -0.7270159699
1054750000.0 -0.5486761701 -0.6099240801
1064700000.0 -0.7674275538 -0.3647139268
1074650000.0 -0.8655025478 -0.0982041533
1084600000.0 -0.8480480859 0.2119853443
1094550000.0 -0.6930692732 0.4644890482
1104500000.0 -0.5080056149 0.6797355589
1114450000.0 -0.2320429589 0.8025523087
1124400000.0 0.055325467 0.8176915638
1134350000.0 0.3139413968 0.7266366852
1144300000.0 0.5091365746 0.5505778246
1154250000.0 0.6232467817 0.3279187802
1164200000.0 0.6597448086 0.095623395
1174150000.0 0.6366897263 -0.1137361592
1184100000.0 0.5750765865 -0.2938980627
1194050000.0 0.4751662178 -0.4408789314
1204000000.0 0.3469116571 -0.5412678441
1213950000.0 0.2059719956 -0.5960844899
1223900000.0 0.0652539761 -0.616444406
1233850000.0 -0.0678038381 -0.6140904877
1243800000.0 -0.1880804208 -0.5965023632
1253750000.0 -0.29357505 -0.5670796089
1263700000.0 -0.3828165736 -0.5262283207
1273650000.0 -0.4551315835 -0.4748020724
1283600000.0 -0.5100362709 -0.4116802257
1293550000.0 -0.55151558 -0.3391183237
1303500000.0 -0.5844943732 -0.26144359
1313450000.0 -0.6116928196 -0.1829157999
1323400000.0 -0.6360216942 -0.1072046327
1333350000.0 -0.6558938761 -0.0351963241
1343300000.0 -0.6679418891 0.0328752229
1353250000.0 -0.6690535164 0.0963273362
1363200000.0 -0.6556894937 0.1572135453
1373150000.0 -0.6279464331 0.2171855137
1383100000.0 -0.5900930405 0.276733483
1393050000.0 -0.5463764411 0.3366903992
1403000000.0 -0.501910781 0.3954255991
1412950000.0 -0.4560882649 0.4509997807
1422900000.0 -0.4092501148 0.499743278
1432850000.0 -0.3591630509 0.5388326519
1442800000.0 -0.3034166562 0.566977698
1452750000.0 -0.2394381537 0.5828005285
1462700000.0 -0.167211851 0.5892277195
1472650000.0 -0.0888507159 0.5893137566
1482600000.0 -0.0071457723 0.5854135259
1492550000.0 0.0736811123 0.576221452
1502500000.0 0.1519445517 0.5594097219
1512450000.0 0.2248627861 0.5305615892
1522400000.0 0.2901048523 0.4863459331
1532350000.0 0.3470677966 0.4241465748
1542300000.0 0.3958974632 0.3462637619
1552250000.0 0.437418451 0.2569367726
1562200000.0 0.4716458421 0.1624840606
1572150000.0 0.495903951 0.0671109291
1582100000.0 0.5054924592 -0.0276466946
1592050000.0 0.4964057579 -0.1195154685
1602000000.0 0.4651434913 -0.2066477134
1611950000.0 0.4127119335 -0.2862062131
1621900000.0 0.344421683 -0.3591842018
1631850000.0 0.2667017555 -0.4252026603
1641800000.0 0.1846330141 -0.4833236516
1651750000.0 0.1015573564 -0.5301685853
1661700000.0 0.0206073977 -0.5629267094
1671650000.0 -0.0583651857 -0.576648281
1681600000.0 -0.1352135054 -0.5710737864
1691550000.0 -0.2105378259 -0.5497852686
1701500000.0 -0.2852626665 -0.5172684966
1711450000.0 -0.357948385 -0.4795952772
1721400000.0 -0.4270131356 -0.4401637031
1731350000.0 -0.4900264128 -0.4013189458
1741300000.0 -0.5430475455 -0.3605119344
1751250000.0 -0.583363855 -0.3153605041
1761200000.0 -0.6099235603 -0.2654082059
1771150000.0 -0.6244240306 -0.2092836959
1781100000.0 -0.6321545286 -0.1490734469
1791050000.0 -0.6370418674 -0.0875863019
1801000000.0 -0.6422813301 -0.027758243
1810950000.0 -0.6498282714 0.0285851321
1820900000.0 -0.6557213147 0.0808950329
1830850000.0 -0.6558609959 0.1278281795
1840800000.0 -0.6454409702 0.1705353448
1850750000.0 -0.6228098155 0.2102648277
1860700000.0 -0.5888156194 0.2479013477
1870650000.0 -0.5486259712 0.2848730682
1880600000.0 -0.5079442544 0.3196315294
1890550000.0 -0.470545195 0.3525805648
1900500000.0 -0.4382901052 0.3805788969
1910450000.0 -0.408468656 0.4014488225
1920400000.0 -0.3785454763 0.413730416
1930350000.0 -0.3447160189 0.4161362646
1940300000.0 -0.3049285347 0.4090875024
1950250000.0 -0.2595072093 0.3945787961
1960200000.0 -0.2114817133 0.3764562117
1970150000.0 -0.1666559352 0.355410742
1980100000.0 -0.1291713329 0.331890461
1990050000.0 -0.1031827992 0.3046702435
2000000000.0 -0.0901897818 0.2696319365
