!Created with skrf (http://scikit-rf.org).
# GHz S RI R 50.0 
!freq ReS11 ImS11
10000000.0 -0.5578065191 0.0469156941
14975000.0 -0.568802951 0.0757357946
19950000.0 -0.581630864 0.1093092686
24925000.0 -0.59355499 0.148490456
29900000.0 -0.6029516301 0.1921745085
34875000.0 -0.6068736174 0.2399146941
39850000.0 -0.6044213344 0.2906711532
44825000.0 -0.5951120371 0.3430081026
49800000.0 -0.5795175557 0.3958041134
54775000.0 -0.5578930357 0.4478516264
59750000.0 -0.5310948278 0.4986225803
64725000.0 -0.5004266538 0.5475896867
69700000.0 -0.4664758281 0.5945873769
74675000.0 -0.4299269 0.6401721821
79650000.0 -0.3910713847 0.6849950278
84625000.0 -0.3495059747 0.7298118411
89600000.0 -0.3376711046 0.777616388
94575000.0 -0.2838794949 0.8256702713
99550000.0 -0.2198414087 0.871486546
104525000.0 -0.1442002654 0.9130997936
109500000.0 -0.0559766423 0.9460931935
114475000.0 0.0441785293 0.965735365
119450000.0 0.1530755196 0.9684675009
124425000.0 0.2665669834 0.9516633615
129400000.0 0.3611370311 0.9109651491
134375000.0 0.484607148 0.8600830688
139350000.0 0.5842506689 0.7856414153
144325000.0 0.6712873565 0.6953775593
149300000.0 0.7428474461 0.592102515
154275000.0 0.796150723 0.4797761073
159250000.0 0.8299217413 0.3626603878
164225000.0 0.8431207368 0.2458518821
169200000.0 0.8370592044 0.1339486772
174175000.0 0.8143492317 0.0311349598
179150000.0 0.7799778734 -0.0596452771
184125000.0 0.7388994272 -0.1379053649
189100000.0 0.6958717376 -0.2048695724
194075000.0 0.6537426587 -0.2631765409
199050000.0 0.6138915785 -0.3153451762
204025000.0 0.5756758574 -0.3642637164
209000000.0 0.5380693671 -0.410923188
213975000.0 0.4993519425 -0.4563242534
218950000.0 0.4583121547 -0.4997755851
223925000.0 0.4140783053 -0.540894712
228900000.0 0.3661063243 -0.5784445225
233875000.0 0.3142270513 -0.611484764
238850000.0 0.2575291841 -0.6395076891
243825000.0 0.1896032912 -0.6616964692
248800000.0 0.1768224915 -0.4801045404
253775000.0 0.1325249155 -0.6729135053
258750000.0 0.0711274008 -0.6835385351
263725000.0 0.0191134988 -0.6866915242
268700000.0 -0.0281112806 -0.6863703102
273675000.0 -0.0715334836 -0.6841694292
278650000.0 -0.1119413091 -0.6813855515
283625000.0 -0.1505592337 -0.6788772394
288600000.0 -0.1889221821 -0.6768957191
293575000.0 -0.2282619404 -0.6749980524
298550000.0 -0.269694212 -0.6719012975
303525000.0 -0.3138160738 -0.6662640751
308500000.0 -0.3601552356 -0.6559045498
313475000.0 -0.4077848252 -0.6391698219
318450000.0 -0.4552561775 -0.6151138816
323425000.0 -0.5008655118 -0.5833224997
328400000.0 -0.5431619839 -0.5441818779
333375000.0 -0.5804840528 -0.4984023768
338350000.0 -0.6118130765 -0.4468173124
343325000.0 -0.6362099602 -0.390635518
348300000.0 -0.6525146015 -0.3312433125
353275000.0 -0.6600473681 -0.270136995
358250000.0 -0.6589535034 -0.2086736186
363225000.0 -0.6491485845 -0.1487430416
368200000.0 -0.6301703847 -0.0923835933
373175000.0 -0.6035377627 -0.0411479793
378150000.0 -0.5707448514 0.003485047
383125000.0 -0.5322925972 0.0409642213
388100000.0 -0.4898983996 0.0711010452
393075000.0 -0.4460585299 0.0933784005
398050000.0 -0.4013961323 0.1088870321
403025000.0 -0.356742135 0.1183434901
408000000.0 -0.3135750875 0.1218281912
412975000.0 -0.2724875154 0.1197898251
417950000.0 -0.2340821866 0.1136695881
422925000.0 -0.1986809202 0.1038798241
427900000.0 -0.1672142741 0.090478296
432875000.0 -0.1397682277 0.0748454004
437850000.0 -0.1163746851 0.0578012604
442825000.0 -0.0968379605 0.0392884524
447800000.0 -0.0806943798 0.0203062947
452775000.0 -0.0681223017 0.0013177181
457750000.0 -0.0582949684 -0.0175221632
462725000.0 -0.050522146 -0.0357971588
467700000.0 -0.0453166804 -0.0529739704
472675000.0 -0.0425428077 -0.0686215494
477650000.0 -0.0408649229 -0.0825787511
482625000.0 -0.0407183764 -0.0949993299
487600000.0 -0.0443255426 -0.1061484053
492575000.0 -0.0609616566 -0.1114770946
497550000.0 -0.0133694141 -0.0671458255
502525000.0 -0.0151983201 -0.1123086282
507500000.0 -0.0204602538 -0.1231461433
512475000.0 -0.0238116321 -0.1286741262
517450000.0 -0.02651675 -0.1322411747
522425000.0 -0.0290263525 -0.1349193049
527400000.0 -0.0315754206 -0.1364905883
532375000.0 -0.0342114475 -0.1372118846
537350000.0 -0.0367674105 -0.1379405254
542325000.0 -0.0405405966 -0.1383082863
547300000.0 -0.0451471497 -0.1352624625
552275000.0 -0.0466961689 -0.1307500508
557250000.0 -0.0471582183 -0.1263188655
562225000.0 -0.0475519366 -0.121606073
567200000.0 -0.0477081203 -0.1156773334
572175000.0 -0.0469168049 -0.108191912
577150000.0 -0.0454835487 -0.0998307561
582125000.0 -0.0435089167 -0.0906441165
587100000.0 -0.0407761139 -0.0798376724
592075000.0 -0.0371640859 -0.0683773223
597050000.0 -0.0324816691 -0.0572722921
602025000.0 -0.0272586597 -0.0457706934
607000000.0 -0.0215007966 -0.0341786474
611975000.0 -0.0146207009 -0.023261327
616950000.0 -0.006840722 -0.0132693593
621925000.0 0.0012147852 -0.0042079781
626900000.0 0.009995842 0.0038997535
631875000.0 0.0196841372 0.0109643765
636850000.0 0.0296969078 0.0170087039
641825000.0 0.0400414159 0.0217997255
646800000.0 0.0503210853 0.0265046213
651775000.0 0.0605676447 0.0310144325
656750000.0 0.0710353568 0.0350865933
661725000.0 0.0811262059 0.0393698483
666700000.0 0.0907222419 0.0442463533
671675000.0 0.1004019845 0.049415924
676650000.0 0.1106213955 0.0550499681
681625000.0 0.1209031138 0.0603486974
686600000.0 0.1315431696 0.0655297858
691575000.0 0.1429056139 0.0701810987
696550000.0 0.1543317556 0.073489715
701525000.0 0.1656698889 0.0758207288
706500000.0 0.1773626147 0.0768159322
711475000.0 0.1893633087 0.075721027
716450000.0 0.2010399556 0.0728413708
721425000.0 0.2128374014 0.0688790464
726400000.0 0.2246437486 0.0634572026
731375000.0 0.2360701069 0.0561816553
736350000.0 0.2465324482 0.0478511361
741325000.0 0.2563144384 0.0388378192
746300000.0 0.2654101889 0.0290824985
751275000.0 0.2735547583 0.0175885697
756250000.0 0.279807521 0.0060873356
761225000.0 0.2843885063 -0.0060718224
766200000.0 0.2877455078 -0.0189245674
771175000.0 0.2885806687 -0.0327191061
776150000.0 0.2870964496 -0.0464954178
781125000.0 0.283525966 -0.0606477417
786100000.0 0.2782922635 -0.074874901
791075000.0 0.2709970098 -0.0897233232
796050000.0 0.2615318455 -0.1043931466
801025000.0 0.2506708742 -0.1186170569
806000000.0 0.2365603523 -0.132406496
810975000.0 0.2230450979 -0.1452140286
815950000.0 0.2085284914 -0.1568383704
820925000.0 0.1933859131 -0.167042245
825900000.0 0.1777501111 -0.1760140725
830875000.0 0.1618840141 -0.1836442755
835850000.0 0.1456787241 -0.1895160575
840825000.0 0.1301044007 -0.1942332097
845800000.0 0.1145235242 -0.1982311738
850775000.0 0.0990888253 -0.2018786556
855750000.0 0.0833491101 -0.2058592328
860725000.0 0.0667422156 -0.2101129062
865700000.0 0.0490391634 -0.2149433066
870675000.0 0.0291365034 -0.2204118299
875650000.0 0.0070672659 -0.2255188761
880625000.0 -0.0170146671 -0.2292384155
885600000.0 -0.0428765804 -0.231721794
890575000.0 -0.0709547929 -0.2322968389
895550000.0 -0.1000792842 -0.2293307831
900525000.0 -0.1295553079 -0.2233354676
905500000.0 -0.1592402703 -0.214386778
910475000.0 -0.1882324492 -0.2014339037
915450000.0 -0.2165479539 -0.1847444369
920425000.0 -0.2431336694 -0.1640532068
925400000.0 -0.2679758562 -0.140455734
930375000.0 -0.2916362427 -0.1132417841
935350000.0 -0.3133499476 -0.0833916335
940325000.0 -0.3332065714 -0.050660727
945300000.0 -0.3517226143 -0.0152319469
950275000.0 -0.3681652674 0.0238692517
955250000.0 -0.382333551 0.0665448895
960225000.0 -0.3930797132 0.1138134417
965200000.0 -0.398956007 0.1655045881
970175000.0 -0.3976593808 0.2221222956
975150000.0 -0.386632193 0.2820494675
980125000.0 -0.3645623379 0.3435821346
985100000.0 -0.329540054 0.4044543755
990075000.0 -0.2809922608 0.4613648953
995050000.0 -0.2187575283 0.5111382868
1000025000.0 -0.1437797483 0.5495133116
1005000000.0 -0.0580373417 0.5725540287
1009975000.0 0.0345343053 0.5741041445
1014950000.0 0.1257163809 0.5514745517
1019925000.0 0.2047813518 0.5075024185
1024900000.0 0.2640879663 0.4540811188
1029875000.0 0.3091201963 0.4049156311
1034850000.0 0.3538616383 0.3575032611
1039825000.0 0.399107217 0.2994376274
1044800000.0 0.4377884699 0.2278589928
1049775000.0 0.4650990197 0.1449761465
1054750000.0 0.4730408955 0.0532525978
1059725000.0 0.4479392024 -0.026689897
1064700000.0 0.4351969383 -0.0500457711
1069675000.0 0.471309466 -0.1113848673
1074650000.0 0.4759618756 -0.2081472
1079625000.0 0.4507050135 -0.3026046199
1084600000.0 0.4085965918 -0.3826225736
1089575000.0 0.3568978792 -0.4540667283
1094550000.0 0.2944782378 -0.5142828881
1099525000.0 0.225601032 -0.5609149806
1104500000.0 0.1533768231 -0.5942848609
1109475000.0 0.0800689189 -0.615670004
1114450000.0 0.0077460096 -0.6261998169
1119425000.0 -0.0621482887 -0.6275870749
1124400000.0 -0.128777411 -0.6214843519
1129375000.0 -0.192384797 -0.6087784451
1134350000.0 -0.2526061913 -0.5901495968
1139325000.0 -0.3090996796 -0.5652520827
1144300000.0 -0.3611227283 -0.5348655396
1149275000.0 -0.4079235477 -0.4989633131
1154250000.0 -0.4480886884 -0.4583896287
1159225000.0 -0.4802948636 -0.4152534135
1164200000.0 -0.5059118712 -0.3709169659
1169175000.0 -0.5242450908 -0.3275058963
1174150000.0 -0.5389603901 -0.2836752414
1179125000.0 -0.5500303338 -0.2394542711
1184100000.0 -0.55686186 -0.1948653738
1189075000.0 -0.5593617763 -0.1511744638
1194050000.0 -0.5576008834 -0.1090271584
1199025000.0 -0.5520930066 -0.069513609
1204000000.0 -0.5441259007 -0.03309037
1208975000.0 -0.5334885293 0.0005811818
1213950000.0 -0.5207928194 0.030708189
1218925000.0 -0.5071078427 0.0572302917
1223900000.0 -0.4941791122 0.0800717221
1228875000.0 -0.4818505578 0.1007452034
1233850000.0 -0.4703262507 0.1189420697
1238825000.0 -0.4604671185 0.1364927501
1243800000.0 -0.4508790808 0.1542558994
1248775000.0 -0.4411470746 0.1730822969
1253750000.0 -0.4306964965 0.1924028507
1258725000.0 -0.4191640079 0.2126055503
1263700000.0 -0.4061665974 0.2330389045
1268675000.0 -0.3917876394 0.2528812196
1273650000.0 -0.376022195 0.2721624201
1278625000.0 -0.3585589398 0.2896683699
1283600000.0 -0.3401476915 0.3052118891
1288575000.0 -0.3203727469 0.3176852319
1293550000.0 -0.3002550437 0.3277736702
1298525000.0 -0.2797481536 0.3345850652
1303500000.0 -0.2616928798 0.3363190545
1308475000.0 -0.2433092727 0.3357903261
1313450000.0 -0.2272600801 0.3317182476
1318425000.0 -0.2148768039 0.3247610269
1323400000.0 -0.207660866 0.3169334714
1328375000.0 -0.2053238285 0.3103772466
1333350000.0 -0.206852742 0.3064126951
1338325000.0 -0.211679629 0.3072700461
1343300000.0 -0.2173353065 0.3138005923
1348275000.0 -0.2213487785 0.3257521518
1353250000.0 -0.2226833237 0.3418025394
1358225000.0 -0.2204939214 0.360642715
1363200000.0 -0.2139593423 0.3805387461
1368175000.0 -0.2040211371 0.4004259213
1373150000.0 -0.1907866168 0.419313275
1378125000.0 -0.1745807062 0.4359206091
1383100000.0 -0.1565779296 0.449775763
1388075000.0 -0.1374247186 0.4609201751
1393050000.0 -0.1168563307 0.4682237741
1398025000.0 -0.096208909 0.4714065762
1403000000.0 -0.0765747594 0.4711200243
1407975000.0 -0.0579093134 0.4674165889
1412950000.0 -0.041642408 0.4596186091
1417925000.0 -0.0298458474 0.4492585569
1422900000.0 -0.0230659764 0.4375979708
1427875000.0 -0.0215264538 0.4265927457
1432850000.0 -0.0256286091 0.4176889042
1437825000.0 -0.0345043822 0.4135240584
1442800000.0 -0.0456748202 0.4153092728
1447775000.0 -0.0561627334 0.4232000708
1452750000.0 -0.0636839051 0.435503643
1457725000.0 -0.0679804392 0.4511446074
1462700000.0 -0.067236642 0.4690568366
1467675000.0 -0.0620938843 0.4862040725
1472650000.0 -0.0531592953 0.5027535001
1477625000.0 -0.0406758929 0.5171597361
1482600000.0 -0.0265183253 0.5285746939
1487575000.0 -0.0106249922 0.5381294756
1492550000.0 0.0075549237 0.5444191856
1497525000.0 0.0248055162 0.5476336448
1502500000.0 0.0420145639 0.5500304766
1507475000.0 0.0600560156 0.5510450468
1512450000.0 0.0762848578 0.5492015506
1517425000.0 0.0901764997 0.5465975959
1522400000.0 0.1021025399 0.5443514933
1527375000.0 0.1125089118 0.5413207097
1532350000.0 0.1199749017 0.5373652599
1537325000.0 0.1247504516 0.5356310215
1542300000.0 0.1296960623 0.535764277
1547275000.0 0.1355914948 0.5353863776
1552250000.0 0.1410125141 0.5356808336
1557225000.0 0.1473617465 0.5366904179
1562200000.0 0.1563630733 0.5363493973
1567175000.0 0.1663767022 0.5337280055
1572150000.0 0.1758211578 0.5295494604
1577125000.0 0.1863371627 0.5250114398
1582100000.0 0.198212091 0.5184798809
1587075000.0 0.2097033305 0.5102654814
1592050000.0 0.2199300139 0.502041216
1597025000.0 0.2314206068 0.4949818448
1602000000.0 0.2435954044 0.4858771903
1606975000.0 0.2538613622 0.4772401966
1611950000.0 0.2643144465 0.4692752064
1616925000.0 0.2746619137 0.4612280405
1621900000.0 0.2845595223 0.4535467137
1626875000.0 0.2939557671 0.445594484
1631850000.0 0.3039415616 0.4390378054
1636825000.0 0.3166287435 0.4308962448
1641800000.0 0.3275491077 0.4196265041
1646775000.0 0.3371447919 0.4073217118
1651750000.0 0.3455747088 0.3943457465
1656725000.0 0.3543164861 0.3802660932
1661700000.0 0.3611544456 0.3646164772
1666675000.0 0.3677480622 0.3495686904
1671650000.0 0.3733253692 0.3334307654
1676625000.0 0.378125885 0.3171909776
1681600000.0 0.3810965321 0.3001730864
1686575000.0 0.3828926316 0.2841284533
1691550000.0 0.3830705901 0.2672021743
1696525000.0 0.3810738555 0.2515734824
1701500000.0 0.3780122949 0.2360303991
1706475000.0 0.3728632715 0.2211022583
1711450000.0 0.3659177442 0.2076886995
1716425000.0 0.3592097287 0.197421066
1721400000.0 0.353152848 0.1863305458
1726375000.0 0.3464941155 0.1777740232
1731350000.0 0.3446334308 0.1709869293
1736325000.0 0.3444857164 0.1613661886
1741300000.0 0.346605879 0.152818662
1746275000.0 0.3515748776 0.141276295
1751250000.0 0.3565498805 0.1290098693
1756225000.0 0.363177471 0.11500555
1761200000.0 0.367611323 0.0991194911
1766175000.0 0.3712796434 0.0837548935
1771150000.0 0.3736710545 0.0676398753
1776125000.0 0.3738034143 0.0517478625
1781100000.0 0.3708709944 0.0364558918
1786075000.0 0.3656555781 0.0231665788
1791050000.0 0.3583849959 0.0108984054
1796025000.0 0.3480095489 0.0008040193
1801000000.0 0.336650282 -0.0062074943
1805975000.0 0.3247622711 -0.0109577193
1810950000.0 0.3137686297 -0.0117258383
1815925000.0 0.3058722451 -0.0114343554
1820900000.0 0.3004300534 -0.0097211352
1825875000.0 0.3001327234 -0.0071199647
1830850000.0 0.3030692987 -0.0072781155
1835825000.0 0.3095041797 -0.0088611022
1840800000.0 0.3173098664 -0.0143257634
1845775000.0 0.3248429758 -0.0215429825
1850750000.0 0.3332328328 -0.0313063128
1855725000.0 0.3382012201 -0.0441627147
1860700000.0 0.3407699808 -0.0556990361
1865675000.0 0.342254388 -0.0687190763
1870650000.0 0.3382978469 -0.0822137643
1875625000.0 0.332393335 -0.0935791727
1880600000.0 0.3234521863 -0.1054099657
1885575000.0 0.3101892597 -0.1152141108
1890550000.0 0.2957082892 -0.1228549322
1895525000.0 0.2787724748 -0.1288547115
1900500000.0 0.2606267427 -0.1311975458
1905475000.0 0.2441131263 -0.1316202804
1910450000.0 0.228340282 -0.12876749
1915425000.0 0.2170850437 -0.122754696
1920400000.0 0.2102015374 -0.1171895784
1925375000.0 0.2067016044 -0.1113286013
1930350000.0 0.2074923979 -0.1069843437
1935325000.0 0.209663193 -0.106134893
1940300000.0 0.2117381 -0.1068041177
1945275000.0 0.2128315345 -0.1097099498
1950250000.0 0.2112892366 -0.1133752475
1955225000.0 0.2077515385 -0.1173310256
1960200000.0 0.200225791 -0.1215778449
1965175000.0 0.1898975664 -0.1238958542
1970150000.0 0.176934213 -0.126654093
1975125000.0 0.1599923018 -0.127891537
1980100000.0 0.1406880054 -0.1275604463
1985075000.0 0.1183881073 -0.1270713192
1990050000.0 0.0933168826 -0.1239985855
1995025000.0 0.0657347948 -0.1192410474
2000000000.0 0.0347495973 -0.1119657974
