!Created with skrf (http://scikit-rf.org).
# GHz S RI R 50.0 
!freq ReS11 ImS11
10000000.0 -0.7460785512 0.6736817969
19950000.0 -0.111992923 0.9822535849
29900000.0 0.5679924311 0.7969482007
39850000.0 0.958656139 0.1978686087
49800000.0 0.839894413 -0.5212005769
59750000.0 0.2463026127 -0.9709199476
69700000.0 -0.5074530876 -0.8703900215
79650000.0 -0.968997025 -0.2462455033
89600000.0 -0.8226127062 0.5353677117
99550000.0 -0.1176491912 0.956858151
109500000.0 0.6884510605 0.6684606863
119450000.0 0.9538186871 -0.1858500856
129400000.0 0.3814467942 -0.9098489623
139350000.0 -0.5422030462 -0.8228732495
149300000.0 -0.9649348492 -0.019189979
159250000.0 -0.5627385956 0.758059279
169200000.0 0.2686859019 0.8989463404
179150000.0 0.8790842933 0.3565730764
189100000.0 0.8602508871 -0.4345123847
199050000.0 0.2773369123 -0.9288921161
209000000.0 -0.4545093642 -0.8457693552
218950000.0 -0.8961383115 -0.2920005692
228900000.0 -0.8386759884 0.3936207484
238850000.0 -0.342944198 0.8533957379
248800000.0 0.3202755989 0.8444718086
258750000.0 0.8329785832 0.4271360402
268700000.0 0.9126760983 -0.2397125432
278650000.0 0.5207780486 -0.7804394055
288600000.0 -0.1268777712 -0.9093277085
298550000.0 -0.6822669908 -0.5710622258
308500000.0 -0.857458078 0.0476072832
318450000.0 -0.5608621873 0.6109580333
328400000.0 0.0402738008 0.7995682999
338350000.0 0.5773234783 0.4974057135
348300000.0 0.6982230804 -0.078042283
358250000.0 0.3616137653 -0.5014747883
368200000.0 -0.1163541445 -0.5004061386
378150000.0 -0.3628251742 -0.1771752323
388100000.0 -0.2688377299 0.1422393073
398050000.0 -0.0169364542 0.224476415
408000000.0 0.1431698493 0.0899591427
417950000.0 0.1118659082 -0.0745285503
427900000.0 -0.0255417638 -0.1213038262
437850000.0 -0.1263720549 -0.035158098
447800000.0 -0.1132960517 0.0918255843
457750000.0 -0.005706554 0.1582481548
467700000.0 0.111214163 0.119851164
477650000.0 0.1588936918 0.0104798542
487600000.0 0.1148270122 -0.0936585287
497550000.0 0.0196350224 -0.1334872243
507500000.0 -0.0645059414 -0.1009437013
517450000.0 -0.0951596599 -0.0316342857
527400000.0 -0.0733230679 0.0235118872
537350000.0 -0.0341482816 0.0371242377
547300000.0 -0.0135228356 0.0228679136
557250000.0 -0.0211941534 0.0091273424
567200000.0 -0.0387524281 0.0217309857
577150000.0 -0.0313926374 0.0550207195
587100000.0 0.0162751194 0.0771206598
597050000.0 0.0798232295 0.0547574181
607000000.0 0.1157705211 -0.0216846057
616950000.0 0.0892880196 -0.1158443095
626900000.0 -0.002140742 -0.1719180568
636850000.0 -0.1175694075 -0.1503277606
646800000.0 -0.1924532762 -0.052358624
656750000.0 -0.1807566546 0.0756482718
666700000.0 -0.082732843 0.1647299487
676650000.0 0.0523845197 0.161821485
686600000.0 0.1513529744 0.0691281462
696550000.0 0.1595992421 -0.0647065817
706500000.0 0.077573928 -0.1621313911
716450000.0 -0.0448018895 -0.1717363105
726400000.0 -0.1302537312 -0.0966136155
736350000.0 -0.1270475721 0.0111590052
746300000.0 -0.0440407653 0.0746634152
756250000.0 0.0547446226 0.0483036593
766200000.0 0.0917622493 -0.049178955
776150000.0 0.03234193 -0.1421500964
786100000.0 -0.0883642618 -0.1497915933
796050000.0 -0.1806223562 -0.0493646251
806000000.0 -0.1591282509 0.1077057743
815950000.0 -0.0128024787 0.2088587118
825900000.0 0.186714819 0.1667037671
835850000.0 0.305345558 -0.022281251
845800000.0 0.2471484172 -0.2600655097
855750000.0 0.019257789 -0.3745596974
865700000.0 -0.2075954866 -0.3195083094
875650000.0 -0.3685635821 -0.1165380091
885600000.0 -0.3425574206 0.1730257589
895550000.0 -0.1095028017 0.3739310411
905500000.0 0.212909877 0.3524657025
915450000.0 0.4348065683 0.1030578506
925400000.0 0.4150429567 -0.2389006679
935350000.0 0.1543904545 -0.4689818363
945300000.0 -0.2028225476 -0.4416205319
955250000.0 -0.4337816893 -0.1539157199
965200000.0 -0.3727063929 0.2282498181
975150000.0 -0.0210194132 0.4337083567
985100000.0 0.3778108217 0.2722800683
995050000.0 0.4841304245 -0.1750984792
1005000000.0 0.1513159335 -0.5399953622
1014950000.0 -0.3806720823 -0.4554129197
1024900000.0 -0.6273190024 0.0844680483
1034850000.0 -0.2684400163 0.6354191436
1044800000.0 0.4411604017 0.6197803464
1054750000.0 0.8187622137 -0.0154504341
1064700000.0 0.498659477 -0.6672108343
1074650000.0 -0.1897115012 -0.8206059944
1084600000.0 -0.7291675271 -0.3537703932
1094550000.0 -0.7399072004 0.290704518
1104500000.0 -0.2131351931 0.7605665181
1114450000.0 0.4629357698 0.615134432
1124400000.0 0.7433462447 0.01986515
1134350000.0 0.4719340912 -0.5316554212
1144300000.0 -0.0837648767 -0.6712629176
1154250000.0 -0.5288824534 -0.3623305475
1164200000.0 -0.5884765759 0.1527441598
1174150000.0 -0.2462232202 0.5241785356
1184100000.0 0.2422116731 0.5025799937
1194050000.0 0.5324070526 0.130813281
1204000000.0 0.4540891581 -0.3126086998
1213950000.0 0.093477764 -0.5530997937
1223900000.0 -0.3184487164 -0.4748535837
1233850000.0 -0.5611686459 -0.1393981434
1243800000.0 -0.5079528365 0.271991569
1253750000.0 -0.1873870494 0.5388734251
1263700000.0 0.2311461468 0.5136580255
1273650000.0 0.5214495727 0.2152111691
1283600000.0 0.543813448 -0.1936543704
1293550000.0 0.3035163137 -0.5156939975
1303500000.0 -0.0791966948 -0.613246668
1313450000.0 -0.4392215791 -0.4537019808
1323400000.0 -0.6232841525 -0.1014168194
1333350000.0 -0.543210497 0.2936107872
1343300000.0 -0.223400767 0.5515813617
1353250000.0 0.1909432451 0.542619495
1363200000.0 0.5013237836 0.2710791217
1373150000.0 0.5688155235 -0.1270623558
1383100000.0 0.3791808357 -0.4723946283
1393050000.0 0.0251125879 -0.6254486361
1403000000.0 -0.3424850686 -0.5317204053
1412950000.0 -0.5759834796 -0.2338695953
1422900000.0 -0.5728967901 0.1466516313
1432850000.0 -0.3285923578 0.4410771536
1442800000.0 0.0475632039 0.5131676526
1452750000.0 0.3796809833 0.3292346481
1462700000.0 0.5151926025 -0.0164644862
1472650000.0 0.4021065307 -0.36008942
1482600000.0 0.1051306999 -0.5490424087
1492550000.0 -0.2379603502 -0.5056518591
1502500000.0 -0.469428752 -0.2544074579
1512450000.0 -0.4806899512 0.0876318559
1522400000.0 -0.2594603542 0.3507496044
1532350000.0 0.0784029175 0.3938532504
1542300000.0 0.3505276556 0.1984154403
1552250000.0 0.4117219606 -0.1199879718
1562200000.0 0.2477401167 -0.3838063506
1572150000.0 -0.0389665775 -0.4690634737
1582100000.0 -0.311425384 -0.3441036357
1592050000.0 -0.4326222352 -0.0623699369
1602000000.0 -0.3272472352 0.2352130141
1611950000.0 -0.0396846055 0.3833105192
1621900000.0 0.278310551 0.2903412865
1631850000.0 0.4442159457 -0.0001154731
1641800000.0 0.3673944347 -0.325885058
1651750000.0 0.091229289 -0.516046292
1661700000.0 -0.2436828737 -0.478363265
1671650000.0 -0.4806760193 -0.2298758804
1681600000.0 -0.5057043675 0.1218022089
1691550000.0 -0.2933757654 0.4184742064
1701500000.0 0.0721873921 0.510374817
1711450000.0 0.4156465197 0.3366699856
1721400000.0 0.5638289728 -0.0212328952
1731350000.0 0.4474324314 -0.3866024303
1741300000.0 0.1313640017 -0.595276561
1751250000.0 -0.2418589986 -0.5675177202
1761200000.0 -0.5233069834 -0.323868756
1771150000.0 -0.6073681806 0.041845653
1781100000.0 -0.4534076508 0.3914463249
1791050000.0 -0.1125020169 0.5790446052
1801000000.0 0.2779733091 0.5136737483
1810950000.0 0.5409825587 0.2156719323
1820900000.0 0.5572991849 -0.1753186336
1830850000.0 0.3344799971 -0.4839407405
1840800000.0 -0.0168751061 -0.5931585568
1850750000.0 -0.3546449707 -0.4777803035
1860700000.0 -0.5577114144 -0.1947482851
1870650000.0 -0.5581214642 0.1494531736
1880600000.0 -0.3551120203 0.4246969011
1890550000.0 -0.0291865827 0.5185844325
1900500000.0 0.2774043532 0.3935249462
1910450000.0 0.4340554218 0.1159612101
1920400000.0 0.3896523255 -0.1828585544
1930350000.0 0.1882949412 -0.3795829151
1940300000.0 -0.0672608517 -0.4146338837
1950250000.0 -0.2759381207 -0.3050619171
1960200000.0 -0.3693048008 -0.1155451417
1970150000.0 -0.3375179776 0.0699494594
1980100000.0 -0.22076244 0.1770399908
1990050000.0 -0.093318418 0.1901770177
2000000000.0 -0.0171559684 0.1420771171
