!Created with skrf (http://scikit-rf.org).
# GHz S RI R 50.0 
!freq ReS11 ImS11
10000000.0 -0.9943945167 0.0180575582
19950000.0 -0.9889833823 0.0293151522
29900000.0 -0.9854713845 0.0386606482
39850000.0 -0.9817403548 0.0495712816
49800000.0 -0.9787751717 0.0588696069
59750000.0 -0.9752147262 0.068016796
69700000.0 -0.9730749697 0.0778470543
79650000.0 -0.9706600668 0.0864123045
89600000.0 -0.9695070126 0.0945753572
99550000.0 -0.9665841564 0.1025036631
109500000.0 -0.9622406531 0.110472824
119450000.0 -0.9585892236 0.1184777393
129400000.0 -0.9558578519 0.1260248887
139350000.0 -0.9539524254 0.1338934357
149300000.0 -0.9502692855 0.1411595706
159250000.0 -0.9477103325 0.1489063058
169200000.0 -0.9456415081 0.1563468401
179150000.0 -0.9439337683 0.163788083
189100000.0 -0.941684867 0.1709022234
199050000.0 -0.9391292825 0.1775880686
209000000.0 -0.9352226251 0.1831380075
218950000.0 -0.9318259008 0.1916411972
228900000.0 -0.929280329 0.1988616585
238850000.0 -0.925957474 0.2058832118
248800000.0 -0.9238141289 0.2126806097
258750000.0 -0.9209120386 0.2200554332
268700000.0 -0.9187147202 0.227015004
278650000.0 -0.9168085524 0.2335552221
288600000.0 -0.9146374401 0.240267645
298550000.0 -0.9112887609 0.2462743342
308500000.0 -0.9077327428 0.2524053433
318450000.0 -0.9040986092 0.2589510892
328400000.0 -0.9020231885 0.2654922434
338350000.0 -0.8992535266 0.272026612
348300000.0 -0.896126949 0.2783140809
358250000.0 -0.8935774856 0.2855787739
368200000.0 -0.8913569158 0.2914658315
378150000.0 -0.8894439963 0.2982454323
388100000.0 -0.8866734288 0.3037412475
398050000.0 -0.8831690421 0.3095713328
408000000.0 -0.8798738207 0.3153844543
417950000.0 -0.876823115 0.3212136904
427900000.0 -0.8736995003 0.3273224316
437850000.0 -0.8708762017 0.3333410969
447800000.0 -0.8677397427 0.339638038
457750000.0 -0.8653864292 0.345933753
467700000.0 -0.8626472687 0.3516550272
477650000.0 -0.8599615166 0.3580350166
487600000.0 -0.8566359293 0.3634261932
497550000.0 -0.8525006057 0.3690593935
507500000.0 -0.8495903174 0.3750109201
517450000.0 -0.8452395239 0.3803216131
527400000.0 -0.8423956846 0.386355876
537350000.0 -0.8392918854 0.3932335793
547300000.0 -0.8359260622 0.3977573745
557250000.0 -0.8329510439 0.4037656283
567200000.0 -0.8306469883 0.409049452
577150000.0 -0.827591147 0.4143873555
587100000.0 -0.8243518447 0.4192256841
597050000.0 -0.8197799888 0.4238839106
607000000.0 -0.8168983894 0.4292348807
616950000.0 -0.8133113446 0.4343922408
626900000.0 -0.8099966494 0.440539477
636850000.0 -0.8062389474 0.445901093
646800000.0 -0.802818453 0.4514906056
656750000.0 -0.7998565971 0.4581619393
666700000.0 -0.7965914214 0.4637865548
676650000.0 -0.7933100631 0.4694075417
686600000.0 -0.789592215 0.4739424889
696550000.0 -0.7858142197 0.4788874898
706500000.0 -0.7812802571 0.4839467722
716450000.0 -0.7779281059 0.4897682815
726400000.0 -0.7745810013 0.4948767123
736350000.0 -0.7702732945 0.5003525573
746300000.0 -0.7668699837 0.5061209922
756250000.0 -0.7633483257 0.5114674065
766200000.0 -0.7611704543 0.5169161226
776150000.0 -0.7570852687 0.5225757672
786100000.0 -0.7537653114 0.5259248527
796050000.0 -0.7498446884 0.5302927574
806000000.0 -0.7458498768 0.536213118
815950000.0 -0.7413219702 0.5413990367
825900000.0 -0.7379558314 0.5464041681
835850000.0 -0.7335671083 0.5520648769
845800000.0 -0.7296679817 0.5576884654
855750000.0 -0.7262476774 0.5634168178
865700000.0 -0.7228076206 0.5681375365
875650000.0 -0.7187513678 0.5728503434
885600000.0 -0.714566106 0.5774853367
895550000.0 -0.7102999399 0.5822869687
905500000.0 -0.705117172 0.5875218052
915450000.0 -0.7012371377 0.5927989804
925400000.0 -0.697033107 0.5974147086
935350000.0 -0.6926720781 0.6024108093
945300000.0 -0.6884063291 0.6073579788
955250000.0 -0.6846454556 0.6123192711
965200000.0 -0.6800956768 0.6169040417
975150000.0 -0.6763185447 0.6206968577
985100000.0 -0.6716437381 0.6243049216
995050000.0 -0.6668732371 0.6278840117
1005000000.0 -0.6622935012 0.6333777967
1014950000.0 -0.6571721404 0.6381817336
1024900000.0 -0.6532894666 0.643668748
1034850000.0 -0.6489974312 0.6486696592
1044800000.0 -0.6447837858 0.6541771032
1054750000.0 -0.6413010574 0.6586011443
1064700000.0 -0.6372573532 0.6615359983
1074650000.0 -0.6325625673 0.6649789263
1084600000.0 -0.6279555083 0.6673453357
1094550000.0 -0.6233390182 0.670165284
1104500000.0 -0.618358062 0.6744288097
1114450000.0 -0.6142346005 0.6795387335
1124400000.0 -0.6097020688 0.6849273171
1134350000.0 -0.6052610544 0.6902777298
1144300000.0 -0.6003575595 0.6965416452
1154250000.0 -0.5952410811 0.7019040717
1164200000.0 -0.5903342782 0.7057392058
1174150000.0 -0.5852134831 0.7086148518
1184100000.0 -0.5797940372 0.7106871081
1194050000.0 -0.5744690158 0.7133545274
1204000000.0 -0.5702194993 0.7159585744
1213950000.0 -0.5665837345 0.7195867092
1223900000.0 -0.5632380587 0.7237047205
1233850000.0 -0.5597205294 0.728458571
1243800000.0 -0.5558766461 0.7347446594
1253750000.0 -0.551829736 0.7401911036
1263700000.0 -0.5461026069 0.7455378218
1273650000.0 -0.5397996832 0.7483829399
1283600000.0 -0.5328487518 0.7505935427
1293550000.0 -0.5265368378 0.7533007431
1303500000.0 -0.5202906937 0.7561647105
1313450000.0 -0.5150815862 0.7588016378
1323400000.0 -0.5112178282 0.7629179284
1333350000.0 -0.507658552 0.7666448388
1343300000.0 -0.5030739615 0.7723587223
1353250000.0 -0.5001750136 0.7773600003
1363200000.0 -0.4953517584 0.7823289094
1373150000.0 -0.4895420019 0.7853131072
1383100000.0 -0.4833149281 0.7887893314
1393050000.0 -0.4763461074 0.7912874195
1403000000.0 -0.4706058195 0.7939681529
1412950000.0 -0.464674373 0.7955682178
1422900000.0 -0.4603633255 0.7975829005
1432850000.0 -0.4567832375 0.8002655453
1442800000.0 -0.4529083915 0.804719411
1452750000.0 -0.449181375 0.8093534889
1462700000.0 -0.4445626168 0.8135895022
1472650000.0 -0.4381831722 0.8172059372
1482600000.0 -0.431359255 0.821821107
1492550000.0 -0.4247702713 0.82609778
1502500000.0 -0.4172351244 0.8292331602
1512450000.0 -0.4107437663 0.8323679806
1522400000.0 -0.4046945415 0.834579584
1532350000.0 -0.4003784703 0.8364164982
1542300000.0 -0.3969220462 0.8387657029
1552250000.0 -0.3939218972 0.8401723204
1562200000.0 -0.3910087561 0.842597659
1572150000.0 -0.3873727216 0.8449058174
1582100000.0 -0.3822055615 0.8482727671
1592050000.0 -0.3770368743 0.8521464564
1602000000.0 -0.3692756226 0.856778079
1611950000.0 -0.3618036163 0.8611528955
1621900000.0 -0.3540991778 0.8664274423
1631850000.0 -0.3466289347 0.8693597016
1641800000.0 -0.3404176794 0.8708343225
1651750000.0 -0.3349532677 0.8718116463
1661700000.0 -0.3302252811 0.8719443858
1671650000.0 -0.3254790703 0.8730712096
1681600000.0 -0.3209625444 0.8756972624
1691550000.0 -0.3137381809 0.8792981277
1701500000.0 -0.3073586762 0.8846718438
1711450000.0 -0.3002112274 0.8888376637
1721400000.0 -0.2923130331 0.894581507
1731350000.0 -0.2849419068 0.8984467787
1741300000.0 -0.2780422366 0.9004722883
1751250000.0 -0.2720096938 0.9000571968
1761200000.0 -0.267952502 0.8993193187
1771150000.0 -0.263093213 0.8989633478
1781100000.0 -0.2587260806 0.8978046095
1791050000.0 -0.2551032115 0.8992409587
1801000000.0 -0.2512613347 0.9019450043
1810950000.0 -0.2440456823 0.9074632479
1820900000.0 -0.237814661 0.9132682948
1830850000.0 -0.2303654868 0.9180856341
1840800000.0 -0.2216821298 0.9221080524
1850750000.0 -0.2131312994 0.9236269644
1860700000.0 -0.2045040192 0.9224271528
1870650000.0 -0.1981079933 0.9210631913
1880600000.0 -0.1933663393 0.9182265456
1890550000.0 -0.1892714081 0.9177002607
1900500000.0 -0.1866881543 0.9191248793
1910450000.0 -0.1847206775 0.9221423099
1920400000.0 -0.180700365 0.9272988622
1930350000.0 -0.1749155526 0.9325602277
1940300000.0 -0.1678444892 0.9377282525
1950250000.0 -0.1586825336 0.9418010826
1960200000.0 -0.1475426102 0.9425488766
1970150000.0 -0.1375691172 0.9414961099
1980100000.0 -0.1295162559 0.9397322417
1990050000.0 -0.1232045147 0.9388622607
2000000000.0 -0.1185804258 0.9384049651
