!Created with skrf (http://scikit-rf.org).
# GHz S RI R 50.0 
!freq ReS11 ImS11
10000000.0 -0.7543268956 0.5767757875
19950000.0 -0.2747754064 0.9126695991
29900000.0 0.3117863462 0.9036504948
39850000.0 0.7883767007 0.5422771276
49800000.0 0.9574380075 -0.0484250285
59750000.0 0.7244800384 -0.6359311524
69700000.0 0.1626080502 -0.9562967388
79650000.0 -0.4879697554 -0.835605248
89600000.0 -0.9102259909 -0.2959345278
99550000.0 -0.8572121454 0.4184925119
109500000.0 -0.2973545153 0.9158311727
119450000.0 0.483731817 0.8452152601
129400000.0 0.9607512128 0.1797429263
139350000.0 0.7466723011 -0.6246145434
149300000.0 -0.0092278433 -0.9585778854
159250000.0 -0.7239907773 -0.5987174859
169200000.0 -0.9197514353 0.1405794436
179150000.0 -0.5417021628 0.7572892223
189100000.0 0.1203327028 0.9211519049
199050000.0 0.691114651 0.6045127088
209000000.0 0.9091629203 0.0091010323
218950000.0 0.709333382 -0.5660748182
228900000.0 0.2090126964 -0.8815737513
238850000.0 -0.3681722103 -0.8218042978
248800000.0 -0.7597553405 -0.4045539385
258750000.0 -0.8811380604 0.1289862802
268700000.0 -0.628477097 0.6353738828
278650000.0 -0.1300535195 0.8859640034
288600000.0 0.4132867397 0.7832968927
298550000.0 0.7815268531 0.3686308047
308500000.0 0.819374315 -0.1881150063
318450000.0 0.503311241 -0.6458610646
328400000.0 -0.0249632396 -0.7927783531
338350000.0 -0.5051292963 -0.5600949415
348300000.0 -0.6920022225 -0.0830890222
358250000.0 -0.507031494 0.3591135845
368200000.0 -0.108065319 0.5213171026
378150000.0 0.2307961883 0.3673338309
388100000.0 0.3276067704 0.0708954986
398050000.0 0.1993031792 -0.1456382767
408000000.0 0.0019904021 -0.1773019769
417950000.0 -0.1127277182 -0.0698896467
427900000.0 -0.099489417 0.0557367685
437850000.0 -0.00764667 0.1072793179
447800000.0 0.0814906765 0.0665691258
457750000.0 0.1049679161 -0.0255573976
467700000.0 0.0574642654 -0.1047303282
477650000.0 -0.0264131106 -0.1268623996
487600000.0 -0.0971572593 -0.0860149415
497550000.0 -0.1167774587 -0.0143573276
507500000.0 -0.0923622552 0.0517295314
517450000.0 -0.0325101 0.0786971279
527400000.0 0.0186373244 0.0609155495
537350000.0 0.0364788015 0.0193391068
547300000.0 0.0184602595 -0.0138825302
557250000.0 -0.0141228265 -0.0181480852
567200000.0 -0.0322804904 0.0064398409
577150000.0 -0.0173503629 0.0372662468
587100000.0 0.0259393933 0.044362532
597050000.0 0.0711500319 0.0118255149
607000000.0 0.0868303214 -0.0532727091
616950000.0 0.0535174209 -0.1205718755
626900000.0 -0.0198913315 -0.1527245193
636850000.0 -0.1029502962 -0.1285023482
646800000.0 -0.1550336225 -0.0503998529
656750000.0 -0.148367788 0.0507663993
666700000.0 -0.0788917529 0.1308264696
676650000.0 0.0268862698 0.152443103
686600000.0 0.1249460397 0.1026835598
696550000.0 0.1708336468 -0.0001647642
706500000.0 0.1435111435 -0.1080537593
716450000.0 0.0542975065 -0.1716439849
726400000.0 -0.0524347733 -0.1614712125
736350000.0 -0.1225017061 -0.0808127294
746300000.0 -0.1173988906 0.0271571971
756250000.0 -0.0374174254 0.104231649
766200000.0 0.0746319416 0.1068716656
776150000.0 0.1569791621 0.0289261521
786100000.0 0.1598045227 -0.086376307
796050000.0 0.0728821298 -0.1742158105
806000000.0 -0.0625287687 -0.1753352238
815950000.0 -0.1732859331 -0.0724580016
825900000.0 -0.1897610421 0.0918126541
835850000.0 -0.0871506556 0.2365705684
845800000.0 0.0950561079 0.2796044403
855750000.0 0.2707168035 0.1865904279
865700000.0 0.3485290302 -0.0123159899
875650000.0 0.2717077481 -0.2246497181
885600000.0 0.0780081585 -0.3240951016
895550000.0 -0.1369403459 -0.3029250539
905500000.0 -0.3183481305 -0.1342335617
915450000.0 -0.3462555474 0.1335810802
925400000.0 -0.1854715184 0.3645229765
935350000.0 0.0937972781 0.4318648554
945300000.0 0.353313639 0.2860660599
955250000.0 0.4491087081 -0.0177991617
965200000.0 0.2945421415 -0.3291332989
975150000.0 -0.0672603955 -0.4464330979
985100000.0 -0.4266905072 -0.2377431001
995050000.0 -0.5081322606 0.2059359422
1005000000.0 -0.2041793975 0.5801878212
1014950000.0 0.3146811204 0.5890402551
1024900000.0 0.6849608875 0.1565379172
1034850000.0 0.5743482498 -0.4578247547
1044800000.0 -0.0092472537 -0.7664722051
1054750000.0 -0.6207226328 -0.487605205
1064700000.0 -0.7940194734 0.1493425811
1074650000.0 -0.4473576908 0.6715879293
1084600000.0 0.0532094144 0.7474544202
1094550000.0 0.5692849395 0.5398715187
1104500000.0 0.7474123127 -0.0360122148
1114450000.0 0.4495265346 -0.5544267516
1124400000.0 -0.1053264144 -0.686135128
1134350000.0 -0.5517679626 -0.3972341616
1144300000.0 -0.6606915562 0.0835242991
1154250000.0 -0.4316131905 0.4822593665
1164200000.0 -0.0182625963 0.6177286908
1174150000.0 0.3696783974 0.451009856
1184100000.0 0.5474218246 0.0645624706
1194050000.0 0.4154104312 -0.3382959314
1204000000.0 0.0604188084 -0.5389285994
1213950000.0 -0.3174426051 -0.4622494229
1223900000.0 -0.5522696299 -0.1799167203
1233850000.0 -0.5679175877 0.1706823416
1243800000.0 -0.3747481994 0.4578231419
1253750000.0 -0.0450671732 0.5741284362
1263700000.0 0.2954664398 0.4659678124
1273650000.0 0.5062318356 0.1690510707
1283600000.0 0.5019936477 -0.1984687187
1293550000.0 0.2911586638 -0.4820917931
1303500000.0 -0.028936899 -0.5924456216
1313450000.0 -0.3418752951 -0.5100782452
1323400000.0 -0.5545707433 -0.2766078956
1333350000.0 -0.6138099269 0.0370547525
1343300000.0 -0.4949284435 0.3437305484
1353250000.0 -0.2144439141 0.5399793104
1363200000.0 0.1400423841 0.5415187731
1373150000.0 0.435318589 0.3339007288
1383100000.0 0.5583463876 0.0001797223
1393050000.0 0.4783806931 -0.3319073078
1403000000.0 0.2435499418 -0.5563093995
1412950000.0 -0.0576119271 -0.6162071712
1422900000.0 -0.3364117446 -0.5096685995
1432850000.0 -0.5183213622 -0.2666864208
1442800000.0 -0.5440094549 0.0488857239
1452750000.0 -0.3834611897 0.3365407003
1462700000.0 -0.0840921755 0.486005427
1472650000.0 0.2421482308 0.436737141
1482600000.0 0.4720303995 0.2122888882
1492550000.0 0.5293705898 -0.0877860099
1502500000.0 0.4140863551 -0.3566476266
1512450000.0 0.1755520599 -0.51038854
1522400000.0 -0.1052333536 -0.5023129384
1532350000.0 -0.3325223813 -0.3285624378
1542300000.0 -0.4165485274 -0.0453625668
1552250000.0 -0.310981048 0.2404394978
1562200000.0 -0.0538283028 0.400682585
1572150000.0 0.2352764601 0.3710299423
1582100000.0 0.4360428455 0.1792292369
1592050000.0 0.4799476469 -0.085664469
1602000000.0 0.3586765899 -0.3237209083
1611950000.0 0.1133562719 -0.4473210376
1621900000.0 -0.1691262501 -0.3972465579
1631850000.0 -0.3736522716 -0.1754456108
1641800000.0 -0.4006764155 0.1336907426
1651750000.0 -0.2335760947 0.3965112378
1661700000.0 0.0524706983 0.5019597888
1671650000.0 0.3376244172 0.4210901693
1681600000.0 0.5236341976 0.196501299
1691550000.0 0.5544394387 -0.0959715003
1701500000.0 0.4176798893 -0.3645061984
1711450000.0 0.1441372962 -0.518118128
1721400000.0 -0.18576492 -0.4878200803
1731350000.0 -0.4435947024 -0.2661619191
1741300000.0 -0.5335136328 0.0683359961
1751250000.0 -0.4219748613 0.386662323
1761200000.0 -0.1654644568 0.5829384295
1771150000.0 0.1425703499 0.6105196993
1781100000.0 0.4139490227 0.4770841137
1791050000.0 0.5791179312 0.2229839143
1801000000.0 0.5914099293 -0.0883324758
1810950000.0 0.4368423995 -0.370859033
1820900000.0 0.1475383874 -0.5321152728
1830850000.0 -0.1887285712 -0.5049112152
1840800000.0 -0.4517573246 -0.2952764601
1850750000.0 -0.5552099867 0.0129155182
1860700000.0 -0.4856075512 0.310599683
1870650000.0 -0.28763973 0.5171641815
1880600000.0 -0.027465333 0.5910726041
1890550000.0 0.224998007 0.524420914
1900500000.0 0.4062176976 0.336229726
1910450000.0 0.4637439002 0.075899436
1920400000.0 0.3758902618 -0.1784816825
1930350000.0 0.169048107 -0.3411131772
1940300000.0 -0.0789103191 -0.361420799
1950250000.0 -0.2792816958 -0.2519099254
1960200000.0 -0.375786834 -0.0753494514
1970150000.0 -0.364021684 0.0992265791
1980100000.0 -0.2726389395 0.2178381729
1990050000.0 -0.1526250176 0.2531517677
2000000000.0 -0.062379902 0.2117606239
