!Created with skrf (http://scikit-rf.org).
# GHz S RI R 50.0 
!freq ReS11 ImS11
10000000.0 -0.7670201206 0.5832874169
19950000.0 -0.2808569477 0.9187964824
29900000.0 0.3097906633 0.9033969939
39850000.0 0.7873673142 0.5344368773
49800000.0 0.9548228864 -0.0635850767
59750000.0 0.7163458329 -0.6578749887
69700000.0 0.1438456009 -0.9784358304
79650000.0 -0.5139406011 -0.8436833784
89600000.0 -0.9264690594 -0.282428776
99550000.0 -0.8463010507 0.4421482673
109500000.0 -0.2575161336 0.925267688
119450000.0 0.5342223511 0.8187195501
129400000.0 0.9854917005 0.1148948163
139350000.0 0.7161400297 -0.6889655229
149300000.0 -0.0716069577 -0.9682777348
159250000.0 -0.7605849594 -0.5515446321
169200000.0 -0.9046605245 0.2016315414
179150000.0 -0.4904903766 0.7955630428
189100000.0 0.181186491 0.9240891481
199050000.0 0.7373440262 0.5749275331
209000000.0 0.9241949683 -0.0362343986
218950000.0 0.693154547 -0.6018040316
228900000.0 0.1770657213 -0.8919014221
238850000.0 -0.3984447449 -0.8059502673
248800000.0 -0.7750946614 -0.4175521795
258750000.0 -0.8808133686 0.1651131814
268700000.0 -0.6142075451 0.6720994114
278650000.0 -0.1050128619 0.9098930405
288600000.0 0.436100767 0.7881262887
298550000.0 0.7953139885 0.3566740432
308500000.0 0.8151374868 -0.2051944388
318450000.0 0.4858834515 -0.6582705294
328400000.0 -0.0491825917 -0.7974231167
338350000.0 -0.5314980181 -0.5540201945
348300000.0 -0.7094173075 -0.065070998
358250000.0 -0.5070089762 0.3759521812
368200000.0 -0.0979819465 0.5220823601
378150000.0 0.2346772564 0.3515535892
388100000.0 0.3158873346 0.0511700342
398050000.0 0.17793001 -0.1538255183
408000000.0 -0.0149399921 -0.1698363567
417950000.0 -0.1151948753 -0.0554173527
427900000.0 -0.0864270437 0.0653913108
437850000.0 0.0144726043 0.1021663804
447800000.0 0.0996909543 0.0451217778
457750000.0 0.1120715765 -0.054033553
467700000.0 0.0527641429 -0.1323986932
477650000.0 -0.0386845781 -0.1455894626
487600000.0 -0.1102039058 -0.0918816342
497550000.0 -0.1300790529 -0.0141202017
507500000.0 -0.0920398305 0.0615916032
517450000.0 -0.0241044236 0.0901275269
527400000.0 0.032983661 0.0719166466
537350000.0 0.0541350077 0.0282188615
547300000.0 0.0369465626 -0.0085170918
557250000.0 0.0029299868 -0.0148569455
567200000.0 -0.0174846007 0.0068509403
577150000.0 -0.0068104517 0.0345846507
587100000.0 0.0303835571 0.0386572965
597050000.0 0.0669227984 0.0047443387
607000000.0 0.0731589101 -0.0568954863
616950000.0 0.0333937019 -0.1160366769
626900000.0 -0.0406094126 -0.1385942681
636850000.0 -0.1183736786 -0.1035233844
646800000.0 -0.1592466392 -0.0209936998
656750000.0 -0.1398372974 0.0754154001
666700000.0 -0.0632925159 0.1440804509
676650000.0 0.0425530983 0.1502543798
686600000.0 0.1309764304 0.0854615246
696550000.0 0.1604700135 -0.0234690626
706500000.0 0.116941553 -0.1276876216
716450000.0 0.0193156969 -0.1792373804
726400000.0 -0.0849348361 -0.1540392344
736350000.0 -0.1407453222 -0.0635115109
746300000.0 -0.1174408592 0.0428496379
756250000.0 -0.0232560114 0.1067096622
766200000.0 0.0915441741 0.0905072511
776150000.0 0.1633629458 -0.002007479
786100000.0 0.148567855 -0.1208582063
796050000.0 0.0462026779 -0.1954200087
806000000.0 -0.0919583071 -0.1731656668
815950000.0 -0.1884459851 -0.0494023758
825900000.0 -0.1787985354 0.122480302
835850000.0 -0.0516980712 0.2544870906
845800000.0 0.1406688318 0.272119766
855750000.0 0.3089285764 0.153765465
865700000.0 0.3673441139 -0.0586890561
875650000.0 0.2708860257 -0.2716322667
885600000.0 0.0463691268 -0.377802472
895550000.0 -0.2091026912 -0.3077224506
905500000.0 -0.3687903881 -0.0734798629
915450000.0 -0.336596519 0.22232845
925400000.0 -0.1122594331 0.4275269049
935350000.0 0.1878349955 0.4211873143
945300000.0 0.3944641125 0.2176083909
955250000.0 0.4313555558 -0.0802234532
965200000.0 0.236724473 -0.360638332
975150000.0 -0.1414396335 -0.425146867
985100000.0 -0.4722187627 -0.1587099604
995050000.0 -0.4794107813 0.3059936249
1005000000.0 -0.0951477687 0.6290091819
1014950000.0 0.4381039391 0.519963808
1024900000.0 0.7095554431 -0.0129738242
1034850000.0 0.4395355647 -0.6051889709
1044800000.0 -0.2281001227 -0.7526266767
1054750000.0 -0.7443457409 -0.2943286092
1064700000.0 -0.7403841007 0.3178009209
1074650000.0 -0.3230507695 0.7737310638
1084600000.0 0.287774803 0.7758033985
1094550000.0 0.7122751872 0.3453266598
1104500000.0 0.7087055863 -0.2615260958
1114450000.0 0.2781794267 -0.6796215164
1124400000.0 -0.292810232 -0.6567345989
1134350000.0 -0.6482383868 -0.2588501747
1144300000.0 -0.6298344819 0.2352567029
1154250000.0 -0.3118253182 0.563755905
1164200000.0 0.1174945383 0.6044773323
1174150000.0 0.4718993021 0.3612167819
1184100000.0 0.5705668248 -0.0659226765
1194050000.0 0.3519807199 -0.4403741937
1204000000.0 -0.0451975021 -0.5637577137
1213950000.0 -0.4056156905 -0.4078521209
1223900000.0 -0.5830820299 -0.0798931733
1233850000.0 -0.5329838866 0.2753657302
1243800000.0 -0.2857681563 0.5288141243
1253750000.0 0.0697275428 0.5854266374
1263700000.0 0.396432137 0.4097948678
1273650000.0 0.5532830909 0.0660993154
1283600000.0 0.4734211183 -0.2997099684
1293550000.0 0.2059861336 -0.5411591267
1303500000.0 -0.1324812625 -0.586994178
1313450000.0 -0.4279220533 -0.4456166434
1323400000.0 -0.6013023042 -0.1711561885
1333350000.0 -0.6061041853 0.1575088351
1343300000.0 -0.4276292477 0.4465961151
1353250000.0 -0.1048993657 0.5873133161
1363200000.0 0.2517334623 0.5124502487
1373150000.0 0.5024835375 0.2416318254
1383100000.0 0.5546500171 -0.1160241679
1393050000.0 0.4090367675 -0.4302322469
1403000000.0 0.1331609329 -0.6070457472
1412950000.0 -0.1784035572 -0.6084432503
1422900000.0 -0.4378287188 -0.4433233588
1432850000.0 -0.5704533866 -0.1569199533
1442800000.0 -0.5265144632 0.1698510031
1452750000.0 -0.301014872 0.4240523768
1462700000.0 0.0326802373 0.5045247738
1472650000.0 0.3473126546 0.3802211457
1482600000.0 0.5272506222 0.10966766
1492550000.0 0.5224350637 -0.2033582531
1502500000.0 0.3506381828 -0.4505425148
1512450000.0 0.0755100563 -0.5548504968
1522400000.0 -0.2087973194 -0.4810873051
1532350000.0 -0.3986897181 -0.248637292
1542300000.0 -0.4152581921 0.0605099265
1552250000.0 -0.2431903739 0.3203722416
1562200000.0 0.0438486543 0.4218756661
1572150000.0 0.3224402644 0.3324676831
1582100000.0 0.4823741072 0.1025123324
1592050000.0 0.4713747675 -0.1726774964
1602000000.0 0.297179637 -0.3861233227
1611950000.0 0.019696904 -0.4559997424
1621900000.0 -0.2561899444 -0.3418757745
1631850000.0 -0.4136132487 -0.0750797417
1641800000.0 -0.3771691626 0.2389326441
1651750000.0 -0.1569497348 0.4646008931
1661700000.0 0.1497387297 0.5100222786
1671650000.0 0.4190560599 0.3679481034
1681600000.0 0.5576093748 0.0992894069
1691550000.0 0.5232188596 -0.2030340654
1701500000.0 0.3238805285 -0.4434786827
1711450000.0 0.015425494 -0.5351783545
1721400000.0 -0.3040704813 -0.4315670483
1731350000.0 -0.5143939485 -0.156067902
1741300000.0 -0.5317566948 0.1914789681
1751250000.0 -0.3546026339 0.4794363753
1761200000.0 -0.0583403629 0.614355886
1771150000.0 0.2535662866 0.5707793993
1781100000.0 0.4928656266 0.3746946944
1791050000.0 0.59948367 0.0822012486
1801000000.0 0.540617352 -0.2312436546
1810950000.0 0.3224620657 -0.4750653619
1820900000.0 -0.0003703128 -0.5616769181
1830850000.0 -0.3208660963 -0.4477887739
1840800000.0 -0.5210493989 -0.1761721045
1850750000.0 -0.5412172558 0.1465559529
1860700000.0 -0.3980625886 0.4136840635
1870650000.0 -0.1560529864 0.5612909398
1880600000.0 0.1124544783 0.5654193951
1890550000.0 0.3370257864 0.4344613771
1900500000.0 0.4601188064 0.2033980778
1910450000.0 0.444167819 -0.06240045
1920400000.0 0.2893870101 -0.2759916754
1930350000.0 0.0516673438 -0.3624660012
1940300000.0 -0.1769127152 -0.303890358
1950250000.0 -0.3191600429 -0.1480398168
1960200000.0 -0.3470331799 0.0333353059
1970150000.0 -0.2786519362 0.1701676965
1980100000.0 -0.1761913593 0.2196768642
1990050000.0 -0.0957317111 0.2042228844
2000000000.0 -0.0695318329 0.149883036
