!Created with skrf (http://scikit-rf.org).
# GHz S RI R 50.0 
!freq ReS11 ImS11
10000000.0 -0.8052768407 0.608860254
19950000.0 -0.2861291152 0.9506733279
29900000.0 0.3314431108 0.9248042157
39850000.0 0.8213665763 0.5388106361
49800000.0 0.9889347412 -0.0743307285
59750000.0 0.7422564387 -0.6776355017
69700000.0 0.1556514712 -1.000142949
79650000.0 -0.5174704108 -0.8626008906
89600000.0 -0.9421284099 -0.3002685375
99550000.0 -0.8758819704 0.4212983424
109500000.0 -0.3114177174 0.915108116
119450000.0 0.4683668036 0.8576740857
129400000.0 0.9696027506 0.2153120506
139350000.0 0.7990465308 -0.5971805787
149300000.0 0.059544993 -0.9790186733
159250000.0 -0.6892146939 -0.6644996211
169200000.0 -0.9432173888 0.075724571
179150000.0 -0.5951230559 0.7439205092
189100000.0 0.0980171959 0.9621774764
199050000.0 0.7264374246 0.6508563348
209000000.0 0.9687934068 0.016859838
218950000.0 0.7435931557 -0.5938410873
228900000.0 0.1959217721 -0.9130300502
238850000.0 -0.4222445068 -0.8215582535
248800000.0 -0.6441600666 -0.4271804039
258750000.0 -0.9161320264 0.1903435277
268700000.0 -0.6127708431 0.7178392838
278650000.0 -0.052860124 0.9373317554
288600000.0 0.5160002055 0.7598631488
298550000.0 0.8455038337 0.271818982
308500000.0 0.7981805367 -0.3093527289
318450000.0 0.3985698119 -0.7250496243
328400000.0 -0.1677353028 -0.7837049459
338350000.0 -0.6179408734 -0.4582160165
348300000.0 -0.7165655723 0.0631493262
358250000.0 -0.4393277774 0.4719320567
368200000.0 0.0018902717 0.54995406
378150000.0 0.3172282105 0.3174754886
388100000.0 0.3526876511 -0.0021676972
398050000.0 0.2222009173 -0.2193774443
408000000.0 -0.0301731468 -0.266306793
417950000.0 -0.180157245 -0.1282378564
427900000.0 -0.174112108 0.0371190164
437850000.0 -0.0673015766 0.1236756222
447800000.0 0.0464862707 0.1060094113
457750000.0 0.1010944773 0.0250891255
467700000.0 0.082535532 -0.056098311
477650000.0 0.0208916282 -0.0884352641
487600000.0 -0.0304299111 -0.0654518749
497550000.0 -0.0068995448 -0.073040056
507500000.0 -0.0538893121 0.0131771855
517450000.0 -0.0121375356 0.0244462284
527400000.0 0.0105549744 0.0028753987
537350000.0 -0.0003471637 -0.0239672795
547300000.0 -0.0350927048 -0.0274316977
557250000.0 -0.0633416537 0.00364335
567200000.0 -0.0614875723 0.0550431442
577150000.0 -0.017340027 0.0975931891
587100000.0 0.0530212718 0.1000351791
597050000.0 0.11597025 0.0498278583
607000000.0 0.1350102894 -0.0368417106
616950000.0 0.0930573353 -0.1234767141
626900000.0 0.0036409753 -0.1694784831
636850000.0 -0.099132169 -0.1498957445
646800000.0 -0.1684146211 -0.0717060386
656750000.0 -0.1742718824 0.0340203298
666700000.0 -0.110578155 0.1202818667
676650000.0 -0.006565358 0.1467725604
686600000.0 0.090923397 0.1010089051
696550000.0 0.1362048081 0.0060290642
706500000.0 0.1098132199 -0.090616326
716450000.0 0.0298974351 -0.1416917328
726400000.0 -0.0596489981 -0.1208190487
736350000.0 -0.1036617169 -0.0412485669
746300000.0 -0.075240927 0.0492855845
756250000.0 0.0165324175 0.0952270665
766200000.0 0.1209225235 0.0613776656
776150000.0 0.1760853369 -0.0430740317
786100000.0 0.1406827649 -0.1663487241
796050000.0 0.0183543411 -0.2370864137
806000000.0 -0.1362728088 -0.2029610202
815950000.0 -0.2436725218 -0.0609772075
825900000.0 -0.2354333311 0.1359785871
835850000.0 -0.0957511644 0.295856045
845800000.0 0.1243663355 0.336325094
855750000.0 0.3293829851 0.2284180373
865700000.0 0.4281599016 0.0092920002
875650000.0 0.3647589809 -0.234871648
885600000.0 0.1529313388 -0.3937733657
895550000.0 -0.1247838681 -0.3859187146
905500000.0 -0.347384559 -0.1997099641
915450000.0 -0.4043605374 0.0932066213
925400000.0 -0.2572383746 0.3576412506
935350000.0 0.0305895643 0.4608810193
945300000.0 0.3136488056 0.3336970624
955250000.0 0.4220764838 0.0515426981
965200000.0 0.3137014829 -0.237327863
975150000.0 0.0073346301 -0.3739011712
985100000.0 -0.3300197486 -0.2368266934
995050000.0 -0.4517186739 0.1505050178
1005000000.0 -0.2046656085 0.5137578222
1014950000.0 0.2759775847 0.5512505969
1024900000.0 0.6456057426 0.1605618476
1034850000.0 0.5675260987 -0.434880015
1044800000.0 0.0022717418 -0.7732480338
1054750000.0 -0.6437481951 -0.5220501747
1064700000.0 -0.8302996105 0.1342596585
1074650000.0 -0.5311098255 0.6462391685
1084600000.0 0.0471837622 0.7994655491
1094550000.0 0.5623937229 0.5925197856
1104500000.0 0.7883719849 -0.0067836216
1114450000.0 0.4929188753 -0.5634710244
1124400000.0 -0.0961502538 -0.7037797333
1134350000.0 -0.5552332451 -0.3815245155
1144300000.0 -0.6267296587 0.1206905588
1154250000.0 -0.346917886 0.4910298241
1164200000.0 0.0829854434 0.5549110967
1174150000.0 0.4224356858 0.3131248761
1184100000.0 0.4998262517 -0.0918632922
1194050000.0 0.2690735102 -0.4313235955
1204000000.0 -0.1192704402 -0.5096331495
1213950000.0 -0.442183195 -0.3191946523
1223900000.0 -0.5669574643 0.0149095844
1233850000.0 -0.4659709225 0.3487398724
1243800000.0 -0.1844310798 0.5565304588
1253750000.0 0.1743133333 0.5553230763
1263700000.0 0.4689722611 0.3319927431
1273650000.0 0.5710001231 -0.0301825691
1283600000.0 0.4387205391 -0.3801340838
1293550000.0 0.1382111915 -0.5852462885
1303500000.0 -0.2113102913 -0.5900265858
1313450000.0 -0.5005377212 -0.4137884457
1323400000.0 -0.6531689594 -0.1147946476
1333350000.0 -0.6238768302 0.224806646
1343300000.0 -0.4070678289 0.5048078266
1353250000.0 -0.0564532163 0.6201407282
1363200000.0 0.3083755382 0.5136735103
1373150000.0 0.5492874802 0.2192622762
1383100000.0 0.5852148004 -0.1476607697
1393050000.0 0.4264823699 -0.4609651681
1403000000.0 0.1389335027 -0.6360154534
1412950000.0 -0.1883961834 -0.6340818433
1422900000.0 -0.4639599372 -0.4610805219
1432850000.0 -0.6049022927 -0.1631741078
1442800000.0 -0.5592997456 0.1697744616
1452750000.0 -0.3344245621 0.4269206738
1462700000.0 -0.0028162352 0.5195477005
1472650000.0 0.3223842718 0.4165853358
1482600000.0 0.5304914292 0.1590470332
1492550000.0 0.5602339733 -0.1564054217
1502500000.0 0.4165950563 -0.4241837709
1512450000.0 0.1527316844 -0.5632283666
1522400000.0 -0.145510577 -0.5273225645
1532350000.0 -0.3720941082 -0.3213346514
1542300000.0 -0.4375949895 -0.0162008596
1552250000.0 -0.3097382524 0.2688660723
1562200000.0 -0.0416986586 0.4169923095
1572150000.0 0.249986509 0.3746330892
1582100000.0 0.4471984945 0.1744803748
1592050000.0 0.4813189499 -0.0940149307
1602000000.0 0.3470165407 -0.3261359873
1611950000.0 0.0953923977 -0.432558271
1621900000.0 -0.1799570791 -0.3649234371
1631850000.0 -0.3661064071 -0.1357617646
1641800000.0 -0.3732524847 0.166893543
1651750000.0 -0.191936376 0.4103866288
1661700000.0 0.0965254545 0.4896824569
1671650000.0 0.3689771272 0.3813742983
1681600000.0 0.5255109399 0.1363530498
1691550000.0 0.5148217031 -0.1584526322
1701500000.0 0.3348677207 -0.4036594024
1711450000.0 0.0365430307 -0.5108285658
1721400000.0 -0.2843873368 -0.423718682
1731350000.0 -0.5001534522 -0.1598062995
1741300000.0 -0.5199445621 0.1806116546
1751250000.0 -0.3424616102 0.4629332905
1761200000.0 -0.0460919921 0.5887705234
1771150000.0 0.2547638693 0.5254275181
1781100000.0 0.4441735111 0.3455389979
1791050000.0 0.5735188404 0.1020212541
1801000000.0 0.5299024559 -0.2078043679
1810950000.0 0.3228198176 -0.4472188802
1820900000.0 0.0087274932 -0.543639971
1830850000.0 -0.3178217002 -0.4364908256
1840800000.0 -0.5193845232 -0.1658285138
1850750000.0 -0.5359011052 0.1534216186
1860700000.0 -0.3899783827 0.4134268394
1870650000.0 -0.1463422549 0.5529427268
1880600000.0 0.1225939383 0.549787364
1890550000.0 0.3479961345 0.4119374613
1900500000.0 0.4671907791 0.1759362616
1910450000.0 0.4378901892 -0.0868338182
1920400000.0 0.2677652084 -0.2853471014
1930350000.0 0.0242191889 -0.3506462439
1940300000.0 -0.1969307697 -0.2754103568
1950250000.0 -0.326101037 -0.1135005675
1960200000.0 -0.3442605427 0.0623199024
1970150000.0 -0.274025031 0.1937683597
1980100000.0 -0.1629917314 0.2450500945
1990050000.0 -0.068095834 0.2179332814
2000000000.0 -0.0316731751 0.1512715861
