!Created with skrf (http://scikit-rf.org).
# GHz S RI R 50.0 
!freq ReS11 ImS11
10000000.0 -0.8035604583 0.6049296839
19950000.0 -0.2899742631 0.9472105922
29900000.0 0.3232437885 0.9265931268
39850000.0 0.8135808017 0.5491026996
49800000.0 0.9887297831 -0.0564980997
59750000.0 0.7554760062 -0.6592416213
69700000.0 0.181587796 -0.9929211255
79650000.0 -0.489810929 -0.8758266747
89600000.0 -0.9295523688 -0.3324635316
99550000.0 -0.891469626 0.3851451598
109500000.0 -0.3542782869 0.8984378032
119450000.0 0.4193345798 0.8804769817
129400000.0 0.9514790288 0.2720905708
139350000.0 0.8338497068 -0.5423519455
149300000.0 0.1223974674 -0.9717896274
159250000.0 -0.6466101274 -0.705432512
169200000.0 -0.9454182359 0.0214165954
179150000.0 -0.6326494262 0.7096379216
189100000.0 0.0497215564 0.9627980346
199050000.0 0.6929479668 0.6816147332
209000000.0 0.9644530563 0.0581352015
218950000.0 0.7648411873 -0.5630797867
228900000.0 0.2285547062 -0.90425076
238850000.0 -0.3925640955 -0.8346534075
248800000.0 -0.6471106295 -0.4376448006
258750000.0 -0.9181413913 0.1624019687
268700000.0 -0.6315888672 0.6962136849
278650000.0 -0.0808121662 0.932196434
288600000.0 0.4917718957 0.7735823877
298550000.0 0.8366795589 0.2963409489
308500000.0 0.806438706 -0.2873298526
318450000.0 0.4167999496 -0.7144755551
328400000.0 -0.147957817 -0.7872588227
338350000.0 -0.6055925488 -0.4736538343
348300000.0 -0.7182728538 0.0445367622
358250000.0 -0.4529283065 0.4630017253
368200000.0 -0.0113863837 0.5565358055
378150000.0 0.3201781606 0.3326246052
388100000.0 0.3765156683 -0.0081603473
398050000.0 0.1988753898 -0.2385800703
408000000.0 -0.0401260819 -0.2576783658
417950000.0 -0.1816446187 -0.1212185204
427900000.0 -0.1745250861 0.0415699941
437850000.0 -0.0679555354 0.1277585705
447800000.0 0.0483762722 0.1108504723
457750000.0 0.1059903223 0.0279127726
467700000.0 0.0863294061 -0.0566854453
477650000.0 0.023386324 -0.0915947237
487600000.0 -0.0312873249 -0.0687532022
497550000.0 -0.0044251525 -0.0684150255
507500000.0 -0.0574220266 0.0048241283
517450000.0 -0.0192918388 0.0210908229
527400000.0 0.0034116282 0.0047410458
537350000.0 -0.0040904077 -0.0193159918
547300000.0 -0.0362693245 -0.0242098019
557250000.0 -0.064726685 0.0079013465
567200000.0 -0.0591953888 0.059543165
577150000.0 -0.014010987 0.0978124023
587100000.0 0.0544160218 0.0998876586
597050000.0 0.1182245595 0.0505358914
607000000.0 0.1383355087 -0.0377515836
616950000.0 0.0969845574 -0.1270797281
626900000.0 0.0057300597 -0.1757059376
636850000.0 -0.0998834123 -0.1587077458
646800000.0 -0.1738598764 -0.0785351586
656750000.0 -0.1830204529 0.0307905616
666700000.0 -0.1204826583 0.1228061908
676650000.0 -0.0129501213 0.1565193092
686600000.0 0.0918327695 0.1146115868
696550000.0 0.1461416737 0.0178632983
706500000.0 0.1264936323 -0.0857767129
716450000.0 0.0475073421 -0.1468777384
726400000.0 -0.0466629288 -0.1355665269
736350000.0 -0.102191904 -0.0615730044
746300000.0 -0.0863724017 0.0321583728
756250000.0 -0.0030646481 0.0897037063
766200000.0 0.102727213 0.070059215
776150000.0 0.1676405567 -0.02385829
786100000.0 0.1462408055 -0.1453453707
796050000.0 0.0358574516 -0.2233174955
806000000.0 -0.114557743 -0.2019519889
815950000.0 -0.2255014928 -0.0718635372
825900000.0 -0.2276158726 0.1170954028
835850000.0 -0.1015761218 0.2775681141
845800000.0 0.1079922963 0.3274230607
855750000.0 0.3118189084 0.2318775775
865700000.0 0.4153012439 0.0217617204
875650000.0 0.3616638505 -0.21811887
885600000.0 0.1586109456 -0.3783900264
895550000.0 -0.1133654116 -0.3760493097
905500000.0 -0.3332604986 -0.1974826835
915450000.0 -0.3920482025 0.0894663734
925400000.0 -0.2491992487 0.3502465399
935350000.0 0.0327489537 0.4519408565
945300000.0 0.3142305754 0.3337761722
955250000.0 0.4401209719 0.0408063412
965200000.0 0.3107587811 -0.2764308985
975150000.0 -0.0383756022 -0.4082268245
985100000.0 -0.3969495175 -0.2120282795
995050000.0 -0.4777041786 0.224361068
1005000000.0 -0.1589737394 0.5880457064
1014950000.0 0.3701729054 0.5594738915
1024900000.0 0.7097211282 0.084903664
1034850000.0 0.5391400751 -0.5327692456
1044800000.0 -0.0911463422 -0.8011271142
1054750000.0 -0.7042695764 -0.4668489508
1064700000.0 -0.8169023294 0.1689464365
1074650000.0 -0.5105069714 0.6845872272
1084600000.0 0.0611500401 0.8234710309
1094550000.0 0.5894027237 0.5479689409
1104500000.0 0.76418226 -0.0295986066
1114450000.0 0.4705700014 -0.5507039902
1124400000.0 -0.087349199 -0.6848765635
1134350000.0 -0.5316833411 -0.3916965105
1144300000.0 -0.6239024554 0.0857937412
1154250000.0 -0.3777190166 0.4601445036
1164200000.0 0.0319738232 0.5552338074
1174150000.0 0.3851662717 0.35478909
1184100000.0 0.5022443235 -0.0360061594
1194050000.0 0.3111854551 -0.3910419209
1204000000.0 -0.058125463 -0.5103839532
1213950000.0 -0.3956264755 -0.3625038304
1223900000.0 -0.5568943503 -0.0499423994
1233850000.0 -0.4970228724 0.2867253165
1243800000.0 -0.2480162265 0.5226863335
1253750000.0 0.101131413 0.564967277
1263700000.0 0.4152094891 0.3823532847
1273650000.0 0.5574720212 0.041009453
1283600000.0 0.4694192551 -0.3168312011
1293550000.0 0.1991125019 -0.5523958028
1303500000.0 -0.1433320176 -0.5974591106
1313450000.0 -0.4467820896 -0.4568236459
1323400000.0 -0.6283627453 -0.1817416768
1333350000.0 -0.6377600389 0.152256246
1343300000.0 -0.4587150019 0.4494869009
1353250000.0 -0.1309280232 0.6028251747
1363200000.0 0.2372570166 0.5419767803
1373150000.0 0.5085570556 0.2818046438
1383100000.0 0.586801847 -0.0777703846
1393050000.0 0.4632457758 -0.406833994
1403000000.0 0.1972619889 -0.6107482036
1412950000.0 -0.1243773235 -0.6437491651
1422900000.0 -0.4115645826 -0.5054112391
1432850000.0 -0.5824189804 -0.23213409
1442800000.0 -0.5780661304 0.0983174497
1452750000.0 -0.3881557191 0.3804271158
1462700000.0 -0.0675597468 0.5130187323
1472650000.0 0.270629208 0.4440864749
1482600000.0 0.5046660234 0.2058519688
1492550000.0 0.5636176255 -0.1073392393
1502500000.0 0.4446966535 -0.3875233809
1512450000.0 0.1963906886 -0.5491926666
1522400000.0 -0.0998870351 -0.5417016428
1532350000.0 -0.3415401711 -0.361574462
1542300000.0 -0.4356825504 -0.0673416502
1552250000.0 -0.336594559 0.2287535808
1562200000.0 -0.0827563747 0.4033232357
1572150000.0 0.2125494598 0.389564025
1582100000.0 0.4273637419 0.2098013474
1592050000.0 0.4871580728 -0.0520153463
1602000000.0 0.3795056061 -0.2929185151
1611950000.0 0.1446536842 -0.4232889178
1621900000.0 -0.1318948197 -0.3875507952
1631850000.0 -0.3396720396 -0.1834417025
1641800000.0 -0.3802576705 0.1143385264
1651750000.0 -0.2273965625 0.3743246968
1661700000.0 0.0472845792 0.4822999318
1671650000.0 0.3223927569 0.4045424919
1681600000.0 0.4930200404 0.1875867071
1691550000.0 0.5199691393 -0.0788290827
1701500000.0 0.3961652334 -0.3392481189
1711450000.0 0.1275269687 -0.4934928847
1721400000.0 -0.1976237775 -0.4655020257
1731350000.0 -0.4564802311 -0.2443393945
1741300000.0 -0.5367162482 0.088776975
1751250000.0 -0.4123982993 0.4007084898
1761200000.0 -0.1445437416 0.5830090906
1771150000.0 0.1680255178 0.5920312359
1781100000.0 0.4342957023 0.4411067917
1791050000.0 0.5864982359 0.1753962555
1801000000.0 0.5800870342 -0.1387463434
1810950000.0 0.4025032983 -0.4126456892
1820900000.0 0.0930176498 -0.549301629
1830850000.0 -0.244998479 -0.4880753902
1840800000.0 -0.4859200132 -0.2507004683
1850750000.0 -0.5533621935 0.0656783493
1860700000.0 -0.4489356437 0.3500296526
1870650000.0 -0.2289960065 0.529171383
1880600000.0 0.0367433064 0.5715430866
1890550000.0 0.2809593786 0.4766016106
1900500000.0 0.4404100622 0.2689069975
1910450000.0 0.46312858 0.0065606229
1920400000.0 0.3374402223 -0.2240990136
1930350000.0 0.1115025624 -0.3403470881
1940300000.0 -0.1236995411 -0.3126179847
1950250000.0 -0.2846644149 -0.1777514488
1960200000.0 -0.3375176005 -0.0071474895
1970150000.0 -0.2971780039 0.1344819404
1980100000.0 -0.2054614875 0.2059835362
1990050000.0 -0.1196833416 0.199603152
2000000000.0 -0.0909580595 0.1509163337
