!Created with skrf (http://scikit-rf.org).
# GHz S RI R 50.0 
!freq ReS11 ImS11
10000000.0 -0.7757676202 0.5838929355
19950000.0 -0.2857313391 0.917386697
29900000.0 0.3070038489 0.8987936114
39850000.0 0.7850303087 0.5277373405
49800000.0 0.9531787946 -0.0715993046
59750000.0 0.7139673365 -0.668230995
69700000.0 0.1363340971 -0.9888182713
79650000.0 -0.5266219475 -0.8465716749
89600000.0 -0.9347694871 -0.2739228638
99550000.0 -0.8398282053 0.4542823341
109500000.0 -0.2364806754 0.9279214108
119450000.0 0.5591450173 0.8039326005
129400000.0 0.9985883079 0.0854702672
139350000.0 0.706777818 -0.7161283498
149300000.0 -0.0917931887 -0.9735835894
159250000.0 -0.7692346052 -0.5396273335
169200000.0 -0.898832443 0.2128192065
179150000.0 -0.4808394262 0.8004625485
189100000.0 0.1899875996 0.9283266329
199050000.0 0.7472275966 0.5818063447
209000000.0 0.9361106207 -0.0280411507
218950000.0 0.7060794916 -0.593639176
228900000.0 0.1911883496 -0.8863625382
238850000.0 -0.3847290236 -0.8076422228
248800000.0 -0.7696564635 -0.4029708007
258750000.0 -0.8893835979 0.1599137911
268700000.0 -0.6297618788 0.6712829497
278650000.0 -0.1207547861 0.919275525
288600000.0 0.4274801762 0.8032227069
298550000.0 0.7898718797 0.3756833199
308500000.0 0.8184658288 -0.1871804124
318450000.0 0.4959406607 -0.6474515369
328400000.0 -0.0394661073 -0.7977753037
338350000.0 -0.5305806295 -0.5623492284
348300000.0 -0.7178734871 -0.0733502771
358250000.0 -0.5205782292 0.3724095416
368200000.0 -0.1091751768 0.5209796574
378150000.0 0.2280220743 0.3525343135
388100000.0 0.3117659022 0.0502077451
398050000.0 0.1770050597 -0.1587065966
408000000.0 -0.0179655724 -0.1756890364
417950000.0 -0.118476479 -0.0614437053
427900000.0 -0.0880944017 0.0585865264
437850000.0 0.0117081257 0.0962733827
447800000.0 0.0986872876 0.0407675145
457750000.0 0.1147968449 -0.0582464337
467700000.0 0.0556291986 -0.1355862525
477650000.0 -0.0356505206 -0.1498294515
487600000.0 -0.1073808913 -0.0950971935
497550000.0 -0.128979127 -0.0078482598
507500000.0 -0.0856577525 0.0643589378
517450000.0 -0.0130841654 0.0918523159
527400000.0 0.0464921054 0.071031523
537350000.0 0.0673750008 0.0266635749
547300000.0 0.0472083406 -0.0106957354
557250000.0 0.0085309914 -0.017562789
567200000.0 -0.0176919345 0.0048634072
577150000.0 -0.0118331044 0.0372780525
587100000.0 0.0245686458 0.0474665423
597050000.0 0.063742478 0.0195440339
607000000.0 0.0745320755 -0.0394578992
616950000.0 0.0409954557 -0.1002666005
626900000.0 -0.0303895551 -0.1264587759
636850000.0 -0.1090189969 -0.0992680697
646800000.0 -0.1521971605 -0.0242129351
656750000.0 -0.1398363677 0.0685336653
666700000.0 -0.0743480548 0.1373178474
676650000.0 0.0262296946 0.1470362156
686600000.0 0.1130572952 0.0893599269
696550000.0 0.1439284091 -0.0183733298
706500000.0 0.1038907661 -0.1190426456
716450000.0 0.011421112 -0.168976519
726400000.0 -0.0861379305 -0.1451066351
736350000.0 -0.1391017751 -0.0585335278
746300000.0 -0.1124213817 0.0431738523
756250000.0 -0.017437863 0.1007269703
766200000.0 0.0941383481 0.0790214073
776150000.0 0.1649276838 -0.0162930759
786100000.0 0.1493889057 -0.1329432806
796050000.0 0.0446398641 -0.2087072423
806000000.0 -0.0941143806 -0.1843263046
815950000.0 -0.1956988994 -0.05494633
825900000.0 -0.1838571378 0.1204638839
835850000.0 -0.0540122802 0.2582913336
845800000.0 0.1425033758 0.2798269448
855750000.0 0.3175741147 0.1651101388
865700000.0 0.3834831864 -0.0484083864
875650000.0 0.2929961478 -0.2662314773
885600000.0 0.0700009487 -0.3813970812
895550000.0 -0.1903426885 -0.3216136702
905500000.0 -0.3621339734 -0.0953593497
915450000.0 -0.3490093759 0.2005403212
925400000.0 -0.145247417 0.4218891213
935350000.0 0.157545759 0.4530641415
945300000.0 0.4080056896 0.2600515235
955250000.0 0.4569988495 -0.0781055592
965200000.0 0.2336626426 -0.3746023483
975150000.0 -0.1684049991 -0.4105702833
985100000.0 -0.4632254069 -0.1084530387
995050000.0 -0.4313531583 0.304490283
1005000000.0 -0.0967246388 0.5805926133
1014950000.0 0.3938985535 0.5106410001
1024900000.0 0.6849744999 0.017842334
1034850000.0 0.4516568171 -0.5769545371
1044800000.0 -0.2029723396 -0.7621277985
1054750000.0 -0.758537914 -0.3409851841
1064700000.0 -0.7800222075 0.3416753394
1074650000.0 -0.2970498003 0.770294201
1084600000.0 0.2230044401 0.7567036914
1094550000.0 0.6888400224 0.375474858
1104500000.0 0.719799766 -0.2361300095
1114450000.0 0.3059515912 -0.6795465315
1124400000.0 -0.2742697713 -0.6812595187
1134350000.0 -0.6502595215 -0.2888062715
1144300000.0 -0.6470638392 0.2178149483
1154250000.0 -0.3259322468 0.566692863
1164200000.0 0.1242834157 0.6151387456
1174150000.0 0.48966492 0.358477183
1184100000.0 0.5871671463 -0.0777741386
1194050000.0 0.3641110972 -0.4562931529
1204000000.0 -0.0395618525 -0.5793728278
1213950000.0 -0.4051155255 -0.4197619609
1223900000.0 -0.5860716243 -0.0865026778
1233850000.0 -0.5373900462 0.2743293961
1243800000.0 -0.2894260535 0.5358485831
1253750000.0 0.0715679587 0.598456742
1263700000.0 0.406049621 0.424779521
1273650000.0 0.569051549 0.0774074635
1283600000.0 0.4917994739 -0.2936799626
1293550000.0 0.2247348219 -0.5401428799
1303500000.0 -0.1167999651 -0.5923860013
1313450000.0 -0.4184900093 -0.4575705738
1323400000.0 -0.6023910662 -0.1882975916
1333350000.0 -0.6214800349 0.1429370694
1343300000.0 -0.4542423873 0.446128481
1353250000.0 -0.1299639904 0.6010172755
1363200000.0 0.2360861544 0.5362677746
1373150000.0 0.4996614989 0.2690170062
1383100000.0 0.5654575575 -0.0921564987
1393050000.0 0.4305260816 -0.416282469
1403000000.0 0.1595238542 -0.6085594871
1412950000.0 -0.1563636623 -0.6275207123
1422900000.0 -0.4294233391 -0.4767105901
1432850000.0 -0.5810573713 -0.1942735654
1442800000.0 -0.5539906334 0.1401928302
1452750000.0 -0.3364041153 0.4097510964
1462700000.0 -0.0005406221 0.5078137844
1472650000.0 0.3251616412 0.3977248418
1482600000.0 0.5224916679 0.1334848015
1492550000.0 0.5363260223 -0.1810098489
1502500000.0 0.3770685376 -0.4392052793
1512450000.0 0.1070590874 -0.5581397126
1522400000.0 -0.1815320839 -0.4977078983
1532350000.0 -0.3822335531 -0.273468445
1542300000.0 -0.4136966918 0.0357187517
1552250000.0 -0.2514617736 0.3056284629
1562200000.0 0.0322279469 0.4193998276
1572150000.0 0.3160908729 0.34291155
1582100000.0 0.4867273753 0.117677345
1592050000.0 0.4835076481 -0.1587291067
1602000000.0 0.3117998575 -0.3777264324
1611950000.0 0.0340768724 -0.4518175165
1621900000.0 -0.2452752607 -0.3410167566
1631850000.0 -0.409532088 -0.0748580595
1641800000.0 -0.377808847 0.2424250191
1651750000.0 -0.1600065852 0.4731573417
1661700000.0 0.1485237099 0.5227329979
1671650000.0 0.4219573461 0.3812728628
1681600000.0 0.5631072992 0.1101349427
1691550000.0 0.5288646182 -0.1970667648
1701500000.0 0.3276426329 -0.4402055622
1711450000.0 0.0164415251 -0.5366350137
1721400000.0 -0.309502313 -0.4375181144
1731350000.0 -0.5280106865 -0.1626990061
1741300000.0 -0.5511615663 0.1891451154
1751250000.0 -0.373638001 0.4839142312
1761200000.0 -0.0723216401 0.6232233131
1771150000.0 0.2462200709 0.5800926272
1781100000.0 0.4917321539 0.3822560182
1791050000.0 0.6038417732 0.0862470853
1801000000.0 0.5465384684 -0.2300165664
1810950000.0 0.3311907895 -0.4806699607
1820900000.0 0.0073201432 -0.5728799379
1830850000.0 -0.3168862289 -0.4615223688
1840800000.0 -0.5178204766 -0.1828615371
1850750000.0 -0.5175416541 0.1221633963
1860700000.0 -0.4101745088 0.361484595
1870650000.0 -0.1989557208 0.5370092218
1880600000.0 0.0718800317 0.5711924573
1890550000.0 0.3104066197 0.4613487564
1900500000.0 0.4546951601 0.2425369611
1910450000.0 0.4628008978 -0.0224651326
1920400000.0 0.3293716003 -0.2503975137
1930350000.0 0.0979681364 -0.3602008781
1940300000.0 -0.138260862 -0.3235879992
1950250000.0 -0.3002838124 -0.1816368981
1960200000.0 -0.354241998 -0.0016095495
1970150000.0 -0.3118356214 0.1511520169
1980100000.0 -0.2144074689 0.2356761944
1990050000.0 -0.1157575633 0.2408735905
2000000000.0 -0.0674629498 0.1924628055
