!Created with skrf (http://scikit-rf.org).
# GHz S RI R 50.0 
!freq ReS11 ImS11
10000000.0 -0.7676009309 0.6769411742
19950000.0 -0.1364084294 0.9886513247
29900000.0 0.5386464773 0.8168146089
39850000.0 0.9435063811 0.2443010062
49800000.0 0.8720534285 -0.4651333065
59750000.0 0.3284439393 -0.9565500258
69700000.0 -0.4263776995 -0.9351282037
79650000.0 -0.9551461476 -0.3676488421
89600000.0 -0.9045499488 0.4234708439
99550000.0 -0.2748632554 0.930389588
109500000.0 0.5419911597 0.790011665
119450000.0 0.9718649979 0.0464205588
129400000.0 0.6333392429 -0.7698859091
139350000.0 -0.2612708554 -0.9792058224
149300000.0 -0.9276750425 -0.3538403297
159250000.0 -0.8010360765 0.5258706456
169200000.0 -0.0533446279 0.9389773645
179150000.0 0.7114536075 0.6313314692
189100000.0 0.9692485534 -0.1269277751
199050000.0 0.585367465 -0.8069785113
209000000.0 -0.1549193914 -0.980749445
218950000.0 -0.7729978578 -0.5828354575
228900000.0 -0.9324562637 0.1136234027
238850000.0 -0.578473806 0.7184787325
248800000.0 0.0630082203 0.7380339757
258750000.0 0.6801205999 0.654157213
268700000.0 0.9622028601 0.0279802282
278650000.0 0.7406556764 -0.6168995849
288600000.0 0.1418959335 -0.9302084498
298550000.0 -0.4994509283 -0.749500668
308500000.0 -0.836313259 -0.1853681492
318450000.0 -0.6896461725 0.4457651526
328400000.0 -0.1489934973 0.7839300677
338350000.0 0.453226538 0.629033705
348300000.0 0.7256883531 0.1017006242
358250000.0 0.5161363735 -0.4084131942
368200000.0 0.0412069552 -0.5551959984
378150000.0 -0.3208718664 -0.3129623479
388100000.0 -0.3523561051 0.0592379721
398050000.0 -0.1229030492 0.2719562179
408000000.0 0.1310345099 0.2255332828
417950000.0 0.2234379887 0.034987518
427900000.0 0.1398979681 -0.1204876069
437850000.0 -0.0084177283 -0.1418267552
447800000.0 -0.1014323706 -0.0521706508
457750000.0 -0.0905254466 0.0590617903
467700000.0 -0.0096347625 0.1113486443
477650000.0 0.0675685691 0.0845068783
487600000.0 0.0870435975 0.0191904
497550000.0 0.0596480997 0.0280898622
507500000.0 0.0278640621 -0.0495830589
517450000.0 -0.0060335767 -0.0222850703
527400000.0 -0.0003690037 0.0030869056
537350000.0 0.0207516666 -0.0005092951
547300000.0 0.0243242353 -0.0332824515
557250000.0 -0.016006025 -0.0619876249
567200000.0 -0.0752031475 -0.0469117381
577150000.0 -0.1120287723 0.0160001458
587100000.0 -0.0902483137 0.0977722178
597050000.0 -0.0076598845 0.14696084
607000000.0 0.0977492315 0.1231528264
616950000.0 0.1656743853 0.0265927779
626900000.0 0.1521949142 -0.0986847966
636850000.0 0.0555417766 -0.1879132707
646800000.0 -0.0783421404 -0.1911559581
656750000.0 -0.1803685455 -0.1030620274
666700000.0 -0.1932837269 0.0309781217
676650000.0 -0.1072231045 0.1344137891
686600000.0 0.0295003977 0.1353814587
696550000.0 0.0688437325 0.054110356
706500000.0 0.1180258019 -0.0147123866
716450000.0 0.0745436119 -0.11123836
726400000.0 -0.0214491695 -0.1339719696
736350000.0 -0.0914708524 -0.0751675529
746300000.0 -0.0824948691 0.0136451595
756250000.0 2.1102e-06 0.0584314155
766200000.0 0.0933579592 0.0132750036
776150000.0 0.1189234541 -0.1013831707
786100000.0 0.0389223525 -0.2072968751
796050000.0 -0.1114433616 -0.219222724
806000000.0 -0.2376522804 -0.1022716944
815950000.0 -0.242013767 0.0927466518
825900000.0 -0.0921417461 0.2511644599
835850000.0 0.1472724736 0.2632477908
845800000.0 0.3446423583 0.0976588457
855750000.0 0.3805557778 -0.1729806981
865700000.0 0.2171133816 -0.408075436
875650000.0 -0.0756088814 -0.4744626139
885600000.0 -0.3485708868 -0.3175760857
895550000.0 -0.4449974837 -0.0006150375
905500000.0 -0.281868919 0.3111445473
915450000.0 0.07482407 0.3855117118
925400000.0 0.2881891957 0.2365561104
935350000.0 0.4381011771 -0.0118450939
945300000.0 0.3450861761 -0.3270866734
955250000.0 0.0367424431 -0.4732869147
965200000.0 -0.2877879663 -0.3327493898
975150000.0 -0.3917197437 0.0251389669
985100000.0 -0.1550480111 0.3465325294
995050000.0 0.2764310046 0.3344240479
1005000000.0 0.5200430546 -0.0693750671
1014950000.0 0.2903659196 -0.5317884252
1024900000.0 -0.2760192671 -0.5966381002
1034850000.0 -0.687519762 -0.1144055233
1044800000.0 -0.4992235996 0.5610217723
1054750000.0 0.2229297546 0.7882880498
1064700000.0 0.7908377695 0.2955644113
1074650000.0 0.7947292888 -0.3859583433
1084600000.0 0.2529298417 -0.8483214606
1094550000.0 -0.4223950306 -0.7372780771
1104500000.0 -0.7935575175 -0.1663801111
1114450000.0 -0.5978353127 0.4889419539
1124400000.0 0.0313247272 0.737856036
1134350000.0 0.5799798532 0.4003157573
1144300000.0 0.637101657 -0.188304115
1154250000.0 0.2565405411 -0.5642282157
1164200000.0 -0.2337890796 -0.5249897198
1174150000.0 -0.5130904447 -0.1529802883
1184100000.0 -0.4197421805 0.2930779277
1194050000.0 -0.0184772663 0.5034332624
1204000000.0 0.3892467026 0.3297787602
1213950000.0 0.5223750528 -0.075422616
1223900000.0 0.3326696507 -0.4377448106
1233850000.0 -0.0418705298 -0.5688414051
1243800000.0 -0.4085815001 -0.4211573961
1253750000.0 -0.5924111771 -0.0637101914
1263700000.0 -0.4911460251 0.337416752
1273650000.0 -0.1369371622 0.5734856862
1283600000.0 0.288422251 0.5107347924
1293550000.0 0.563475449 0.1872640576
1303500000.0 0.570015438 -0.2260878484
1313450000.0 0.3303328537 -0.5495191283
1323400000.0 -0.0485360529 -0.6667895893
1333350000.0 -0.4252586424 -0.5387097875
1343300000.0 -0.6582502593 -0.2031522366
1353250000.0 -0.6372596535 0.2187923425
1363200000.0 -0.3472972663 0.5439163695
1373150000.0 0.0893766906 0.6101844824
1383100000.0 0.4651066878 0.3867135422
1393050000.0 0.6185894628 -0.0088305815
1403000000.0 0.5087366106 -0.4016997583
1412950000.0 0.1995355229 -0.6475348578
1422900000.0 -0.1885755278 -0.6688715927
1432850000.0 -0.5158741389 -0.4603372489
1442800000.0 -0.6563699674 -0.094656877
1452750000.0 -0.5420276981 0.2873198825
1462700000.0 -0.2095513281 0.5198081319
1472650000.0 0.1952653303 0.4917878795
1482600000.0 0.4865432481 0.2176885158
1492550000.0 0.539073442 -0.1671062794
1502500000.0 0.348996966 -0.4885560193
1512450000.0 0.0136742875 -0.6198705445
1522400000.0 -0.3239764601 -0.5185568598
1532350000.0 -0.5228190756 -0.2309284345
1542300000.0 -0.4942566401 0.1181584864
1552250000.0 -0.2439760682 0.3643603001
1562200000.0 0.103938106 0.381714748
1572150000.0 0.3666269541 0.1659776797
1582100000.0 0.4125268335 -0.1593737696
1592050000.0 0.2332113109 -0.4202161958
1602000000.0 -0.0669592042 -0.4916588979
1611950000.0 -0.335902225 -0.3441020494
1621900000.0 -0.4386658869 -0.052749277
1631850000.0 -0.3160554624 0.2391658728
1641800000.0 -0.0193935318 0.3741619685
1651750000.0 0.2965490232 0.2651761813
1661700000.0 0.4497482365 -0.0356710169
1671650000.0 0.3542902438 -0.3612578998
1681600000.0 0.0659758492 -0.5383323895
1691550000.0 -0.268543973 -0.4845519595
1701500000.0 -0.4962732328 -0.2278342422
1711450000.0 -0.515882291 0.1241431646
1721400000.0 -0.3032337187 0.4221929822
1731350000.0 0.0636618788 0.5200964463
1741300000.0 0.4177141182 0.3518511109
1751250000.0 0.5783742968 -0.0098493949
1761200000.0 0.4694900723 -0.385330025
1771150000.0 0.1572969425 -0.6045834327
1781100000.0 -0.2146047343 -0.5938171726
1791050000.0 -0.5066737292 -0.3739898657
1801000000.0 -0.6211542256 -0.0257650743
1810950000.0 -0.5106495074 0.3324253741
1820900000.0 -0.1984859973 0.5620798638
1830850000.0 0.1995698412 0.5490842991
1840800000.0 0.5011805231 0.2840770208
1850750000.0 0.563838144 -0.1058069109
1860700000.0 0.3796495164 -0.4357477785
1870650000.0 0.0552572195 -0.5831959334
1880600000.0 -0.2757409011 -0.5230707315
1890550000.0 -0.5077642732 -0.2984737228
1900500000.0 -0.5748300555 0.0101400475
1910450000.0 -0.4552797004 0.2988027111
1920400000.0 -0.1885444712 0.4579580008
1930350000.0 0.1158450677 0.4172943748
1940300000.0 0.3177534275 0.203607811
1950250000.0 0.3371489089 -0.0665943942
1960200000.0 0.199284756 -0.268351782
1970150000.0 -0.0033571323 -0.3383432617
1980100000.0 -0.1750209726 -0.2844863856
1990050000.0 -0.2588785184 -0.1661269238
2000000000.0 -0.2506123371 -0.0588004367
