!Created with skrf (http://scikit-rf.org).
# GHz S RI R 50.0 
!freq ReS11 ImS11
10000000.0 -0.823723295 0.6113609382
19950000.0 -0.3040371626 0.9526215767
29900000.0 0.3114780679 0.9299986089
39850000.0 0.8055202572 0.5539088832
49800000.0 0.9904036884 -0.0523064258
59750000.0 0.7656451374 -0.6661394276
69700000.0 0.1850813019 -1.013923188
79650000.0 -0.5044100758 -0.8925053387
89600000.0 -0.9463366412 -0.3218192285
99550000.0 -0.8758136964 0.4188810182
109500000.0 -0.2863187443 0.916815066
119450000.0 0.5166919709 0.8303416166
129400000.0 0.9971304577 0.1351405456
139350000.0 0.7457736454 -0.6865683519
149300000.0 -0.0556620288 -0.9858943012
159250000.0 -0.7636840623 -0.570120077
169200000.0 -0.9203136903 0.1933980318
179150000.0 -0.5067667044 0.8095981346
189100000.0 0.1887629194 0.9626565896
199050000.0 0.7816319265 0.6164572667
209000000.0 0.9866980754 -0.0160344074
218950000.0 0.746453838 -0.6051432692
228900000.0 0.2090555616 -0.9106821331
238850000.0 -0.3908086839 -0.8344342143
248800000.0 -0.7768562812 -0.4255322541
258750000.0 -0.9350635718 0.148753932
268700000.0 -0.6807642382 0.6831152586
278650000.0 -0.1554846243 0.952339853
288600000.0 0.4220346133 0.843565924
298550000.0 0.8086532805 0.4073778591
308500000.0 0.8480067564 -0.1692854743
318450000.0 0.5273756795 -0.643516282
328400000.0 -0.0136009875 -0.8086587194
338350000.0 -0.5187403504 -0.5851236834
348300000.0 -0.725935827 -0.1007792505
358250000.0 -0.5433751485 0.3521341947
368200000.0 -0.1381143166 0.5148630799
378150000.0 0.2028819086 0.3547787765
388100000.0 0.2962522101 0.0561994679
398050000.0 0.164947379 -0.1561177281
408000000.0 -0.0283176451 -0.1795896634
417950000.0 -0.129365426 -0.0650611701
427900000.0 -0.0975847489 0.0603640234
437850000.0 0.0119915737 0.1042535435
447800000.0 0.1128655149 0.0521284254
457750000.0 0.1387099404 -0.0531420417
467700000.0 0.0847012675 -0.1407331126
477650000.0 -0.0108916462 -0.1638741711
487600000.0 -0.0935922998 -0.115703737
497550000.0 -0.1145518724 -0.0358993541
507500000.0 -0.0954274337 0.042547559
517450000.0 -0.0332730677 0.0805821822
527400000.0 0.0224447451 0.0697309266
537350000.0 0.0448719398 0.0332816327
547300000.0 0.0322050799 0.0024638704
557250000.0 0.003630793 -0.0003721504
567200000.0 -0.0107013304 0.0251738583
577150000.0 0.006839082 0.0557813107
587100000.0 0.0504756968 0.0607352384
597050000.0 0.092426542 0.0254462244
607000000.0 0.1020188486 -0.0427787882
616950000.0 0.0598233196 -0.112994581
626900000.0 -0.0240061278 -0.1469024099
636850000.0 -0.1190100304 -0.1228606676
646800000.0 -0.181318327 -0.0418814743
656750000.0 -0.1799989014 0.0642409832
666700000.0 -0.1091676948 0.1479520801
676650000.0 0.0022856094 0.169658154
686600000.0 0.1062318108 0.1170294042
696550000.0 0.1571240843 0.0093350799
706500000.0 0.1340967957 -0.1025787147
716450000.0 0.0486514624 -0.1703996739
726400000.0 -0.0547338334 -0.1649639703
736350000.0 -0.1224399225 -0.0900912598
746300000.0 -0.1159131379 0.0106503142
756250000.0 -0.0364414559 0.078963244
766200000.0 0.071050094 0.0736907933
776150000.0 0.1462996303 -0.0086588664
786100000.0 0.140748464 -0.1221115679
796050000.0 0.0474538378 -0.2011266944
806000000.0 -0.0882590238 -0.1877787692
815950000.0 -0.1900021074 -0.0679301613
825900000.0 -0.188463128 0.1076669979
835850000.0 -0.0628936456 0.2550222733
845800000.0 0.1398058478 0.2927067789
855750000.0 0.329654021 0.1875984059
865700000.0 0.4114733333 -0.0261892208
875650000.0 0.3302239562 -0.2548013403
885600000.0 0.1061766083 -0.387892375
895550000.0 -0.1700997005 -0.3444128262
905500000.0 -0.3677508563 -0.1246737261
915450000.0 -0.3798403261 0.1817066667
925400000.0 -0.1852630331 0.4288858828
935350000.0 0.1309200035 0.4827812433
945300000.0 0.4047981939 0.2954848343
955250000.0 0.4667979298 -0.0473222558
965200000.0 0.249561364 -0.339030894
975150000.0 -0.1089647511 -0.3710862553
985100000.0 -0.3785770654 -0.1607809143
995050000.0 -0.4499524115 0.1909332312
1005000000.0 -0.2100594966 0.5212106698
1014950000.0 0.2483913308 0.5707523686
1024900000.0 0.6318261779 0.2012039101
1034850000.0 0.5815769462 -0.4045354345
1044800000.0 0.0221193169 -0.7756237573
1054750000.0 -0.6445155017 -0.5453256629
1064700000.0 -0.8619396032 0.1086167173
1074650000.0 -0.5547224472 0.6777347182
1084600000.0 0.0632839892 0.8461784022
1094550000.0 0.6117158957 0.5400485913
1104500000.0 0.783824404 -0.067812412
1114450000.0 0.4632886968 -0.6103674625
1124400000.0 -0.131546349 -0.7345709412
1134350000.0 -0.5918263827 -0.406125069
1144300000.0 -0.6731174335 0.1034641253
1154250000.0 -0.406594323 0.498008014
1164200000.0 0.0291249931 0.6072708133
1174150000.0 0.4169795174 0.4113957038
1184100000.0 0.5760523773 0.0025505306
1194050000.0 0.4069257326 -0.4014666381
1204000000.0 0.0199621593 -0.5713806859
1213950000.0 -0.3618887579 -0.4500846798
1223900000.0 -0.572673543 -0.1352531467
1233850000.0 -0.5561947327 0.2295148159
1243800000.0 -0.3304329765 0.5144006997
1253750000.0 0.0255873568 0.6119401338
1263700000.0 0.3774772971 0.4724073183
1273650000.0 0.5752185958 0.1414046786
1283600000.0 0.5334074014 -0.2415760429
1293550000.0 0.2837785011 -0.5197332583
1303500000.0 -0.0644510264 -0.6083379211
1313450000.0 -0.3933933158 -0.5026971907
1323400000.0 -0.6135341093 -0.2449200342
1333350000.0 -0.6641491783 0.0925881807
1343300000.0 -0.5189760169 0.412755295
1353250000.0 -0.2043520068 0.6028124428
1363200000.0 0.1725132896 0.5770165003
1373150000.0 0.4701109988 0.3376244586
1383100000.0 0.579752499 -0.0188734412
1393050000.0 0.4837349471 -0.3623822108
1403000000.0 0.2328239473 -0.5926134903
1412950000.0 -0.0893009305 -0.6535770547
1422900000.0 -0.3916668915 -0.5362981472
1432850000.0 -0.5828099175 -0.2692104227
1442800000.0 -0.591681531 0.0684977739
1452750000.0 -0.4037638946 0.360669809
1462700000.0 -0.0782228609 0.4963955368
1472650000.0 0.2613180111 0.4262603169
1482600000.0 0.4941395399 0.1882851787
1492550000.0 0.5506581401 -0.1229183263
1502500000.0 0.4287178847 -0.3978317335
1512450000.0 0.1766962882 -0.5491508005
1522400000.0 -0.1167998228 -0.5240497172
1532350000.0 -0.3439325977 -0.3245713954
1542300000.0 -0.4071409293 -0.0209349039
1552250000.0 -0.2751271296 0.2613052254
1562200000.0 -0.0052127452 0.4009304132
1572150000.0 0.2800388714 0.3520664182
1582100000.0 0.4686050345 0.1474326038
1592050000.0 0.4899335322 -0.1228236366
1602000000.0 0.3399431962 -0.3508929248
1611950000.0 0.0720967962 -0.4454629625
1621900000.0 -0.2121239054 -0.3569365675
1631850000.0 -0.395435737 -0.1055564939
1641800000.0 -0.3898235575 0.213043582
1651750000.0 -0.1922585215 0.4634683411
1661700000.0 0.1120389584 0.5420153632
1671650000.0 0.3980054733 0.4264526441
1681600000.0 0.5654309921 0.1689037677
1691550000.0 0.5608918426 -0.1432246756
1701500000.0 0.3834016631 -0.4109855628
1711450000.0 0.0758425287 -0.5470548116
1721400000.0 -0.2717118461 -0.4868166323
1731350000.0 -0.5306235706 -0.2328332208
1741300000.0 -0.5957848832 0.1248499794
1751250000.0 -0.4467570247 0.4486471825
1761200000.0 -0.1539703983 0.6291095295
1771150000.0 0.1774599438 0.6261622658
1781100000.0 0.455536022 0.4604338503
1791050000.0 0.6154280347 0.1796438007
1801000000.0 0.6140173043 -0.1513107964
1810950000.0 0.4352998338 -0.445661591
1820900000.0 0.1136040196 -0.602064734
1830850000.0 -0.2479519696 -0.550238583
1840800000.0 -0.5133878068 -0.3050541406
1850750000.0 -0.5945763544 0.0319044768
1860700000.0 -0.4901468071 0.3411432077
1870650000.0 -0.253112723 0.5401279519
1880600000.0 0.0282697838 0.5650690166
1890550000.0 0.2213900806 0.506505197
1900500000.0 0.4415727229 0.350284293
1910450000.0 0.5212556638 0.0769012553
1920400000.0 0.4301535168 -0.1948313643
1930350000.0 0.2050890245 -0.3628074205
1940300000.0 -0.0598957121 -0.3753884595
1950250000.0 -0.267045539 -0.2566764406
1960200000.0 -0.3686390952 -0.074582741
1970150000.0 -0.3645080762 0.1026304622
1980100000.0 -0.2839977486 0.2253046862
1990050000.0 -0.1753036691 0.2695778337
2000000000.0 -0.0910545646 0.2432944694
