!Created with skrf (http://scikit-rf.org).
# GHz S RI R 50.0 
!freq ReS11 ImS11
10000000.0 0.884982103 -0.4732034118
19950000.0 0.5729507877 -0.8383505416
29900000.0 0.1275834104 -1.01973184
39850000.0 -0.3525320552 -0.9719416894
49800000.0 -0.751622799 -0.7047139122
59750000.0 -0.9764702666 -0.2845654732
69700000.0 -0.9809671566 0.1874931643
79650000.0 -0.7724780565 0.6057077142
89600000.0 -0.4008699131 0.88519504
99550000.0 0.0556178086 0.9703685117
109500000.0 0.5031187228 0.8428059528
119450000.0 0.8470799557 0.5263046978
129400000.0 1.008207853 0.0855888141
139350000.0 0.9456655755 -0.3802969265
149300000.0 0.6713422134 -0.7611660189
159250000.0 0.2525631761 -0.9682220433
169200000.0 -0.2113819983 -0.9589279519
179150000.0 -0.6181724846 -0.7423399064
189100000.0 -0.8843313872 -0.3681004289
199050000.0 -0.9569473723 0.0856636919
209000000.0 -0.8178604083 0.5285020701
218950000.0 -0.4949774132 0.8565045512
228900000.0 -0.0543149944 1.001691287
238850000.0 0.4038136784 0.9239110736
248800000.0 0.7705149477 0.6409324606
258750000.0 0.9615387452 0.221600167
268700000.0 0.9392783661 -0.2357758575
278650000.0 0.7147074385 -0.6318738461
288600000.0 0.3377055982 -0.8857829567
298550000.0 -0.1135602516 -0.9456581972
308500000.0 -0.5450786577 -0.7965002547
318450000.0 -0.8631219961 -0.4668157598
328400000.0 -0.993518139 -0.0266009691
338350000.0 -0.9031325742 0.4229810472
348300000.0 -0.6144650844 0.7766499184
358250000.0 -0.1973809472 0.9559042994
368200000.0 0.2528906471 0.9258578274
378150000.0 0.6410404818 0.6976441175
388100000.0 0.8868275242 0.3197204283
398050000.0 0.9384945456 -0.1303791539
408000000.0 0.7807341519 -0.5574938458
417950000.0 0.4430866813 -0.8661585145
427900000.0 0.0001606123 -0.9817240147
437850000.0 -0.4435114632 -0.8766661558
447800000.0 -0.7846919554 -0.5789856202
457750000.0 -0.949534479 -0.161421573
467700000.0 -0.9082578431 0.2823197391
477650000.0 -0.6742339086 0.6604385632
487600000.0 -0.2960221815 0.8957168624
497550000.0 0.1512044757 0.9373543555
507500000.0 0.5719415392 0.7698282856
517450000.0 0.8692662336 0.424047529
527400000.0 0.9700230464 -0.0212375103
537350000.0 0.8494072908 -0.4599435839
547300000.0 0.5421919844 -0.7886711931
557250000.0 0.1241195785 -0.939335824
567200000.0 -0.3123459379 -0.8875135979
577150000.0 -0.679594184 -0.6497462313
587100000.0 -0.9049775455 -0.2742078247
597050000.0 -0.9396739776 0.166472976
607000000.0 -0.7683481274 0.5798340911
616950000.0 -0.4200317928 0.8701199324
626900000.0 0.0275806777 0.9616158867
636850000.0 0.4647200452 0.8296868371
646800000.0 0.7867603658 0.5117744315
656750000.0 0.9254138671 0.0872043168
666700000.0 0.8603393812 -0.3479483404
676650000.0 0.6130802707 -0.7051984251
686600000.0 0.236049934 -0.9164623688
696550000.0 -0.196510392 -0.9394568169
706500000.0 -0.597350262 -0.7624250993
716450000.0 -0.8744438359 -0.4156700682
726400000.0 -0.95792482 0.0257893297
736350000.0 -0.8222397392 0.4578097188
746300000.0 -0.500378324 0.7763602988
756250000.0 -0.071721683 0.9102325158
766200000.0 0.3653109322 0.8373348197
776150000.0 0.7188942691 0.580239519
786100000.0 0.9202338931 0.1977977148
796050000.0 0.9304349426 -0.2322623031
806000000.0 0.7457662043 -0.6216441159
815950000.0 0.3994344239 -0.883804107
825900000.0 -0.033811728 -0.957019559
835850000.0 -0.4570143466 -0.8180868642
845800000.0 -0.7706430806 -0.4958203851
855750000.0 -0.9013930923 -0.063362107
865700000.0 -0.8198656388 0.3794774806
875650000.0 -0.5487884306 0.7339858241
885600000.0 -0.1520708856 0.9244935805
895550000.0 0.2822353258 0.9139481538
905500000.0 0.6595921223 0.7091629431
915450000.0 0.9001725278 0.3572801722
925400000.0 0.9543699869 -0.0660337072
935350000.0 0.8089445346 -0.4715087918
945300000.0 0.4922600726 -0.7716901621
955250000.0 0.0675100729 -0.8987164741
965200000.0 -0.3741911459 -0.8175204938
975150000.0 -0.731256752 -0.5409184655
985100000.0 -0.91837455 -0.1308616796
995050000.0 -0.892700239 0.31299913
1005000000.0 -0.6672077989 0.6861647522
1014950000.0 -0.3039444817 0.908545764
1024900000.0 0.1136497772 0.9420549703
1034850000.0 0.50014448 0.7884099374
1044800000.0 0.7822415361 0.4800792038
1054750000.0 0.9033985773 0.0723651927
1064700000.0 0.8294621564 -0.3577729416
1074650000.0 0.5602096082 -0.7157989529
1084600000.0 0.1458861564 -0.9091252944
1094550000.0 -0.3126182037 -0.8788987983
1104500000.0 -0.6941584006 -0.6334562706
1114450000.0 -0.9061454218 -0.2470539643
1124400000.0 -0.91517556 0.1789127217
1134350000.0 -0.7397900881 0.5530779752
1144300000.0 -0.4265036176 0.8114189056
1154250000.0 -0.032789801 0.912983743
1164200000.0 0.3744194501 0.8347943445
1174150000.0 0.7174250641 0.5762130916
1184100000.0 0.9095033745 0.1729160921
1194050000.0 0.8825887633 -0.2867344356
1204000000.0 0.6302035547 -0.676941847
1213950000.0 0.2248521762 -0.8898102019
1223900000.0 -0.2183117416 -0.88359669
1233850000.0 -0.5934937932 -0.6855231855
1243800000.0 -0.835883509 -0.3570500785
1253750000.0 -0.9153857524 0.0340562681
1263700000.0 -0.8238635039 0.4230378305
1273650000.0 -0.5675469881 0.7429371824
1283600000.0 -0.1793406215 0.9208653284
1293550000.0 0.2669810639 0.8937321259
1303500000.0 0.6558983871 0.6437891453
1313450000.0 0.8717709738 0.228937469
1323400000.0 0.8578530115 -0.2305291293
1333350000.0 0.6381569636 -0.6146464984
1343300000.0 0.2878688511 -0.8478703395
1353250000.0 -0.1112797913 -0.9054556449
1363200000.0 -0.4886945998 -0.7925993541
1373150000.0 -0.7829651903 -0.5305274583
1383100000.0 -0.9381043373 -0.1576029942
1393050000.0 -0.9067686985 0.2617490316
1403000000.0 -0.6715265925 0.6343904067
1412950000.0 -0.270906639 0.8550940819
1422900000.0 0.1930997143 0.8530760874
1432850000.0 0.5943702243 0.6320449629
1442800000.0 0.8381000236 0.2623232134
1452750000.0 0.8864272588 -0.1590840477
1462700000.0 0.7502177925 -0.5434271411
1472650000.0 0.4679431623 -0.8230679554
1482600000.0 0.0937947892 -0.9515013908
1492550000.0 -0.3053374834 -0.9003147444
1502500000.0 -0.6498739324 -0.6662209424
1512450000.0 -0.8554799858 -0.2837748958
1522400000.0 -0.8574932227 0.1662007397
1532350000.0 -0.6423725287 0.5708089089
1542300000.0 -0.2620005086 0.8240494741
1552250000.0 0.182406541 0.8672970327
1562200000.0 0.5822242424 0.7047626988
1572150000.0 0.852864947 0.3898435951
1582100000.0 0.9499160816 -0.0006708038
1592050000.0 0.8650394852 -0.3871787537
1602000000.0 0.6181953569 -0.6986592836
1611950000.0 0.2511747765 -0.8737234851
1621900000.0 -0.1677987531 -0.8687101425
1631850000.0 -0.5535390084 -0.6691695254
1641800000.0 -0.8114352507 -0.303121208
1651750000.0 -0.8663638955 0.1491350806
1661700000.0 -0.6969045421 0.5704887343
1671650000.0 -0.3521621793 0.8504952143
1681600000.0 0.0680322418 0.9299421086
1691550000.0 0.4610452953 0.8104574103
1701500000.0 0.7501126032 0.537906394
1711450000.0 0.8921958392 0.1750978252
1721400000.0 0.8681062438 -0.2169296204
1731350000.0 0.675875241 -0.5704879597
1741300000.0 0.3356099626 -0.8147584873
1751250000.0 -0.0981034524 -0.8800674111
1761200000.0 -0.5263133892 -0.7233549486
1771150000.0 -0.8249661365 -0.3680574385
1781100000.0 -0.9036898194 0.0823650067
1791050000.0 -0.7572759175 0.4968392217
1801000000.0 -0.4519787946 0.7795214405
1810950000.0 -0.0742553412 0.8939013496
1820900000.0 0.3034257656 0.8422013498
1830850000.0 0.6245407387 0.6434333252
1840800000.0 0.8405328268 0.3230379796
1850750000.0 0.9009536388 -0.0789941639
1860700000.0 0.7613342632 -0.4897453057
1870650000.0 0.4192161164 -0.7965519323
1880600000.0 -0.045564772 -0.8884792657
1890550000.0 -0.4875772184 -0.7305550675
1900500000.0 -0.7793657233 -0.39138224
1910450000.0 -0.8747787387 0.0147516652
1920400000.0 -0.7923991676 0.3950121082
1930350000.0 -0.5741357188 0.6935773889
1940300000.0 -0.2601481161 0.8770164215
1950250000.0 0.1106598838 0.9181452435
1960200000.0 0.4854712623 0.7882824003
1970150000.0 0.779939417 0.476097791
1980100000.0 0.88923675 0.027742848
1990050000.0 0.7467639993 -0.4318328233
2000000000.0 0.390270619 -0.7514169468
