!Created with skrf (http://scikit-rf.org).
# GHz S RI R 50.0 
!freq ReS11 ImS11
10000000.0 -0.7874445643 0.5939684446
19950000.0 -0.2844856078 0.9299473841
29900000.0 0.3185421455 0.9058072017
39850000.0 0.7998077992 0.5257126877
49800000.0 0.9645390861 -0.0806550925
59750000.0 0.7193617999 -0.6786819262
69700000.0 0.1375677717 -0.9969161677
79650000.0 -0.5259904224 -0.8546343137
89600000.0 -0.9373039198 -0.2899923691
99550000.0 -0.8596379233 0.4283282944
109500000.0 -0.2893393086 0.9141325535
119450000.0 0.4896959248 0.8457365146
129400000.0 0.9804945752 0.1887063543
139350000.0 0.7957628368 -0.6190836087
149300000.0 0.0495707506 -0.9849867507
159250000.0 -0.6883893779 -0.6559235253
169200000.0 -0.9287585951 0.0822925711
179150000.0 -0.581586203 0.7384560603
189100000.0 0.0957388384 0.9517780943
199050000.0 0.7095877684 0.6488785159
209000000.0 0.9517189729 0.0284115044
218950000.0 0.7387171988 -0.5732655939
228900000.0 0.2069205967 -0.8925381785
238850000.0 -0.3990108823 -0.8101857654
248800000.0 -0.6004856804 -0.2971758995
258750000.0 -0.8957883553 0.1835036438
268700000.0 -0.6035101561 0.7076528099
278650000.0 -0.0573019056 0.9300744371
288600000.0 0.5002601239 0.7603419146
298550000.0 0.8269807788 0.2810749078
308500000.0 0.7844457335 -0.2961828728
318450000.0 0.3909120258 -0.7149433287
328400000.0 -0.1733685849 -0.7797075487
338350000.0 -0.6264239408 -0.456454989
348300000.0 -0.724533095 0.0693729067
358250000.0 -0.4407622121 0.4816236567
368200000.0 0.006787111 0.5577715104
378150000.0 0.3305193108 0.3194275443
388100000.0 0.3754108574 -0.0246137105
398050000.0 0.1917730815 -0.2494200841
408000000.0 -0.0465071524 -0.2610561694
417950000.0 -0.1833966187 -0.1209041879
427900000.0 -0.1720304463 0.0391356588
437850000.0 -0.0654624741 0.1208672744
447800000.0 0.0454104675 0.0998657021
457750000.0 0.0970771368 0.0187348736
467700000.0 0.0768084944 -0.059115521
477650000.0 0.0184565955 -0.0879798667
487600000.0 -0.0277521167 -0.0617864061
497550000.0 0.001738084 -0.0800490559
507500000.0 -0.0401901688 0.0105543263
517450000.0 0.0010506754 0.0202019627
527400000.0 0.0214572832 -0.0013659012
537350000.0 0.0089394723 -0.0269672613
547300000.0 -0.0305151684 -0.0306071091
557250000.0 -0.0636346957 0.0055945408
567200000.0 -0.0631601541 0.0613542929
577150000.0 -0.0199315534 0.1064918685
587100000.0 0.0512584496 0.1106732946
597050000.0 0.1157626836 0.0597439597
607000000.0 0.1364631657 -0.0287341265
616950000.0 0.0950172662 -0.1180496881
626900000.0 0.0060457385 -0.1651597759
636850000.0 -0.0963889474 -0.1478080591
646800000.0 -0.1658523865 -0.0699895324
656750000.0 -0.1730404876 0.034057496
666700000.0 -0.113383849 0.1197431185
676650000.0 -0.0143627742 0.1470413504
686600000.0 0.0789854804 0.1051930689
696550000.0 0.1227676378 0.0128685983
706500000.0 0.0985457639 -0.0825107829
716450000.0 0.0216496204 -0.1319316503
726400000.0 -0.0627777435 -0.1135540059
736350000.0 -0.10234726 -0.0380664563
746300000.0 -0.0692927582 0.0473172334
756250000.0 0.0236376016 0.0858553864
766200000.0 0.1258904436 0.0458919782
776150000.0 0.175254479 -0.0617194596
786100000.0 0.1325396845 -0.1823828193
796050000.0 0.0053726582 -0.2450675103
806000000.0 -0.1496151489 -0.1985878945
815950000.0 -0.2482814339 -0.0439394181
825900000.0 -0.2239526082 0.1565224138
835850000.0 -0.0697028081 0.3042070788
845800000.0 0.1476446307 0.3250481279
855750000.0 0.3377313032 0.2096662258
865700000.0 0.4251549098 -0.0087781464
875650000.0 0.35594454 -0.2454340185
885600000.0 0.1436458676 -0.3964287491
895550000.0 -0.1285133303 -0.38034972
905500000.0 -0.3420684399 -0.1892463374
915450000.0 -0.3912701661 0.1015865951
925400000.0 -0.2435357208 0.3603624886
935350000.0 0.0363829731 0.4605084416
945300000.0 0.3124062621 0.3444942753
955250000.0 0.4355553435 0.0553589819
965200000.0 0.3115522251 -0.2554387601
975150000.0 -0.0257764739 -0.3892134992
985100000.0 -0.3781319119 -0.20629353
995050000.0 -0.4592192207 0.2196765068
1005000000.0 -0.1442523949 0.5713777052
1014950000.0 0.3711777392 0.5280453184
1024900000.0 0.6833247474 0.0480091826
1034850000.0 0.487462466 -0.5484977638
1044800000.0 -0.1402736528 -0.7794846625
1054750000.0 -0.7246545387 -0.4177419549
1064700000.0 -0.7944831658 0.2294006231
1074650000.0 -0.4710327124 0.7049389497
1084600000.0 0.1253481655 0.8218995411
1094550000.0 0.6240955446 0.497980674
1104500000.0 0.7548437544 -0.0917526535
1114450000.0 0.4239336554 -0.5960417357
1124400000.0 -0.1490970346 -0.6896234204
1134350000.0 -0.5713920561 -0.350711039
1144300000.0 -0.6123812374 0.145768666
1154250000.0 -0.3162759665 0.49712109
1164200000.0 0.1144522977 0.5384208951
1174150000.0 0.4375037819 0.2814441642
1184100000.0 0.4948305704 -0.1218366914
1194050000.0 0.2515648608 -0.4466868859
1204000000.0 -0.1360029923 -0.5046145102
1213950000.0 -0.4469783171 -0.3001568094
1223900000.0 -0.557030185 0.0392330508
1233850000.0 -0.4426700428 0.3677653928
1243800000.0 -0.1544938504 0.5640097474
1253750000.0 0.2035343987 0.5459954772
1263700000.0 0.4865584595 0.3068328283
1273650000.0 0.5688391241 -0.0602997982
1283600000.0 0.4188188678 -0.4004265936
1293550000.0 0.1129281434 -0.5870435107
1303500000.0 -0.2291504549 -0.5762261226
1313450000.0 -0.5051847918 -0.3914490114
1323400000.0 -0.6453217762 -0.0917469056
1333350000.0 -0.6101142599 0.2446144761
1343300000.0 -0.3908592202 0.5195648408
1353250000.0 -0.0400114979 0.6271362764
1363200000.0 0.3209591397 0.5103964501
1373150000.0 0.5528841428 0.2078720609
1383100000.0 0.5787004517 -0.1619176474
1393050000.0 0.4117618534 -0.4741112909
1403000000.0 0.1220853525 -0.6450891114
1412950000.0 -0.2010803829 -0.6402740091
1422900000.0 -0.4704922723 -0.4686439189
1432850000.0 -0.6110849601 -0.1726811695
1442800000.0 -0.5705189386 0.1648705081
1452750000.0 -0.3457886991 0.4319991599
1462700000.0 -0.0073969038 0.5314485254
1472650000.0 0.3255109369 0.4286063453
1482600000.0 0.5386131369 0.1675385588
1492550000.0 0.5714553366 -0.1537956434
1502500000.0 0.4279067335 -0.4296420416
1512450000.0 0.1625349739 -0.5757147491
1522400000.0 -0.1373532404 -0.5461817822
1532350000.0 -0.3690138286 -0.3445603939
1542300000.0 -0.4430213986 -0.037657674
1552250000.0 -0.3223760684 0.2574599137
1562200000.0 -0.0551687345 0.4199634128
1572150000.0 0.2422057162 0.3906863567
1582100000.0 0.4502231769 0.1978087244
1592050000.0 0.4957055305 -0.0717186942
1602000000.0 0.3679408931 -0.3106520259
1611950000.0 0.116547023 -0.425302759
1621900000.0 -0.1618779662 -0.3625425375
1631850000.0 -0.3515061659 -0.1368037549
1641800000.0 -0.3633310383 0.1619920588
1651750000.0 -0.1872314504 0.40372584
1661700000.0 0.0958609687 0.4821355446
1671650000.0 0.3633112038 0.3730152354
1681600000.0 0.5137530603 0.1283596013
1691550000.0 0.4960130685 -0.1620921556
1701500000.0 0.3129403591 -0.3985102017
1711450000.0 0.0184175989 -0.4940893498
1721400000.0 -0.2919490707 -0.3988036775
1731350000.0 -0.4954108518 -0.1333872427
1741300000.0 -0.5054737474 0.2029463089
1751250000.0 -0.31994971 0.4750015375
1761200000.0 -0.0208920736 0.5841934523
1771150000.0 0.2728728677 0.5018738971
1781100000.0 0.4362021806 0.3049495529
1791050000.0 0.5485092613 0.0854722809
1801000000.0 0.5163328635 -0.2233290513
1810950000.0 0.3048652452 -0.4689443397
1820900000.0 -0.0152921904 -0.5543283119
1830850000.0 -0.3335018143 -0.4364305091
1840800000.0 -0.5259170083 -0.1606467407
1850750000.0 -0.5345682444 0.160711778
1860700000.0 -0.3825791628 0.4205619667
1870650000.0 -0.1355064615 0.5582814872
1880600000.0 0.1331015186 0.5531419552
1890550000.0 0.3552196172 0.4147459778
1900500000.0 0.4730754779 0.1793441269
1910450000.0 0.4473352345 -0.086710416
1920400000.0 0.2801225572 -0.2940899922
1930350000.0 0.0341442604 -0.3683058789
1940300000.0 -0.1948891497 -0.2958401911
1950250000.0 -0.3315822239 -0.1312835956
1960200000.0 -0.3550974872 0.0522213866
1970150000.0 -0.2882955423 0.1929407608
1980100000.0 -0.1787182295 0.2553214075
1990050000.0 -0.0843140511 0.2383212723
2000000000.0 -0.051413624 0.1824348767
