!Created with skrf (http://scikit-rf.org).
# GHz S RI R 50.0 
!freq ReS11 ImS11
10000000.0 -0.9998264656 0.1659957722
19950000.0 -0.9431258104 0.3170298892
29900000.0 -0.8634260941 0.4612724395
39850000.0 -0.7603373836 0.6032360825
49800000.0 -0.6362217298 0.7366112598
59750000.0 -0.486084212 0.8550148146
69700000.0 -0.3035291779 0.9461302731
79650000.0 -0.0855317311 0.9908401069
89600000.0 0.1642131221 0.9728693746
99550000.0 0.4310840992 0.8744688632
109500000.0 0.6917173733 0.6851198189
119450000.0 0.9052912186 0.3953847498
129400000.0 1.006206401 0.0265032126
139350000.0 0.9520233392 -0.3806939087
149300000.0 0.7236350855 -0.7176880841
159250000.0 0.3884210862 -0.9207080993
169200000.0 0.0311977384 -0.9832572637
179150000.0 -0.2929513492 -0.9355878964
189100000.0 -0.5564119073 -0.8135426446
199050000.0 -0.7481303146 -0.6460769341
209000000.0 -0.8669288672 -0.4551798682
218950000.0 -0.9273466927 -0.2580858487
228900000.0 -0.941201946 -0.0649222046
238850000.0 -0.9211048795 0.1226275595
248800000.0 -0.7847958761 0.1540159482
258750000.0 -0.8255504077 0.4282070078
268700000.0 -0.739190768 0.5723855804
278650000.0 -0.626906583 0.6885933378
288600000.0 -0.4882783931 0.7745567517
298550000.0 -0.3276551264 0.8275367551
308500000.0 -0.149966 0.8489613913
318450000.0 0.0381464619 0.8344955165
328400000.0 0.2267119526 0.777317003
338350000.0 0.3951668283 0.6699226166
348300000.0 0.5200491408 0.5113132904
358250000.0 0.5760095343 0.3148117418
368200000.0 0.553719566 0.1116451691
378150000.0 0.4654243941 -0.0621756858
388100000.0 0.3392765175 -0.1845180691
398050000.0 0.2041230732 -0.2468983403
408000000.0 0.0840932012 -0.2542883083
417950000.0 -0.0086003626 -0.2198207
427900000.0 -0.0710515522 -0.1618516808
437850000.0 -0.1080754889 -0.0959016214
447800000.0 -0.1244080593 -0.0340686224
457750000.0 -0.124862648 0.0149826695
467700000.0 -0.1135065646 0.0473135326
477650000.0 -0.0926396575 0.0602554901
487600000.0 -0.0637755902 0.0542026112
497550000.0 -0.1074214167 0.0240118844
507500000.0 -0.0226537654 0.047219383
517450000.0 0.0022759544 0.0259322371
527400000.0 0.0137201545 0.0075260017
537350000.0 0.0111480515 -0.0091030106
547300000.0 -0.0035481543 -0.0264764003
557250000.0 -0.0304398628 -0.0405688947
567200000.0 -0.0599893101 -0.0532471198
577150000.0 -0.0899942856 -0.0624680526
587100000.0 -0.1160411023 -0.0661239449
597050000.0 -0.1353387375 -0.061397928
607000000.0 -0.1484193393 -0.0462066133
616950000.0 -0.156833222 -0.0212098068
626900000.0 -0.1617152222 0.0109856916
636850000.0 -0.1636264615 0.0455619034
646800000.0 -0.1615716425 0.0780074534
656750000.0 -0.1544544027 0.1053941184
666700000.0 -0.1396974245 0.1249227072
676650000.0 -0.1148554786 0.1356173471
686600000.0 -0.0801103752 0.138617466
696550000.0 -0.0383021042 0.1358551469
706500000.0 0.0063674767 0.1272872837
716450000.0 0.0488309414 0.1129704803
726400000.0 0.0833967927 0.0908467413
736350000.0 0.1068199109 0.0590048395
746300000.0 0.1168086659 0.0167530882
756250000.0 0.1134585544 -0.0367511654
766200000.0 0.0979089139 -0.0968389697
776150000.0 0.0719428985 -0.1575022636
786100000.0 0.0364516415 -0.2125827001
796050000.0 -0.0080052941 -0.2547271022
806000000.0 -0.0608239626 -0.2796164672
815950000.0 -0.1227785155 -0.2842738429
825900000.0 -0.1906740612 -0.2705152592
835850000.0 -0.2618536941 -0.2413833586
845800000.0 -0.3307027042 -0.2012863793
855750000.0 -0.3915266512 -0.1523916684
865700000.0 -0.437399148 -0.0959259252
875650000.0 -0.4645728228 -0.0317890816
885600000.0 -0.4683528521 0.0400395529
895550000.0 -0.450226139 0.1188781235
905500000.0 -0.4135147801 0.2034826059
915450000.0 -0.3637375832 0.2892532305
925400000.0 -0.3026664197 0.3682833979
935350000.0 -0.2273300104 0.4331394629
945300000.0 -0.1346075306 0.4706782305
955250000.0 -0.0238679511 0.4727217981
965200000.0 0.1032792298 0.437167495
975150000.0 0.2398729953 0.3665953811
985100000.0 0.3710821256 0.2516310614
995050000.0 0.473735537 0.0831299261
1005000000.0 0.5128134237 -0.1349638637
1014950000.0 0.4483492501 -0.372524076
1024900000.0 0.2598922716 -0.5786176758
1034850000.0 -0.0285325825 -0.6952678631
1044800000.0 -0.356535031 -0.6799227994
1054750000.0 -0.6494828771 -0.5213496483
1064700000.0 -0.8075097232 -0.2527673415
1074650000.0 -0.8707564476 -0.017126664
1084600000.0 -0.832570107 0.2653289986
1094550000.0 -0.6944355475 0.5003686928
1104500000.0 -0.480259237 0.6858957111
1114450000.0 -0.2251050901 0.7875215045
1124400000.0 0.0413455101 0.7968024336
1134350000.0 0.2824518665 0.708945177
1144300000.0 0.4657863269 0.5394638564
1154250000.0 0.5724410152 0.3238314567
1164200000.0 0.603891946 0.100711962
1174150000.0 0.5844564293 -0.100313793
1184100000.0 0.5217338667 -0.2809926933
1194050000.0 0.4168016915 -0.4224925086
1204000000.0 0.2862550728 -0.5146686973
1213950000.0 0.1454017197 -0.5608616503
1223900000.0 0.0065477496 -0.5728590517
1233850000.0 -0.1228347555 -0.5620687221
1243800000.0 -0.2389454934 -0.5373452148
1253750000.0 -0.340047173 -0.5028789217
1263700000.0 -0.423045277 -0.4576517165
1273650000.0 -0.4887870835 -0.4029241592
1283600000.0 -0.5367638501 -0.3375200379
1293550000.0 -0.5716228577 -0.2637952626
1303500000.0 -0.5977349441 -0.1861724966
1313450000.0 -0.6191125211 -0.108342447
1323400000.0 -0.6381595093 -0.0337897384
1333350000.0 -0.6529862278 0.036281625
1343300000.0 -0.6599355259 0.101918111
1353250000.0 -0.65619319 0.1618222243
1363200000.0 -0.6380083699 0.21865412
1373150000.0 -0.60549722 0.2741029352
1383100000.0 -0.5642225098 0.3290125945
1393050000.0 -0.5182029897 0.3839508592
1403000000.0 -0.4718768758 0.4379700289
1412950000.0 -0.4258957265 0.4880903229
1422900000.0 -0.3802096214 0.5305600598
1432850000.0 -0.3335733739 0.5618524432
1442800000.0 -0.2831668401 0.5817023103
1452750000.0 -0.228345578 0.5920055468
1462700000.0 -0.1661365474 0.596621757
1472650000.0 -0.0951976626 0.5991851036
1482600000.0 -0.0190282355 0.6004949951
1492550000.0 0.0578581233 0.5985874971
1502500000.0 0.1325712592 0.589628439
1512450000.0 0.2019474572 0.5698896805
1522400000.0 0.2642230853 0.5357547332
1532350000.0 0.3192679528 0.4843982802
1542300000.0 0.3675757882 0.417867518
1552250000.0 0.4107784914 0.3393608036
1562200000.0 0.4510130347 0.2547919002
1572150000.0 0.4847097255 0.1683127374
1582100000.0 0.5070288837 0.0806414093
1592050000.0 0.51302781 -0.0063339927
1602000000.0 0.4989787652 -0.0921508978
1611950000.0 0.4641849652 -0.1729594447
1621900000.0 0.4116570664 -0.2498136017
1631850000.0 0.3471689003 -0.3228917683
1641800000.0 0.2760938864 -0.3913732202
1651750000.0 0.2013694557 -0.4510871684
1661700000.0 0.124610483 -0.4974257636
1671650000.0 0.0470393842 -0.5256200247
1681600000.0 -0.0316158609 -0.5336463725
1691550000.0 -0.1107119588 -0.5248667775
1701500000.0 -0.1903322563 -0.5024575487
1711450000.0 -0.2689831754 -0.4719805823
1721400000.0 -0.344062329 -0.4375649191
1731350000.0 -0.4125223783 -0.4021058186
1741300000.0 -0.4703371207 -0.3632789058
1751250000.0 -0.5154602344 -0.3184144816
1761200000.0 -0.5460001041 -0.2672038181
1771150000.0 -0.563658845 -0.2089612619
1781100000.0 -0.5739334352 -0.1452745749
1791050000.0 -0.5807390229 -0.080014032
1801000000.0 -0.5875016334 -0.0162081991
1810950000.0 -0.5955520301 0.0436417657
1820900000.0 -0.6001767329 0.0985434325
1830850000.0 -0.59838835 0.1471878904
1840800000.0 -0.5845379818 0.1906654836
1850750000.0 -0.5572786286 0.230066057
1860700000.0 -0.518141668 0.2659260934
1870650000.0 -0.4728876645 0.3011581156
1880600000.0 -0.4270395012 0.33327134
1890550000.0 -0.3852300551 0.3627901925
1900500000.0 -0.348023705 0.3872669907
1910450000.0 -0.3145941651 0.4042431362
1920400000.0 -0.2820218841 0.4096720646
1930350000.0 -0.2463007208 0.4047150679
1940300000.0 -0.2062607451 0.3885277707
1950250000.0 -0.1621738998 0.3634961343
1960200000.0 -0.1173021446 0.3342184776
1970150000.0 -0.0782484107 0.3018331602
1980100000.0 -0.0488326531 0.2677456636
1990050000.0 -0.0333966981 0.2305852781
2000000000.0 -0.0345677452 0.1874056647
