!Created with skrf (http://scikit-rf.org).
# GHz S RI R 50.0 
!freq ReS11 ImS11
10000000.0 -0.7946026942 0.059716889
14975000.0 -0.7989727057 0.0915743253
19950000.0 -0.8036843758 0.1254802075
24925000.0 -0.807087291 0.1622733116
29900000.0 -0.8086396817 0.2005386024
34875000.0 -0.806172276 0.2412713551
39850000.0 -0.7992873847 0.2839924316
44825000.0 -0.7877877069 0.3284667792
49800000.0 -0.771957304 0.3743301568
54775000.0 -0.7515098742 0.4212755157
59750000.0 -0.7265833628 0.4693726459
64725000.0 -0.6976052122 0.5181520378
69700000.0 -0.6643507771 0.5676546679
74675000.0 -0.626656485 0.6178056145
79650000.0 -0.5843396147 0.6687778386
84625000.0 -0.5368262062 0.7203459961
89600000.0 -0.4829342159 0.7722032132
94575000.0 -0.4211576847 0.8236665355
99550000.0 -0.3494092931 0.8729244899
104525000.0 -0.2658858026 0.9174815917
109500000.0 -0.1698981231 0.9521113152
114475000.0 -0.0642826986 0.9753126389
119450000.0 0.0584198367 0.9846718728
124425000.0 0.1836685368 0.972892454
129400000.0 0.3016039435 0.9414444628
134375000.0 0.4349335436 0.8876493085
139350000.0 0.5534749543 0.8122525625
144325000.0 0.6598210073 0.717742653
149300000.0 0.750135523 0.607108098
154275000.0 0.8211945009 0.4851372755
159250000.0 0.871240001 0.3566366825
164225000.0 0.8962198588 0.2296548801
169200000.0 0.9036043616 0.1045086583
174175000.0 0.8965430431 -0.0176193824
179150000.0 0.8721877294 -0.1258633492
184125000.0 0.8376535324 -0.2223950994
189100000.0 0.7950684494 -0.3054738976
194075000.0 0.7556467362 -0.3823663128
199050000.0 0.7128508236 -0.4486092394
204025000.0 0.669932523 -0.5081589112
209000000.0 0.6270469125 -0.5617557605
213975000.0 0.5832251197 -0.610806641
218950000.0 0.5378905413 -0.6550287366
223925000.0 0.4909263038 -0.6949598134
228900000.0 0.4420392434 -0.7303762704
233875000.0 0.3910819483 -0.7611253999
238850000.0 0.3371879898 -0.7873491006
243825000.0 0.2755345403 -0.8092149025
248800000.0 0.236161048 -0.6634111516
253775000.0 0.2103584049 -0.8246409462
258750000.0 0.1533903772 -0.8371203057
263725000.0 0.10279343 -0.8433059511
268700000.0 0.0553502406 -0.8461731352
273675000.0 0.010069262 -0.8463735362
278650000.0 -0.0333749109 -0.8448316064
283625000.0 -0.0760031741 -0.8418263068
288600000.0 -0.1185477845 -0.8371284584
293575000.0 -0.1619154957 -0.8307270437
298550000.0 -0.2066953486 -0.821489509
303525000.0 -0.2530798619 -0.8085105804
308500000.0 -0.300775187 -0.7908620982
313475000.0 -0.3492109471 -0.7673134729
318450000.0 -0.3973254085 -0.7365431496
323425000.0 -0.4437937651 -0.6990245883
328400000.0 -0.4870560463 -0.65426679
333375000.0 -0.5266181114 -0.6025159419
338350000.0 -0.5609339876 -0.544562351
343325000.0 -0.5880206518 -0.4816843426
348300000.0 -0.6073433607 -0.4136915734
353275000.0 -0.61831503 -0.343651396
358250000.0 -0.6191554676 -0.2727234353
363225000.0 -0.6100073127 -0.2019168078
368200000.0 -0.5926890527 -0.1344389179
373175000.0 -0.5661048935 -0.072610153
378150000.0 -0.5311742812 -0.0169477643
383125000.0 -0.490936133 0.0310906319
388100000.0 -0.4466740608 0.0702228785
393075000.0 -0.3990413422 0.10186249
398050000.0 -0.3505779513 0.1257650123
403025000.0 -0.3030851453 0.1411193164
408000000.0 -0.2565321306 0.150083973
412975000.0 -0.2123155932 0.1544634557
417950000.0 -0.1716889961 0.1532832117
422925000.0 -0.1347168515 0.1474015434
427900000.0 -0.1021688329 0.1389922385
432875000.0 -0.0737283909 0.127311196
437850000.0 -0.0489708301 0.1126058988
442825000.0 -0.0285115472 0.0973727886
447800000.0 -0.0127485325 0.082085152
452775000.0 5.62054e-05 0.0654725652
457750000.0 0.0095061283 0.0491424035
462725000.0 0.0154719463 0.0334105387
467700000.0 0.0192662074 0.0184331154
472675000.0 0.0215374284 0.004508501
477650000.0 0.0214139166 -0.008676593
482625000.0 0.0196687466 -0.0201827337
487600000.0 0.0149047318 -0.0288633698
492575000.0 0.0027058223 -0.0318651728
497550000.0 0.0400148845 0.0114778668
502525000.0 0.0341516315 -0.0449387674
507500000.0 0.0222302759 -0.0523336842
512475000.0 0.0141208449 -0.0561176191
517450000.0 0.0066128534 -0.0583624561
522425000.0 -0.0011608775 -0.059191946
527400000.0 -0.0083909944 -0.0588646338
532375000.0 -0.0154601343 -0.0577102441
537350000.0 -0.0229688646 -0.0561715672
542325000.0 -0.0306131334 -0.0533229523
547300000.0 -0.0379091734 -0.0488775097
552275000.0 -0.0440421064 -0.0441396627
557250000.0 -0.0494933925 -0.0389463269
562225000.0 -0.0548051377 -0.0325535391
567200000.0 -0.0593488764 -0.0256506601
572175000.0 -0.0625960366 -0.0183491326
577150000.0 -0.0653755576 -0.0098589554
582125000.0 -0.0675981846 -0.0003214123
587100000.0 -0.0686454957 0.0098787474
592075000.0 -0.0690756559 0.0202659094
597050000.0 -0.06906102 0.0309742695
602025000.0 -0.0680054651 0.0417830815
607000000.0 -0.0661778775 0.0522861571
611975000.0 -0.0634407981 0.0623683104
616950000.0 -0.0597904521 0.0718283569
621925000.0 -0.0553756367 0.0808529786
626900000.0 -0.0503187568 0.0891856531
631875000.0 -0.0443883974 0.096135977
636850000.0 -0.0378620466 0.1022381208
641825000.0 -0.0306609142 0.1077044511
646800000.0 -0.0228819354 0.1129572523
651775000.0 -0.014925659 0.1170947455
656750000.0 -0.0064016271 0.120708967
661725000.0 0.0027485589 0.1244263637
666700000.0 0.0118643412 0.1284001949
671675000.0 0.020956112 0.1314328787
676650000.0 0.0304443998 0.1339612842
681625000.0 0.0403336646 0.1361381934
686600000.0 0.050857647 0.1373328143
691575000.0 0.0619755501 0.1376391995
696550000.0 0.073230338 0.1372438678
701525000.0 0.0846429642 0.1355689857
706500000.0 0.0962832959 0.1320041627
711475000.0 0.1081575748 0.1268231047
716450000.0 0.120092673 0.1202333839
721425000.0 0.1320543345 0.1120520433
726400000.0 0.1443420525 0.1022597384
731375000.0 0.1562995332 0.0914657945
736350000.0 0.1673730076 0.0793786708
741325000.0 0.1780260692 0.0660245763
746300000.0 0.1881670093 0.0514824286
751275000.0 0.1971803022 0.0363346858
756250000.0 0.204542607 0.0201938164
761225000.0 0.210506615 0.0030571836
766200000.0 0.2153380322 -0.0147007311
771175000.0 0.2181213225 -0.033210394
776150000.0 0.2193457338 -0.0519879784
781125000.0 0.2184120432 -0.0712619153
786100000.0 0.2157903628 -0.0910994918
791075000.0 0.2116120846 -0.1113162545
796050000.0 0.205600455 -0.1316354079
801025000.0 0.198206079 -0.1521205926
806000000.0 0.1896894902 -0.1720583929
810975000.0 0.1797064871 -0.1912395165
815950000.0 0.1679523348 -0.2097257611
820925000.0 0.1551400189 -0.2274499207
825900000.0 0.1415793593 -0.2441888038
830875000.0 0.1272928329 -0.2594989059
835850000.0 0.1119116704 -0.272923926
840825000.0 0.0957418116 -0.2853620097
845800000.0 0.079382895 -0.2964719602
850775000.0 0.0621158581 -0.3061793707
855750000.0 0.0435401394 -0.3148987483
860725000.0 0.0241107321 -0.3225731846
865700000.0 0.003815407 -0.3291262014
870675000.0 -0.0177191203 -0.3348769003
875650000.0 -0.0400512423 -0.3392354067
880625000.0 -0.0634394143 -0.3420153821
885600000.0 -0.0878826427 -0.3430009312
890575000.0 -0.1128824414 -0.34205765
895550000.0 -0.1384877893 -0.3392727913
900525000.0 -0.1640868071 -0.3345705589
905500000.0 -0.190027588 -0.3276118111
910475000.0 -0.2161871942 -0.3179046302
915450000.0 -0.2422530788 -0.3050142832
920425000.0 -0.2676848679 -0.2884475409
925400000.0 -0.2926086587 -0.2686520105
930375000.0 -0.3163503955 -0.2451821978
935350000.0 -0.3389378389 -0.2183708967
940325000.0 -0.360650947 -0.1879806772
945300000.0 -0.3809754022 -0.1536860134
950275000.0 -0.3995539772 -0.1159168685
955250000.0 -0.4167028183 -0.074152726
960225000.0 -0.430988339 -0.0272847878
965200000.0 -0.4415697556 0.0241894823
970175000.0 -0.4474625922 0.0806028608
975150000.0 -0.4466644118 0.1419523262
980125000.0 -0.4373740343 0.2071155696
985100000.0 -0.4182235276 0.2754710773
990075000.0 -0.3874504542 0.3447816975
995050000.0 -0.3442585574 0.4129624811
1000025000.0 -0.2885970775 0.4772547831
1005000000.0 -0.2209423127 0.5352717864
1009975000.0 -0.1418858182 0.5845702716
1014950000.0 -0.0515220579 0.6212990513
1019925000.0 0.0475130803 0.6421534691
1024900000.0 0.1518348979 0.6447558134
1029875000.0 0.2571291795 0.6272878323
1034850000.0 0.358507667 0.5893839345
1039825000.0 0.4516874084 0.531911119
1044800000.0 0.5336228724 0.4575111498
1049775000.0 0.6021627059 0.3687414942
1054750000.0 0.6548698665 0.267941968
1059725000.0 0.6860602472 0.1587026515
1064700000.0 0.6941537375 0.0633811736
1069675000.0 0.7123664936 -0.0257393691
1074650000.0 0.7181269975 -0.1320149564
1079625000.0 0.7014524392 -0.2388469517
1084600000.0 0.665169125 -0.336695344
1089575000.0 0.6233702394 -0.4214638235
1094550000.0 0.5673625333 -0.5082110076
1099525000.0 0.4964890417 -0.5804802384
1104500000.0 0.4180328751 -0.637524041
1109475000.0 0.3343258322 -0.6807165181
1114450000.0 0.2484233192 -0.7103898871
1119425000.0 0.1620160345 -0.7278259208
1124400000.0 0.0768175355 -0.7336585446
1129375000.0 -0.0058343068 -0.7291405477
1134350000.0 -0.0856178025 -0.7147602466
1139325000.0 -0.1615186152 -0.6912897766
1144300000.0 -0.2328317057 -0.6591885775
1149275000.0 -0.2980367097 -0.6195797696
1154250000.0 -0.3567818174 -0.5730241862
1159225000.0 -0.4066112598 -0.5212875838
1164200000.0 -0.4477842191 -0.4665302945
1169175000.0 -0.4802622626 -0.4111102905
1174150000.0 -0.5060242524 -0.3570783686
1179125000.0 -0.5274562727 -0.3033790766
1184100000.0 -0.5447152464 -0.2493212668
1189075000.0 -0.5568308736 -0.1956698651
1194050000.0 -0.5638987568 -0.1433310533
1199025000.0 -0.5666835399 -0.0936344614
1204000000.0 -0.5657891163 -0.04631272
1208975000.0 -0.5617016434 -0.002100083
1213950000.0 -0.5548688389 0.0389760899
1218925000.0 -0.546388904 0.076442801
1223900000.0 -0.5372617229 0.1106170314
1228875000.0 -0.5270604316 0.1415763692
1233850000.0 -0.516844961 0.1701942033
1238825000.0 -0.5070773316 0.1964059763
1243800000.0 -0.4971902255 0.2210136443
1248775000.0 -0.4869601129 0.2451700283
1253750000.0 -0.4763788925 0.2684376172
1258725000.0 -0.4656366123 0.2906103407
1263700000.0 -0.4539169366 0.3126181184
1268675000.0 -0.4419319434 0.3334451567
1273650000.0 -0.4293007784 0.3529155647
1278625000.0 -0.416295417 0.3712317189
1283600000.0 -0.4030073918 0.3879819078
1288575000.0 -0.3889418672 0.4027080074
1293550000.0 -0.3748721222 0.4160132973
1298525000.0 -0.3609095938 0.4269354368
1303500000.0 -0.346813606 0.4356432262
1308475000.0 -0.3336947737 0.4425808418
1313450000.0 -0.3220247668 0.4465996843
1318425000.0 -0.3119935085 0.4487227135
1323400000.0 -0.3045655654 0.4498532167
1328375000.0 -0.3001972806 0.4504321056
1333350000.0 -0.2985651449 0.4520503598
1338325000.0 -0.2988182183 0.4556111188
1343300000.0 -0.2997414016 0.4612527065
1348275000.0 -0.3000666808 0.4696957346
1353250000.0 -0.2987457779 0.4800927721
1358225000.0 -0.295238045 0.4913836135
1363200000.0 -0.2895725595 0.5034020162
1368175000.0 -0.2821134588 0.5150711957
1373150000.0 -0.2725623144 0.5261105476
1378125000.0 -0.2618026187 0.5361673605
1383100000.0 -0.2499441276 0.5446291793
1388075000.0 -0.2373261268 0.551674921
1393050000.0 -0.2238447834 0.5570710431
1398025000.0 -0.2106934906 0.5602002852
1403000000.0 -0.1974080716 0.5609824233
1407975000.0 -0.1841997362 0.5603457559
1412950000.0 -0.1724233632 0.5577367892
1417925000.0 -0.1626925658 0.5534255787
1422900000.0 -0.1556480746 0.5477722178
1427875000.0 -0.1522207362 0.5424011942
1432850000.0 -0.1521974619 0.5380856293
1437825000.0 -0.1547977118 0.5356744225
1442800000.0 -0.1586746476 0.5362000968
1447775000.0 -0.1622658299 0.5394411986
1452750000.0 -0.1636595453 0.5448361773
1457725000.0 -0.1621220883 0.5518498006
1462700000.0 -0.1577386777 0.5596243526
1467675000.0 -0.1511977021 0.5667859066
1472650000.0 -0.1411345866 0.5739106917
1477625000.0 -0.1293085817 0.5801942233
1482600000.0 -0.1166484247 0.5843298065
1487575000.0 -0.1019935803 0.587503803
1492550000.0 -0.0863303563 0.5901801493
1497525000.0 -0.0701282803 0.590349102
1502500000.0 -0.0533453873 0.5898218255
1507475000.0 -0.0370479209 0.5895707082
1512450000.0 -0.0208777501 0.5879193578
1517425000.0 -0.0053695714 0.5853821103
1522400000.0 0.0079549223 0.5829402055
1527375000.0 0.0202208524 0.5799485656
1532350000.0 0.0315852969 0.5771661818
1537325000.0 0.0410685386 0.5737603824
1542300000.0 0.0507194873 0.5702531666
1547275000.0 0.0609797852 0.5680454426
1552250000.0 0.0712205817 0.564533333
1557225000.0 0.0825009112 0.5600315475
1562200000.0 0.0947201999 0.5554136786
1567175000.0 0.1069540247 0.5491557509
1572150000.0 0.1208389679 0.5417667471
1577125000.0 0.1348779645 0.5340998893
1582100000.0 0.1492100036 0.5250107
1587075000.0 0.1649379281 0.5152760513
1592050000.0 0.1807119447 0.5056866694
1597025000.0 0.1964960443 0.4955394778
1602000000.0 0.2122232367 0.4841449934
1606975000.0 0.2284128149 0.473813618
1611950000.0 0.244291124 0.463509244
1616925000.0 0.2600742048 0.453208886
1621900000.0 0.2760961055 0.4422821271
1626875000.0 0.2913709348 0.4317707489
1631850000.0 0.3052828189 0.4204149216
1636825000.0 0.3201008964 0.4077807561
1641800000.0 0.3342345979 0.3953836247
1646775000.0 0.3469726049 0.3823664517
1651750000.0 0.3600941981 0.3683222907
1656725000.0 0.3728365161 0.3545330711
1661700000.0 0.3840597165 0.3396965372
1666675000.0 0.3954457428 0.3244604576
1671650000.0 0.4056299711 0.309785734
1676625000.0 0.4149682716 0.2940949792
1681600000.0 0.4237735636 0.2779935979
1686575000.0 0.4310200872 0.263351888
1691550000.0 0.4368438856 0.247941909
1696525000.0 0.4414611504 0.2325862448
1701500000.0 0.4447264299 0.2180920609
1706475000.0 0.4452572183 0.2031679531
1711450000.0 0.4441530696 0.1883969761
1716425000.0 0.4408619924 0.1743685314
1721400000.0 0.4346178668 0.1610391056
1726375000.0 0.4252307686 0.1497958193
1731350000.0 0.4156829291 0.1443495957
1736325000.0 0.4124941072 0.1473673175
1741300000.0 0.4192896291 0.1538415955
1746275000.0 0.4339374684 0.1536206316
1751250000.0 0.4483376656 0.1457227504
1756225000.0 0.4601294309 0.1334851489
1761200000.0 0.4695880828 0.11989646
1766175000.0 0.477221554 0.1071284386
1771150000.0 0.4831136964 0.0940710149
1776125000.0 0.4876998344 0.0818102148
1781100000.0 0.4898464228 0.070541314
1786075000.0 0.4898190886 0.0603429858
1791050000.0 0.4886658438 0.0515222474
1796025000.0 0.4852703268 0.0437497231
1801000000.0 0.4799904456 0.0374104185
1805975000.0 0.4744337221 0.0333482531
1810950000.0 0.4680122405 0.0306558118
1815925000.0 0.4630986047 0.028786146
1820900000.0 0.4594022664 0.0281717317
1825875000.0 0.4578858112 0.0281824616
1830850000.0 0.4587496466 0.0273898994
1835825000.0 0.4617125712 0.0256451194
1840800000.0 0.4648385785 0.0234005938
1845775000.0 0.4690521109 0.0199298957
1850750000.0 0.4724414622 0.0153849464
1855725000.0 0.4747295889 0.0098152095
1860700000.0 0.4751508433 0.0042154444
1865675000.0 0.4740230637 -0.0014394433
1870650000.0 0.470901545 -0.0078446487
1875625000.0 0.4656238129 -0.0136926229
1880600000.0 0.4580244768 -0.0194842577
1885575000.0 0.4482520725 -0.0248412109
1890550000.0 0.4362418978 -0.0293607251
1895525000.0 0.4230418301 -0.0337931267
1900500000.0 0.4082672018 -0.0371578013
1905475000.0 0.3934258699 -0.038917401
1910450000.0 0.3795195571 -0.0398869964
1915425000.0 0.3671551467 -0.0385845129
1920400000.0 0.3571381739 -0.0367803251
1925375000.0 0.3501192791 -0.0348554574
1930350000.0 0.3447340311 -0.0330645427
1935325000.0 0.3406086555 -0.0327198362
1940300000.0 0.3360253119 -0.0331841918
1945275000.0 0.3302918876 -0.0336513072
1950250000.0 0.3236086066 -0.0351837919
1955225000.0 0.3143736555 -0.0363603392
1960200000.0 0.3027652002 -0.0371820822
1965175000.0 0.2895235866 -0.0379715975
1970150000.0 0.2733052776 -0.0384067004
1975125000.0 0.254986034 -0.0385241222
1980100000.0 0.2346764864 -0.03871552
1985075000.0 0.2113220331 -0.0383734567
1990050000.0 0.1866903449 -0.0382566401
1995025000.0 0.1595523703 -0.0378994124
2000000000.0 0.1295619763 -0.0360555785
