!Created with skrf (http://scikit-rf.org).
# GHz S RI R 50.0 
!freq ReS11 ImS11
10000000.0 -0.774510493 0.6793637344
19950000.0 -0.1403135784 0.9909187882
29900000.0 0.5361832076 0.8172393703
39850000.0 0.9414168032 0.2422885219
49800000.0 0.8684822535 -0.4710651263
59750000.0 0.3169732559 -0.964813268
69700000.0 -0.4496080888 -0.9326951823
79650000.0 -0.9744019417 -0.3369228793
89600000.0 -0.8823643191 0.4740476869
99550000.0 -0.1923861249 0.9487065748
109500000.0 0.6378985319 0.7120965345
119450000.0 0.9699129057 -0.1220372235
129400000.0 0.4572747257 -0.9011448151
139350000.0 -0.4830138761 -0.8969733319
149300000.0 -0.9821558943 -0.1176387505
159250000.0 -0.6456044264 0.6992423028
169200000.0 0.162470195 0.92468204
179150000.0 0.8297715893 0.4767283446
189100000.0 0.9432792738 -0.2933352889
199050000.0 0.4742421175 -0.8877362462
209000000.0 -0.2582045454 -0.9648452349
218950000.0 -0.817054504 -0.5245186245
228900000.0 -0.9265503604 0.1584021449
238850000.0 -0.5647447952 0.7304826818
248800000.0 0.0635765026 0.9227308639
258750000.0 0.6832937607 0.6609198954
268700000.0 0.971482522 0.0579248312
278650000.0 0.7850354718 -0.5840233801
288600000.0 0.2186037752 -0.9323227635
298550000.0 -0.4272958182 -0.8112362332
308500000.0 -0.8188533778 -0.2932819483
318450000.0 -0.7552304412 0.344831416
328400000.0 -0.2740721287 0.7549794752
338350000.0 0.3406593362 0.6985380188
348300000.0 0.693087966 0.2282995047
358250000.0 0.5710967837 -0.2967457691
368200000.0 0.143892627 -0.5016997261
378150000.0 -0.212514809 -0.3236785757
388100000.0 -0.2692015004 -0.0066288841
398050000.0 -0.0916493733 0.1712915929
408000000.0 0.09630231 0.1264929818
417950000.0 0.1355535709 -0.0194148918
427900000.0 0.0394583458 -0.1091733372
437850000.0 -0.0814063395 -0.0761764287
447800000.0 -0.1252361989 0.0397182045
457750000.0 -0.0619070459 0.1484473404
467700000.0 0.0596761902 0.1714616245
477650000.0 0.1567847523 0.0991214993
487600000.0 0.1725795881 -0.015959642
497550000.0 0.1048224939 -0.1061197113
507500000.0 0.0063913052 -0.1225642198
517450000.0 -0.0657397036 -0.0751726063
527400000.0 -0.0822477593 -0.006821788
537350000.0 -0.0538931741 0.038006043
547300000.0 -0.0192812469 0.0416611
557250000.0 -0.0090166452 0.022277654
567200000.0 -0.0258540507 0.0141828907
577150000.0 -0.0422595777 0.0363827692
587100000.0 -0.0260001746 0.0753064607
597050000.0 0.0292539518 0.0937491134
607000000.0 0.0955539176 0.0599429119
616950000.0 0.1273187595 -0.024104319
626900000.0 0.0919447027 -0.1201227669
636850000.0 -0.0056901277 -0.174358391
646800000.0 -0.1205849657 -0.1494234639
656750000.0 -0.1916626369 -0.0505989393
666700000.0 -0.176312276 0.0729222722
676650000.0 -0.0790281352 0.1536822241
686600000.0 0.0487348419 0.1454582479
696550000.0 0.1368740859 0.0524419725
706500000.0 0.1378235778 -0.0721007764
716450000.0 0.0556107626 -0.1584492488
726400000.0 -0.0572197859 -0.1588613005
736350000.0 -0.1275250797 -0.079147056
746300000.0 -0.1094962649 0.0223953193
756250000.0 -0.0161692764 0.0711864331
766200000.0 0.0839496298 0.0245460222
776150000.0 0.1120241068 -0.0906954444
786100000.0 0.0341425114 -0.1942725844
796050000.0 -0.1093752472 -0.2019051553
806000000.0 -0.2220916505 -0.0846503085
815950000.0 -0.2104224522 0.1001110886
825900000.0 -0.0517437442 0.2350333845
835850000.0 0.1774421416 0.2176357741
845800000.0 0.3435314099 0.0326409899
855750000.0 0.3370582992 -0.2321480622
865700000.0 0.1407364115 -0.4315677682
875650000.0 -0.1536535733 -0.4427297243
885600000.0 -0.3877002475 -0.2382766563
895550000.0 -0.4193637823 0.0863841818
905500000.0 -0.2100452834 0.3556952019
915450000.0 0.1390097498 0.406597394
925400000.0 0.4301693046 0.1934400674
935350000.0 0.4868611312 -0.1690717151
945300000.0 0.2619170141 -0.4664423922
955250000.0 -0.1194027173 -0.5057356833
965200000.0 -0.4156154994 -0.2371373987
975150000.0 -0.3988561008 0.188430437
985100000.0 -0.0214367315 0.4547416533
995050000.0 0.4514677861 0.2813223602
1005000000.0 0.5671778146 -0.2573083664
1014950000.0 0.1336501099 -0.6728340914
1024900000.0 -0.5024441798 -0.51434587
1034850000.0 -0.7323543522 0.1675169568
1044800000.0 -0.2387746869 0.7731247415
1054750000.0 0.5685715706 0.6662818769
1064700000.0 0.909120163 -0.0593714385
1074650000.0 0.5261772979 -0.7128184117
1084600000.0 -0.103144109 -0.8379189192
1094550000.0 -0.6732229658 -0.4681130781
1104500000.0 -0.7605211486 0.2010204155
1114450000.0 -0.3083479727 0.7001693588
1124400000.0 0.3494270775 0.6630519255
1134350000.0 0.7101516995 0.1560205453
1144300000.0 0.5676978621 -0.3993809206
1154250000.0 0.1023620579 -0.648379883
1164200000.0 -0.3681494879 -0.5013499163
1174150000.0 -0.5963126746 -0.0777842118
1184100000.0 -0.4471717298 0.3849477989
1194050000.0 -0.0021528842 0.5838825757
1204000000.0 0.4330858651 0.3880048059
1213950000.0 0.5816667913 -0.0454747396
1223900000.0 0.395074324 -0.4399012787
1233850000.0 0.0090953737 -0.6023863107
1243800000.0 -0.385053563 -0.4785707244
1253750000.0 -0.609081222 -0.1267302755
1263700000.0 -0.5466682606 0.2962029876
1273650000.0 -0.2085341491 0.5751477542
1283600000.0 0.2340562385 0.5523322181
1293550000.0 0.5447153724 0.2451287531
1303500000.0 0.5838160941 -0.1767896378
1313450000.0 0.3609940533 -0.5211656608
1323400000.0 -0.0154698018 -0.6612894938
1333350000.0 -0.4012933312 -0.5510242105
1343300000.0 -0.6489179058 -0.2251715389
1353250000.0 -0.6420986508 0.1970771683
1363200000.0 -0.3598360696 0.5289001027
1373150000.0 0.0749081596 0.6012996992
1383100000.0 0.4501241145 0.3802167384
1393050000.0 0.6002765272 -0.0145236904
1403000000.0 0.4853532275 -0.4037997542
1412950000.0 0.1729004975 -0.6412411548
1422900000.0 -0.2131926764 -0.6494622346
1432850000.0 -0.5291949761 -0.4263644559
1442800000.0 -0.6461554602 -0.0514709156
1452750000.0 -0.500567084 0.3203223471
1462700000.0 -0.1468865899 0.5152557352
1472650000.0 0.2473116984 0.438622309
1482600000.0 0.4955653321 0.1351504248
1492550000.0 0.4939719167 -0.2418568296
1502500000.0 0.2650663643 -0.5229189064
1512450000.0 -0.0786532831 -0.5985251342
1522400000.0 -0.3877110622 -0.4444560336
1532350000.0 -0.5265728133 -0.1293426149
1542300000.0 -0.4262145563 0.203696907
1552250000.0 -0.1293791547 0.3892280001
1562200000.0 0.2120713852 0.3270213658
1572150000.0 0.4167854445 0.0512672063
1582100000.0 0.3797142794 -0.2819592444
1592050000.0 0.1329173549 -0.4940833343
1602000000.0 -0.1871886774 -0.4841383415
1611950000.0 -0.4199229697 -0.2621543826
1621900000.0 -0.4490451206 0.0638467503
1631850000.0 -0.2491895878 0.3340315498
1641800000.0 0.0908020606 0.4007515732
1651750000.0 0.3912370986 0.2119914366
1661700000.0 0.4712724856 -0.1003945951
1671650000.0 0.3503567646 -0.4425735436
1681600000.0 0.0134499011 -0.5895569551
1691550000.0 -0.3347256054 -0.4890651349
1701500000.0 -0.546245419 -0.1933594727
1711450000.0 -0.533672754 0.1777182155
1721400000.0 -0.2862233151 0.474842569
1731350000.0 0.1064754379 0.5539665779
1741300000.0 0.4673830921 0.3579614777
1751250000.0 0.6155501308 -0.0292558443
1761200000.0 0.4837475065 -0.4154005172
1771150000.0 0.1512145313 -0.6291979478
1781100000.0 -0.2300976518 -0.6035061584
1791050000.0 -0.521836297 -0.3688179106
1801000000.0 -0.6299703863 -0.0114000748
1810950000.0 -0.5126142896 0.3498910261
1820900000.0 -0.1950587034 0.5774023429
1830850000.0 0.2064340115 0.5609030143
1840800000.0 0.5089937917 0.2917285443
1850750000.0 0.5701906612 -0.0994756049
1860700000.0 0.3842113684 -0.4276756498
1870650000.0 0.0599850168 -0.5726523551
1880600000.0 -0.26794828 -0.5119071363
1890550000.0 -0.4952785901 -0.2910109524
1900500000.0 -0.5590905965 0.0088991267
1910450000.0 -0.4427792148 0.2850961013
1920400000.0 -0.1902378382 0.4343339041
1930350000.0 0.0893392853 0.3971065707
1940300000.0 0.2711146377 0.2051871797
1950250000.0 0.2911195575 -0.0329318492
1960200000.0 0.1786906287 -0.2078783946
1970150000.0 0.0166927556 -0.2699673041
1980100000.0 -0.1137012921 -0.2353117615
1990050000.0 -0.170510355 -0.1632213735
2000000000.0 -0.1693608244 -0.1249049709
