!Created with skrf (http://scikit-rf.org).
# GHz S RI R 50.0 
!freq ReS11 ImS11
10000000.0 -0.7464633353 0.6720153081
19950000.0 -0.115207333 0.981200684
29900000.0 0.5635415224 0.799127726
39850000.0 0.9563231157 0.2040177756
49800000.0 0.8435017696 -0.512924566
59750000.0 0.257933718 -0.9661548948
69700000.0 -0.4921976516 -0.8774917967
79650000.0 -0.9622545848 -0.2676916461
89600000.0 -0.8371864143 0.5109870121
99550000.0 -0.1521576069 0.95144653
109500000.0 0.6581813778 0.6969195154
119450000.0 0.9601020909 -0.1393226592
129400000.0 0.4270161313 -0.8879342649
139350000.0 -0.4977876681 -0.8496876071
149300000.0 -0.9622339521 -0.0685418285
159250000.0 -0.5966171087 0.7302480736
169200000.0 0.232942638 0.9063243782
179150000.0 0.8647406698 0.3813028212
189100000.0 0.8661522715 -0.4139464036
199050000.0 0.2907590459 -0.920988626
209000000.0 -0.4427816918 -0.8484708531
218950000.0 -0.8904782149 -0.3003214852
228900000.0 -0.839373677 0.3856527481
238850000.0 -0.3466287731 0.8489126293
248800000.0 0.3325228042 0.842895122
258750000.0 0.8293638112 0.4258900675
268700000.0 0.9086110587 -0.2411745892
278650000.0 0.5155578171 -0.7807968362
288600000.0 -0.1316590531 -0.906562228
298550000.0 -0.6838678433 -0.5656020561
308500000.0 -0.8550435317 0.0508516896
318450000.0 -0.5592943714 0.609586569
328400000.0 0.0384461979 0.7973483813
338350000.0 0.5748455686 0.4999231526
348300000.0 0.7024757335 -0.0713780337
358250000.0 0.3713862259 -0.502081326
368200000.0 -0.1112408898 -0.5144868292
378150000.0 -0.370416616 -0.1935416971
388100000.0 -0.2848247696 0.1386997875
398050000.0 -0.0309699542 0.2331245202
408000000.0 0.1356609528 0.1010054818
417950000.0 0.1133769775 -0.0666022648
427900000.0 -0.0158914935 -0.1149978201
437850000.0 -0.1135153161 -0.0327662088
447800000.0 -0.1031975739 0.0853130979
457750000.0 -0.0060842583 0.1418067965
467700000.0 0.1032461825 0.1035417136
477650000.0 0.147959718 0.0037471889
487600000.0 0.1044403618 -0.0900219059
497550000.0 0.0107211323 -0.1238838831
507500000.0 -0.0710665336 -0.0955007326
517450000.0 -0.0952573767 -0.025066802
527400000.0 -0.0655107719 0.0306680041
537350000.0 -0.0223522144 0.0402688581
547300000.0 -0.0055824204 0.0156729221
557250000.0 -0.0212569493 -0.0049134353
567200000.0 -0.0442018678 0.0084125748
577150000.0 -0.0379451118 0.0490838086
587100000.0 0.0087435716 0.0768522065
597050000.0 0.0721456868 0.0568862937
607000000.0 0.1097666265 -0.0166013463
616950000.0 0.0871252235 -0.1089150341
626900000.0 0.0027151991 -0.167147238
636850000.0 -0.1084486021 -0.1515588408
646800000.0 -0.1873386374 -0.0593023352
656750000.0 -0.1839342963 0.0654451702
666700000.0 -0.0915295401 0.1568712235
676650000.0 0.0437836074 0.1606623341
686600000.0 0.1459608076 0.0716968666
696550000.0 0.1581187231 -0.0603446421
706500000.0 0.0763732695 -0.1602705531
716450000.0 -0.044871056 -0.1731516923
726400000.0 -0.1305353052 -0.0986960436
736350000.0 -0.1294703621 0.0083019946
746300000.0 -0.0495025005 0.0732864977
756250000.0 0.0482417269 0.0506438891
766200000.0 0.0888025854 -0.0426117532
776150000.0 0.0355777092 -0.1353535655
786100000.0 -0.0784132131 -0.1493870958
796050000.0 -0.1698986786 -0.0577340397
806000000.0 -0.1562863349 0.0898538075
815950000.0 -0.0220326678 0.1904566316
825900000.0 0.1637210354 0.1581245564
835850000.0 0.2806183786 -0.0127995383
845800000.0 0.2383675859 -0.2330701725
855750000.0 0.0403818408 -0.3688166993
865700000.0 -0.2098553369 -0.3244093971
875650000.0 -0.3674756405 -0.1068876984
885600000.0 -0.3274499201 0.1750304642
895550000.0 -0.091416011 0.3573194521
905500000.0 0.2161882311 0.3191506116
915450000.0 0.4112324728 0.0661295492
925400000.0 0.3656964381 -0.2573932347
935350000.0 0.0935081833 -0.4503892272
945300000.0 -0.242538252 -0.3795255418
955250000.0 -0.4206421764 -0.0688937473
965200000.0 -0.2907024193 0.2852682245
975150000.0 0.095202347 0.4067777075
985100000.0 0.4438897286 0.1432779959
995050000.0 0.417083045 -0.328263275
1005000000.0 -0.0349680491 -0.5879292515
1014950000.0 -0.546671588 -0.3263227245
1024900000.0 -0.6121904061 0.3033006235
1034850000.0 -0.0753580283 0.7381077831
1044800000.0 0.6179070025 0.5106995021
1054750000.0 0.8171538218 -0.2026469612
1064700000.0 0.3624543507 -0.7640282027
1074650000.0 -0.3224391924 -0.7681122754
1084600000.0 -0.7525499556 -0.260099555
1094550000.0 -0.6859036745 0.3916820303
1104500000.0 -0.1208503807 0.7581398212
1114450000.0 0.5033395778 0.5456920714
1124400000.0 0.7127674702 -0.0475294678
1134350000.0 0.4034670904 -0.5491781924
1144300000.0 -0.1415756893 -0.6329814072
1154250000.0 -0.5388276115 -0.2999274622
1164200000.0 -0.5483791927 0.1949145518
1174150000.0 -0.1980913201 0.5190941388
1184100000.0 0.2685604959 0.4698386078
1194050000.0 0.528279324 0.0919769968
1204000000.0 0.4226153416 -0.3398524745
1213950000.0 0.0533469879 -0.5557057335
1223900000.0 -0.348917759 -0.4544552587
1233850000.0 -0.5688023029 -0.1075240065
1243800000.0 -0.4965132475 0.2988966149
1253750000.0 -0.1674489444 0.5496692482
1263700000.0 0.2465771957 0.508344996
1273650000.0 0.5290185479 0.1999686867
1283600000.0 0.5429254395 -0.2100480859
1293550000.0 0.2951292577 -0.5258171395
1303500000.0 -0.0928912268 -0.6163582226
1313450000.0 -0.4544407499 -0.4516769796
1323400000.0 -0.6367307348 -0.0990172498
1333350000.0 -0.5539486448 0.2970923764
1343300000.0 -0.2316688225 0.5594238853
1353250000.0 0.1864902899 0.5581527242
1363200000.0 0.5025615365 0.2900017419
1373150000.0 0.576826879 -0.1159583382
1383100000.0 0.3913447966 -0.4737762974
1393050000.0 0.0387881849 -0.6369093216
1403000000.0 -0.3348493186 -0.5501864499
1412950000.0 -0.5819899631 -0.2546196731
1422900000.0 -0.6005788439 0.1292948612
1432850000.0 -0.3711829716 0.4396227157
1442800000.0 0.0114489254 0.5338679084
1452750000.0 0.368940377 0.366412488
1462700000.0 0.5303787196 0.0200356654
1472650000.0 0.4283321296 -0.3390173303
1482600000.0 0.1277138651 -0.5502516039
1492550000.0 -0.2243217823 -0.5274779059
1502500000.0 -0.4695823844 -0.2868302114
1512450000.0 -0.498581167 0.0599443268
1522400000.0 -0.2987092427 0.3434531761
1532350000.0 0.0305219665 0.4168922672
1542300000.0 0.3189365624 0.24333318
1552250000.0 0.4179470224 -0.0731116952
1562200000.0 0.2852597418 -0.3574210281
1572150000.0 -0.0014053929 -0.4677061902
1582100000.0 -0.2913810231 -0.3576447579
1592050000.0 -0.4330691021 -0.0865398589
1602000000.0 -0.3455138157 0.2112095138
1611950000.0 -0.0658412977 0.3726345208
1621900000.0 0.2525891665 0.2998193862
1631850000.0 0.4264652949 0.0240906758
1641800000.0 0.3587427717 -0.3001784984
1651750000.0 0.0913244562 -0.4951488924
1661700000.0 -0.2374956972 -0.4629096445
1671650000.0 -0.4696187656 -0.218629245
1681600000.0 -0.4925023802 0.12784904
1691550000.0 -0.2815798672 0.4180660868
1701500000.0 0.0774134438 0.5038098023
1711450000.0 0.4130776623 0.3283373595
1721400000.0 0.5549830485 -0.0300900899
1731350000.0 0.432498853 -0.3920371291
1741300000.0 0.1119121562 -0.5913652543
1751250000.0 -0.260600499 -0.5512112147
1761200000.0 -0.5344444656 -0.2967795351
1771150000.0 -0.6041997665 0.0708371842
1781100000.0 -0.4368557544 0.4111864543
1791050000.0 -0.0888782666 0.5847170032
1801000000.0 0.2980371757 0.5050141306
1810950000.0 0.5492816661 0.1991245392
1820900000.0 0.5495454965 -0.1925842166
1830850000.0 0.3138129187 -0.4936693778
1840800000.0 -0.0416310381 -0.5919071828
1850750000.0 -0.3787560581 -0.4663695486
1860700000.0 -0.5757799333 -0.1697294856
1870650000.0 -0.5640145382 0.1840181587
1880600000.0 -0.3468512879 0.4607478279
1890550000.0 -0.0077956601 0.5458380456
1900500000.0 0.310690159 0.4040927659
1910450000.0 0.4692619795 0.1040559111
1920400000.0 0.4100632082 -0.2106915718
1930350000.0 0.1827624726 -0.4112647506
1940300000.0 -0.0988423141 -0.4384231561
1950250000.0 -0.3206327002 -0.3083628229
1960200000.0 -0.4111872585 -0.090415707
1970150000.0 -0.3583947619 0.1217457103
1980100000.0 -0.2097026706 0.2427262133
1990050000.0 -0.0500194903 0.2384093397
2000000000.0 0.0462246283 0.1489877926
