!Created with skrf (http://scikit-rf.org).
# GHz S RI R 50.0 
!freq ReS11 ImS11
10000000.0 -1.017379057 0.0860509782
19950000.0 -0.9948507148 0.1635130332
29900000.0 -0.9638873893 0.2443366614
39850000.0 -0.9294010663 0.3327588541
49800000.0 -0.8906411652 0.4281013923
59750000.0 -0.8433139165 0.5283421471
69700000.0 -0.7775716895 0.6304895055
79650000.0 -0.6821957339 0.730073615
89600000.0 -0.5483298719 0.8235903
99550000.0 -0.3709817278 0.9052384388
109500000.0 -0.1479519084 0.9647427141
119450000.0 0.1192209318 0.9801613101
129400000.0 0.3981242992 0.9238275987
139350000.0 0.6817580981 0.7632110844
149300000.0 0.8865836252 0.5112484422
159250000.0 0.9914386996 0.210987515
169200000.0 1.003019477 -0.0869368406
179150000.0 0.9469197512 -0.3471658222
189100000.0 0.8496581007 -0.5554494483
199050000.0 0.7303922852 -0.7075758831
209000000.0 0.6013211463 -0.8080054288
218950000.0 0.4728903993 -0.8687139265
228900000.0 0.3502555337 -0.9053976293
238850000.0 0.229162838 -0.929303707
248800000.0 0.2573543565 -0.7718221844
258750000.0 0.0620424601 -0.9521304027
268700000.0 -0.0357554484 -0.9541236999
278650000.0 -0.1251624023 -0.938626586
288600000.0 -0.2119865545 -0.9039763264
298550000.0 -0.2988329711 -0.8518690819
308500000.0 -0.3875611671 -0.7852681278
318450000.0 -0.4766840145 -0.7039182534
328400000.0 -0.5597774779 -0.6051137185
338350000.0 -0.6241455339 -0.4853637504
348300000.0 -0.6536721535 -0.3442996371
358250000.0 -0.6371369035 -0.1909349495
368200000.0 -0.5737632098 -0.0418526043
378150000.0 -0.4753317504 0.0839457991
388100000.0 -0.3605751019 0.1745024074
398050000.0 -0.2463350476 0.2230519399
408000000.0 -0.1440818773 0.2326265219
417950000.0 -0.0608335534 0.2116585682
427900000.0 0.0045644549 0.172686297
437850000.0 0.0542959719 0.1281572693
447800000.0 0.0885933895 0.0857236916
457750000.0 0.1074591692 0.0513942941
467700000.0 0.1099880295 0.0262175761
477650000.0 0.0965153316 0.0075798724
487600000.0 0.0626014738 -0.0085344925
497550000.0 0.0890043082 0.060493878
507500000.0 0.0458734475 -0.0133001864
517450000.0 0.0171011501 -0.0232764219
527400000.0 -0.0038019292 -0.0237808738
537350000.0 -0.0208459772 -0.0154211632
547300000.0 -0.0417152003 0.0079189871
557250000.0 -0.0538232564 0.036993403
567200000.0 -0.0688036054 0.0637818808
577150000.0 -0.0840432717 0.0872013386
587100000.0 -0.0959778701 0.104701114
597050000.0 -0.1002083848 0.1181705664
607000000.0 -0.0954307124 0.1295292403
616950000.0 -0.0831273385 0.141523681
626900000.0 -0.0672405838 0.1554685152
636850000.0 -0.0507093175 0.1718329894
646800000.0 -0.0377876031 0.1857069359
656750000.0 -0.0272322117 0.1929572326
666700000.0 -0.0176732426 0.1922643884
676650000.0 -0.0052393928 0.1814216137
686600000.0 0.0127490145 0.1634869642
696550000.0 0.034975588 0.142470123
706500000.0 0.060508753 0.1189901665
716450000.0 0.0839194727 0.0970761994
726400000.0 0.1006368586 0.0727842618
736350000.0 0.1086324904 0.0444497993
746300000.0 0.1080020958 0.0091193956
756250000.0 0.1017760001 -0.0346728279
766200000.0 0.0924928375 -0.0844542383
776150000.0 0.0817482506 -0.1365238771
786100000.0 0.0688118193 -0.1857015527
796050000.0 0.0508492325 -0.2273943554
806000000.0 0.0255239711 -0.2606763717
815950000.0 -0.0084017635 -0.2854077665
825900000.0 -0.0512501889 -0.3063944875
835850000.0 -0.0983554765 -0.3238882951
845800000.0 -0.1467545854 -0.3393011813
855750000.0 -0.1924219884 -0.3508172812
865700000.0 -0.2335433368 -0.3539279834
875650000.0 -0.2704053036 -0.3449806018
885600000.0 -0.3047899919 -0.3233802162
895550000.0 -0.3396428366 -0.2894940311
905500000.0 -0.3762283713 -0.2482652277
915450000.0 -0.4133081244 -0.1999537589
925400000.0 -0.4460594003 -0.145430536
935350000.0 -0.4689668044 -0.0819881696
945300000.0 -0.4748555092 -0.0064085906
955250000.0 -0.4583023793 0.0847333969
965200000.0 -0.4166782386 0.1909955453
975150000.0 -0.3457082416 0.3105248175
985100000.0 -0.2385563877 0.4297845658
995050000.0 -0.0877061645 0.5301526192
1005000000.0 0.1093178955 0.5797095055
1014950000.0 0.3338481041 0.5494387
1024900000.0 0.5513411115 0.429754771
1034850000.0 0.7246315997 0.2352797336
1044800000.0 0.820133091 -0.0119213686
1054750000.0 0.7831244498 -0.2664246178
1064700000.0 0.721221016 -0.3688788197
1074650000.0 0.6349871049 -0.5418764349
1084600000.0 0.4982047702 -0.6467872366
1094550000.0 0.3568347636 -0.7454379796
1104500000.0 0.1642250799 -0.8203244916
1114450000.0 -0.0433093526 -0.8284301866
1124400000.0 -0.2362462806 -0.76998781
1134350000.0 -0.3965437797 -0.6508915505
1144300000.0 -0.5118269161 -0.4851186534
1154250000.0 -0.5785688811 -0.2959003354
1164200000.0 -0.5987469382 -0.1144795938
1174150000.0 -0.5967849481 0.043651293
1184100000.0 -0.5691683341 0.186873111
1194050000.0 -0.5133450425 0.3017164188
1204000000.0 -0.4410580741 0.3868559829
1213950000.0 -0.3626138896 0.4517514128
1223900000.0 -0.2867207026 0.5043287063
1233850000.0 -0.2185348019 0.5490786783
1243800000.0 -0.1603309109 0.586375465
1253750000.0 -0.1136412327 0.6159974921
1263700000.0 -0.0744187853 0.6330819888
1273650000.0 -0.0410164454 0.6388897814
1283600000.0 -0.0107161973 0.6374452636
1293550000.0 0.019615043 0.6349655784
1303500000.0 0.0481645188 0.6362926477
1313450000.0 0.0734744514 0.6433341544
1323400000.0 0.0942894954 0.654531053
1333350000.0 0.1089077483 0.6654323237
1343300000.0 0.1196457139 0.6722533999
1353250000.0 0.1268352792 0.6718634583
1363200000.0 0.1359657251 0.6641262764
1373150000.0 0.1474516539 0.6526160322
1383100000.0 0.162071294 0.6420754127
1393050000.0 0.1771255142 0.6371685561
1403000000.0 0.190654426 0.63542816
1412950000.0 0.2000132926 0.6344613148
1422900000.0 0.2048626062 0.631011319
1432850000.0 0.2035537847 0.621418368
1442800000.0 0.201750217 0.6082410641
1452750000.0 0.2055700673 0.5940891805
1462700000.0 0.2185446782 0.5809767309
1472650000.0 0.2385592927 0.5697182229
1482600000.0 0.2617542826 0.5605835731
1492550000.0 0.284386167 0.5507032165
1502500000.0 0.3040349731 0.5364942968
1512450000.0 0.3195144213 0.5142204617
1522400000.0 0.3341769479 0.4814074203
1532350000.0 0.3502473738 0.4386248964
1542300000.0 0.3710495434 0.3905029733
1552250000.0 0.3948924424 0.3417300934
1562200000.0 0.4196376059 0.2973774075
1572150000.0 0.442493155 0.2577778763
1582100000.0 0.4605815062 0.2174074415
1592050000.0 0.4694600521 0.1741622794
1602000000.0 0.4714736286 0.1245218682
1611950000.0 0.4698089307 0.0676047437
1621900000.0 0.4685423262 0.0062885049
1631850000.0 0.4698940935 -0.0560883866
1641800000.0 0.4730026076 -0.1138973419
1651750000.0 0.474730237 -0.1652912446
1661700000.0 0.470846733 -0.209630792
1671650000.0 0.4589750074 -0.2488090149
1681600000.0 0.4409355873 -0.2862694984
1691550000.0 0.4204477946 -0.3245896887
1701500000.0 0.4028195124 -0.363732076
1711450000.0 0.3918899641 -0.4028663852
1721400000.0 0.3850288689 -0.4381352562
1731350000.0 0.3814200691 -0.4664497248
1741300000.0 0.3747421686 -0.4841307113
1751250000.0 0.3584836489 -0.492175663
1761200000.0 0.3204093657 -0.474144373
1771150000.0 0.3760047086 -0.4368380286
1781100000.0 0.3706547709 -0.4844257501
1791050000.0 0.3593265913 -0.5066842084
1801000000.0 0.3571430069 -0.5238658151
1810950000.0 0.3606727384 -0.5356303519
1820900000.0 0.3650115486 -0.5406207132
1830850000.0 0.3657549934 -0.5369467559
1840800000.0 0.3601220859 -0.5274044748
1850750000.0 0.3476561493 -0.5153553492
1860700000.0 0.3332072836 -0.5049305339
1870650000.0 0.3212056447 -0.4978763539
1880600000.0 0.3153949922 -0.4925876939
1890550000.0 0.3160146813 -0.4862879099
1900500000.0 0.3192005096 -0.4741132172
1910450000.0 0.3215055999 -0.4544037272
1920400000.0 0.3172030422 -0.4279446205
1930350000.0 0.3038019339 -0.3973288874
1940300000.0 0.2812063159 -0.3671856794
1950250000.0 0.2548940957 -0.3397242349
1960200000.0 0.2289864523 -0.3132126854
1970150000.0 0.2072432187 -0.2854093002
1980100000.0 0.189605005 -0.2484994977
1990050000.0 0.1739098074 -0.1993629071
2000000000.0 0.1582398196 -0.1361056536
