!Created with skrf (http://scikit-rf.org).
# GHz S RI R 50.0 
!freq ReS11 ImS11
10000000.0 -0.8138892263 0.6113238162
19950000.0 -0.2929129823 0.9504444825
29900000.0 0.3222156905 0.9220405533
39850000.0 0.8108461562 0.5396462251
49800000.0 0.9848138371 -0.0686830339
59750000.0 0.7493374586 -0.675585282
69700000.0 0.1676704012 -1.010001397
79650000.0 -0.510459794 -0.8814338722
89600000.0 -0.9416204035 -0.3197504589
99550000.0 -0.8801422503 0.4044458567
109500000.0 -0.3216276311 0.9046126686
119450000.0 0.4581607499 0.8620596153
129400000.0 0.9752804469 0.2320321769
139350000.0 0.8215931974 -0.5910077371
149300000.0 0.0822058503 -0.9865976534
159250000.0 -0.6735024538 -0.6776855008
169200000.0 -0.9362122586 0.0605398113
179150000.0 -0.6012991517 0.7330591032
189100000.0 0.0831628305 0.967518693
199050000.0 0.7180216023 0.6739166895
209000000.0 0.9767508738 0.0457317347
218950000.0 0.7647642224 -0.5701636547
228900000.0 0.2249684163 -0.9007645437
238850000.0 -0.3913701661 -0.8268823273
248800000.0 -0.7482048046 -0.2906702924
258750000.0 -0.9196080644 0.1737232169
268700000.0 -0.6350456712 0.7088516908
278650000.0 -0.0835199387 0.9464332643
288600000.0 0.4903155159 0.7856741933
298550000.0 0.8332327998 0.3053177012
308500000.0 0.8012256909 -0.2788528638
318450000.0 0.4131694781 -0.7074439767
328400000.0 -0.1517082863 -0.7858903325
338350000.0 -0.6144154539 -0.4753928017
348300000.0 -0.7290150885 0.0457009597
358250000.0 -0.4589432755 0.4638483469
368200000.0 -0.015472469 0.5514411279
378150000.0 0.3123588217 0.3229402697
388100000.0 0.3659728439 -0.0174252438
398050000.0 0.1871110872 -0.2457657189
408000000.0 -0.0506088577 -0.2620579975
417950000.0 -0.1874593662 -0.1235567875
427900000.0 -0.1751730728 0.0387236629
437850000.0 -0.0654179279 0.1234379954
447800000.0 0.0534764563 0.1041654573
457750000.0 0.1117712446 0.0202514012
467700000.0 0.0943679287 -0.064146644
477650000.0 0.034160522 -0.1011450687
487600000.0 -0.0198980644 -0.0825859593
497550000.0 -0.0134799004 -0.0767561619
507500000.0 -0.0506624347 0.003477893
517450000.0 -0.0108756406 0.0178734196
527400000.0 0.0101010115 0.0022567597
537350000.0 0.0008591514 -0.0194212222
547300000.0 -0.0316048126 -0.0197071841
557250000.0 -0.0589281647 0.0141201697
567200000.0 -0.0543716945 0.0671559163
577150000.0 -0.0087413829 0.1091254998
587100000.0 0.0627519954 0.110065253
597050000.0 0.125313372 0.057576432
607000000.0 0.1433656895 -0.0325589216
616950000.0 0.0984458938 -0.1228784092
626900000.0 0.0041065769 -0.1721433615
636850000.0 -0.1038922494 -0.1545538929
646800000.0 -0.1807681575 -0.0744677783
656750000.0 -0.1913188668 0.0362130501
666700000.0 -0.1290286159 0.1294771374
676650000.0 -0.0215249843 0.1618242986
686600000.0 0.0824461784 0.1189809365
696550000.0 0.1362894124 0.0220160068
706500000.0 0.1179942664 -0.0818881875
716450000.0 0.0407596721 -0.1431503502
726400000.0 -0.0503709436 -0.1338164108
736350000.0 -0.1029474509 -0.061970287
746300000.0 -0.0832998671 0.0286935939
756250000.0 0.0021736321 0.0797789082
766200000.0 0.1058191935 0.0543386412
776150000.0 0.1663678687 -0.0429259017
786100000.0 0.1390762941 -0.1623280061
796050000.0 0.0253962644 -0.2345690339
806000000.0 -0.1246591584 -0.2044993003
815950000.0 -0.2297562285 -0.0660808815
825900000.0 -0.2217692822 0.1266370739
835850000.0 -0.0864460978 0.2847908785
845800000.0 0.1283241244 0.3283779721
855750000.0 0.3320934722 0.2263330158
865700000.0 0.4308485044 0.0105004009
875650000.0 0.3687325933 -0.2295363191
885600000.0 0.1585335555 -0.3852505273
895550000.0 -0.1178884229 -0.3735579497
905500000.0 -0.3357864552 -0.1825067178
915450000.0 -0.3843313437 0.110588072
925400000.0 -0.2295821516 0.3681387962
935350000.0 0.059096716 0.4544262167
945300000.0 0.3286594632 0.3140659773
955250000.0 0.4217769068 0.0161422779
965200000.0 0.2609786449 -0.2793583539
975150000.0 -0.0976861252 -0.3696883016
985100000.0 -0.427918857 -0.1231792981
995050000.0 -0.4306760116 0.3274632584
1005000000.0 -0.0386382977 0.6279195634
1014950000.0 0.4909316668 0.477974714
1024900000.0 0.7182133968 -0.0877082082
1034850000.0 0.3900686347 -0.6626553525
1044800000.0 -0.2948801591 -0.7677278229
1054750000.0 -0.805567711 -0.3003800167
1064700000.0 -0.7694341974 0.3590749878
1074650000.0 -0.3023138263 0.6886706419
1084600000.0 0.0928940141 0.7654523418
1094550000.0 0.622476235 0.4694524294
1104500000.0 0.7354277636 -0.1229522207
1114450000.0 0.3898632612 -0.6006211619
1124400000.0 -0.1670610738 -0.668776326
1134350000.0 -0.5643831985 -0.3353052543
1144300000.0 -0.6034018447 0.1370119849
1154250000.0 -0.327590363 0.4786471167
1164200000.0 0.0853458095 0.538071167
1174150000.0 0.4178274647 0.3074650495
1184100000.0 0.5011154286 -0.085927401
1194050000.0 0.2870205329 -0.4214807202
1204000000.0 -0.0867990101 -0.5129553453
1213950000.0 -0.4121609566 -0.3432077063
1223900000.0 -0.555059912 -0.0222361914
1233850000.0 -0.4804260536 0.3129636787
1243800000.0 -0.220561334 0.5407780954
1253750000.0 0.1323700177 0.5708861013
1263700000.0 0.442027325 0.3759632386
1273650000.0 0.5726184636 0.0265824431
1283600000.0 0.4704073198 -0.3305378105
1293550000.0 0.1899472203 -0.5581779363
1303500000.0 -0.1554509221 -0.5946386792
1313450000.0 -0.4588417621 -0.4479692974
1323400000.0 -0.6401908261 -0.1681448472
1333350000.0 -0.6471869987 0.1699604219
1343300000.0 -0.4642890523 0.4693617194
1353250000.0 -0.1308826062 0.6215658327
1363200000.0 0.2415160724 0.5542331253
1373150000.0 0.5122581328 0.2870840527
1383100000.0 0.5888698139 -0.0767596658
1393050000.0 0.465373612 -0.4100736123
1403000000.0 0.1995364049 -0.6206421602
1412950000.0 -0.1259385573 -0.6617909072
1422900000.0 -0.4224006075 -0.5281534136
1432850000.0 -0.6038416372 -0.2514123987
1442800000.0 -0.6041183865 0.0904346947
1452750000.0 -0.4087237008 0.3835969307
1462700000.0 -0.0789226404 0.5202844954
1472650000.0 0.2669870592 0.4524588088
1482600000.0 0.5081081894 0.214740076
1492550000.0 0.5768733283 -0.0996228792
1502500000.0 0.4664667193 -0.386322232
1512450000.0 0.2222461231 -0.5578715874
1522400000.0 -0.0759332633 -0.560202396
1532350000.0 -0.3255244721 -0.3865058208
1542300000.0 -0.4297841579 -0.0921327043
1552250000.0 -0.3395740855 0.2101334923
1562200000.0 -0.0927271533 0.3943753498
1572150000.0 0.1998034586 0.3947800311
1582100000.0 0.4224756364 0.2304852326
1592050000.0 0.4973758556 -0.0263051255
1602000000.0 0.3998677822 -0.2728756266
1611950000.0 0.1676642232 -0.4126225684
1621900000.0 -0.1121181008 -0.3832694975
1631850000.0 -0.3264257563 -0.1844678222
1641800000.0 -0.3771171258 0.1105897949
1651750000.0 -0.2353774195 0.3750910093
1661700000.0 0.0342503726 0.4937737219
1671650000.0 0.3150838143 0.4251742985
1681600000.0 0.4991370521 0.2055989934
1691550000.0 0.5248684571 -0.0834563843
1701500000.0 0.3804345335 -0.344904519
1711450000.0 0.1043344878 -0.4886531782
1721400000.0 -0.2199818111 -0.4492629482
1731350000.0 -0.4693243266 -0.222756643
1741300000.0 -0.538907493 0.1087188637
1751250000.0 -0.4041733 0.4125797148
1761200000.0 -0.1300663791 0.579328396
1771150000.0 0.1799512016 0.568163213
1781100000.0 0.4278064809 0.3986254133
1791050000.0 0.5445426816 0.140576378
1801000000.0 0.5335710015 -0.1281999311
1810950000.0 0.3898775816 -0.3913408064
1820900000.0 0.0985930362 -0.5412576724
1830850000.0 -0.2324502532 -0.492494341
1840800000.0 -0.4750351265 -0.2642511571
1850750000.0 -0.5472435442 0.0499237254
1860700000.0 -0.4464391656 0.3357456564
1870650000.0 -0.2281700998 0.5178196556
1880600000.0 0.0378566013 0.5639859112
1890550000.0 0.2836092193 0.4729464421
1900500000.0 0.4452366467 0.2677081887
1910450000.0 0.4702151062 0.0049601974
1920400000.0 0.3435584065 -0.2250046955
1930350000.0 0.115077387 -0.3374527337
1940300000.0 -0.1179673732 -0.3042956429
1950250000.0 -0.2737869514 -0.1668849372
1960200000.0 -0.3231881864 0.0017515531
1970150000.0 -0.281219545 0.1371591724
1980100000.0 -0.1933322015 0.2002981021
1990050000.0 -0.1209909078 0.1873574147
2000000000.0 -0.1124175164 0.1411353788
