!Created with skrf (http://scikit-rf.org).
# GHz S RI R 50.0 
!freq ReS11 ImS11
10000000.0 -0.9908065266 0.067325109
14975000.0 -0.988642125 0.100875215
19950000.0 -0.9855794277 0.1348465524
24925000.0 -0.9809054659 0.170164113
29900000.0 -0.9756166105 0.2052638891
34875000.0 -0.9672006598 0.2421892038
39850000.0 -0.956121152 0.2809328488
44825000.0 -0.9419922636 0.321737393
49800000.0 -0.924862674 0.3650335602
54775000.0 -0.9038750704 0.4107672071
59750000.0 -0.8785476182 0.4595773274
64725000.0 -0.8485991475 0.5112527305
69700000.0 -0.812498095 0.565696766
74675000.0 -0.7691848387 0.6228724946
79650000.0 -0.7174674371 0.6822103282
84625000.0 -0.6558031353 0.7427574834
89600000.0 -0.5827233946 0.8029711932
94575000.0 -0.4968283302 0.8606977303
99550000.0 -0.396831874 0.9129396441
104525000.0 -0.2818660821 0.9559248442
109500000.0 -0.1526452675 0.9849353817
114475000.0 -0.0102554492 0.9952844345
119450000.0 0.1411926492 0.9830399677
124425000.0 0.2964894076 0.9450118113
129400000.0 0.4494498234 0.8796134776
134375000.0 0.586030283 0.7925349526
139350000.0 0.7131809809 0.6789326832
144325000.0 0.8169331038 0.5491596556
149300000.0 0.895644047 0.4091597211
154275000.0 0.9490486764 0.2655647629
159250000.0 0.9786901835 0.1239946897
164225000.0 0.9868973071 -0.0102537769
169200000.0 0.9772542627 -0.1345494343
174175000.0 0.9534538107 -0.2469753029
179150000.0 0.9196833318 -0.3470142306
184125000.0 0.8792653463 -0.4347071337
189100000.0 0.834556299 -0.5113597489
194075000.0 0.7881672935 -0.5779259342
199050000.0 0.7413137912 -0.6356809064
204025000.0 0.6947545744 -0.6859582601
209000000.0 0.6497322566 -0.7292220263
213975000.0 0.6059335327 -0.7671178781
218950000.0 0.5635375867 -0.7998952444
223925000.0 0.522851915 -0.8285323671
228900000.0 0.4833079357 -0.8533578456
233875000.0 0.4449210968 -0.8743925989
238850000.0 0.4069543647 -0.8924262663
243825000.0 0.3685285715 -0.9076790329
248800000.0 0.3220577469 -0.8889159436
253775000.0 0.3017672296 -0.9277458292
258750000.0 0.2634004232 -0.9366716102
263725000.0 0.2255652663 -0.9431233883
268700000.0 0.1877645444 -0.9480028669
273675000.0 0.1492074066 -0.951331474
278650000.0 0.1098346281 -0.9527142469
283625000.0 0.0696352747 -0.9524771007
288600000.0 0.0285599214 -0.9502574243
293575000.0 -0.0138959801 -0.9457526146
298550000.0 -0.0577487517 -0.93806364
303525000.0 -0.1026987089 -0.9267268823
308500000.0 -0.1486192715 -0.9106495962
313475000.0 -0.1950785166 -0.8889604385
318450000.0 -0.241970964 -0.8608664539
323425000.0 -0.2886670425 -0.8257688319
328400000.0 -0.3339141685 -0.7833952515
333375000.0 -0.3769692889 -0.7333598445
338350000.0 -0.4166516955 -0.6755824813
343325000.0 -0.4512051402 -0.6105978703
348300000.0 -0.4784273466 -0.5387668228
353275000.0 -0.4965493384 -0.4620058087
358250000.0 -0.5042623492 -0.3821953432
363225000.0 -0.5005800919 -0.3017119823
368200000.0 -0.4851491837 -0.2235241602
373175000.0 -0.4590418458 -0.150289927
378150000.0 -0.4234922647 -0.0842391683
383125000.0 -0.3800575746 -0.0264073808
388100000.0 -0.3307867241 0.0222007203
393075000.0 -0.2781030198 0.061097504
398050000.0 -0.2240161791 0.0907413022
403025000.0 -0.170451812 0.1119146451
408000000.0 -0.1193431473 0.125303468
412975000.0 -0.0717588641 0.1318122432
417950000.0 -0.028405991 0.133216322
422925000.0 0.010071626 0.1302114761
427900000.0 0.0434413784 0.1238464596
432875000.0 0.0719279732 0.1153901342
437850000.0 0.0952687208 0.1056098237
442825000.0 0.114425 0.0943562346
447800000.0 0.129674744 0.0816839958
452775000.0 0.1410838603 0.0681710452
457750000.0 0.1488812924 0.054520769
462725000.0 0.1539122114 0.0410187071
467700000.0 0.1559921216 0.0281645819
472675000.0 0.1554735234 0.0160817188
477650000.0 0.1527062049 0.0055509989
482625000.0 0.1480150204 -0.0027818999
487600000.0 0.1422279185 -0.0088327723
492575000.0 0.1362413462 -0.012604605
497550000.0 0.1341878302 -0.0149280438
502525000.0 0.1269708551 -0.0208349429
507500000.0 0.1184093745 -0.0237426848
512475000.0 0.1083312683 -0.0252400964
517450000.0 0.0971752698 -0.0255561869
522425000.0 0.0849661961 -0.0247422283
527400000.0 0.0722890072 -0.0226840806
532375000.0 0.0592029178 -0.0197500872
537350000.0 0.0461378507 -0.0159088083
542325000.0 0.0333293608 -0.0114834239
547300000.0 0.02105075 -0.0065652881
552275000.0 0.0088445694 -0.0008001133
557250000.0 -0.0027477079 0.0058469661
562225000.0 -0.0132277861 0.013239724
567200000.0 -0.0226967718 0.0214288194
572175000.0 -0.0309980211 0.0302659731
577150000.0 -0.0384471366 0.0400691755
582125000.0 -0.0451829389 0.0503723028
587100000.0 -0.0513306717 0.0613839989
592075000.0 -0.0575025874 0.0725343239
597050000.0 -0.0619501045 0.0838037418
602025000.0 -0.0662867307 0.0950262377
607000000.0 -0.0701151375 0.1060086936
611975000.0 -0.0728069041 0.1165590061
616950000.0 -0.0749165392 0.1265418895
621925000.0 -0.0762007763 0.1355453505
626900000.0 -0.0764032016 0.1437685529
631875000.0 -0.0755477648 0.1509946941
636850000.0 -0.0736718601 0.1576000516
641825000.0 -0.0707381413 0.1628427098
646800000.0 -0.0659792817 0.1676330516
651775000.0 -0.0604603052 0.1718062727
656750000.0 -0.0540217111 0.1756389388
661725000.0 -0.0465186982 0.1785567619
666700000.0 -0.0385734569 0.1810028436
671675000.0 -0.0301845503 0.182536977
676650000.0 -0.0212886468 0.1834324716
681625000.0 -0.0120639822 0.1837035124
686600000.0 -0.0027797515 0.1829609057
691575000.0 0.0060624683 0.180969166
696550000.0 0.0154107133 0.1773096088
701525000.0 0.0248813121 0.1723195983
706500000.0 0.0342400349 0.1657138968
711475000.0 0.0438409211 0.1572309948
716450000.0 0.0536519759 0.1472964776
721425000.0 0.0633419222 0.1358760927
726400000.0 0.0732346051 0.1228991809
731375000.0 0.0831836803 0.108582066
736350000.0 0.0928697621 0.0927088254
741325000.0 0.1026405244 0.0763249301
746300000.0 0.111674782 0.0594204156
751275000.0 0.1198625036 0.0411117552
756250000.0 0.1275372585 0.0218166732
761225000.0 0.1333525341 0.0022039991
766200000.0 0.1385255209 -0.0182909142
771175000.0 0.141430106 -0.0396031434
776150000.0 0.1426998029 -0.0614481115
781125000.0 0.1423160177 -0.0841555485
786100000.0 0.140295351 -0.1075556677
791075000.0 0.1363402518 -0.1308502025
796050000.0 0.1310484004 -0.1545936276
801025000.0 0.1241868373 -0.1786594421
806000000.0 0.1155513394 -0.2023293791
810975000.0 0.1056882914 -0.2256972941
815950000.0 0.0945873618 -0.2488051625
820925000.0 0.0824925487 -0.2706437108
825900000.0 0.0690268541 -0.2911430095
830875000.0 0.0543221188 -0.3101085313
835850000.0 0.0383909826 -0.3275087649
840825000.0 0.0210783296 -0.3431953721
845800000.0 0.0021389634 -0.3571118669
850775000.0 -0.0183370289 -0.3690737442
855750000.0 -0.0400561084 -0.3795378603
860725000.0 -0.0629269573 -0.3883208434
865700000.0 -0.0867050033 -0.3952613013
870675000.0 -0.111484138 -0.4003636668
875650000.0 -0.1371996703 -0.4035626215
880625000.0 -0.163183687 -0.4051351919
885600000.0 -0.1900677622 -0.4047465944
890575000.0 -0.2169040862 -0.4017708338
895550000.0 -0.2436230693 -0.3961817372
900525000.0 -0.2702430706 -0.3874953009
905500000.0 -0.2968454115 -0.3757791235
910475000.0 -0.3233593504 -0.3599969645
915450000.0 -0.3489622592 -0.3402292776
920425000.0 -0.3743346054 -0.3155293048
925400000.0 -0.3995364614 -0.286009722
930375000.0 -0.4232520748 -0.2507172667
935350000.0 -0.4454607845 -0.2088269674
940325000.0 -0.4654415964 -0.1603284189
945300000.0 -0.4800598148 -0.1025817359
950275000.0 -0.482236777 -0.034388393
955250000.0 -0.4602216216 0.0384782643
960225000.0 -0.4102728914 0.083709937
965200000.0 -0.3913125447 0.0864557351
970175000.0 -0.4088248909 0.1144733365
975150000.0 -0.4164281799 0.1753491484
980125000.0 -0.4035844994 0.2494495861
985100000.0 -0.3703884984 0.3269267395
990075000.0 -0.3189299851 0.4017476358
995050000.0 -0.2524250354 0.4699676081
1000025000.0 -0.173419533 0.5311644537
1005000000.0 -0.080457221 0.5846824411
1009975000.0 0.0259825528 0.6256795095
1014950000.0 0.1440602993 0.6491176841
1019925000.0 0.2694780577 0.6514518965
1024900000.0 0.3966798033 0.6309828454
1029875000.0 0.5198965199 0.5861527684
1034850000.0 0.6334161608 0.5185485249
1039825000.0 0.7322729841 0.4298271082
1044800000.0 0.8131388795 0.3240722239
1049775000.0 0.8724427658 0.2058369311
1054750000.0 0.9093438325 0.0803434867
1059725000.0 0.9233758814 -0.0477764034
1064700000.0 0.9171955367 -0.1720814949
1069675000.0 0.8939215081 -0.2927205019
1074650000.0 0.8489929359 -0.4083267967
1079625000.0 0.7785837097 -0.5058938758
1084600000.0 0.7191665729 -0.5650085307
1089575000.0 0.6628900694 -0.6498174369
1094550000.0 0.5800942438 -0.7226524475
1099525000.0 0.4876112753 -0.7770546815
1104500000.0 0.389513666 -0.8137243073
1109475000.0 0.2892903218 -0.835774816
1114450000.0 0.1887845954 -0.8438150463
1119425000.0 0.0898889748 -0.8391865256
1124400000.0 -0.0055716461 -0.8226140973
1129375000.0 -0.0961116626 -0.7965104993
1134350000.0 -0.1805079728 -0.7614007726
1139325000.0 -0.2574389927 -0.7181281716
1144300000.0 -0.3273628254 -0.6685307733
1149275000.0 -0.38828074 -0.6144855916
1154250000.0 -0.4410790941 -0.557204356
1159225000.0 -0.4847336384 -0.4975857384
1164200000.0 -0.5203611321 -0.4383308538
1169175000.0 -0.549314262 -0.3809842112
1174150000.0 -0.5734762388 -0.3241551131
1179125000.0 -0.5935678347 -0.2666317207
1184100000.0 -0.6082711768 -0.2091596647
1189075000.0 -0.618602074 -0.1538661834
1194050000.0 -0.6252833725 -0.1006091566
1199025000.0 -0.6282569179 -0.0499261751
1204000000.0 -0.6278122384 -0.0017449141
1208975000.0 -0.6254931937 0.0434323684
1213950000.0 -0.6218668002 0.0864538976
1218925000.0 -0.6164466539 0.1262314703
1223900000.0 -0.6094407238 0.1625244144
1228875000.0 -0.6013736361 0.1966155312
1233850000.0 -0.5923777776 0.228010392
1238825000.0 -0.5823154832 0.2568006086
1243800000.0 -0.5719787033 0.2837614664
1248775000.0 -0.5609218844 0.308222062
1253750000.0 -0.549482176 0.3308060359
1258725000.0 -0.5382212891 0.3527815082
1263700000.0 -0.5272921025 0.3731376662
1268675000.0 -0.5180621378 0.3914094706
1273650000.0 -0.5094788677 0.4092951466
1278625000.0 -0.5014364685 0.4250876532
1283600000.0 -0.4942991327 0.4395831233
1288575000.0 -0.487952706 0.4531290601
1293550000.0 -0.4822384747 0.4659412975
1298525000.0 -0.4768999727 0.4772821482
1303500000.0 -0.4716791916 0.4876180488
1308475000.0 -0.4680289617 0.4966500111
1313450000.0 -0.4628335159 0.5045241943
1318425000.0 -0.4577691829 0.5118988954
1323400000.0 -0.4526004854 0.518771271
1328375000.0 -0.4471246968 0.5244737592
1333350000.0 -0.4409244903 0.5306990146
1338325000.0 -0.4340697695 0.5361554927
1343300000.0 -0.4272596682 0.5413879432
1348275000.0 -0.4205497931 0.5473629676
1353250000.0 -0.4141474582 0.5532444886
1358225000.0 -0.4077387088 0.5589014561
1363200000.0 -0.4017542008 0.564449268
1368175000.0 -0.396167242 0.5698173109
1373150000.0 -0.3901836288 0.5750466838
1378125000.0 -0.3843608558 0.5801032005
1383100000.0 -0.3794985778 0.5837532297
1388075000.0 -0.3744475068 0.5875011582
1393050000.0 -0.3687972205 0.5901837646
1398025000.0 -0.3634111063 0.5915233571
1403000000.0 -0.3569774774 0.5925858342
1407975000.0 -0.3504333078 0.593689506
1412950000.0 -0.3435247196 0.594174118
1417925000.0 -0.3355434081 0.5935173161
1422900000.0 -0.3273826675 0.5933297104
1427875000.0 -0.3194551606 0.5942451511
1432850000.0 -0.3104727704 0.5942452117
1437825000.0 -0.3015587663 0.5945217316
1442800000.0 -0.2928529893 0.5954230507
1447775000.0 -0.2835779851 0.5957810027
1452750000.0 -0.2735404232 0.5960356147
1457725000.0 -0.2634092289 0.5968954126
1462700000.0 -0.2529007659 0.5981826231
1467675000.0 -0.2413001254 0.5978980511
1472650000.0 -0.2285107332 0.5977204085
1477625000.0 -0.2154576533 0.5972031536
1482600000.0 -0.2013039285 0.5957365889
1487575000.0 -0.1855740744 0.5931802278
1492550000.0 -0.1683656603 0.5902277857
1497525000.0 -0.1507857602 0.5866092755
1502500000.0 -0.1320857721 0.5827399139
1507475000.0 -0.1115935153 0.5793300653
1512450000.0 -0.0909226122 0.5753427253
1517425000.0 -0.0704092187 0.5711649332
1522400000.0 -0.0495825785 0.5676527573
1527375000.0 -0.0285958761 0.563526286
1532350000.0 -0.0077428999 0.558281867
1537325000.0 0.012825519 0.5521930678
1542300000.0 0.0339101617 0.5459574306
1547275000.0 0.0548715728 0.537925318
1552250000.0 0.0748827117 0.5290304674
1557225000.0 0.0956100153 0.5190648945
1562200000.0 0.1161182393 0.506900209
1567175000.0 0.1360085916 0.4942010578
1572150000.0 0.1567997338 0.4801082316
1577125000.0 0.1778135516 0.46466765
1582100000.0 0.1989575921 0.4490394265
1587075000.0 0.2203656044 0.43319027
1592050000.0 0.2428222575 0.4173103383
1597025000.0 0.2648067655 0.4015381053
1602000000.0 0.2877033501 0.3863380403
1606975000.0 0.3105537626 0.3708947318
1611950000.0 0.3331292356 0.3558288388
1616925000.0 0.3550329856 0.3406429501
1621900000.0 0.3766216445 0.3254749535
1626875000.0 0.3964497579 0.3103676428
1631850000.0 0.4154926528 0.2951090375
1636825000.0 0.4323634879 0.2790948356
1641800000.0 0.4491746856 0.2634740728
1646775000.0 0.464642814 0.2479452336
1651750000.0 0.4788928802 0.2319659
1656725000.0 0.4929516241 0.2161434891
1661700000.0 0.5062993687 0.2009514914
1666675000.0 0.5189269147 0.185685726
1671650000.0 0.5315820976 0.1709162138
1676625000.0 0.5433250816 0.1567548685
1681600000.0 0.5544393575 0.1434961309
1686575000.0 0.5657779457 0.1307591023
1691550000.0 0.5765121473 0.1187100342
1696525000.0 0.5856387663 0.1076623006
1701500000.0 0.5950394085 0.0973158333
1706475000.0 0.6033751138 0.0871322362
1711450000.0 0.6102912279 0.0773384564
1716425000.0 0.6163607837 0.0683630535
1721400000.0 0.6216393553 0.0597132676
1726375000.0 0.6266401734 0.0504506145
1731350000.0 0.6309357851 0.0416868542
1736325000.0 0.6346187032 0.0333212093
1741300000.0 0.639105615 0.0252056552
1746275000.0 0.6431109691 0.0172239289
1751250000.0 0.6474316784 0.0103595316
1756225000.0 0.6521191289 0.0042568461
1761200000.0 0.6566117164 -0.0007580165
1766175000.0 0.6611775692 -0.0052301101
1771150000.0 0.6654028955 -0.0084851051
1776125000.0 0.6699190157 -0.0107377681
1781100000.0 0.6736732371 -0.011777345
1786075000.0 0.6771218466 -0.0126970783
1791050000.0 0.6795800405 -0.012719262
1796025000.0 0.6809904698 -0.0120040213
1801000000.0 0.6818558102 -0.0107278745
1805975000.0 0.6814359274 -0.0101283981
1810950000.0 0.6806150004 -0.008417868
1815925000.0 0.6785848932 -0.0073195271
1820900000.0 0.6769744014 -0.0060630926
1825875000.0 0.6748889264 -0.005213714
1830850000.0 0.6718451875 -0.0037818142
1835825000.0 0.6697426751 -0.0023739868
1840800000.0 0.6678292019 -0.0004265459
1845775000.0 0.6648931964 0.0017703857
1850750000.0 0.6620077203 0.0044146929
1855725000.0 0.6593233199 0.0077421568
1860700000.0 0.6553966509 0.0109242798
1865675000.0 0.6509162483 0.0145619403
1870650000.0 0.645392436 0.0190356079
1875625000.0 0.6391959712 0.0231420501
1880600000.0 0.6316045356 0.026559009
1885575000.0 0.6224447616 0.0305441329
1890550000.0 0.6125689403 0.0339044854
1895525000.0 0.6014916442 0.0365779459
1900500000.0 0.5896370664 0.038862285
1905475000.0 0.5775239734 0.0404019643
1910450000.0 0.5647269139 0.0416275451
1915425000.0 0.5509754092 0.0429148585
1920400000.0 0.5378536643 0.0436038905
1925375000.0 0.5242621424 0.0447591644
1930350000.0 0.5098137277 0.046640832
1935325000.0 0.4955164226 0.0484111452
1940300000.0 0.4805553668 0.0500527467
1945275000.0 0.4642323719 0.0529935082
1950250000.0 0.4467117712 0.0567545344
1955225000.0 0.428152129 0.0603240222
1960200000.0 0.4080216602 0.0639537825
1965175000.0 0.3850019651 0.0691161835
1970150000.0 0.3605555666 0.0732951865
1975125000.0 0.3343344556 0.0773911572
1980100000.0 0.3050381986 0.0812787406
1985075000.0 0.2735134559 0.085635175
1990050000.0 0.2406496203 0.0888085997
1995025000.0 0.20550144 0.0920933024
2000000000.0 0.1675890108 0.0957707753
