!Created with skrf (http://scikit-rf.org).
# GHz S RI R 50.0 
!freq ReS11 ImS11
10000000.0 -0.8018085369 0.6050058857
19950000.0 -0.287448202 0.9483552438
29900000.0 0.3282632544 0.9267676577
39850000.0 0.819381366 0.5446516765
49800000.0 0.9894908754 -0.0666216778
59750000.0 0.7458012651 -0.6696808222
69700000.0 0.1623630265 -0.9943387456
79650000.0 -0.5097785732 -0.8617523544
89600000.0 -0.9382517807 -0.3041594446
99550000.0 -0.8780909993 0.4174962054
109500000.0 -0.3163308686 0.9150359769
119450000.0 0.4642932876 0.8594487505
129400000.0 0.9520341093 0.2033972097
139350000.0 0.7949722021 -0.5935140541
149300000.0 0.0585424055 -0.9755930807
159250000.0 -0.6891210725 -0.6652287945
169200000.0 -0.9460502096 0.0717663155
179150000.0 -0.602584311 0.7397037264
189100000.0 0.0865260815 0.9618966267
199050000.0 0.7156525305 0.6580846035
209000000.0 0.9658471541 0.0299210971
218950000.0 0.7522299594 -0.5831787144
228900000.0 0.2122886365 -0.9124349022
238850000.0 -0.4053432951 -0.8348234133
248800000.0 -0.6547868968 -0.3706006003
258750000.0 -0.9191909422 0.1737618591
268700000.0 -0.6241393177 0.7045101389
278650000.0 -0.068376111 0.9335638165
288600000.0 0.5041316039 0.7668070147
298550000.0 0.843291584 0.2836318148
308500000.0 0.8045339915 -0.300653761
318450000.0 0.4070735426 -0.7227918462
328400000.0 -0.161597849 -0.7844095008
338350000.0 -0.6138638109 -0.4575970861
348300000.0 -0.7107831037 0.0667401872
358250000.0 -0.4288533696 0.4758660845
368200000.0 0.015591561 0.5510745614
378150000.0 0.3348508398 0.313222419
388100000.0 0.3740051459 -0.0291773885
398050000.0 0.1844853846 -0.2494231878
408000000.0 -0.0558650614 -0.2546768151
417950000.0 -0.1920083879 -0.1098874652
427900000.0 -0.176967979 0.0553529753
437850000.0 -0.0640998775 0.1391831933
447800000.0 0.0535841842 0.1177357346
457750000.0 0.1099894232 0.0321168581
467700000.0 0.090607172 -0.0531125845
477650000.0 0.0281886753 -0.0888559021
487600000.0 -0.0256407124 -0.0676825741
497550000.0 -0.0215114067 -0.100867975
507500000.0 -0.0532259788 -0.0036857852
517450000.0 -0.0208697343 0.0100185181
527400000.0 -0.0041116289 -0.0066169732
537350000.0 -0.0163092811 -0.0270644289
547300000.0 -0.0525159106 -0.0271403573
557250000.0 -0.0791389433 0.0141407605
567200000.0 -0.0680158942 0.0709332663
577150000.0 -0.0139863383 0.112968529
587100000.0 0.0649802781 0.1104239313
597050000.0 0.1326001376 0.0517560517
607000000.0 0.1520455092 -0.0441562546
616950000.0 0.1059397648 -0.1388434506
626900000.0 0.0090046553 -0.18955386
636850000.0 -0.1020843165 -0.1697052404
646800000.0 -0.1783805593 -0.0871060231
656750000.0 -0.1885728008 0.0259196627
666700000.0 -0.125535235 0.121199138
676650000.0 -0.0176938473 0.1561370623
686600000.0 0.0865610759 0.1157780168
696550000.0 0.1400608454 0.0223624572
706500000.0 0.1207500311 -0.0769351184
716450000.0 0.0450074367 -0.1326681999
726400000.0 -0.0423318229 -0.1181744746
736350000.0 -0.087930712 -0.0451031525
746300000.0 -0.0636951603 0.0404602978
756250000.0 0.0222017927 0.0836234537
766200000.0 0.1202373841 0.0489847862
776150000.0 0.1686053533 -0.0533190202
786100000.0 0.1273676791 -0.1716194297
796050000.0 0.0021065054 -0.2352765428
806000000.0 -0.1518852673 -0.1926446157
815950000.0 -0.2533813168 -0.0438348902
825900000.0 -0.2363883946 0.1545492999
835850000.0 -0.0896869272 0.310837085
845800000.0 0.1343090167 0.3451898363
855750000.0 0.3402212594 0.2306155042
865700000.0 0.4367648136 0.0054176921
875650000.0 0.369880911 -0.241870214
885600000.0 0.15539915 -0.4023478094
895550000.0 -0.1244070723 -0.3964297709
905500000.0 -0.3495183858 -0.2115645518
915450000.0 -0.4099323555 0.0801759522
925400000.0 -0.2682769463 0.3455061887
935350000.0 0.0133361938 0.4549580578
945300000.0 0.297502206 0.3455336838
955250000.0 0.4312932146 0.0607205537
965200000.0 0.3151606298 -0.2502907807
975150000.0 -0.0170579102 -0.3853916769
985100000.0 -0.3629804627 -0.20451149
995050000.0 -0.4411186585 0.2145626
1005000000.0 -0.1281280737 0.5591764481
1014950000.0 0.3813294991 0.5165143251
1024900000.0 0.6937489783 0.0450605825
1034850000.0 0.5047366381 -0.5488856274
1044800000.0 -0.1213260783 -0.788846489
1054750000.0 -0.7147471479 -0.4394286326
1064700000.0 -0.8052601892 0.1890372894
1074650000.0 -0.4978752899 0.6958629481
1084600000.0 0.0888271557 0.8176402376
1094550000.0 0.5839075657 0.5352306658
1104500000.0 0.7398396908 -0.0052357469
1114450000.0 0.5050529151 -0.5087375685
1124400000.0 -0.0462817367 -0.6978382567
1134350000.0 -0.5279153219 -0.4133808836
1144300000.0 -0.6309022796 0.0868481664
1154250000.0 -0.3678489099 0.4729020009
1164200000.0 0.0611278276 0.5527213234
1174150000.0 0.4078566459 0.3174580829
1184100000.0 0.4855321828 -0.0900258442
1194050000.0 0.2514478139 -0.4245822174
1204000000.0 -0.1344263031 -0.4956874109
1213950000.0 -0.4513357324 -0.3000969524
1223900000.0 -0.5659117858 0.0360296641
1233850000.0 -0.4540051628 0.3651312569
1243800000.0 -0.1654609963 0.5628689692
1253750000.0 0.1945296275 0.5482034578
1263700000.0 0.4815683681 0.3127961291
1273650000.0 0.5713140853 -0.0532178434
1283600000.0 0.4287963931 -0.3989921229
1293550000.0 0.124528865 -0.5969348595
1303500000.0 -0.2248784649 -0.5959222749
1313450000.0 -0.5127420663 -0.4145067767
1323400000.0 -0.6619249477 -0.1112444798
1333350000.0 -0.6282179293 0.2310593955
1343300000.0 -0.4068825696 0.5119464683
1353250000.0 -0.0532352046 0.6275491217
1363200000.0 0.3146704455 0.5218052769
1373150000.0 0.5598849799 0.2273010002
1383100000.0 0.6006555594 -0.1433517609
1393050000.0 0.443779781 -0.4633190717
1403000000.0 0.1551048728 -0.6450294289
1412950000.0 -0.1760991603 -0.6504333999
1422900000.0 -0.4599189616 -0.4833747904
1432850000.0 -0.6139766859 -0.1858116958
1442800000.0 -0.5815283092 0.1568126716
1452750000.0 -0.3607723194 0.4314843471
1462700000.0 -0.0217112051 0.5389700986
1472650000.0 0.3147649745 0.4418675154
1482600000.0 0.5323534699 0.1840177886
1492550000.0 0.5697812521 -0.1348931522
1502500000.0 0.4319433547 -0.4091200571
1512450000.0 0.1718405991 -0.5570973172
1522400000.0 -0.1262770135 -0.5322729543
1532350000.0 -0.3587527155 -0.3371193769
1542300000.0 -0.4340204755 -0.0378497706
1552250000.0 -0.3161442979 0.2472107972
1562200000.0 -0.0565416364 0.3991971218
1572150000.0 0.2285836262 0.3637753615
1582100000.0 0.423179911 0.172066386
1592050000.0 0.4576549414 -0.0880637594
1602000000.0 0.326430179 -0.3129567441
1611950000.0 0.0804442876 -0.4126984358
1621900000.0 -0.1844968712 -0.3382238333
1631850000.0 -0.3543500625 -0.1080314224
1641800000.0 -0.3436037608 0.1847256474
1651750000.0 -0.152521029 0.4078173396
1661700000.0 0.1314296806 0.4640582764
1671650000.0 0.386758124 0.3386492092
1681600000.0 0.5170812221 0.0898831776
1691550000.0 0.4818703484 -0.1849096946
1701500000.0 0.3035852525 -0.4049636476
1711450000.0 0.0150568557 -0.5047971297
1721400000.0 -0.301536967 -0.4096805582
1731350000.0 -0.5084604983 -0.1369202807
1741300000.0 -0.5151064422 0.2050830451
1751250000.0 -0.3305870601 0.4812808893
1761200000.0 -0.0379465736 0.6080946188
1771150000.0 0.2726364423 0.5607769778
1781100000.0 0.5111052548 0.3611542787
1791050000.0 0.6144210135 0.0644049491
1801000000.0 0.5463227135 -0.2518325869
1810950000.0 0.3109474814 -0.4920975279
1820900000.0 -0.0287876895 -0.5661772041
1830850000.0 -0.3536801244 -0.4355358618
1840800000.0 -0.546044334 -0.1527344846
1850750000.0 -0.5540270785 0.1719647994
1860700000.0 -0.4016508273 0.434876122
1870650000.0 -0.152758708 0.5771837113
1880600000.0 0.1223457604 0.5764812616
1890550000.0 0.3563585471 0.439314941
1900500000.0 0.486511274 0.1990958972
1910450000.0 0.4675698824 -0.0764702992
1920400000.0 0.3000434124 -0.2955873507
1930350000.0 0.048426539 -0.3813572496
1940300000.0 -0.1897480383 -0.3194723645
1950250000.0 -0.33944954 -0.1589574543
1960200000.0 -0.3753202876 0.0263762152
1970150000.0 -0.316061537 0.1745909067
1980100000.0 -0.2076498125 0.2463583102
1990050000.0 -0.1064364286 0.238908354
2000000000.0 -0.05760646 0.1859779122
