!Created with skrf (http://scikit-rf.org).
# GHz S RI R 50.0 
!freq ReS11 ImS11
10000000.0 -0.7655910861 0.6758284677
19950000.0 -0.1355321426 0.9879168924
29900000.0 0.5391007591 0.8174681062
39850000.0 0.9446968972 0.2458305175
49800000.0 0.8737076799 -0.4636875533
59750000.0 0.3304701402 -0.9552049689
69700000.0 -0.4236036777 -0.9342855425
79650000.0 -0.9523434029 -0.3680834435
89600000.0 -0.9036780738 0.4226043862
99550000.0 -0.2754666812 0.9307628744
109500000.0 0.5420196051 0.7914671014
119450000.0 0.9722487038 0.0469692488
129400000.0 0.633902001 -0.7442955235
139350000.0 -0.2622228612 -0.9760165685
149300000.0 -0.9271482869 -0.3485056695
159250000.0 -0.7968406914 0.5317282615
169200000.0 -0.0454688623 0.9412830102
179150000.0 0.7185123843 0.6256695076
189100000.0 0.9679694277 -0.1374471835
199050000.0 0.5744089173 -0.8131985096
209000000.0 -0.1689515138 -0.9771168304
218950000.0 -0.7822414754 -0.5699416149
228900000.0 -0.9309054977 0.1310395614
238850000.0 -0.5623720593 0.7334036142
248800000.0 -0.0775835636 0.7897545853
258750000.0 0.6848459436 0.6500571621
268700000.0 0.9614411629 0.0182797016
278650000.0 0.7314251907 -0.6245998496
288600000.0 0.1287231671 -0.9307393405
298550000.0 -0.5101282651 -0.7423477051
308500000.0 -0.8394701544 -0.1736942045
318450000.0 -0.6848148979 0.4560449362
328400000.0 -0.1399610599 0.7872872527
338350000.0 0.4595754604 0.624105908
348300000.0 0.7253203539 0.0933441484
358250000.0 0.5106963066 -0.4132287914
368200000.0 0.0354373499 -0.5553027589
378150000.0 -0.324363074 -0.3116996018
388100000.0 -0.3537913841 0.0594915206
398050000.0 -0.1241589781 0.2709736401
408000000.0 0.1286932048 0.2249030688
417950000.0 0.2200745062 0.0351676525
427900000.0 0.1372480043 -0.1189276218
437850000.0 -0.0087491073 -0.1398203625
447800000.0 -0.0992994522 -0.051101459
457750000.0 -0.0864936025 0.0577050844
467700000.0 -0.0059829055 0.1060210712
477650000.0 0.0673857383 0.0752040385
487600000.0 0.0764069261 0.0075910813
497550000.0 0.115693678 0.0329219254
507500000.0 0.0301930888 -0.0496425464
517450000.0 -0.0053861854 -0.0238918811
527400000.0 -0.000564266 0.0018239678
537350000.0 0.0214498473 0.0004951126
547300000.0 0.0283822054 -0.0385539385
557250000.0 -0.0187373358 -0.0664477601
567200000.0 -0.0782956813 -0.0473921935
577150000.0 -0.1122624403 0.0181374612
587100000.0 -0.087311644 0.0998558977
597050000.0 -0.0025763812 0.1466294475
607000000.0 0.1020600728 0.1194708092
616950000.0 0.1669636256 0.0207182095
626900000.0 0.1495974296 -0.1036351357
636850000.0 0.0514959571 -0.1892228624
646800000.0 -0.0812257696 -0.188348149
656750000.0 -0.1795285275 -0.0986451555
666700000.0 -0.1900637643 0.0329065941
676650000.0 -0.107355312 0.1334260326
686600000.0 0.0206554066 0.1472066826
696550000.0 0.1188693768 0.0686167635
706500000.0 0.1298496685 -0.0522844138
716450000.0 0.0497346209 -0.1371320248
726400000.0 -0.0603285055 -0.1163189543
736350000.0 -0.0680683284 -0.0402237941
746300000.0 -0.0655825325 0.0058234713
756250000.0 0.001360008 0.0497877853
766200000.0 0.0891454699 0.0106621075
776150000.0 0.1153775166 -0.0968684701
786100000.0 0.0399918862 -0.2006092424
796050000.0 -0.1068911437 -0.2140496108
806000000.0 -0.2311341356 -0.1007261626
815950000.0 -0.2361208407 0.0900141462
825900000.0 -0.089544934 0.2455921868
835850000.0 0.1444001362 0.2572416283
845800000.0 0.336804198 0.0949714479
855750000.0 0.3698339328 -0.1695551339
865700000.0 0.2082726073 -0.3972638163
875650000.0 -0.0758985239 -0.459005472
885600000.0 -0.3372748039 -0.305294053
895550000.0 -0.4281071802 -0.0028947416
905500000.0 -0.2819837838 0.2905385432
915450000.0 0.0346799394 0.4051382901
925400000.0 0.3459644225 0.2616664538
935350000.0 0.4643041406 -0.0643313076
945300000.0 0.3088596692 -0.3777886602
955250000.0 -0.0342110516 -0.4751319528
965200000.0 -0.3428707663 -0.2707535214
975150000.0 -0.3779762105 0.1210601831
985100000.0 -0.0558812264 0.4010977807
995050000.0 0.394716407 0.2751954016
1005000000.0 0.5382291263 -0.2204137796
1014950000.0 0.1590900347 -0.6414645464
1024900000.0 -0.456010786 -0.5421176279
1034850000.0 -0.7422616623 0.0824502034
1044800000.0 -0.3443088348 0.7161887942
1054750000.0 0.4386211684 0.70354138
1064700000.0 0.7733505419 0.1518571132
1074650000.0 0.7154592564 -0.5101257024
1084600000.0 0.1086226987 -0.8442407439
1094550000.0 -0.5170749667 -0.6407836417
1104500000.0 -0.7799825359 -0.032579363
1114450000.0 -0.4836298649 0.5592842948
1124400000.0 0.1517310788 0.6879022181
1134350000.0 0.6090142804 0.2814951319
1144300000.0 0.5711294971 -0.2758176142
1154250000.0 0.1599825964 -0.570329831
1164200000.0 -0.291391611 -0.4654411106
1174150000.0 -0.5118887793 -0.0862299318
1184100000.0 -0.3774552391 0.3344091477
1194050000.0 0.0352950225 0.5006774223
1204000000.0 0.4205474247 0.2943471668
1213950000.0 0.5208950431 -0.1150289096
1223900000.0 0.3095221454 -0.4626310991
1233850000.0 -0.070760789 -0.5734882737
1243800000.0 -0.4299360551 -0.4083950159
1253750000.0 -0.5981326897 -0.0422631558
1263700000.0 -0.4808284087 0.3561559865
1273650000.0 -0.1182720584 0.5809840416
1283600000.0 0.3050973884 0.504997306
1293550000.0 0.572064942 0.1736016142
1303500000.0 0.5697035365 -0.2409872316
1313450000.0 0.3225832074 -0.559733687
1323400000.0 -0.0597544981 -0.6686944891
1333350000.0 -0.4350899955 -0.5320152438
1343300000.0 -0.6611151797 -0.1908535944
1353250000.0 -0.630811187 0.2307232822
1363200000.0 -0.3331616523 0.5497010384
1373150000.0 0.1045490287 0.6064798771
1383100000.0 0.4748440938 0.3753354946
1393050000.0 0.6186700586 -0.0225676705
1403000000.0 0.4996054031 -0.4113228232
1412950000.0 0.1858063432 -0.6479748981
1422900000.0 -0.1994679507 -0.6588518624
1432850000.0 -0.5163716803 -0.4446143913
1442800000.0 -0.6450470463 -0.0816494461
1452750000.0 -0.5271307459 0.2898007344
1462700000.0 -0.1999489767 0.5140985559
1472650000.0 0.1988345529 0.4842916093
1482600000.0 0.4860708774 0.2108558061
1492550000.0 0.5343394038 -0.1715533264
1502500000.0 0.3418037794 -0.4896334628
1512450000.0 0.0054247227 -0.6167202049
1522400000.0 -0.330401646 -0.5108612208
1532350000.0 -0.5249171405 -0.2201395926
1542300000.0 -0.4900374076 0.1291290304
1552250000.0 -0.234893517 0.3718598395
1562200000.0 0.1140133613 0.3822605127
1572150000.0 0.3723583879 0.1597120982
1582100000.0 0.4115339013 -0.1677462829
1592050000.0 0.2257896386 -0.4255550695
1602000000.0 -0.0765362132 -0.4905677962
1611950000.0 -0.3438887376 -0.3372534179
1621900000.0 -0.4426628054 -0.042135982
1631850000.0 -0.3139685943 0.2500964543
1641800000.0 -0.0126302177 0.3803662092
1651750000.0 0.3034442659 0.2643431878
1661700000.0 0.4522471714 -0.0417880201
1671650000.0 0.3510064266 -0.3664768528
1681600000.0 0.0601731374 -0.5391349022
1691550000.0 -0.2737579334 -0.4814929849
1701500000.0 -0.4997350013 -0.2229731994
1711450000.0 -0.5162239394 0.1284105559
1721400000.0 -0.3002301359 0.4243565678
1731350000.0 0.0691050764 0.5189808528
1741300000.0 0.420239488 0.3470433693
1751250000.0 0.5752366986 -0.0163664265
1761200000.0 0.4613560646 -0.3901009395
1771150000.0 0.1477110708 -0.6052006001
1781100000.0 -0.2218797424 -0.5897886713
1791050000.0 -0.5093525334 -0.3663472513
1801000000.0 -0.6174811656 -0.017796108
1810950000.0 -0.5016247999 0.33656011
1820900000.0 -0.1871296549 0.5584046513
1830850000.0 0.2066200133 0.5355182506
1840800000.0 0.4976730006 0.2655432803
1850750000.0 0.5495708037 -0.1202511841
1860700000.0 0.3606694423 -0.4392708299
1870650000.0 0.0386708319 -0.5748675261
1880600000.0 -0.2838598225 -0.5065593173
1890550000.0 -0.5045526686 -0.2810262013
1900500000.0 -0.5599181916 0.0218131304
1910450000.0 -0.4333933858 0.2984149562
1920400000.0 -0.1675651135 0.4435956545
1930350000.0 0.1250572881 0.3918636873
1940300000.0 0.3073557549 0.1746433206
1950250000.0 0.3054977848 -0.0861284462
1960200000.0 0.1541400178 -0.260857554
1970150000.0 -0.0228045442 -0.2836580839
1980100000.0 -0.1402826292 -0.2411566702
1990050000.0 -0.2056176493 -0.157316237
2000000000.0 -0.1984234276 -0.0974712037
