!Created with skrf (http://scikit-rf.org).
# GHz S RI R 50.0 
!freq ReS11 ImS11
10000000.0 -0.9684681868 0.179887644
19950000.0 -0.9365064645 0.3475587506
29900000.0 -0.8791187324 0.5040670936
39850000.0 -0.7817184955 0.6439400338
49800000.0 -0.6470243515 0.7597868212
59750000.0 -0.4770346243 0.8506047985
69700000.0 -0.2766815906 0.9161529507
79650000.0 -0.0511232402 0.9528490248
89600000.0 0.1960179609 0.946260995
99550000.0 0.4538259477 0.8732019932
109500000.0 0.6953435994 0.7056505411
119450000.0 0.8788394278 0.4328005136
129400000.0 0.9601808221 0.0743473196
139350000.0 0.9060439847 -0.3183458173
149300000.0 0.7097710166 -0.677186657
159250000.0 0.3976706594 -0.9268470579
169200000.0 0.0342522906 -1.018466163
179150000.0 -0.3069334045 -0.9557781546
189100000.0 -0.5795702731 -0.7886687344
199050000.0 -0.7747111395 -0.5706700763
209000000.0 -0.8999688132 -0.3368390631
218950000.0 -0.9680382142 -0.1077271031
228900000.0 -0.9773515536 0.1059875005
238850000.0 -0.9289035967 0.3000049976
248800000.0 -0.8517534983 0.3506220334
258750000.0 -0.734390441 0.5715806516
268700000.0 -0.5914066317 0.6917852684
278650000.0 -0.4358659214 0.789231784
288600000.0 -0.2704763958 0.8617603705
298550000.0 -0.0980380951 0.8978695488
308500000.0 0.0757787247 0.8867006055
318450000.0 0.2430240771 0.8209196889
328400000.0 0.3950290101 0.7035717009
338350000.0 0.5190704227 0.5426637215
348300000.0 0.6011046852 0.3508909179
358250000.0 0.6248042248 0.1467136252
368200000.0 0.5791767227 -0.0395632417
378150000.0 0.4680123969 -0.1762561754
388100000.0 0.318814277 -0.2500071679
398050000.0 0.1660526613 -0.2628178177
408000000.0 0.0340975972 -0.2322618319
417950000.0 -0.0632878316 -0.1789714274
427900000.0 -0.119950108 -0.1200119841
437850000.0 -0.1363548544 -0.0612694642
447800000.0 -0.1233881707 -0.0090634094
457750000.0 -0.0926207105 0.0357293888
467700000.0 -0.0562606306 0.0684921543
477650000.0 -0.0222668489 0.086558061
487600000.0 0.0072397565 0.0803393989
497550000.0 -0.0321212144 0.1162092687
507500000.0 0.0080695946 0.0824527294
517450000.0 0.0125526561 0.0455183209
527400000.0 0.0114227056 0.0090797238
537350000.0 0.0099148385 -0.0226612795
547300000.0 -0.00211681 -0.0460271321
557250000.0 -0.0155906539 -0.0507622577
567200000.0 -0.0334576093 -0.0409625067
577150000.0 -0.0585679313 -0.0215045477
587100000.0 -0.0896057405 0.0028654004
597050000.0 -0.119319317 0.0266703434
607000000.0 -0.1417519623 0.0467309584
616950000.0 -0.1511824256 0.0665506155
626900000.0 -0.1464718928 0.0839336311
636850000.0 -0.1265726042 0.1037923986
646800000.0 -0.0952271698 0.1256864766
656750000.0 -0.059989484 0.1520124117
666700000.0 -0.026715602 0.1732176514
676650000.0 0.0061048512 0.1858964728
686600000.0 0.0332382065 0.1884890994
696550000.0 0.0572482213 0.1723927949
706500000.0 0.0800442038 0.1395169962
716450000.0 0.1043149746 0.0938767659
726400000.0 0.1272449918 0.0428808629
736350000.0 0.1434232568 -0.0075363524
746300000.0 0.1485333619 -0.0542775473
756250000.0 0.1352289755 -0.0931575288
766200000.0 0.1028182757 -0.123356061
776150000.0 0.0499306083 -0.1469036916
786100000.0 -0.0173989922 -0.1641911069
796050000.0 -0.0901124146 -0.1745361783
806000000.0 -0.1629250364 -0.1762070524
815950000.0 -0.2235507154 -0.1630920041
825900000.0 -0.2688522963 -0.1306111235
835850000.0 -0.2987205914 -0.0791867822
845800000.0 -0.3143450079 -0.0086513395
855750000.0 -0.3185730716 0.0740055484
865700000.0 -0.3122291261 0.162982223
875650000.0 -0.2944371572 0.2465600783
885600000.0 -0.2592229122 0.3187079293
895550000.0 -0.2034996134 0.3724644764
905500000.0 -0.1237321306 0.403254465
915450000.0 -0.0241977863 0.4135483745
925400000.0 0.0912685396 0.3986219096
935350000.0 0.2151747165 0.3604400647
945300000.0 0.3333610644 0.2891286406
955250000.0 0.4293064118 0.1773913583
965200000.0 0.4791483271 0.0206380886
975150000.0 0.459128291 -0.1744910574
985100000.0 0.3513978512 -0.3857023875
995050000.0 0.1468279642 -0.5674801186
1005000000.0 -0.1442327691 -0.6601658788
1014950000.0 -0.4624776012 -0.5987977796
1024900000.0 -0.7124139438 -0.3756080041
1034850000.0 -0.8210888221 -0.0558329018
1044800000.0 -0.7862859629 0.2730857983
1054750000.0 -0.6320924312 0.5494742279
1064700000.0 -0.3984812545 0.716144365
1074650000.0 -0.1544065269 0.6804103595
1084600000.0 -0.1062179912 0.7750538914
1094550000.0 0.1655796306 0.7743862802
1104500000.0 0.3895478528 0.6510505918
1114450000.0 0.5548668278 0.478404656
1124400000.0 0.6600902892 0.2818996839
1134350000.0 0.6995289649 0.079216844
1144300000.0 0.6685481589 -0.1160661041
1154250000.0 0.5713013357 -0.2827759931
1164200000.0 0.4293540638 -0.4130117598
1174150000.0 0.2652158767 -0.5018805135
1184100000.0 0.0997008617 -0.5514520424
1194050000.0 -0.0539351806 -0.5663175407
1204000000.0 -0.1898494786 -0.5431791267
1213950000.0 -0.3012524318 -0.4881188258
1223900000.0 -0.3920934764 -0.4026071306
1233850000.0 -0.4607564062 -0.3004416884
1243800000.0 -0.5146382314 -0.1891805367
1253750000.0 -0.5546976843 -0.0839818323
1263700000.0 -0.5823686754 0.0151251433
1273650000.0 -0.5926832059 0.1006986349
1283600000.0 -0.5845784153 0.175210745
1293550000.0 -0.5566405158 0.2434442445
1303500000.0 -0.5107441774 0.3073503086
1313450000.0 -0.4540381233 0.372839579
1323400000.0 -0.3923064288 0.4390914781
1333350000.0 -0.3322091126 0.5028844966
1343300000.0 -0.2750459952 0.5602578574
1353250000.0 -0.2208763756 0.6020013023
1363200000.0 -0.1660440745 0.6272559045
1373150000.0 -0.1083361066 0.6330991686
1383100000.0 -0.0430634808 0.6227587204
1393050000.0 0.0284451299 0.6053497846
1403000000.0 0.1062318013 0.5843508707
1412950000.0 0.1829832349 0.5646051202
1422900000.0 0.2541081622 0.5453359743
1432850000.0 0.3118299089 0.5229356991
1442800000.0 0.3543511292 0.496003267
1452750000.0 0.3826489872 0.462378558
1462700000.0 0.4089236284 0.4196643613
1472650000.0 0.4384084468 0.3643603853
1482600000.0 0.4743615997 0.2978035882
1492550000.0 0.5128132307 0.2250191676
1502500000.0 0.5495928516 0.1504708097
1512450000.0 0.5773183845 0.0767355815
1522400000.0 0.5873029938 0.0042343816
1532350000.0 0.5770556819 -0.0634140907
1542300000.0 0.5447268868 -0.1317686218
1552250000.0 0.4951060142 -0.1985670548
1562200000.0 0.4372782174 -0.2648353389
1572150000.0 0.3755351135 -0.3305761417
1582100000.0 0.3112247154 -0.3928494249
1592050000.0 0.2418017188 -0.4446884811
1602000000.0 0.166477378 -0.4792377263
1611950000.0 0.0853701303 -0.490062038
1621900000.0 0.000437469 -0.4807461239
1631850000.0 -0.0878176816 -0.4571662587
1641800000.0 -0.17283766 -0.4257863355
1651750000.0 -0.2524756099 -0.3912777584
1661700000.0 -0.3240348065 -0.3511748967
1671650000.0 -0.3829175783 -0.3041553442
1681600000.0 -0.4269843928 -0.2436852706
1691550000.0 -0.4542084913 -0.1673583235
1701500000.0 -0.469723447 -0.0822725279
1711450000.0 -0.47591867 0.0087082396
1721400000.0 -0.4761959591 0.0957992929
1731350000.0 -0.4725289328 0.1749066048
1741300000.0 -0.4572739161 0.2419738745
1751250000.0 -0.4280849761 0.2802015532
1761200000.0 -0.4167129455 0.3006657274
1771150000.0 -0.392485206 0.3557900638
1781100000.0 -0.3337050245 0.4087819249
1791050000.0 -0.2617101721 0.4552105335
1801000000.0 -0.192263855 0.4955426015
1810950000.0 -0.129363043 0.5300330522
1820900000.0 -0.0765530253 0.553650668
1830850000.0 -0.0295328708 0.5618769094
1840800000.0 0.015772346 0.5526350367
1850750000.0 0.0639466059 0.5261461321
1860700000.0 0.1172626007 0.4870256144
1870650000.0 0.1743110673 0.4434562486
1880600000.0 0.2298242865 0.4027270026
1890550000.0 0.2778327397 0.3690444746
1900500000.0 0.3142497693 0.3417138048
1910450000.0 0.3336432392 0.3156229934
1920400000.0 0.3351572293 0.2834334171
1930350000.0 0.3220492267 0.2405264136
1940300000.0 0.298763668 0.1850774064
1950250000.0 0.2720397176 0.1201872112
1960200000.0 0.2442567406 0.0549262158
1970150000.0 0.2130834857 -0.0016495975
1980100000.0 0.174064769 -0.0386150167
1990050000.0 0.1163898051 -0.0471246595
2000000000.0 0.0316467221 -0.0126326585
