!Created with skrf (http://scikit-rf.org).
# GHz S RI R 50.0 
!freq ReS11 ImS11
10000000.0 -0.7506340324 0.575064792
19950000.0 -0.271862985 0.9063922608
29900000.0 0.3113816059 0.8907795294
39850000.0 0.7824348919 0.5238078257
49800000.0 0.94385494 -0.0703660762
59750000.0 0.7007907597 -0.6577514461
69700000.0 0.1278713889 -0.9684118355
79650000.0 -0.5237011178 -0.8237251093
89600000.0 -0.923789641 -0.2567170477
99550000.0 -0.8277217113 0.4647697003
109500000.0 -0.2267426051 0.9312989354
119450000.0 0.5594926306 0.7996340311
129400000.0 0.9841610291 0.0843638057
139350000.0 0.6899794376 -0.7055031343
149300000.0 -0.0976573133 -0.9579041301
159250000.0 -0.7665632912 -0.5288271993
169200000.0 -0.8927355919 0.2151053278
179150000.0 -0.4779989686 0.7904198784
189100000.0 0.1784431314 0.9095188652
199050000.0 0.7202587585 0.5677595113
209000000.0 0.9064513552 -0.029051579
218950000.0 0.6855284086 -0.5867631697
228900000.0 0.1812940096 -0.8778004126
238850000.0 -0.3853657245 -0.7992480004
248800000.0 -0.7667133415 -0.4064768212
258750000.0 -0.8669302371 0.1574664118
268700000.0 -0.6064252461 0.6546000614
278650000.0 -0.1086218977 0.8925204518
288600000.0 0.4251455627 0.7775347818
298550000.0 0.7791105446 0.3563178668
308500000.0 0.8035804637 -0.1993834713
318450000.0 0.4791381176 -0.6498974215
328400000.0 -0.0507232654 -0.7879502901
338350000.0 -0.5267976976 -0.5453250283
348300000.0 -0.6995365827 -0.0610447946
358250000.0 -0.497730443 0.374479322
368200000.0 -0.0908159471 0.5164120849
378150000.0 0.2371455 0.3438926761
388100000.0 0.3135614992 0.0451324813
398050000.0 0.1742228555 -0.1564616702
408000000.0 -0.0182592127 -0.1694775851
417950000.0 -0.118103886 -0.0553477025
427900000.0 -0.0900720814 0.0659907758
437850000.0 0.0099857586 0.1053851117
447800000.0 0.0956849181 0.0497045999
457750000.0 0.1107570399 -0.0494912445
467700000.0 0.0514974633 -0.1277816979
477650000.0 -0.0386564409 -0.1415601727
487600000.0 -0.108531287 -0.0909941822
497550000.0 -0.1272619269 -0.0100171806
507500000.0 -0.0902648886 0.060811614
517450000.0 -0.024711962 0.0874230367
527400000.0 0.0316043379 0.0689836424
537350000.0 0.0520216554 0.0262275123
547300000.0 0.0373960388 -0.0091118859
557250000.0 0.0031490037 -0.017334658
567200000.0 -0.0191147436 0.0032712817
577150000.0 -0.010448004 0.0303912775
587100000.0 0.0243256533 0.0362152224
597050000.0 0.0612431147 0.0046719519
607000000.0 0.0690612521 -0.0545812602
616950000.0 0.0318886705 -0.1114175798
626900000.0 -0.038717958 -0.1328952772
636850000.0 -0.1106824009 -0.0993128898
646800000.0 -0.1482996076 -0.0207843658
656750000.0 -0.1289715957 0.0708811544
666700000.0 -0.0540542151 0.1346343746
676650000.0 0.0466946493 0.1376198166
686600000.0 0.1296018677 0.0730980764
696550000.0 0.1547180279 -0.0323166277
706500000.0 0.1072968956 -0.1310194476
716450000.0 0.0091906158 -0.1773516956
726400000.0 -0.0927690214 -0.1453554026
736350000.0 -0.1435814688 -0.0514408263
746300000.0 -0.1132546005 0.0560585226
756250000.0 -0.0126973187 0.1187970605
766200000.0 0.106213724 0.0959634142
776150000.0 0.1806432165 -0.001902113
786100000.0 0.1638892518 -0.1273234217
796050000.0 0.0571917636 -0.2082544215
806000000.0 -0.0864433981 -0.1894384881
815950000.0 -0.1919228759 -0.0667646491
825900000.0 -0.1915142761 0.1077836606
835850000.0 -0.072928917 0.2484109848
845800000.0 0.1146889953 0.2790094334
855750000.0 0.2866011441 0.1751579336
865700000.0 0.3580695 -0.0261694604
875650000.0 0.2815321222 -0.2382157037
885600000.0 0.074529243 -0.3555956554
895550000.0 -0.1740139889 -0.3049727458
905500000.0 -0.3382311717 -0.0920835094
915450000.0 -0.3237673392 0.1906407577
925400000.0 -0.1229865007 0.398441683
935350000.0 0.1689330179 0.4157560322
945300000.0 0.399684866 0.2168861652
955250000.0 0.4267489238 -0.1124135337
965200000.0 0.1882297335 -0.3898970319
975150000.0 -0.2144112252 -0.4017352399
985100000.0 -0.5088904993 -0.0702604766
995050000.0 -0.4315661765 0.4048720754
1005000000.0 0.0223048137 0.6586469085
1014950000.0 0.5415994891 0.4390946713
1024900000.0 0.7059228689 -0.1544392698
1034850000.0 0.3182729245 -0.6851973705
1044800000.0 -0.3528044237 -0.6953918173
1054750000.0 -0.7494649319 -0.1792738651
1064700000.0 -0.6993541296 0.3892917466
1074650000.0 -0.2420118989 0.7838847035
1084600000.0 0.3386201448 0.7241409861
1094550000.0 0.709096808 0.2748014179
1104500000.0 0.6546289438 -0.3093040993
1114450000.0 0.2083954384 -0.6755597426
1124400000.0 -0.3345167608 -0.6115101728
1134350000.0 -0.6492617222 -0.2086641325
1144300000.0 -0.6075642678 0.2665799431
1154250000.0 -0.281521411 0.577892395
1164200000.0 0.151231992 0.5978979989
1174150000.0 0.4872818293 0.3318119849
1184100000.0 0.561230728 -0.0937256967
1194050000.0 0.3327545081 -0.4522875816
1204000000.0 -0.0573697744 -0.5634398781
1213950000.0 -0.4076322664 -0.4076898739
1223900000.0 -0.5832936614 -0.0878467806
1233850000.0 -0.5408496137 0.261549793
1243800000.0 -0.306122965 0.5185286136
1253750000.0 0.040119733 0.5880529922
1263700000.0 0.369406078 0.4303469286
1273650000.0 0.5421011124 0.09886686
1283600000.0 0.4846019426 -0.2666569443
1293550000.0 0.2368590044 -0.5210841416
1303500000.0 -0.0920175683 -0.5877899201
1313450000.0 -0.3878818116 -0.4689985108
1323400000.0 -0.5702441989 -0.2171261028
1333350000.0 -0.6019320574 0.0964806116
1343300000.0 -0.4609633186 0.3896464452
1353250000.0 -0.1681489083 0.56004111
1363200000.0 0.1837818766 0.5278274213
1373150000.0 0.4568873924 0.2906232641
1383100000.0 0.5444443943 -0.0539943077
1393050000.0 0.4316486224 -0.3758620387
1403000000.0 0.1787275141 -0.5736302506
1412950000.0 -0.1204370569 -0.6026892545
1422900000.0 -0.3796366619 -0.4702135354
1432850000.0 -0.5306600163 -0.2135309157
1442800000.0 -0.5237976045 0.1002548694
1452750000.0 -0.3365816471 0.3686731112
1462700000.0 -0.0229277601 0.4817008279
1472650000.0 0.294150345 0.3919364145
1482600000.0 0.4920593756 0.1424562023
1492550000.0 0.5103029024 -0.16129732
1502500000.0 0.3595519748 -0.4117231344
1512450000.0 0.1012135232 -0.5283778712
1522400000.0 -0.173657393 -0.4737520382
1532350000.0 -0.3657535743 -0.2646242059
1542300000.0 -0.3975950419 0.0320160496
1552250000.0 -0.2422704287 0.2915839148
1562200000.0 0.033174407 0.4009271871
1572150000.0 0.3057008599 0.3219056004
1582100000.0 0.4662963605 0.1028444755
1592050000.0 0.4617579607 -0.1632345653
1602000000.0 0.296608968 -0.37343561
1611950000.0 0.0297659099 -0.4463019846
1621900000.0 -0.239584252 -0.3403860791
1631850000.0 -0.3980879242 -0.0819545734
1641800000.0 -0.3693263171 0.2257590361
1651750000.0 -0.1597332811 0.4523474929
1661700000.0 0.1379230027 0.5056353977
1671650000.0 0.4042238382 0.3759619422
1681600000.0 0.5485170575 0.1202949319
1691550000.0 0.528995751 -0.1752993191
1701500000.0 0.3464891537 -0.418819576
1711450000.0 0.0519592176 -0.5249912529
1721400000.0 -0.2644644589 -0.4427254839
1731350000.0 -0.4862470579 -0.186389524
1741300000.0 -0.5254639177 0.1523196024
1751250000.0 -0.3733785639 0.4462817984
1761200000.0 -0.0961734809 0.5995603838
1771150000.0 0.208750548 0.5812992492
1781100000.0 0.4543292275 0.4107498196
1791050000.0 0.5791291058 0.1376465421
1801000000.0 0.5471141272 -0.1673460278
1810950000.0 0.3581568124 -0.4172448959
1820900000.0 0.0646644758 -0.5230277803
1830850000.0 -0.2337615279 -0.4541927527
1840800000.0 -0.4586539128 -0.2374671469
1850750000.0 -0.5292941815 0.0665361976
1860700000.0 -0.4302682106 0.3446275949
1870650000.0 -0.2169756502 0.5193611786
1880600000.0 0.0389311623 0.5574268638
1890550000.0 0.2669039574 0.4613374906
1900500000.0 0.4081366056 0.2620118628
1910450000.0 0.424105324 0.0161173387
1920400000.0 0.3091774264 -0.1985380785
1930350000.0 0.1048898639 -0.3078223539
1940300000.0 -0.1072969053 -0.2857705261
1950250000.0 -0.252525836 -0.1660195963
1960200000.0 -0.29864743 -0.0144512841
1970150000.0 -0.2600073434 0.1058046137
1980100000.0 -0.1819948007 0.1563732439
1990050000.0 -0.1258318954 0.1368455886
2000000000.0 -0.1419788641 0.0927173059
