!Created with skrf (http://scikit-rf.org).
# GHz S RI R 50.0 
!freq ReS11 ImS11
10000000.0 -0.7844123058 0.5860990189
19950000.0 -0.288287812 0.9200304126
29900000.0 0.3094748134 0.9008655042
39850000.0 0.7907430148 0.5289953104
49800000.0 0.9609650804 -0.0711002321
59750000.0 0.7227238438 -0.6684455176
69700000.0 0.1435983352 -0.9901769862
79650000.0 -0.5235124097 -0.8494742576
89600000.0 -0.9372004422 -0.2781063123
99550000.0 -0.8467480977 0.4503059408
109500000.0 -0.2454378703 0.9268923262
119450000.0 0.5520705959 0.8083732832
129400000.0 0.9979468195 0.0930746759
139350000.0 0.7121622477 -0.7104622981
149300000.0 -0.0869868072 -0.9751290073
159250000.0 -0.770155217 -0.5454818445
169200000.0 -0.9040734288 0.208467235
179150000.0 -0.4844235294 0.8004912305
189100000.0 0.1935833372 0.9305850917
199050000.0 0.7569161879 0.582545642
209000000.0 0.9452216082 -0.0304132555
218950000.0 0.7096616383 -0.5974959796
228900000.0 0.1883106135 -0.8892466056
238850000.0 -0.3924346181 -0.8075943839
248800000.0 -0.7681296885 -0.3838074772
258750000.0 -0.8979921707 0.1642917561
268700000.0 -0.6346084117 0.6763503349
278650000.0 -0.1192144203 0.9220572806
288600000.0 0.4344367297 0.801940011
298550000.0 0.798170105 0.3706280388
308500000.0 0.8243988436 -0.1936727362
318450000.0 0.4980958187 -0.65278468
328400000.0 -0.0406586119 -0.800379044
338350000.0 -0.5339747329 -0.561910844
348300000.0 -0.7220489814 -0.0704518335
358250000.0 -0.5247639439 0.3753798733
368200000.0 -0.1109580505 0.5247678163
378150000.0 0.226804109 0.3547011365
388100000.0 0.3106767551 0.0501060079
398050000.0 0.1738651756 -0.1606218935
408000000.0 -0.0236634675 -0.1776292994
417950000.0 -0.124133091 -0.0614141408
427900000.0 -0.0906889871 0.0609773325
437850000.0 0.0133606312 0.0998335878
447800000.0 0.1048506955 0.0440479968
457750000.0 0.1236364397 -0.0560738976
467700000.0 0.0644068922 -0.1349830177
477650000.0 -0.0292619143 -0.1507069224
487600000.0 -0.10467482 -0.0968004215
497550000.0 -0.1240458265 -0.0155377677
507500000.0 -0.0906830064 0.0598193594
517450000.0 -0.0202074382 0.0882656355
527400000.0 0.0376537016 0.0683367541
537350000.0 0.0578886004 0.0260753455
547300000.0 0.0388670907 -0.0088722698
557250000.0 0.0030317461 -0.0127975653
567200000.0 -0.018147795 0.0119186673
577150000.0 -0.0063473563 0.0448359719
587100000.0 0.0350431811 0.0533524314
597050000.0 0.0769474366 0.0219259398
607000000.0 0.0873246775 -0.0415188152
616950000.0 0.0501380096 -0.1071282939
626900000.0 -0.0281869941 -0.136399524
636850000.0 -0.115252022 -0.1099398592
646800000.0 -0.1658745178 -0.0321113263
656750000.0 -0.1572350016 0.0659439153
666700000.0 -0.0870197911 0.1387457509
676650000.0 0.0171763913 0.152543854
686600000.0 0.1097502368 0.0976364807
696550000.0 0.149151485 -0.0071880926
706500000.0 0.1163612993 -0.1108850773
716450000.0 0.0278818398 -0.1664816272
726400000.0 -0.0697876075 -0.1492203829
736350000.0 -0.1273339866 -0.0684431405
746300000.0 -0.1089307133 0.030481357
756250000.0 -0.0224670256 0.0912672541
766200000.0 0.0834413978 0.0744344706
776150000.0 0.1528972449 -0.0154468177
786100000.0 0.1360734216 -0.127962181
796050000.0 0.0353865605 -0.2007496436
806000000.0 -0.0985854092 -0.176137446
815950000.0 -0.1941743941 -0.050745783
825900000.0 -0.1801903288 0.1215623944
835850000.0 -0.0491095977 0.2573974443
845800000.0 0.1484011201 0.27819232
855750000.0 0.324501507 0.1637582273
865700000.0 0.3899912034 -0.04959278
875650000.0 0.298492212 -0.2673960393
885600000.0 0.0738961597 -0.3840725933
895550000.0 -0.1893361501 -0.3278539684
905500000.0 -0.3677300665 -0.1062604592
915450000.0 -0.3651011263 0.1891352536
925400000.0 -0.169857761 0.4177169153
935350000.0 0.1316025244 0.4629724346
945300000.0 0.3912462532 0.2889033828
955250000.0 0.465840258 -0.0315775558
965200000.0 0.289286758 -0.3342711059
975150000.0 -0.0775888188 -0.4347895695
985100000.0 -0.4321736381 -0.2184631803
995050000.0 -0.5062528768 0.2245791924
1005000000.0 -0.1898186397 0.5894394816
1014950000.0 0.3322040336 0.5726638138
1024900000.0 0.6789312577 0.1162042562
1034850000.0 0.5296455341 -0.4947769459
1044800000.0 -0.0857331241 -0.7732392034
1054750000.0 -0.6996034652 -0.4406951385
1064700000.0 -0.8070369462 0.2137149726
1074650000.0 -0.4474745971 0.7291946662
1084600000.0 0.1773899835 0.820580789
1094550000.0 0.6751657276 0.4442166831
1104500000.0 0.7593947022 -0.173948126
1114450000.0 0.3743059717 -0.6611513958
1124400000.0 -0.2223749725 -0.7080516452
1134350000.0 -0.6357656524 -0.3312977951
1144300000.0 -0.6606246442 0.1853030151
1154250000.0 -0.348983879 0.5521709576
1164200000.0 0.1029701837 0.6129740028
1174150000.0 0.4721246469 0.366910023
1184100000.0 0.5806821759 -0.0648495476
1194050000.0 0.3631712314 -0.4485046588
1204000000.0 -0.0429244942 -0.5746833203
1213950000.0 -0.410023533 -0.4125733271
1223900000.0 -0.5867333088 -0.0753356536
1233850000.0 -0.5290992178 0.2862511888
1243800000.0 -0.2711092244 0.5425662563
1253750000.0 0.0950965015 0.5947074937
1263700000.0 0.4259941372 0.4093299668
1273650000.0 0.5765074593 0.0547556734
1283600000.0 0.4839142823 -0.3143614441
1293550000.0 0.2051954151 -0.5516364317
1303500000.0 -0.1396293652 -0.5887146293
1313450000.0 -0.4396170548 -0.4435335066
1323400000.0 -0.6159912772 -0.1670580762
1333350000.0 -0.6218301146 0.1660438707
1343300000.0 -0.4386074579 0.4593513823
1353250000.0 -0.1070399736 0.6019989128
1363200000.0 0.2579734503 0.5236535378
1373150000.0 0.5122056367 0.2470987389
1383100000.0 0.5655461717 -0.1152181821
1393050000.0 0.4197614684 -0.4331000166
1403000000.0 0.1419106631 -0.6144574206
1412950000.0 -0.1755283789 -0.6216036019
1422900000.0 -0.4454463563 -0.4609730349
1432850000.0 -0.5889432882 -0.1736174523
1442800000.0 -0.5503613295 0.1595410982
1452750000.0 -0.3228586492 0.4212276693
1462700000.0 0.0169730901 0.5080021503
1472650000.0 0.3400997259 0.3875521906
1482600000.0 0.5307504179 0.117261818
1492550000.0 0.5364724616 -0.1977721467
1502500000.0 0.3701713889 -0.4516196236
1512450000.0 0.0958116284 -0.5628728934
1522400000.0 -0.1933300587 -0.4936391361
1532350000.0 -0.3905580763 -0.2626091097
1542300000.0 -0.4151469621 0.0492955574
1552250000.0 -0.2459672557 0.3165363527
1562200000.0 0.0421376043 0.4241202902
1572150000.0 0.3261317144 0.3394935352
1582100000.0 0.4922633386 0.1081398551
1592050000.0 0.4820319164 -0.1701836149
1602000000.0 0.3032575053 -0.3860331394
1611950000.0 0.0221842429 -0.453110876
1621900000.0 -0.254863322 -0.3344748509
1631850000.0 -0.4117760551 -0.0636726937
1641800000.0 -0.3707519516 0.2527618472
1651750000.0 -0.1465911866 0.4774765254
1661700000.0 0.1631415145 0.5185434064
1671650000.0 0.4319151881 0.3696121973
1681600000.0 0.5644377684 0.094965247
1691550000.0 0.5206322718 -0.2108173955
1701500000.0 0.31109035 -0.4474105459
1711450000.0 -0.0042344953 -0.5335914279
1721400000.0 -0.3274568314 -0.4237135549
1731350000.0 -0.535913866 -0.1421904096
1741300000.0 -0.5451297243 0.2088498102
1751250000.0 -0.3562021961 0.4960166881
1761200000.0 -0.0495251709 0.6241153522
1771150000.0 0.2681816073 0.5695686067
1781100000.0 0.5075502841 0.362929801
1791050000.0 0.6095510886 0.0625959297
1801000000.0 0.5432832492 -0.2546434489
1810950000.0 0.3141026488 -0.4984731905
1820900000.0 -0.0207717838 -0.5790058585
1830850000.0 -0.347951437 -0.4523735173
1840800000.0 -0.5406089078 -0.1622659661
1850750000.0 -0.5232520226 0.161967345
1860700000.0 -0.4020083587 0.372572458
1870650000.0 -0.1835070879 0.5523099134
1880600000.0 0.0958306018 0.5768612776
1890550000.0 0.3386504999 0.4551419482
1900500000.0 0.4817982127 0.2245047943
1910450000.0 0.4814417388 -0.0507219334
1920400000.0 0.3299910436 -0.2821797369
1930350000.0 0.0798793342 -0.3865022185
1940300000.0 -0.1688682021 -0.3372336676
1950250000.0 -0.3340707376 -0.1785908658
1960200000.0 -0.3850806413 0.0160239038
1970150000.0 -0.3343902477 0.1813755558
1980100000.0 -0.2225315957 0.2748423081
1990050000.0 -0.1028651976 0.2830002137
2000000000.0 -0.0275841646 0.2270274484
