!Created with skrf (http://scikit-rf.org).
# GHz S RI R 50.0 
!freq ReS11 ImS11
10000000.0 -0.8899514876 0.4465230365
19950000.0 -0.6007328921 0.7858661699
29900000.0 -0.1916889489 0.9671666912
39850000.0 0.2627180847 0.9503873794
49800000.0 0.6706632973 0.72563129
59750000.0 0.9364851403 0.3250560527
69700000.0 0.9795128957 -0.1705877319
79650000.0 0.763037927 -0.6390725578
89600000.0 0.3195296866 -0.9401316325
99550000.0 -0.2387847058 -0.9576338786
109500000.0 -0.7337003129 -0.6481625973
119450000.0 -0.9686787222 -0.0843434911
129400000.0 -0.8115099472 0.529661235
139350000.0 -0.2831477875 0.928489391
149300000.0 0.3843910294 0.8940563155
159250000.0 0.8661943723 0.4456549385
169200000.0 0.9530678093 -0.1803146694
179150000.0 0.6600493649 -0.7002748499
189100000.0 0.1532985585 -0.941409643
199050000.0 -0.3723923234 -0.8713134043
209000000.0 -0.7675918058 -0.5508936766
218950000.0 -0.9396269238 -0.0941709906
228900000.0 -0.8665132115 0.3787504559
238850000.0 -0.5734293811 0.7527973085
248800000.0 -0.2609310853 0.8018116906
258750000.0 0.2706853563 0.9013918205
268700000.0 0.6558833277 0.6636768246
278650000.0 0.8771738354 0.2804195873
288600000.0 0.8919128136 -0.1569960851
298550000.0 0.6991752164 -0.5472488287
308500000.0 0.3423045196 -0.7956779703
318450000.0 -0.0912551946 -0.8343323612
328400000.0 -0.4813821748 -0.6453388738
338350000.0 -0.7061729825 -0.2820265793
348300000.0 -0.6906889906 0.130907213
358250000.0 -0.4539871562 0.4403542539
368200000.0 -0.1121840265 0.5405932891
378150000.0 0.1836739739 0.4305428209
388100000.0 0.3308199602 0.2000637325
398050000.0 0.3120110651 -0.0318772207
408000000.0 0.1808707906 -0.1765627052
417950000.0 0.0205164571 -0.2062786929
427900000.0 -0.1011061229 -0.1439478597
437850000.0 -0.1500522023 -0.0408389821
447800000.0 -0.1306040592 0.0533175797
457750000.0 -0.0695518557 0.1069212377
467700000.0 -0.0016511522 0.1118032971
477650000.0 0.0454497718 0.080078104
487600000.0 0.0535044242 0.0357008654
497550000.0 0.1003673428 0.0312876086
507500000.0 0.0458134507 -0.0254480581
517450000.0 0.0127478652 -0.0252315122
527400000.0 -0.003454891 -0.007372841
537350000.0 0.0013876904 0.0133373993
547300000.0 0.0277786606 0.0227405976
557250000.0 0.0565570838 0.0057899127
567200000.0 0.0737525411 -0.030857673
577150000.0 0.0684579246 -0.078921721
587100000.0 0.0356230987 -0.1242073194
597050000.0 -0.0208063924 -0.1501834582
607000000.0 -0.0879643276 -0.1457074988
616950000.0 -0.1486235551 -0.1068564044
626900000.0 -0.1846429377 -0.0404998903
636850000.0 -0.1847308141 0.0383665987
646800000.0 -0.1457807146 0.1099858435
656750000.0 -0.0760602476 0.1559822424
666700000.0 0.0085968801 0.1636450244
676650000.0 0.0867007766 0.130405021
686600000.0 0.1382880256 0.0648788587
696550000.0 0.1507291125 -0.0149486308
706500000.0 0.1215307586 -0.0864163628
716450000.0 0.0609723845 -0.1287499631
726400000.0 -0.0116255234 -0.1293308174
736350000.0 -0.0704348986 -0.0867460913
746300000.0 -0.0937368468 -0.0145082713
756250000.0 -0.0685691126 0.0632564966
766200000.0 0.0016947669 0.1166884403
776150000.0 0.097085027 0.1224154517
786100000.0 0.1872839285 0.0712376309
796050000.0 0.2397971358 -0.0278524805
806000000.0 0.2322049565 -0.1484228024
815950000.0 0.1561811213 -0.2567396309
825900000.0 0.0256358313 -0.3169404073
835850000.0 -0.1300267134 -0.304099401
845800000.0 -0.2701466941 -0.2108680492
855750000.0 -0.3544934936 -0.0525395408
865700000.0 -0.3533668895 0.1357846039
875650000.0 -0.2601093664 0.3076393083
885600000.0 -0.092466183 0.4168596127
895550000.0 0.1111494727 0.432934904
905500000.0 0.3002981909 0.346954042
915450000.0 0.4253406853 0.1750701515
925400000.0 0.4478546553 -0.0434864882
935350000.0 0.3494425903 -0.2511241366
945300000.0 0.1434737544 -0.3810213175
955250000.0 -0.1170361841 -0.3712418973
965200000.0 -0.3365465313 -0.1966917833
975150000.0 -0.4052920072 0.0997576313
985100000.0 -0.2523401598 0.3955702484
995050000.0 0.0891058396 0.5263178254
1005000000.0 0.4669756407 0.3799911416
1014950000.0 0.667637074 -0.0220860215
1024900000.0 0.535638975 -0.4963314191
1034850000.0 0.090968552 -0.7799632723
1044800000.0 -0.4476068436 -0.6955617296
1054750000.0 -0.790343086 -0.279166056
1064700000.0 -0.8186929717 0.1685971228
1074650000.0 -0.6182110762 0.6090644115
1084600000.0 -0.1988439363 0.8335950652
1094550000.0 0.2587814348 0.7951456375
1104500000.0 0.6146113596 0.5134419922
1114450000.0 0.7495410776 0.0842149057
1124400000.0 0.6139419858 -0.3379345646
1134350000.0 0.2669373954 -0.5915583433
1144300000.0 -0.1403591098 -0.5899340776
1154250000.0 -0.4442577858 -0.366365876
1164200000.0 -0.5551068303 -0.0404206414
1174150000.0 -0.4778982542 0.2679268814
1184100000.0 -0.2571336719 0.4769684138
1194050000.0 0.0334214856 0.5306764215
1204000000.0 0.3027336666 0.423495866
1213950000.0 0.4744717708 0.1933920941
1223900000.0 0.5039293829 -0.0899478479
1233850000.0 0.3901496439 -0.3466355391
1243800000.0 0.1730087981 -0.5133385242
1253750000.0 -0.0882804234 -0.5608235522
1263700000.0 -0.335000748 -0.4910447064
1273650000.0 -0.522931355 -0.3295933341
1283600000.0 -0.6256832407 -0.1108537744
1293550000.0 -0.631921633 0.1285675111
1303500000.0 -0.5421992068 0.3519479113
1313450000.0 -0.3683542091 0.5240209309
1323400000.0 -0.1344210492 0.6151481619
1333350000.0 0.1224449871 0.6045913838
1343300000.0 0.3585832102 0.489818764
1353250000.0 0.5300536625 0.2882935448
1363200000.0 0.6076186244 0.0375603529
1373150000.0 0.5818634637 -0.2181681588
1383100000.0 0.4632527852 -0.4374811134
1393050000.0 0.2773730402 -0.5899483277
1403000000.0 0.0552627562 -0.6598770307
1412950000.0 -0.171336342 -0.6423195523
1422900000.0 -0.3726863059 -0.5431865759
1432850000.0 -0.5215420771 -0.375159747
1442800000.0 -0.5971021921 -0.1612563665
1452750000.0 -0.5857775108 0.0697762724
1462700000.0 -0.4836207845 0.2847950004
1472650000.0 -0.2999902556 0.4459330204
1482600000.0 -0.0642350626 0.5194622973
1492550000.0 0.1783610328 0.4892233047
1502500000.0 0.3810530607 0.3641590574
1512450000.0 0.5077945276 0.173052677
1522400000.0 0.5417167055 -0.0437624939
1532350000.0 0.4831858744 -0.246670609
1542300000.0 0.3481753237 -0.4011704525
1552250000.0 0.1612654204 -0.4816675355
1562200000.0 -0.0424736922 -0.4727029002
1572150000.0 -0.224272182 -0.3736563503
1582100000.0 -0.3445228734 -0.2002391807
1592050000.0 -0.3727678566 0.0117027801
1602000000.0 -0.3002270635 0.2125070131
1611950000.0 -0.1432865339 0.3531460949
1621900000.0 0.0564548416 0.4032738687
1631850000.0 0.2514089984 0.3561574509
1641800000.0 0.4007039618 0.2268102307
1651750000.0 0.4748344983 0.0447859515
1661700000.0 0.4600693191 -0.153504191
1671650000.0 0.3570773177 -0.3296658708
1681600000.0 0.181657438 -0.4471373746
1691550000.0 -0.0357112928 -0.4784315554
1701500000.0 -0.252558198 -0.4094966499
1711450000.0 -0.4218985494 -0.2492784979
1721400000.0 -0.5068014759 -0.0291675065
1731350000.0 -0.4889591688 0.2048556456
1741300000.0 -0.3768439674 0.4068658872
1751250000.0 -0.1966660461 0.5427020041
1761200000.0 0.0168980979 0.5955770182
1771150000.0 0.2302210763 0.5638371809
1781100000.0 0.4135964759 0.4560741284
1791050000.0 0.5443177909 0.2888513392
1801000000.0 0.604008571 0.0831658118
1810950000.0 0.5823866877 -0.1336238645
1820900000.0 0.4777154506 -0.3297709171
1830850000.0 0.3021557605 -0.4726309102
1840800000.0 0.0825771107 -0.5357604668
1850750000.0 -0.1436534127 -0.5074125124
1860700000.0 -0.3364099053 -0.3944919043
1870650000.0 -0.4655995484 -0.2215210248
1880600000.0 -0.5166776877 -0.0230090387
1890550000.0 -0.491278279 0.1686953561
1900500000.0 -0.4024450527 0.3263636607
1910450000.0 -0.2700937313 0.4326338054
1920400000.0 -0.1171606984 0.4776994043
1930350000.0 0.032515528 0.4600054448
1940300000.0 0.1545477525 0.3866118169
1950250000.0 0.2290654987 0.2750396012
1960200000.0 0.2445822307 0.1515359304
1970150000.0 0.2041962145 0.0469822012
1980100000.0 0.1282545674 -0.0125957891
1990050000.0 0.0500515811 -0.0149686458
2000000000.0 0.0069775948 0.0332353732
