!Created with skrf (http://scikit-rf.org).
# GHz S RI R 50.0 
!freq ReS11 ImS11
10000000.0 -0.8042576723 0.6024704475
19950000.0 -0.2922104848 0.9475031703
29900000.0 0.3225124893 0.9294346022
39850000.0 0.8152171495 0.5511059851
49800000.0 0.9895592073 -0.0576768988
59750000.0 0.7517675879 -0.6616197265
69700000.0 0.172944728 -0.991746637
79650000.0 -0.499319623 -0.8677534785
89600000.0 -0.9345846809 -0.3173792615
99550000.0 -0.8854626902 0.4035732169
109500000.0 -0.3326622571 0.9094721512
119450000.0 0.4483353442 0.8672046083
129400000.0 0.94679873 0.2489373334
139350000.0 0.8042921612 -0.5802264991
149300000.0 0.0736656 -0.9754924526
159250000.0 -0.6800311294 -0.6767937482
169200000.0 -0.9484584481 0.0583038552
179150000.0 -0.6115552894 0.7328738281
189100000.0 0.0778680037 0.962530545
199050000.0 0.7111613674 0.6631622568
209000000.0 0.9667180463 0.0362822151
218950000.0 0.7579330022 -0.5786534345
228900000.0 0.2211401358 -0.9123256662
238850000.0 -0.3967289654 -0.8405987446
248800000.0 -0.7410543943 -0.2828812621
258750000.0 -0.9208606715 0.163805821
268700000.0 -0.6304219009 0.6986424849
278650000.0 -0.0763195636 0.9333567423
288600000.0 0.4975655932 0.7727951831
298550000.0 0.8418941253 0.2939942262
308500000.0 0.810074335 -0.289976408
318450000.0 0.4177908018 -0.7165133569
328400000.0 -0.1506786252 -0.785412736
338350000.0 -0.6079657406 -0.4628737737
348300000.0 -0.7102979218 0.0621793244
358250000.0 -0.4308333421 0.4743874995
368200000.0 0.0129303889 0.5514929415
378150000.0 0.3318034291 0.3149897778
388100000.0 0.3711251446 -0.0253478779
398050000.0 0.1822107853 -0.2447998453
408000000.0 -0.0579929217 -0.2498179046
417950000.0 -0.1926784632 -0.1043639673
427900000.0 -0.1758560236 0.0601344021
437850000.0 -0.0628922957 0.142802893
447800000.0 0.055561888 0.1193200986
457750000.0 0.1117541843 0.0317210583
467700000.0 0.0914943015 -0.0547157791
477650000.0 0.0279435452 -0.0927885722
487600000.0 -0.0280108279 -0.0741607979
497550000.0 -0.0156078516 -0.0879027133
507500000.0 -0.0585101461 2.75542e-05
517450000.0 -0.0232445315 0.0118580482
527400000.0 -0.0058639598 -0.0055141895
537350000.0 -0.0181095306 -0.0262134156
547300000.0 -0.0512629212 -0.0236955898
557250000.0 -0.075666816 0.0138471086
567200000.0 -0.0649410106 0.068530162
577150000.0 -0.0113654219 0.1100136336
587100000.0 0.066662513 0.1068785727
597050000.0 0.1334277698 0.0490777997
607000000.0 0.1523822981 -0.0463979375
616950000.0 0.1064024792 -0.139456838
626900000.0 0.0094885796 -0.1888198779
636850000.0 -0.1007442688 -0.168947675
646800000.0 -0.1769745757 -0.0848611769
656750000.0 -0.1857865189 0.0290475367
666700000.0 -0.1217367661 0.1236255833
676650000.0 -0.0141629113 0.1571756547
686600000.0 0.0881957176 0.1163129231
696550000.0 0.1394679617 0.0237540779
706500000.0 0.1190759283 -0.0733038624
716450000.0 0.0438198704 -0.1266444482
726400000.0 -0.0421352149 -0.1109446991
736350000.0 -0.0866567031 -0.0379967607
746300000.0 -0.0603563245 0.0459411832
756250000.0 0.0254284938 0.0858368352
766200000.0 0.1212908953 0.0481409141
776150000.0 0.1651258057 -0.056710148
786100000.0 0.1179331156 -0.1741310903
796050000.0 -0.0121515215 -0.2328335548
806000000.0 -0.1655685482 -0.1816960676
815950000.0 -0.2571580095 -0.0274691341
825900000.0 -0.2312239004 0.1660172625
835850000.0 -0.080521285 0.3148605479
845800000.0 0.1429610816 0.341290719
855750000.0 0.345205111 0.2191275885
865700000.0 0.4328487833 -0.0110685098
875650000.0 0.3567878239 -0.2560582938
885600000.0 0.1349418633 -0.4086788659
895550000.0 -0.1461700234 -0.3902249277
905500000.0 -0.3611522218 -0.191769434
915450000.0 -0.400770587 0.1024760466
925400000.0 -0.245053026 0.3533926573
935350000.0 0.0374853583 0.4441173917
945300000.0 0.3117374095 0.3194308027
955250000.0 0.4262565454 0.0298642512
965200000.0 0.2899508782 -0.2703105167
975150000.0 -0.0505010083 -0.3797657218
985100000.0 -0.3805294608 -0.1680852254
995050000.0 -0.421247186 0.2592753538
1005000000.0 -0.0733297487 0.5789336156
1014950000.0 0.4376705777 0.4880174375
1024900000.0 0.7099290328 -0.0156431908
1034850000.0 0.4690796037 -0.5972150257
1044800000.0 -0.1781144105 -0.7903440722
1054750000.0 -0.7516088408 -0.4032092318
1064700000.0 -0.8162339027 0.2511983269
1074650000.0 -0.4678517873 0.7352975741
1084600000.0 0.1308083859 0.849149319
1094550000.0 0.6410761483 0.5273488359
1104500000.0 0.7848748339 -0.06529862
1114450000.0 0.4590726445 -0.5841064949
1124400000.0 -0.1255669924 -0.6926530711
1134350000.0 -0.5664752259 -0.3591418777
1144300000.0 -0.6224447896 0.1393809979
1154250000.0 -0.3387230748 0.4965507975
1164200000.0 0.0884889352 0.5570945728
1174150000.0 0.4314866735 0.3021619937
1184100000.0 0.4878775048 -0.1187300792
1194050000.0 0.2332050078 -0.44632993
1204000000.0 -0.15996112 -0.5009436671
1213950000.0 -0.4717447083 -0.2925308818
1223900000.0 -0.5768081184 0.0492514541
1233850000.0 -0.455539589 0.3775408359
1243800000.0 -0.159024962 0.5709624738
1253750000.0 0.2056365033 0.5491368446
1263700000.0 0.4924748173 0.304588189
1273650000.0 0.576845712 -0.0685766578
1283600000.0 0.4258797208 -0.415327356
1293550000.0 0.1157147521 -0.6088120301
1303500000.0 -0.2358183411 -0.6009908579
1313450000.0 -0.5219162191 -0.4136225963
1323400000.0 -0.6674087256 -0.1047397144
1333350000.0 -0.6275522726 0.2408312992
1343300000.0 -0.3984577003 0.521693994
1353250000.0 -0.0385979609 0.6328755699
1363200000.0 0.3300382884 0.5199014599
1373150000.0 0.571148873 0.2206481515
1383100000.0 0.6065145444 -0.1508637972
1393050000.0 0.4446084059 -0.4687975265
1403000000.0 0.1523651688 -0.6475067891
1412950000.0 -0.1813830668 -0.6476388817
1422900000.0 -0.4646865289 -0.47439657
1432850000.0 -0.6138778064 -0.1726945976
1442800000.0 -0.5755129756 0.1688898399
1452750000.0 -0.3528698504 0.4385293317
1462700000.0 -0.0167864396 0.5424680577
1472650000.0 0.3161347062 0.4448774367
1482600000.0 0.5323960956 0.1876386944
1492550000.0 0.5687385028 -0.1324470638
1502500000.0 0.4274794056 -0.4089792757
1512450000.0 0.1615156126 -0.5558858056
1522400000.0 -0.141060247 -0.525343055
1532350000.0 -0.3723050818 -0.3215998431
1542300000.0 -0.4390954763 -0.016829672
1552250000.0 -0.309732699 0.2663473159
1562200000.0 -0.0417992349 0.4083846636
1572150000.0 0.2442716059 0.3600771802
1582100000.0 0.4318472818 0.1572347529
1592050000.0 0.4548649735 -0.1087731854
1602000000.0 0.3122845655 -0.3302811306
1611950000.0 0.058466941 -0.4212378741
1621900000.0 -0.2073351385 -0.335725145
1631850000.0 -0.3700508716 -0.0947397839
1641800000.0 -0.3480409328 0.2024928171
1651750000.0 -0.1454407054 0.4235942487
1661700000.0 0.1475800633 0.4730223201
1671650000.0 0.4084739882 0.3382222772
1681600000.0 0.540896612 0.0774122509
1691550000.0 0.5007197095 -0.217823341
1701500000.0 0.294379346 -0.4472596008
1711450000.0 -0.0189413681 -0.5244684499
1721400000.0 -0.3350480523 -0.4028978313
1731350000.0 -0.5281640773 -0.1143165759
1741300000.0 -0.5192565279 0.2333451341
1751250000.0 -0.3196165112 0.5083701096
1761200000.0 -0.0125666774 0.6245194271
1771150000.0 0.2993438318 0.5630352645
1781100000.0 0.532210143 0.353107509
1791050000.0 0.6269327802 0.0508837987
1801000000.0 0.5497507229 -0.2672163682
1810950000.0 0.304951086 -0.506214364
1820900000.0 -0.042253506 -0.5740672443
1830850000.0 -0.370490409 -0.4347994341
1840800000.0 -0.5606638068 -0.144077891
1850750000.0 -0.5633935456 0.1846999611
1860700000.0 -0.405621947 0.4484723775
1870650000.0 -0.1525344148 0.5889466629
1880600000.0 0.1255112365 0.5851107557
1890550000.0 0.3610300136 0.4443668496
1900500000.0 0.4917878837 0.1988629333
1910450000.0 0.4703038273 -0.0820013454
1920400000.0 0.2982568212 -0.3037934278
1930350000.0 0.0425315393 -0.3891222058
1940300000.0 -0.1976818712 -0.3260875023
1950250000.0 -0.3479100657 -0.1651496839
1960200000.0 -0.3851308296 0.0209184195
1970150000.0 -0.3284871889 0.17132043
1980100000.0 -0.2202824489 0.2494280817
1990050000.0 -0.114214046 0.2487751391
2000000000.0 -0.0561810913 0.1988388925
