!Created with skrf (http://scikit-rf.org).
# GHz S RI R 50.0 
!freq ReS11 ImS11
10000000.0 -0.8880207899 0.4456054226
19950000.0 -0.5993420842 0.7847662632
29900000.0 -0.1898043384 0.9661371236
39850000.0 0.2664427749 0.948250003
49800000.0 0.676427095 0.7190736201
59750000.0 0.9408986395 0.3099649074
69700000.0 0.9741086141 -0.1964826378
79650000.0 0.7357006032 -0.6701193591
89600000.0 0.2605974173 -0.9580485707
99550000.0 -0.3225031826 -0.9322405342
109500000.0 -0.8058069658 -0.5538020417
119450000.0 -0.9686895367 0.0692862509
129400000.0 -0.6903231443 0.6798394059
139350000.0 -0.0730379656 0.9677435118
149300000.0 0.5797193188 0.7813824416
159250000.0 0.9430259685 0.239134677
169200000.0 0.8933341389 -0.3728970112
179150000.0 0.5208131011 -0.807028692
189100000.0 0.0070815897 -0.9528643154
199050000.0 -0.478394831 -0.8180395419
209000000.0 -0.8180742818 -0.473986113
218950000.0 -0.9447439791 -0.0281346684
228900000.0 -0.8506617873 0.415696734
238850000.0 -0.5668499982 0.7606449997
248800000.0 -0.1743247469 0.9232272914
258750000.0 0.2660357781 0.9069590744
268700000.0 0.636114574 0.6896160389
278650000.0 0.8661807474 0.3326088435
288600000.0 0.9099943931 -0.0877920927
298550000.0 0.7579601748 -0.4814596586
308500000.0 0.4387819629 -0.7591963627
318450000.0 0.0242431997 -0.8493687744
328400000.0 -0.3792175922 -0.7200573928
338350000.0 -0.6513678189 -0.4015192667
348300000.0 -0.7004153515 0.0010288264
358250000.0 -0.5189910919 0.3359286988
368200000.0 -0.2061303948 0.4799731515
378150000.0 0.0851612632 0.4117246202
388100000.0 0.2400059245 0.213198558
398050000.0 0.2332122841 0.0068788992
408000000.0 0.1195737119 -0.1156888978
417950000.0 -0.0164186816 -0.1287381895
427900000.0 -0.108725137 -0.0601239067
437850000.0 -0.1292772035 0.0388985704
447800000.0 -0.0857480509 0.1200913118
457750000.0 -0.0067456523 0.1550074611
467700000.0 0.0729683635 0.1378454597
477650000.0 0.1264449165 0.0821728369
487600000.0 0.1402577071 0.0108943675
497550000.0 0.1183042077 -0.048232979
507500000.0 0.0714764063 -0.0879759047
517450000.0 0.0195835009 -0.0945059905
527400000.0 -0.0195948236 -0.0755716252
537350000.0 -0.0358409211 -0.0458636231
547300000.0 -0.0309450818 -0.0205622448
557250000.0 -0.0107675927 -0.0107616136
567200000.0 0.0085904343 -0.0232405474
577150000.0 0.0127490811 -0.0510142731
587100000.0 -0.0053883922 -0.0815219479
597050000.0 -0.0441408242 -0.0990296488
607000000.0 -0.0932451665 -0.0924995902
616950000.0 -0.1371020371 -0.0573899911
626900000.0 -0.1595534472 0.000551515
636850000.0 -0.1499671414 0.0678640837
646800000.0 -0.1060237 0.1264671718
656750000.0 -0.0353713791 0.159441679
666700000.0 0.0461493399 0.1551128324
676650000.0 0.1180127419 0.1123788581
686600000.0 0.1615489806 0.0403792234
696550000.0 0.1654218266 -0.0428549158
706500000.0 0.1282506077 -0.1152629847
716450000.0 0.0608746104 -0.1570883488
726400000.0 -0.0178336933 -0.1561311304
736350000.0 -0.0824293202 -0.1116906463
746300000.0 -0.1117473274 -0.0364912953
756250000.0 -0.0921489355 0.045801737
766200000.0 -0.0268212131 0.1056551144
776150000.0 0.0659516163 0.1196302481
786100000.0 0.156070713 0.0773083706
796050000.0 0.2111512837 -0.0134769242
806000000.0 0.2077933863 -0.1269128265
815950000.0 0.1372309147 -0.2288266199
825900000.0 0.0133340806 -0.2833535735
835850000.0 -0.133659535 -0.2652257735
845800000.0 -0.2622070476 -0.1683266862
855750000.0 -0.3316116386 -0.0096470176
865700000.0 -0.3137520506 0.1728239569
875650000.0 -0.2049267285 0.3311597141
885600000.0 -0.0268542221 0.4191151682
895550000.0 0.1776865924 0.4086972363
905500000.0 0.3556671932 0.2958252052
915450000.0 0.457482689 0.1025680449
925400000.0 0.447400875 -0.1258275651
935350000.0 0.3134116655 -0.3269239956
945300000.0 0.0787707193 -0.432672133
955250000.0 -0.193412681 -0.3881970117
965200000.0 -0.4052516854 -0.1808412619
975150000.0 -0.4540326494 0.1361812559
985100000.0 -0.2791649763 0.4385954936
995050000.0 0.0801204156 0.5674624209
1005000000.0 0.4725198078 0.4132136896
1014950000.0 0.6819795782 -0.005813306
1024900000.0 0.5381210528 -0.5023877873
1034850000.0 0.057994742 -0.7859297157
1044800000.0 -0.505093961 -0.6595377592
1054750000.0 -0.8353405035 -0.1938159641
1064700000.0 -0.7963515348 0.3469738018
1074650000.0 -0.4410641115 0.7306420395
1084600000.0 -0.024818752 0.8132016349
1094550000.0 0.4274442369 0.7057323212
1104500000.0 0.7191971067 0.3392667148
1114450000.0 0.7463045412 -0.1191786343
1124400000.0 0.5107893877 -0.5002512129
1134350000.0 0.1143301483 -0.6701449292
1144300000.0 -0.2852015412 -0.5883034861
1154250000.0 -0.5513720271 -0.3178135321
1164200000.0 -0.6241026836 0.0257319979
1174150000.0 -0.5182339903 0.3347661902
1184100000.0 -0.2825057879 0.5405560691
1194050000.0 0.0181115075 0.5976892828
1204000000.0 0.3028414212 0.4978903946
1213950000.0 0.4988626769 0.2714337508
1223900000.0 0.5579184283 -0.0203519161
1233850000.0 0.4699919569 -0.3003977358
1243800000.0 0.265660363 -0.5009794943
1253750000.0 0.0015869164 -0.5842202209
1263700000.0 -0.2620008298 -0.5449537746
1273650000.0 -0.4757938209 -0.4037619444
1283600000.0 -0.6086295418 -0.1938101312
1293550000.0 -0.6447427718 0.0478167888
1303500000.0 -0.5813405543 0.2832353503
1313450000.0 -0.4271976412 0.4760107325
1323400000.0 -0.2038148085 0.5928351101
1333350000.0 0.0536823012 0.6090515937
1343300000.0 0.300637132 0.5171619636
1353250000.0 0.4900653774 0.3304974841
1363200000.0 0.5872458462 0.0849332002
1373150000.0 0.5784660976 -0.1734369974
1383100000.0 0.4720142413 -0.400082965
1393050000.0 0.2929837453 -0.5618970127
1403000000.0 0.0730248331 -0.6403345339
1412950000.0 -0.1545303505 -0.6288212097
1422900000.0 -0.3581731083 -0.5324726677
1432850000.0 -0.5089939261 -0.3636048156
1442800000.0 -0.5824606782 -0.1452821578
1452750000.0 -0.5621682302 0.0895611079
1462700000.0 -0.4447881269 0.300831524
1472650000.0 -0.2476047047 0.446763468
1482600000.0 -0.0073108941 0.4963909622
1492550000.0 0.2271535864 0.4408413529
1502500000.0 0.4100899707 0.2946674215
1512450000.0 0.5080692634 0.0924155399
1522400000.0 0.5097635113 -0.1237283525
1532350000.0 0.4198861361 -0.3122212623
1542300000.0 0.2594494333 -0.4400269866
1552250000.0 0.0591804979 -0.4821515578
1562200000.0 -0.1392403459 -0.4314621136
1572150000.0 -0.299972924 -0.2957350724
1582100000.0 -0.3847665676 -0.0948838011
1592050000.0 -0.3658071889 0.1268629919
1602000000.0 -0.2465019125 0.3147632081
1611950000.0 -0.0531925818 0.4228499994
1621900000.0 0.1626525071 0.4289263145
1631850000.0 0.3536093185 0.338216198
1641800000.0 0.4823936211 0.1743003361
1651750000.0 0.5269799755 -0.028869051
1661700000.0 0.4801473104 -0.2347055214
1671650000.0 0.3478936877 -0.4064736555
1681600000.0 0.1489227494 -0.5106938198
1691550000.0 -0.08402461 -0.5225993611
1701500000.0 -0.307174509 -0.4326595204
1711450000.0 -0.4747285259 -0.2531390036
1721400000.0 -0.5523649474 -0.0186975025
1731350000.0 -0.5264523521 0.22383002
1741300000.0 -0.4074225054 0.4323027424
1751250000.0 -0.2200333874 0.5734323302
1761200000.0 0.0010841148 0.6303759042
1771150000.0 0.222586669 0.6016529181
1781100000.0 0.4152168568 0.4958331661
1791050000.0 0.5563876646 0.3289144736
1801000000.0 0.6277876037 0.1207092871
1810950000.0 0.6183944577 -0.1028226592
1820900000.0 0.5245353181 -0.3102851461
1830850000.0 0.3562479741 -0.4695390246
1840800000.0 0.137000054 -0.5525696099
1850750000.0 -0.0967348465 -0.5437747578
1860700000.0 -0.3047006401 -0.4461021687
1870650000.0 -0.453959308 -0.2813620282
1880600000.0 -0.5261777012 -0.0826040612
1890550000.0 -0.5196725578 0.1163689614
1900500000.0 -0.4454176966 0.2866133032
1910450000.0 -0.3229876377 0.4081500741
1920400000.0 -0.1755437832 0.4703085467
1930350000.0 -0.0270760689 0.471336307
1940300000.0 0.1002417833 0.4175138503
1950250000.0 0.1871823759 0.3245987366
1960200000.0 0.2226607234 0.2135770428
1970150000.0 0.2062469002 0.1127173529
1980100000.0 0.1534150612 0.0458424682
1990050000.0 0.0912860073 0.028047767
2000000000.0 0.0551361737 0.0574477772
