!Created with skrf (http://scikit-rf.org).
# GHz S RI R 50.0 
!freq ReS11 ImS11
10000000.0 -0.8859730655 0.4384728405
19950000.0 -0.6058073089 0.7738982517
29900000.0 -0.2076512561 0.9579477232
39850000.0 0.2391267388 0.9506557432
49800000.0 0.6465384744 0.7394021481
59750000.0 0.9209215074 0.3512243387
69700000.0 0.9794711961 -0.139642564
79650000.0 0.7787973087 -0.614602119
89600000.0 0.3424003499 -0.9310136023
99550000.0 -0.2221882759 -0.9617911403
109500000.0 -0.7303533478 -0.65182672
119450000.0 -0.9688233323 -0.071659074
129400000.0 -0.7883893355 0.5623515717
139350000.0 -0.2312790965 0.9416444432
149300000.0 0.4493062317 0.8618347777
159250000.0 0.8988858088 0.3699893444
169200000.0 0.9316708065 -0.2607507878
179150000.0 0.6008579341 -0.7480711678
189100000.0 0.0895492307 -0.9460639609
199050000.0 -0.4157431465 -0.846421057
209000000.0 -0.7829675172 -0.5189231073
218950000.0 -0.935328533 -0.0745556659
228900000.0 -0.8609718096 0.3774534904
238850000.0 -0.5894978716 0.7357262583
248800000.0 -0.1794829623 0.918777525
258750000.0 0.2397082601 0.9096713109
268700000.0 0.6156426389 0.7011467352
278650000.0 0.8531648348 0.3487466722
288600000.0 0.9050690431 -0.07059407
298550000.0 0.7604261624 -0.4664756797
308500000.0 0.4472069134 -0.7492836662
318450000.0 0.0356205644 -0.8467074259
328400000.0 -0.3690212647 -0.7254693973
338350000.0 -0.6466643974 -0.4130653637
348300000.0 -0.704294723 -0.0120137041
358250000.0 -0.5310623374 0.327976846
368200000.0 -0.2206758277 0.4817456516
378150000.0 0.0755373706 0.4224066421
388100000.0 0.2398821945 0.2272275352
398050000.0 0.2424160987 0.0176190777
408000000.0 0.1338806924 -0.1125716724
417950000.0 -0.0024075405 -0.1339958848
427900000.0 -0.0992743235 -0.0709601008
437850000.0 -0.1257109595 0.0261904177
447800000.0 -0.0871680385 0.1085779198
457750000.0 -0.0117603093 0.1462045958
467700000.0 0.0663409219 0.1327901728
477650000.0 0.1199558864 0.0801448518
487600000.0 0.1346375605 0.0115083447
497550000.0 0.1114902724 -0.047364192
507500000.0 0.0681753364 -0.0854934541
517450000.0 0.017396357 -0.0906607991
527400000.0 -0.0199914671 -0.0706457263
537350000.0 -0.0339275046 -0.0400143742
547300000.0 -0.0251196688 -0.0156282017
557250000.0 -0.0031445234 -0.0076673904
567200000.0 0.0181270955 -0.0226556951
577150000.0 0.0230938531 -0.0538530346
587100000.0 0.0040999614 -0.0882308319
597050000.0 -0.0373421844 -0.1093268423
607000000.0 -0.0908379204 -0.1051332594
616950000.0 -0.1404966948 -0.0700470651
626900000.0 -0.1684070015 -0.0095970365
636850000.0 -0.1635553845 0.0631594635
646800000.0 -0.1216082324 0.1291191598
656750000.0 -0.0496650814 0.1700496462
666700000.0 0.0367163666 0.1726888593
676650000.0 0.1167699408 0.1342820734
686600000.0 0.1702037327 0.0622797367
696550000.0 0.1836516922 -0.0256876683
706500000.0 0.1534706219 -0.107064174
716450000.0 0.0886941484 -0.1608138005
726400000.0 0.0069720603 -0.1728165953
736350000.0 -0.0666252243 -0.1392010039
746300000.0 -0.1093953941 -0.0700555966
756250000.0 -0.1054333522 0.0131889089
766200000.0 -0.0540288558 0.0814180737
776150000.0 0.0300629545 0.1096189515
786100000.0 0.1187449821 0.0843971869
796050000.0 0.1804703352 0.0098902639
806000000.0 0.1898262907 -0.0924978542
815950000.0 0.1353452493 -0.1898855086
825900000.0 0.0270838215 -0.2467074842
835850000.0 -0.1070630283 -0.2362500799
845800000.0 -0.2270944303 -0.1507199982
855750000.0 -0.2926947914 -0.0050433873
865700000.0 -0.2757045132 0.164240095
875650000.0 -0.1716442397 0.3103761181
885600000.0 -0.0020521451 0.387434206
895550000.0 0.1904052376 0.3678552545
905500000.0 0.3521197216 0.248394438
915450000.0 0.4326505587 0.0532527747
925400000.0 0.3971575645 -0.1682307696
935350000.0 0.2367333779 -0.348167562
945300000.0 -0.0161363186 -0.4143680335
955250000.0 -0.2831872834 -0.3131514822
965200000.0 -0.4499676369 -0.0492582449
975150000.0 -0.4119890571 0.2919909594
985100000.0 -0.1377200703 0.5520815934
995050000.0 0.2781661891 0.5694086752
1005000000.0 0.6334018602 0.2789473459
1014950000.0 0.7103992552 -0.2175776855
1024900000.0 0.4159026456 -0.6686807012
1034850000.0 -0.1243632101 -0.8152563373
1044800000.0 -0.6288285252 -0.5726922258
1054750000.0 -0.8595203115 -0.082638884
1064700000.0 -0.7504457218 0.411088995
1074650000.0 -0.4172142701 0.7422488598
1084600000.0 0.0278726807 0.8375195078
1094550000.0 0.4481375796 0.6784512932
1104500000.0 0.7088444331 0.321387092
1114450000.0 0.7295645924 -0.1159834667
1124400000.0 0.5063778056 -0.4832592109
1134350000.0 0.1277676287 -0.6549751595
1144300000.0 -0.2608264469 -0.5875205648
1154250000.0 -0.5281452002 -0.335180243
1164200000.0 -0.6141068502 -0.0065414082
1174150000.0 -0.5295469509 0.3012559096
1184100000.0 -0.3090313073 0.5183015794
1194050000.0 -0.0148455365 0.5915957848
1204000000.0 0.2727466946 0.5084032589
1213950000.0 0.4796109129 0.2940266836
1223900000.0 0.5531608382 0.0070344099
1233850000.0 0.4792501371 -0.2757083928
1243800000.0 0.2852846571 -0.4846295208
1253750000.0 0.0263596255 -0.5788049701
1263700000.0 -0.2368969799 -0.550783942
1273650000.0 -0.4547792833 -0.4196430096
1283600000.0 -0.5953135927 -0.217269337
1293550000.0 -0.6420596061 0.0205891171
1303500000.0 -0.5903991463 0.2565842474
1313450000.0 -0.4472291559 0.4549570919
1323400000.0 -0.2314907058 0.5818564783
1333350000.0 0.0234832234 0.6103522671
1343300000.0 0.2735789216 0.5307448193
1353250000.0 0.4713041513 0.3536502274
1363200000.0 0.5800641083 0.1133138104
1373150000.0 0.5838236314 -0.1454211617
1383100000.0 0.4884345469 -0.3773735476
1393050000.0 0.3176357442 -0.547906427
1403000000.0 0.1024222989 -0.6372371253
1412950000.0 -0.1244842946 -0.6377723759
1422900000.0 -0.3319968131 -0.5533970112
1432850000.0 -0.4916409034 -0.3943304791
1442800000.0 -0.578305646 -0.1812603201
1452750000.0 -0.573292865 0.0546719031
1462700000.0 -0.4699253201 0.2744668475
1472650000.0 -0.281764676 0.4348683466
1482600000.0 -0.0429405394 0.5018027789
1492550000.0 0.1980844718 0.4623864483
1502500000.0 0.393732005 0.3279316544
1512450000.0 0.5082132112 0.1309653176
1522400000.0 0.5273653663 -0.0875426435
1532350000.0 0.4525318173 -0.2859248997
1542300000.0 0.3019586426 -0.4295642965
1552250000.0 0.1029914334 -0.4919819933
1562200000.0 -0.1056884315 -0.4593080063
1572150000.0 -0.2820493387 -0.3328867486
1582100000.0 -0.3839573338 -0.1348435552
1592050000.0 -0.3828528794 0.0918731896
1602000000.0 -0.2773131138 0.2923567454
1611950000.0 -0.0906607166 0.4184422567
1621900000.0 0.1280220706 0.4428421393
1631850000.0 0.3286850644 0.3663757956
1641800000.0 0.4715735087 0.2107044752
1651750000.0 0.5317495185 0.0094494297
1661700000.0 0.4996652953 -0.2006313961
1671650000.0 0.3794635603 -0.3825560846
1681600000.0 0.1876533856 -0.50127569
1691550000.0 -0.0449899853 -0.5302268388
1701500000.0 -0.2757402365 -0.4560829597
1711450000.0 -0.4577590747 -0.2874904876
1721400000.0 -0.5534172334 -0.056203116
1731350000.0 -0.5443236903 0.1921068483
1741300000.0 -0.4364832419 0.4107194147
1751250000.0 -0.2559244941 0.5644946314
1761200000.0 -0.0363919933 0.6351445186
1771150000.0 0.1883387965 0.6194630464
1781100000.0 0.3886268512 0.5243955899
1791050000.0 0.5408945893 0.3650814404
1801000000.0 0.625956444 0.1597970601
1810950000.0 0.6310692471 -0.0661095379
1820900000.0 0.5506654261 -0.2820273106
1830850000.0 0.3918410457 -0.4552354444
1840800000.0 0.1755174181 -0.5553625477
1850750000.0 -0.0634359753 -0.5630869896
1860700000.0 -0.2832198197 -0.4778503457
1870650000.0 -0.4480776887 -0.3190319461
1880600000.0 -0.5367441247 -0.1199454019
1890550000.0 -0.5460049558 0.085967562
1900500000.0 -0.4838530044 0.2695929831
1910450000.0 -0.3670110604 0.4090874404
1920400000.0 -0.217116266 0.4909928483
1930350000.0 -0.0572669482 0.5097273062
1940300000.0 0.0887148208 0.4681926195
1950250000.0 0.2010766111 0.3775533617
1960200000.0 0.2626024287 0.2558829549
1970150000.0 0.266999281 0.1296956953
1980100000.0 0.2208681522 0.0258152943
1990050000.0 0.1446277274 -0.0334076481
2000000000.0 0.0690785157 -0.038680758
