!Created with skrf (http://scikit-rf.org).
# GHz S RI R 50.0 
!freq ReS11 ImS11
10000000.0 -0.7495807722 0.6736680204
19950000.0 -0.1163356288 0.983021355
29900000.0 0.5632881155 0.799493478
39850000.0 0.9561385358 0.2034871012
49800000.0 0.8435185334 -0.5147036631
59750000.0 0.256418122 -0.9695143677
69700000.0 -0.4960017474 -0.880126727
79650000.0 -0.9669838555 -0.2668454811
89600000.0 -0.8382149227 0.5145329717
99550000.0 -0.1483835934 0.952505641
109500000.0 0.6625555732 0.6922968311
119450000.0 0.9599804449 -0.1475635909
129400000.0 0.4198370639 -0.8947877185
139350000.0 -0.5045980802 -0.8502104259
149300000.0 -0.9655917353 -0.0649605606
159250000.0 -0.5956027032 0.7324766305
169200000.0 0.2347290454 0.9068507681
179150000.0 0.8673262282 0.3817150161
189100000.0 0.8708594215 -0.4150401164
199050000.0 0.295678939 -0.9258230103
209000000.0 -0.4408964184 -0.855796799
218950000.0 -0.8926256063 -0.307065837
228900000.0 -0.8444563699 0.3813078219
238850000.0 -0.3523864688 0.848865435
248800000.0 0.3199159319 0.845140975
258750000.0 0.831859633 0.4312762154
268700000.0 0.9151023865 -0.2380432772
278650000.0 0.523437206 -0.7817807537
288600000.0 -0.1246618051 -0.912043489
298550000.0 -0.6811579071 -0.5730917177
308500000.0 -0.8565979918 0.044761566
318450000.0 -0.5638249865 0.6075322141
328400000.0 0.0346609287 0.8000958257
338350000.0 0.5771903143 0.5052936643
348300000.0 0.7082544528 -0.069708681
358250000.0 0.3757359657 -0.5032010055
368200000.0 -0.1090274626 -0.5150368974
378150000.0 -0.3689529256 -0.1944967454
388100000.0 -0.2847767886 0.1370394848
398050000.0 -0.0318541811 0.2332274399
408000000.0 0.1372470282 0.1055489485
417950000.0 0.1182290838 -0.062025378
427900000.0 -0.0113465986 -0.1141426903
437850000.0 -0.1113208408 -0.0360677696
447800000.0 -0.1039068953 0.0827452261
457750000.0 -0.0059707545 0.1433500464
467700000.0 0.1037475874 0.1062311428
477650000.0 0.1477275142 0.0056316462
487600000.0 0.1035818953 -0.0899959018
497550000.0 0.0110400107 -0.1232801371
507500000.0 -0.0709068646 -0.0902700012
517450000.0 -0.0929199609 -0.0203243592
527400000.0 -0.0627618968 0.0327507749
537350000.0 -0.0197020779 0.0405424668
547300000.0 -0.0045052738 0.0149472217
557250000.0 -0.0202320999 -0.0065068247
567200000.0 -0.0445646453 0.0055161212
577150000.0 -0.0419150863 0.0464667083
587100000.0 0.0010733272 0.0780117994
597050000.0 0.0651542092 0.0621193526
607000000.0 0.107315653 -0.0097068306
616950000.0 0.0897191908 -0.1031135782
626900000.0 0.0068747249 -0.1631126885
636850000.0 -0.1056917562 -0.149816708
646800000.0 -0.1858167025 -0.0613686191
656750000.0 -0.1832415982 0.0597588224
666700000.0 -0.0919957306 0.1501811932
676650000.0 0.0398616743 0.1572646511
686600000.0 0.138570826 0.0729041588
696550000.0 0.1503616479 -0.056917718
706500000.0 0.0712956563 -0.1578663825
716450000.0 -0.0461970773 -0.1723391099
726400000.0 -0.1291905675 -0.0966913656
736350000.0 -0.1270475211 0.0132007215
746300000.0 -0.0470049892 0.0775517441
756250000.0 0.0517333073 0.0495648826
766200000.0 0.0927676735 -0.0506406453
776150000.0 0.0376328249 -0.1476579485
786100000.0 -0.0819623007 -0.1603165095
796050000.0 -0.1796945704 -0.0631409936
806000000.0 -0.1703233832 0.091631775
815950000.0 -0.0336485383 0.1977392952
825900000.0 0.1603789629 0.1666040098
835850000.0 0.2852143675 -0.0066878513
845800000.0 0.2472643972 -0.2267572447
855750000.0 0.0563510067 -0.3632302892
865700000.0 -0.1931239011 -0.3338699039
875650000.0 -0.3630210966 -0.1315657789
885600000.0 -0.3404774784 0.1487648461
895550000.0 -0.1146607555 0.3486079162
905500000.0 0.1970811456 0.3346449712
915450000.0 0.4093732983 0.094451283
925400000.0 0.3828045882 -0.2374999181
935350000.0 0.1213201586 -0.4536870856
945300000.0 -0.2207762925 -0.4055474283
955250000.0 -0.4217389063 -0.102813835
965200000.0 -0.3198800557 0.2669821891
975150000.0 0.054691086 0.4228031972
985100000.0 0.4298296248 0.1905619794
995050000.0 0.4542996151 -0.2838371368
1005000000.0 0.0394548882 -0.586186964
1014950000.0 -0.4905708004 -0.3945185709
1024900000.0 -0.6414122234 0.2020125438
1034850000.0 -0.1868865455 0.7038203034
1044800000.0 0.5275298339 0.593897123
1054750000.0 0.8361889791 -0.0823243606
1064700000.0 0.4594232496 -0.7181083627
1074650000.0 -0.2551692652 -0.7888622023
1084600000.0 -0.6499113574 -0.3171322338
1094550000.0 -0.7348240635 0.2807390323
1104500000.0 -0.2153837941 0.7469777801
1114450000.0 0.4519628464 0.6027871584
1124400000.0 0.722687419 0.0084795271
1134350000.0 0.440263392 -0.5291697798
1144300000.0 -0.1124840026 -0.6404037181
1154250000.0 -0.5287152203 -0.3165906286
1164200000.0 -0.5602425117 0.1817696034
1174150000.0 -0.2115758186 0.5263685619
1184100000.0 0.2691097753 0.4808827779
1194050000.0 0.5378656278 0.0982707774
1204000000.0 0.435134063 -0.3389974903
1213950000.0 0.0631142975 -0.5614711549
1223900000.0 -0.3474159631 -0.4672089246
1233850000.0 -0.5800755711 -0.1229366261
1243800000.0 -0.5180776291 0.2909146816
1253750000.0 -0.189545812 0.5579618746
1263700000.0 0.2351885626 0.5328302064
1273650000.0 0.5326372595 0.2296842221
1283600000.0 0.5589468789 -0.1891440988
1293550000.0 0.3185128882 -0.5212197267
1303500000.0 -0.0691410011 -0.6295356041
1313450000.0 -0.4381939496 -0.477404935
1323400000.0 -0.6380256907 -0.1284996964
1333350000.0 -0.5774312868 0.2750640581
1343300000.0 -0.270530752 0.5544277799
1353250000.0 0.1500354048 0.5727564315
1363200000.0 0.4862446039 0.319004442
1373150000.0 0.5856963371 -0.0831265634
1383100000.0 0.4175283493 -0.4493289598
1393050000.0 0.0686420371 -0.631252519
1403000000.0 -0.3126607509 -0.5668971787
1412950000.0 -0.5747181981 -0.2876101698
1422900000.0 -0.6085713108 0.0946222219
1432850000.0 -0.3928102705 0.4189698562
1442800000.0 -0.0180095103 0.535609854
1452750000.0 0.3406363666 0.3863129487
1462700000.0 0.5157764501 0.0451811576
1472650000.0 0.4351731569 -0.3200071708
1482600000.0 0.1512394818 -0.5414627357
1492550000.0 -0.1987759802 -0.5282308743
1502500000.0 -0.4546821576 -0.2958651581
1512450000.0 -0.4979862257 0.0438515853
1522400000.0 -0.3060440108 0.3235296592
1532350000.0 0.0243410994 0.3994383354
1542300000.0 0.3139129506 0.2340107846
1552250000.0 0.4076331569 -0.0740374905
1562200000.0 0.2677183576 -0.3531274296
1572150000.0 -0.0169661735 -0.4599226475
1582100000.0 -0.2944216086 -0.348319289
1592050000.0 -0.4242713056 -0.0766269727
1602000000.0 -0.3320686861 0.2202615341
1611950000.0 -0.0529913245 0.3773861908
1621900000.0 0.2648662703 0.2957527704
1631850000.0 0.4379871819 0.0102007816
1641800000.0 0.3649716778 -0.3208477686
1651750000.0 0.0866778471 -0.5145665387
1661700000.0 -0.2516574336 -0.4733893176
1671650000.0 -0.4869892938 -0.2179046547
1681600000.0 -0.5062133607 0.1368130221
1691550000.0 -0.2890463116 0.4305799113
1701500000.0 0.0776358287 0.5175563857
1711450000.0 0.4217430594 0.3424880243
1721400000.0 0.5721412889 -0.0175240058
1731350000.0 0.4540580649 -0.3880090389
1741300000.0 0.1322528044 -0.5999678409
1751250000.0 -0.2476113432 -0.5722007365
1761200000.0 -0.5335881631 -0.3250701867
1771150000.0 -0.618980872 0.0455692336
1781100000.0 -0.46654292 0.4010408222
1791050000.0 -0.123807544 0.5974860002
1801000000.0 0.274759543 0.5400436903
1810950000.0 0.5517087344 0.241688095
1820900000.0 0.5795155331 -0.1618774693
1830850000.0 0.3562603833 -0.4871283309
1840800000.0 -0.0066016515 -0.6068721976
1850750000.0 -0.3590208047 -0.4935456671
1860700000.0 -0.5758513098 -0.2048538959
1870650000.0 -0.5851592921 0.1507717084
1880600000.0 -0.385120103 0.4420347117
1890550000.0 -0.0509835126 0.5558920207
1900500000.0 0.2795523503 0.4426890891
1910450000.0 0.4644930412 0.1559772051
1920400000.0 0.4335671061 -0.1694171477
1930350000.0 0.2248560759 -0.3960681434
1940300000.0 -0.0557663109 -0.4511495617
1950250000.0 -0.2949190806 -0.3402370512
1960200000.0 -0.413446025 -0.128794299
1970150000.0 -0.3865579044 0.0903506705
1980100000.0 -0.2502415431 0.2323990698
1990050000.0 -0.0845907096 0.2544697728
2000000000.0 0.0309523321 0.182932031
