!Created with skrf (http://scikit-rf.org).
# GHz S RI R 50.0 
!freq ReS11 ImS11
10000000.0 -0.7889011497 0.5962607139
19950000.0 -0.2863783464 0.9374083361
29900000.0 0.3185272038 0.922106227
39850000.0 0.8055152405 0.5517559779
49800000.0 0.9811311759 -0.0471695401
59750000.0 0.7524869602 -0.6446044094
69700000.0 0.1881078341 -0.9779131561
79650000.0 -0.4744470322 -0.8698542486
89600000.0 -0.9163954862 -0.3404465567
99550000.0 -0.8928048605 0.3705543127
109500000.0 -0.3713378399 0.8913976019
119450000.0 0.3969423795 0.8898596243
129400000.0 0.9383048272 0.2946898309
139350000.0 0.8415571651 -0.5147236055
149300000.0 0.1473880314 -0.962103976
159250000.0 -0.6257325259 -0.7200562444
169200000.0 -0.9437172674 -0.0044276834
179150000.0 -0.6499277494 0.6879863935
189100000.0 0.0204219581 0.9537167622
199050000.0 0.6620011802 0.6893326973
209000000.0 0.9455895175 0.0795067251
218950000.0 0.7658997071 -0.5411536169
228900000.0 0.2447816397 -0.8934031675
238850000.0 -0.3709407683 -0.839672759
248800000.0 -0.7931492192 -0.3184588796
258750000.0 -0.908324752 0.1407960956
268700000.0 -0.6319081135 0.6743226679
278650000.0 -0.0915730807 0.916117497
288600000.0 0.4762173827 0.7688051287
298550000.0 0.8252043583 0.3015540792
308500000.0 0.8033038873 -0.2788343555
318450000.0 0.4201559599 -0.7076815859
328400000.0 -0.1409064334 -0.7829251463
338350000.0 -0.5961677904 -0.4718652434
348300000.0 -0.7082495819 0.0439415651
358250000.0 -0.4446398526 0.4611200432
368200000.0 -0.0049737665 0.5552418881
378150000.0 0.3258615077 0.332549576
388100000.0 0.3829452841 -0.0073656524
398050000.0 0.2060678199 -0.2385952326
408000000.0 -0.0342290126 -0.2605770615
417950000.0 -0.1809523062 -0.1262885704
427900000.0 -0.1811464784 0.0381329733
437850000.0 -0.0798925277 0.1301047477
447800000.0 0.035239557 0.1201310181
457750000.0 0.0962364225 0.0430739613
467700000.0 0.0830566967 -0.0392918738
477650000.0 0.0272286603 -0.0765475163
487600000.0 -0.0230376578 -0.0599358918
497550000.0 -0.0077942855 -0.0181482249
507500000.0 -0.0522880414 -0.0086419138
517450000.0 -0.0176639983 0.0072872118
527400000.0 -0.0009785832 -0.0099206977
537350000.0 -0.0145483545 -0.0326228167
547300000.0 -0.0523758361 -0.0352586578
557250000.0 -0.0851922727 0.0053066806
567200000.0 -0.0791934371 0.0645159969
577150000.0 -0.0281921154 0.1124313705
587100000.0 0.0519575351 0.1161222539
597050000.0 0.1254813753 0.0628396434
607000000.0 0.1529958555 -0.0328069986
616950000.0 0.1151083124 -0.131511336
626900000.0 0.0226031617 -0.1893703118
636850000.0 -0.0884801568 -0.179314328
646800000.0 -0.170523415 -0.1019306883
656750000.0 -0.1893275241 0.0107456438
666700000.0 -0.133890613 0.1108591131
676650000.0 -0.0290379844 0.155971658
686600000.0 0.0790902805 0.1249872331
696550000.0 0.1414805366 0.0353872663
706500000.0 0.1316359887 -0.0671293807
716450000.0 0.0606812902 -0.132566196
726400000.0 -0.0302320376 -0.1287622265
736350000.0 -0.0868984613 -0.061547318
746300000.0 -0.0750121673 0.0272559053
756250000.0 0.0032383156 0.0830578178
766200000.0 0.1038598505 0.0647249697
776150000.0 0.1654141244 -0.0260245595
786100000.0 0.1428650051 -0.1442932
796050000.0 0.0325907623 -0.2202984828
806000000.0 -0.1173674613 -0.1981683111
815950000.0 -0.2288681231 -0.0685806932
825900000.0 -0.2329472257 0.1198364452
835850000.0 -0.1097639704 0.2808474799
845800000.0 0.0971262604 0.3328270235
855750000.0 0.3006417777 0.2410515048
865700000.0 0.4083348582 0.0346381408
875650000.0 0.3622557945 -0.2051190823
885600000.0 0.1672758718 -0.3702882561
895550000.0 -0.1003173275 -0.3760768077
905500000.0 -0.3198120398 -0.2050852061
915450000.0 -0.3796246613 0.0752584622
925400000.0 -0.240083457 0.3275619142
935350000.0 0.0301085925 0.4214320866
945300000.0 0.2943937959 0.3046398946
955250000.0 0.405765336 0.0226478982
965200000.0 0.2663369517 -0.2761170014
975150000.0 -0.0830578254 -0.3774987853
985100000.0 -0.4134291302 -0.1455025503
995050000.0 -0.4337966522 0.2963626623
1005000000.0 -0.0655744033 0.6101456297
1014950000.0 0.4557272418 0.5059569236
1024900000.0 0.7283561151 -0.0104004925
1034850000.0 0.4861850751 -0.5967286164
1044800000.0 -0.1511230244 -0.7937394825
1054750000.0 -0.7156680434 -0.4285306479
1064700000.0 -0.7895512985 0.2016455202
1074650000.0 -0.5134861893 0.642791192
1084600000.0 0.0298396072 0.8133422273
1094550000.0 0.54553635 0.5829414788
1104500000.0 0.7574735018 0.0378403242
1114450000.0 0.5149214176 -0.4948233472
1124400000.0 -0.0198960587 -0.6773239449
1134350000.0 -0.4852081544 -0.4292068655
1144300000.0 -0.6190918797 0.0363637886
1154250000.0 -0.4039314041 0.4284375595
1164200000.0 -0.0015680698 0.5501220368
1174150000.0 0.3586648648 0.3642840928
1184100000.0 0.4846091184 -0.0186769234
1194050000.0 0.3034680655 -0.3728219808
1204000000.0 -0.0594248021 -0.4958557832
1213950000.0 -0.3942814604 -0.3518828928
1223900000.0 -0.554176648 -0.0423121965
1233850000.0 -0.4934781165 0.2910080316
1243800000.0 -0.2448812888 0.5226146461
1253750000.0 0.1021526857 0.5616847777
1263700000.0 0.4139717176 0.3772834882
1273650000.0 0.5555293935 0.0362597343
1283600000.0 0.4695768154 -0.3213776908
1293550000.0 0.2014006525 -0.5583894687
1303500000.0 -0.1386905045 -0.6061601105
1313450000.0 -0.4412584762 -0.4691322755
1323400000.0 -0.6252363384 -0.197893398
1333350000.0 -0.6416927352 0.1341721724
1343300000.0 -0.4735808813 0.4352003667
1353250000.0 -0.1545857892 0.6006860194
1363200000.0 0.2149276208 0.5575847379
1373150000.0 0.5001632148 0.31120865
1383100000.0 0.5974337087 -0.0457859973
1393050000.0 0.4906068078 -0.3834509687
1403000000.0 0.2345691685 -0.6026553468
1412950000.0 -0.0850037316 -0.6538762943
1422900000.0 -0.3789575177 -0.5337218992
1432850000.0 -0.5676760031 -0.2739594746
1442800000.0 -0.5902789078 0.0557818366
1452750000.0 -0.4258087736 0.3535132617
1462700000.0 -0.1183937553 0.514303612
1472650000.0 0.2250527796 0.476679792
1482600000.0 0.4810644844 0.2596218669
1492550000.0 0.5686699853 -0.0492924767
1502500000.0 0.4754208528 -0.3408300208
1512450000.0 0.2442892537 -0.5260111679
1522400000.0 -0.0478078255 -0.5496961375
1532350000.0 -0.3037593362 -0.4005123466
1542300000.0 -0.4289776183 -0.1233578129
1552250000.0 -0.3648036628 0.1788134991
1562200000.0 -0.1335469274 0.3784668741
1572150000.0 0.1591632049 0.3949975984
1582100000.0 0.3885466541 0.2390777469
1592050000.0 0.4711970929 -0.0124362356
1602000000.0 0.3867123355 -0.2563026745
1611950000.0 0.1704274054 -0.4002282029
1621900000.0 -0.0964493954 -0.3883595592
1631850000.0 -0.3159811532 -0.2066387464
1641800000.0 -0.3740186039 0.0838964534
1651750000.0 -0.2382038428 0.3488591106
1661700000.0 0.0294837514 0.46983386
1671650000.0 0.3092990634 0.4063539523
1681600000.0 0.496471576 0.1940184312
1691550000.0 0.5300439785 -0.0902744459
1701500000.0 0.3938773219 -0.3523197072
1711450000.0 0.1211056133 -0.4993186873
1721400000.0 -0.2031370864 -0.461705562
1731350000.0 -0.4539525007 -0.2354826167
1741300000.0 -0.5286511208 0.096413676
1751250000.0 -0.402817688 0.4050132566
1761200000.0 -0.1366317318 0.585179623
1771150000.0 0.1734470032 0.5941603583
1781100000.0 0.4384081452 0.444430726
1791050000.0 0.5906200479 0.1796741665
1801000000.0 0.5850426895 -0.1343246205
1810950000.0 0.4095972593 -0.4094250789
1820900000.0 0.1021876604 -0.5495344808
1830850000.0 -0.2371474528 -0.4938519733
1840800000.0 -0.4850933021 -0.2606003351
1850750000.0 -0.5624081218 0.0569661947
1860700000.0 -0.4662287358 0.3483717236
1870650000.0 -0.2495044884 0.5373809462
1880600000.0 0.0187117819 0.5894635672
1890550000.0 0.2701390536 0.5018669679
1900500000.0 0.4414536777 0.2968644862
1910450000.0 0.4797971386 0.0284370501
1920400000.0 0.3660385374 -0.220522061
1930350000.0 0.1379609859 -0.3617799601
1940300000.0 -0.1155237355 -0.3519903045
1950250000.0 -0.3026518476 -0.218940394
1960200000.0 -0.3769214043 -0.0325197901
1970150000.0 -0.3431756857 0.1362423574
1980100000.0 -0.2395678813 0.2363220809
1990050000.0 -0.1230088241 0.2471941536
2000000000.0 -0.0533623891 0.1904981074
