!Created with skrf (http://scikit-rf.org).
# GHz S RI R 50.0 
!freq ReS11 ImS11
10000000.0 -0.7714243384 0.6770566844
19950000.0 -0.1406090089 0.9890942701
29900000.0 0.5344158369 0.8189120141
39850000.0 0.9415031664 0.2476151304
49800000.0 0.8722406525 -0.4640867955
59750000.0 0.325719568 -0.9589745599
69700000.0 -0.436995 -0.9330059399
79650000.0 -0.9647579743 -0.347300979
89600000.0 -0.886867518 0.4585729231
99550000.0 -0.2124314477 0.943898175
109500000.0 0.6183656743 0.7298544852
119450000.0 0.9720058729 -0.0900130864
129400000.0 0.4850762814 -0.8812268783
139350000.0 -0.4523954754 -0.9064849159
149300000.0 -0.9751168864 -0.1433777914
159250000.0 -0.6609196201 0.683257573
169200000.0 0.1435736379 0.9274850445
179150000.0 0.8207658535 0.4904391933
189100000.0 0.9443395072 -0.2804617513
199050000.0 0.4792009356 -0.8801100539
209000000.0 -0.2537474795 -0.9614101093
218950000.0 -0.8142840596 -0.5223524352
228900000.0 -0.9247388267 0.1599344741
238850000.0 -0.562987877 0.7312552663
248800000.0 0.0683892824 0.9236724949
258750000.0 0.6833203794 0.6582834788
268700000.0 0.9688449584 0.0558688362
278650000.0 0.7803471077 -0.5844231522
288600000.0 0.2139112527 -0.9306572015
298550000.0 -0.4301137261 -0.808076156
308500000.0 -0.8201374706 -0.2909226326
318450000.0 -0.7569740178 0.3450656811
328400000.0 -0.2792756566 0.7550290108
338350000.0 0.3333463665 0.7042383538
348300000.0 0.6930494298 0.2423592688
358250000.0 0.5880216183 -0.2866739293
368200000.0 0.1650090397 -0.5135788165
378150000.0 -0.2104244576 -0.3511237393
388100000.0 -0.290006228 -0.0266347609
398050000.0 -0.1179651627 0.1727772508
408000000.0 0.0822095419 0.1445320385
417950000.0 0.1378701881 -0.0030515842
427900000.0 0.0479244611 -0.1021699337
437850000.0 -0.0724675984 -0.0748870346
447800000.0 -0.1150834001 0.0383687491
457750000.0 -0.0510121184 0.141036327
467700000.0 0.0664419456 0.1573711073
477650000.0 0.1536879811 0.0819313545
487600000.0 0.1587899883 -0.029827323
497550000.0 0.0919445436 -0.1086733577
507500000.0 -0.0040882303 -0.1158803066
517450000.0 -0.0681493453 -0.0631558188
527400000.0 -0.0759831659 0.0040465746
537350000.0 -0.0426782397 0.0413925961
547300000.0 -0.0063213109 0.0377353367
557250000.0 0.0016252934 0.011771163
567200000.0 -0.0209128055 0.0008846885
577150000.0 -0.0439423409 0.0244002577
587100000.0 -0.0337462931 0.0672295485
597050000.0 0.0190449344 0.0921427644
607000000.0 0.0886079389 0.0652967336
616950000.0 0.1275685049 -0.0149893659
626900000.0 0.1005421779 -0.1119218511
636850000.0 0.006983406 -0.1720344842
646800000.0 -0.1094032828 -0.1546253978
656750000.0 -0.1870339246 -0.0599474101
666700000.0 -0.1783553018 0.0651857525
676650000.0 -0.08373979 0.1517933548
686600000.0 0.0471524785 0.1501431381
696550000.0 0.1417006916 0.0594627247
706500000.0 0.1472771271 -0.0692944837
716450000.0 0.0640006797 -0.1623091052
726400000.0 -0.0548920734 -0.1654812079
736350000.0 -0.1267703855 -0.082686404
746300000.0 -0.1117457863 0.0159384011
756250000.0 -0.0270304925 0.0717935371
766200000.0 0.0754456614 0.0382236159
776150000.0 0.1153810182 -0.07061858
786100000.0 0.0516757321 -0.178859357
796050000.0 -0.0850133302 -0.201118056
806000000.0 -0.2031426135 -0.1000127011
815950000.0 -0.2070638722 0.0765984747
825900000.0 -0.0662043558 0.2166867896
835850000.0 0.1533482518 0.2156718751
845800000.0 0.3234039861 0.0482904267
855750000.0 0.3317648136 -0.2066771539
865700000.0 0.1521311488 -0.4092118423
875650000.0 -0.1324131289 -0.4336682674
885600000.0 -0.3683601982 -0.244889802
895550000.0 -0.4119205856 0.0707284368
905500000.0 -0.216750591 0.3415155785
915450000.0 0.1247179829 0.4032455382
925400000.0 0.4191638171 0.2022684176
935350000.0 0.4872370457 -0.1550708717
945300000.0 0.2748199711 -0.4596906183
955250000.0 -0.1044104758 -0.5157254516
965200000.0 -0.414756501 -0.2619453381
975150000.0 -0.4241391195 0.1636773675
985100000.0 -0.0709104234 0.4526641027
995050000.0 0.3978627922 0.3232460803
1005000000.0 0.5519700124 -0.1537038612
1014950000.0 0.2579111209 -0.5634173703
1024900000.0 -0.301840289 -0.591875737
1034850000.0 -0.6980336825 -0.0810732584
1044800000.0 -0.4547143114 0.6059762013
1054750000.0 0.3176858147 0.7673772415
1064700000.0 0.8666754915 0.1891603377
1074650000.0 0.6946167229 -0.5701467697
1084600000.0 0.0534382763 -0.8346248615
1094550000.0 -0.5832928595 -0.595053895
1104500000.0 -0.7932647883 0.0703371932
1114450000.0 -0.410380705 0.6490999851
1124400000.0 0.266127495 0.6988002762
1134350000.0 0.6913906299 0.2213280792
1144300000.0 0.59605314 -0.3577958807
1154250000.0 0.1416710046 -0.6437307673
1164200000.0 -0.3436587663 -0.5221523106
1174150000.0 -0.5924389907 -0.1031662297
1184100000.0 -0.4575510298 0.3661775682
1194050000.0 -0.0188897977 0.5773265409
1204000000.0 0.4210408376 0.3935147036
1213950000.0 0.5812938061 -0.034513783
1223900000.0 0.4052969067 -0.4327824166
1233850000.0 0.0234241781 -0.604953372
1243800000.0 -0.3734409014 -0.4901493787
1253750000.0 -0.6054527585 -0.1439000858
1263700000.0 -0.553215577 0.279229346
1273650000.0 -0.2229462232 0.5658021187
1283600000.0 0.2183362174 0.5559112984
1293550000.0 0.5374519449 0.2598966697
1303500000.0 0.5891276334 -0.1595104029
1313450000.0 0.3777016242 -0.5101930092
1323400000.0 0.0064582905 -0.6612291158
1333350000.0 -0.3817565005 -0.5634143455
1343300000.0 -0.6380076475 -0.2456278988
1353250000.0 -0.6442182131 0.1755154796
1363200000.0 -0.3736372654 0.5145239174
1373150000.0 0.0570032576 0.6000511234
1383100000.0 0.4371289145 0.3914519649
1393050000.0 0.5982286844 0.0032614959
1403000000.0 0.4948583842 -0.3876175168
1412950000.0 0.1899672924 -0.6325050006
1422900000.0 -0.1939012927 -0.650431195
1432850000.0 -0.5138035651 -0.4367237345
1442800000.0 -0.6393673503 -0.067133519
1452750000.0 -0.5040266098 0.3061328191
1462700000.0 -0.1575453534 0.508060292
1472650000.0 0.2361763049 0.439860156
1482600000.0 0.4889251327 0.1423368931
1492550000.0 0.4934566681 -0.2331185057
1502500000.0 0.2684482607 -0.5157510613
1512450000.0 -0.0737750642 -0.5936280581
1522400000.0 -0.3843422532 -0.4410486791
1532350000.0 -0.5239464256 -0.1258878277
1542300000.0 -0.4212748955 0.2069525427
1552250000.0 -0.1200138564 0.3887478668
1562200000.0 0.2217462381 0.3191172449
1572150000.0 0.4177879713 0.0395019836
1582100000.0 0.3701499906 -0.2914610526
1592050000.0 0.1177981815 -0.4974789902
1602000000.0 -0.2021288892 -0.4804684789
1611950000.0 -0.4301807041 -0.2515735164
1621900000.0 -0.4513549366 0.0787592525
1631850000.0 -0.2440162806 0.3487294717
1641800000.0 0.1009172463 0.4109372772
1651750000.0 0.4062646482 0.217140113
1661700000.0 0.5023698719 -0.1360409783
1671650000.0 0.3377500462 -0.4605149039
1681600000.0 0.0025218993 -0.5975139712
1691550000.0 -0.346011825 -0.492206808
1701500000.0 -0.559072255 -0.19334552
1711450000.0 -0.546439153 0.1817117441
1721400000.0 -0.295657168 0.4817336891
1731350000.0 0.103899592 0.5626270218
1741300000.0 0.4714779693 0.3656186335
1751250000.0 0.6244528611 -0.0244120032
1761200000.0 0.4952218249 -0.4166748406
1771150000.0 0.1615839263 -0.6393092964
1781100000.0 -0.2260937204 -0.622236779
1791050000.0 -0.5274211516 -0.3914612743
1801000000.0 -0.6458072386 -0.0305000982
1810950000.0 -0.5359406576 0.3412510038
1820900000.0 -0.2193475667 0.5839145417
1830850000.0 0.1909303087 0.5794055802
1840800000.0 0.5098189598 0.3150173622
1850750000.0 0.5878559831 -0.0842684844
1860700000.0 0.4110240015 -0.4289308123
1870650000.0 0.0843444593 -0.5915972932
1880600000.0 -0.2569148909 -0.5433940702
1890550000.0 -0.5039697267 -0.3256746312
1900500000.0 -0.588162086 -0.0166416624
1910450000.0 -0.4828319529 0.2812657791
1920400000.0 -0.2223312462 0.4581255026
1930350000.0 0.0851110863 0.4385247122
1940300000.0 0.3010820329 0.2408599698
1950250000.0 0.3418112727 -0.0267508747
1960200000.0 0.2248612007 -0.2391838867
1970150000.0 0.0341654502 -0.3287009551
1980100000.0 -0.1400153696 -0.2971456318
1990050000.0 -0.2384009634 -0.1951488092
2000000000.0 -0.2518287136 -0.0939221625
