!Created with skrf (http://scikit-rf.org).
# GHz S RI R 50.0 
!freq ReS11 ImS11
10000000.0 -0.8078794368 0.6073210034
19950000.0 -0.2915327991 0.9466144698
29900000.0 0.321080381 0.9212465118
39850000.0 0.8090876454 0.5410718568
49800000.0 0.982745576 -0.0653483105
59750000.0 0.7485451374 -0.6695710237
69700000.0 0.17120665 -1.003358479
79650000.0 -0.5023878936 -0.8798375586
89600000.0 -0.9359898241 -0.326601474
99550000.0 -0.8845593725 0.3941865711
109500000.0 -0.3364283293 0.9005727501
119450000.0 0.4405175664 0.8710436763
129400000.0 0.9662637492 0.2462481302
139350000.0 0.8333108251 -0.5675931867
149300000.0 0.1077895673 -0.9826874263
159250000.0 -0.6559302808 -0.6962732252
169200000.0 -0.9391113858 0.035945947
179150000.0 -0.6187706568 0.7178279252
189100000.0 0.0623952392 0.9654367885
199050000.0 0.7021843817 0.6818874568
209000000.0 0.9699190115 0.0578380746
218950000.0 0.7675460204 -0.5608323705
228900000.0 0.2325372847 -0.8983586973
238850000.0 -0.3841822653 -0.8304314579
248800000.0 -0.7425225616 -0.2984236502
258750000.0 -0.9160953501 0.1681037803
268700000.0 -0.6324671456 0.7026394917
278650000.0 -0.0827211398 0.9400874038
288600000.0 0.4891326972 0.7807359911
298550000.0 0.8320033933 0.3022872195
308500000.0 0.8004864305 -0.2816018155
318450000.0 0.4111903611 -0.7096196197
328400000.0 -0.1538762643 -0.7844696713
338350000.0 -0.6128555504 -0.4711212459
348300000.0 -0.7237206934 0.0485537852
358250000.0 -0.4542472363 0.4643209932
368200000.0 -0.0123043674 0.5517432894
378150000.0 0.3152179135 0.3243585198
388100000.0 0.3684095125 -0.0156265368
398050000.0 0.1907423613 -0.2435826596
408000000.0 -0.0470024609 -0.2607475082
417950000.0 -0.1858809866 -0.1234140981
427900000.0 -0.1765618266 0.0390428744
437850000.0 -0.0682868385 0.1247052448
447800000.0 0.0493048026 0.1078917959
457750000.0 0.1092632538 0.0251110593
467700000.0 0.0923383547 -0.0602252615
477650000.0 0.0315596044 -0.096872743
487600000.0 -0.0231590059 -0.0768234659
497550000.0 0.0023636684 -0.0570803895
507500000.0 -0.0516243006 -0.0059100349
517450000.0 -0.0183554041 0.0131139436
527400000.0 0.001154853 0.002302922
537350000.0 -0.0064868074 -0.0151078822
547300000.0 -0.0356700143 -0.0151698846
557250000.0 -0.0608410618 0.0200695442
567200000.0 -0.0521939526 0.0719814896
577150000.0 -0.0034019495 0.1108182934
587100000.0 0.0681266223 0.1068325193
597050000.0 0.1296068608 0.0504381516
607000000.0 0.1435728203 -0.0427863374
616950000.0 0.0942413647 -0.1329131349
626900000.0 -0.0035703054 -0.1783650431
636850000.0 -0.1122660804 -0.1559783183
646800000.0 -0.1866979082 -0.0701802148
656750000.0 -0.1929086865 0.0430324628
666700000.0 -0.1256350996 0.1363520554
676650000.0 -0.0139018468 0.1675926181
686600000.0 0.0931336452 0.1207862616
696550000.0 0.1473578444 0.0188210878
706500000.0 0.125799887 -0.0896791698
716450000.0 0.04361324 -0.1540292683
726400000.0 -0.0543737552 -0.143437232
736350000.0 -0.1112975848 -0.0674109176
746300000.0 -0.0941321321 0.0286824263
756250000.0 -0.0072114188 0.0868568942
766200000.0 0.1016699617 0.0654817132
776150000.0 0.1684624943 -0.0316172111
786100000.0 0.1455511886 -0.1561726838
796050000.0 0.0303098084 -0.2338798758
806000000.0 -0.1248903298 -0.2038301082
815950000.0 -0.2274695016 -0.0573095166
825900000.0 -0.2078933728 0.1259237027
835850000.0 -0.0827421913 0.2703244059
845800000.0 0.121267281 0.3161054994
855750000.0 0.3208285108 0.2193504714
865700000.0 0.4179837083 0.0089270554
875650000.0 0.3573322532 -0.2258375232
885600000.0 0.1533204859 -0.3789635825
895550000.0 -0.1166613886 -0.369584338
905500000.0 -0.3309931983 -0.1858445917
915450000.0 -0.383955025 0.1020963907
925400000.0 -0.2368007164 0.3600370866
935350000.0 0.0461404827 0.4558869321
945300000.0 0.3228224117 0.3302486484
955250000.0 0.4372634844 0.0327923305
965200000.0 0.2936497646 -0.2800398011
975150000.0 -0.0649059643 -0.3958290006
985100000.0 -0.4167009136 -0.1752436039
995050000.0 -0.4650751096 0.2770294803
1005000000.0 -0.1018991688 0.6172320751
1014950000.0 0.436183237 0.5235595063
1024900000.0 0.7194510344 -0.005695167
1034850000.0 0.4646483152 -0.6070204065
1044800000.0 -0.1971741501 -0.7939971422
1054750000.0 -0.7624961057 -0.3921147196
1064700000.0 -0.7992078824 0.2507848425
1074650000.0 -0.472193301 0.708470882
1084600000.0 0.1169621705 0.828097406
1094550000.0 0.6169351716 0.5080028444
1104500000.0 0.7593359576 -0.0669288456
1114450000.0 0.4581441475 -0.5715735395
1124400000.0 -0.0920422515 -0.7005528284
1134350000.0 -0.5342811959 -0.4136814315
1144300000.0 -0.6365254321 0.060405258
1154250000.0 -0.4038169427 0.4447105102
1164200000.0 0.0044420845 0.5619688797
1174150000.0 0.3718880605 0.377484886
1184100000.0 0.5100628152 -0.0072895369
1194050000.0 0.339021089 -0.3721176225
1204000000.0 -0.0237005263 -0.508660294
1213950000.0 -0.3663791864 -0.3747332042
1223900000.0 -0.5383965048 -0.0689664318
1233850000.0 -0.4906669765 0.2683789609
1243800000.0 -0.2510043839 0.5105157498
1253750000.0 0.0943703735 0.5611757475
1263700000.0 0.408975242 0.3850881914
1273650000.0 0.552740813 0.0470426352
1283600000.0 0.4653402358 -0.3084798665
1293550000.0 0.1956902152 -0.5417009903
1303500000.0 -0.144823169 -0.5848603748
1313450000.0 -0.44605943 -0.4433644435
1323400000.0 -0.6257190334 -0.1680294875
1333350000.0 -0.6333568846 0.1655904672
1343300000.0 -0.4520518686 0.4609335965
1353250000.0 -0.1219346329 0.6086248818
1363200000.0 0.2447886894 0.5390485001
1373150000.0 0.5094155511 0.2717183721
1383100000.0 0.579182245 -0.0898943765
1393050000.0 0.449617075 -0.4169738039
1403000000.0 0.1805968264 -0.6178560452
1412950000.0 -0.1419555595 -0.6476402326
1422900000.0 -0.4285547507 -0.5055983311
1432850000.0 -0.5969565156 -0.2273571068
1442800000.0 -0.5866517575 0.1081243441
1452750000.0 -0.3873836354 0.3904208841
1462700000.0 -0.0597753159 0.5176514592
1472650000.0 0.2806611478 0.4425885494
1482600000.0 0.5147980055 0.2000407078
1492550000.0 0.5741543871 -0.1163533798
1502500000.0 0.4551251125 -0.4004842245
1512450000.0 0.2044248384 -0.5663943729
1522400000.0 -0.0961865867 -0.5611803541
1532350000.0 -0.3433789548 -0.3805016111
1542300000.0 -0.4435507278 -0.0826799204
1552250000.0 -0.3503498876 0.2214796891
1562200000.0 -0.0989123901 0.4087134766
1572150000.0 0.2013694042 0.4092760808
1582100000.0 0.4298511651 0.2394126252
1592050000.0 0.5061987422 -0.0226383121
1602000000.0 0.4113519467 -0.2730352512
1611950000.0 0.181353129 -0.4192768696
1621900000.0 -0.1001227713 -0.400429777
1631850000.0 -0.323335037 -0.2093040245
1641800000.0 -0.386464697 0.0862637816
1651750000.0 -0.2537574607 0.3584990017
1661700000.0 0.0134281072 0.4880923653
1671650000.0 0.2973459885 0.42973953
1681600000.0 0.4886120227 0.2169594904
1691550000.0 0.5223391868 -0.0698676041
1701500000.0 0.3827713277 -0.3312632357
1711450000.0 0.1093457312 -0.4659028595
1721400000.0 -0.1769385861 -0.4160012049
1731350000.0 -0.4137676236 -0.2516539808
1741300000.0 -0.5220385826 0.0587329186
1751250000.0 -0.4205286109 0.3759962916
1761200000.0 -0.159545416 0.5664450085
1771150000.0 0.1521595669 0.5795952664
1781100000.0 0.4177043957 0.4301417907
1791050000.0 0.5684704988 0.1664526828
1801000000.0 0.5620750846 -0.1439914124
1810950000.0 0.3870315492 -0.4135150636
1820900000.0 0.0825508677 -0.5463187849
1830850000.0 -0.2487482997 -0.4818586205
1840800000.0 -0.4815085586 -0.2428789405
1850750000.0 -0.5402868824 0.0712310675
1860700000.0 -0.4294416431 0.3492941837
1870650000.0 -0.2075536587 0.5203374277
1880600000.0 0.0551424914 0.5553701817
1890550000.0 0.2931299239 0.4561280214
1900500000.0 0.4433679558 0.2469845657
1910450000.0 0.456157561 -0.0117790084
1920400000.0 0.3225978631 -0.2333955993
1930350000.0 0.0932907231 -0.3364430546
1940300000.0 -0.1367502498 -0.2945292556
1950250000.0 -0.2868694004 -0.1505361148
1960200000.0 -0.3271781995 0.0234218341
1970150000.0 -0.2741284934 0.1617384674
1980100000.0 -0.1729194346 0.2232682354
1990050000.0 -0.0838108416 0.200930203
2000000000.0 -0.0626060215 0.1341238665
