!Created with skrf (http://scikit-rf.org).
# GHz S RI R 50.0 
!freq ReS11 ImS11
10000000.0 -0.7675180574 0.6758402509
19950000.0 -0.1370713104 0.988285887
29900000.0 0.5386653952 0.8174118544
39850000.0 0.9446058566 0.2431855202
49800000.0 0.8700400361 -0.4698713636
59750000.0 0.3171061903 -0.9606002361
69700000.0 -0.4472968249 -0.9247973319
79650000.0 -0.967911274 -0.3290231176
89600000.0 -0.8741839535 0.4794219403
99550000.0 -0.1833930255 0.9510041479
109500000.0 0.6456236887 0.7086679769
119450000.0 0.9681393927 -0.1292575218
129400000.0 0.427587609 -0.8965824577
139350000.0 -0.489317009 -0.8825006019
149300000.0 -0.9780068521 -0.1019314449
159250000.0 -0.6355582757 0.7086156324
169200000.0 0.1720934826 0.9258870201
179150000.0 0.832793321 0.4722582931
189100000.0 0.9375440519 -0.2956112415
199050000.0 0.4657317796 -0.8831138503
209000000.0 -0.2634039507 -0.955609655
218950000.0 -0.8182370719 -0.5152112407
228900000.0 -0.9262367021 0.1653919834
238850000.0 -0.5637585131 0.7351929386
248800000.0 0.0708612815 0.9268427558
258750000.0 0.6818495311 0.6594261427
268700000.0 0.9653666214 0.0569615802
278650000.0 0.7767769155 -0.5815768196
288600000.0 0.2117772335 -0.9274464666
298550000.0 -0.4323807652 -0.8058811036
308500000.0 -0.8222734277 -0.2878852195
318450000.0 -0.7564808045 0.3490040744
328400000.0 -0.2740002021 0.755799745
338350000.0 0.3386958335 0.6960703817
348300000.0 0.6880472649 0.2256099951
358250000.0 0.5656526818 -0.2984664055
368200000.0 0.1382773433 -0.5035776176
378150000.0 -0.2198455181 -0.3250970558
388100000.0 -0.2769457596 -0.0049348383
398050000.0 -0.0957317614 0.1747022238
408000000.0 0.0961780913 0.1280574039
417950000.0 0.1363712005 -0.0236325486
427900000.0 0.0364751861 -0.1152209131
437850000.0 -0.0856711802 -0.0792287895
447800000.0 -0.1266232218 0.039628772
457750000.0 -0.0596692505 0.1451859605
467700000.0 0.0618393469 0.1633274744
477650000.0 0.1543427287 0.0885338119
487600000.0 0.1671113879 -0.0246634739
497550000.0 0.0955858008 -0.1099188485
507500000.0 0.0007005247 -0.1203971197
517450000.0 -0.065543033 -0.0706133825
527400000.0 -0.0759946742 -0.0039479197
537350000.0 -0.0442590881 0.0345089453
547300000.0 -0.0119840555 0.031275985
557250000.0 -0.006113676 0.0101220399
567200000.0 -0.0264969842 0.0037266755
577150000.0 -0.0447314706 0.0298328784
587100000.0 -0.0289090439 0.0722073237
597050000.0 0.0273896153 0.0930747242
607000000.0 0.0958977148 0.0605914712
616950000.0 0.1298252525 -0.023088346
626900000.0 0.0969166564 -0.1183889896
636850000.0 0.0017381747 -0.1725663367
646800000.0 -0.111645362 -0.1488218354
656750000.0 -0.1823308447 -0.0526309858
666700000.0 -0.168222844 0.0679520396
676650000.0 -0.073902452 0.1470080118
686600000.0 0.0505314533 0.1398490668
696550000.0 0.1362579951 0.0500892937
706500000.0 0.1360681946 -0.0701499601
716450000.0 0.0548830978 -0.1522063922
726400000.0 -0.0548157563 -0.1502781629
736350000.0 -0.1210272234 -0.0702368991
746300000.0 -0.0992153344 0.0292918217
756250000.0 -0.0052381623 0.0738633167
766200000.0 0.0935470476 0.0246931554
776150000.0 0.118364483 -0.0919424881
786100000.0 0.037863656 -0.1952085095
796050000.0 -0.1082134377 -0.2022390637
806000000.0 -0.2226331458 -0.0839699312
815950000.0 -0.2125224552 0.1020093014
825900000.0 -0.0554666812 0.2394526601
835850000.0 0.1733687563 0.2262492538
845800000.0 0.3416305421 0.0453801869
855750000.0 0.3404933671 -0.2174136357
865700000.0 0.1504607374 -0.4197603742
875650000.0 -0.1404471632 -0.4391970515
885600000.0 -0.3778888689 -0.2444056805
895550000.0 -0.4194359527 0.0750934488
905500000.0 -0.2213576389 0.347346429
915450000.0 0.1212800899 0.4083222382
925400000.0 0.4145292472 0.2069176756
935350000.0 0.4811788213 -0.148583915
945300000.0 0.2690401544 -0.4491602067
955250000.0 -0.1051357222 -0.5015197707
965200000.0 -0.4067724824 -0.2478833653
975150000.0 -0.407083154 0.1707802014
985100000.0 -0.0492859758 0.4467017764
995050000.0 0.4164869834 0.302270079
1005000000.0 0.563176975 -0.2037955822
1014950000.0 0.1881996151 -0.6366927647
1024900000.0 -0.431672413 -0.5537969455
1034850000.0 -0.7311302703 0.0666000241
1044800000.0 -0.3376979352 0.7102153095
1054750000.0 0.4566817597 0.7177997365
1064700000.0 0.8956269019 0.0576274939
1074650000.0 0.6178330274 -0.6543714933
1084600000.0 -0.0510242512 -0.8584917113
1094550000.0 -0.6474138722 -0.517016271
1104500000.0 -0.774294866 0.1559659525
1114450000.0 -0.3375305775 0.681627096
1124400000.0 0.329395775 0.6615705843
1134350000.0 0.6999168697 0.1540943502
1144300000.0 0.555569933 -0.4049079298
1154250000.0 0.0846622099 -0.6482398307
1164200000.0 -0.3854910104 -0.4872056397
1174150000.0 -0.5964590589 -0.0492893494
1184100000.0 -0.4190517913 0.4050330266
1194050000.0 0.0373664258 0.5743067987
1204000000.0 0.4578188035 0.3523013276
1213950000.0 0.5800483508 -0.0864381131
1223900000.0 0.3724608201 -0.4687595117
1233850000.0 -0.0218662716 -0.61185394
1243800000.0 -0.4103234523 -0.468024292
1253750000.0 -0.6172523615 -0.1037728405
1263700000.0 -0.5343004757 0.317727019
1273650000.0 -0.1836385035 0.5829914596
1283600000.0 0.2576699069 0.5448416044
1293550000.0 0.559127483 0.2292753297
1303500000.0 0.5885997059 -0.1934883342
1313450000.0 0.3596472557 -0.5341672251
1323400000.0 -0.019112869 -0.6681438971
1333350000.0 -0.403688992 -0.5520763674
1343300000.0 -0.6476472615 -0.2225627715
1353250000.0 -0.6372236588 0.1999642463
1363200000.0 -0.3536911158 0.5296259661
1373150000.0 0.0805097108 0.600709755
1383100000.0 0.4554276991 0.3802291881
1393050000.0 0.6057665375 -0.0130536317
1403000000.0 0.4916942821 -0.401354934
1412950000.0 0.1796037829 -0.6382590429
1422900000.0 -0.205382775 -0.6467620941
1432850000.0 -0.5205224536 -0.4257883114
1442800000.0 -0.6378188156 -0.054056456
1452750000.0 -0.4945565692 0.3159815696
1462700000.0 -0.1438910858 0.5114343
1472650000.0 0.2469514224 0.4362633862
1482600000.0 0.4908114605 0.1346317935
1492550000.0 0.4856993172 -0.2387707757
1502500000.0 0.2568398627 -0.5139447596
1512450000.0 -0.0826994729 -0.5827355344
1522400000.0 -0.3836980173 -0.4238870914
1532350000.0 -0.512021365 -0.1094105795
1542300000.0 -0.4022495936 0.2137916592
1552250000.0 -0.1047060491 0.379732409
1562200000.0 0.2232197031 0.3006348751
1572150000.0 0.4058196258 0.0229157807
1582100000.0 0.349199025 -0.2964083473
1592050000.0 0.0955280546 -0.4858811963
1602000000.0 -0.2168296908 -0.4542472445
1611950000.0 -0.430552208 -0.2192774751
1621900000.0 -0.4340976401 0.1046491744
1631850000.0 -0.2120679046 0.3565141384
1641800000.0 0.1338951941 0.3941527575
1651750000.0 0.4208919331 0.1826288065
1661700000.0 0.4868436437 -0.1704596922
1671650000.0 0.2990939564 -0.4773280471
1681600000.0 -0.040967136 -0.5894574066
1691550000.0 -0.3751602769 -0.4630054737
1701500000.0 -0.5637177212 -0.1538845942
1711450000.0 -0.5249474911 0.216916161
1721400000.0 -0.2565515952 0.4971257373
1731350000.0 0.1417522181 0.5490905985
1741300000.0 0.4892411206 0.3278988402
1751250000.0 0.6131090918 -0.0675057258
1761200000.0 0.4624942457 -0.4448225357
1771150000.0 0.1226637363 -0.6427927341
1781100000.0 -0.2570401683 -0.6032981482
1791050000.0 -0.5425018146 -0.3595804023
1801000000.0 -0.6411574216 0.0024280243
1810950000.0 -0.5121734431 0.3622362856
1820900000.0 -0.1845076499 0.5818919384
1830850000.0 0.2200732067 0.5530604619
1840800000.0 0.5167730573 0.2752405943
1850750000.0 0.5681066217 -0.1176703384
1860700000.0 0.3752188156 -0.4419344814
1870650000.0 0.0491120647 -0.5822796187
1880600000.0 -0.2768279768 -0.5179377103
1890550000.0 -0.5003638407 -0.2957108243
1900500000.0 -0.5604893621 0.0047011606
1910450000.0 -0.4435346282 0.2807108804
1920400000.0 -0.1931668011 0.4314876495
1930350000.0 0.0863858652 0.3964963986
1940300000.0 0.2731239794 0.2048569692
1950250000.0 0.3002816663 -0.0357728662
1960200000.0 0.1915422203 -0.2147974084
1970150000.0 0.0267771705 -0.2811437473
1980100000.0 -0.1116255087 -0.2492900452
1990050000.0 -0.1772556236 -0.1765004775
2000000000.0 -0.1799500639 -0.1298721307
