!Created with skrf (http://scikit-rf.org).
# GHz S RI R 50.0 
!freq ReS11 ImS11
10000000.0 -0.7317174131 0.5584428999
19950000.0 -0.2653201799 0.8843505073
29900000.0 0.3076090563 0.8728695722
39850000.0 0.7725898079 0.5137186367
49800000.0 0.9311592183 -0.0706827668
59750000.0 0.6902900875 -0.6463880794
69700000.0 0.1271391358 -0.9487015397
79650000.0 -0.5118817974 -0.8086455293
89600000.0 -0.9101088617 -0.2589391431
99550000.0 -0.8299279469 0.4483588797
109500000.0 -0.2565893012 0.922213747
119450000.0 0.5237256934 0.8200286482
129400000.0 0.9735840808 0.132331157
139350000.0 0.7237753732 -0.6606997698
149300000.0 -0.0440298387 -0.9587975127
159250000.0 -0.7366777604 -0.5719771211
169200000.0 -0.9024568042 0.1644391337
179150000.0 -0.5123940897 0.7589402702
189100000.0 0.1404306202 0.9039066628
199050000.0 0.6931704204 0.5838485836
209000000.0 0.8972086819 -0.0020192755
218950000.0 0.6922451663 -0.5623468403
228900000.0 0.1956101945 -0.8644135218
238850000.0 -0.3716459474 -0.7969529123
248800000.0 -0.7514973172 -0.4049269943
258750000.0 -0.8631153505 0.148784173
268700000.0 -0.6045957762 0.6422681153
278650000.0 -0.1086269744 0.8776343224
288600000.0 0.4234790413 0.7633949771
298550000.0 0.7765941555 0.3466524627
308500000.0 0.8013587035 -0.2038479208
318450000.0 0.4777619094 -0.6491679914
328400000.0 -0.049541625 -0.7828838889
338350000.0 -0.5226478929 -0.5397944518
348300000.0 -0.6951454272 -0.0581354585
358250000.0 -0.4968527841 0.3761248384
368200000.0 -0.0924917243 0.5221107993
378150000.0 0.2391558823 0.3555826853
388100000.0 0.3242957849 0.0572267385
398050000.0 0.1907041249 -0.153218047
408000000.0 -0.0033911438 -0.178032629
417950000.0 -0.1129453311 -0.0707664117
427900000.0 -0.0957231832 0.0518185109
437850000.0 -0.0024345651 0.0983405652
447800000.0 0.0819017192 0.0528381105
457750000.0 0.1008779962 -0.0378185234
467700000.0 0.0482084489 -0.1119301086
477650000.0 -0.0360868106 -0.1261591469
487600000.0 -0.1024611067 -0.0794537473
497550000.0 -0.1163639706 -0.0071484816
507500000.0 -0.0865951297 0.0606512244
517450000.0 -0.0240584209 0.0846796587
527400000.0 0.0298523774 0.0645701559
537350000.0 0.0487827538 0.020625659
547300000.0 0.0324455753 -0.0155660958
557250000.0 -0.0025976514 -0.0234088042
567200000.0 -0.0252394794 -0.0013857069
577150000.0 -0.0162680059 0.0281958128
587100000.0 0.020005642 0.0373449169
597050000.0 0.0597795856 0.0085705825
607000000.0 0.0711185933 -0.0497547608
616950000.0 0.0368829734 -0.1078466659
626900000.0 -0.0323936108 -0.1319283412
636850000.0 -0.1055730476 -0.1019053768
646800000.0 -0.1461255295 -0.0260707399
656750000.0 -0.1302243713 0.0650445425
666700000.0 -0.057667934 0.1306430881
676650000.0 0.0434267109 0.1374898166
686600000.0 0.1299353288 0.076766702
696550000.0 0.1612395844 -0.02676564
706500000.0 0.1190773363 -0.1282390895
716450000.0 0.0224902029 -0.1797917006
726400000.0 -0.0831888467 -0.1529970013
736350000.0 -0.1420691233 -0.0612009845
746300000.0 -0.1212811593 0.0498898909
756250000.0 -0.0270444157 0.1213595913
766200000.0 0.0926484262 0.1100578785
776150000.0 0.1739093558 0.0195517672
786100000.0 0.1681991741 -0.1045527639
796050000.0 0.0719576574 -0.1927089282
806000000.0 -0.0683729516 -0.1871841621
815950000.0 -0.1781602731 -0.078024926
825900000.0 -0.1885069304 0.0889391447
835850000.0 -0.0815569099 0.2299680099
845800000.0 0.0980255193 0.268348175
855750000.0 0.2680248089 0.1764469507
865700000.0 0.3442008349 -0.0146816379
875650000.0 0.2757455126 -0.22265327
885600000.0 0.0749455757 -0.3426566024
895550000.0 -0.1713212836 -0.2973330247
905500000.0 -0.3365077836 -0.0892582292
915450000.0 -0.3228035097 0.1901683483
925400000.0 -0.1213840988 0.3956956377
935350000.0 0.1726064194 0.4104299088
945300000.0 0.4059213543 0.2074357465
955250000.0 0.4317503502 -0.1285235627
965200000.0 0.1854254044 -0.4100665264
975150000.0 -0.2296061303 -0.4182347518
985100000.0 -0.5314455834 -0.072377262
995050000.0 -0.4460454398 0.4202039247
1005000000.0 0.023682163 0.6781593975
1014950000.0 0.5541120201 0.4551558899
1024900000.0 0.7244361316 -0.1428292228
1034850000.0 0.342986455 -0.6800699614
1044800000.0 -0.325219603 -0.7114905048
1054750000.0 -0.7641345422 -0.2204091868
1064700000.0 -0.6958102282 0.3919684144
1074650000.0 -0.2435474977 0.7593748859
1084600000.0 0.3006215554 0.7174724848
1094550000.0 0.6834910493 0.3044870313
1104500000.0 0.6606904534 -0.2628171555
1114450000.0 0.2491028223 -0.6405612668
1124400000.0 -0.2795732492 -0.6131205352
1134350000.0 -0.6122904531 -0.2513578102
1144300000.0 -0.6176636186 0.2063081207
1154250000.0 -0.3349263291 0.5422122087
1164200000.0 0.084922294 0.606419434
1174150000.0 0.4385915463 0.3834402816
1184100000.0 0.5570029882 -0.0214936452
1194050000.0 0.3742467179 -0.3974338582
1204000000.0 0.0041837358 -0.5508379523
1213950000.0 -0.3561926368 -0.4375313808
1223900000.0 -0.5607950552 -0.1429797802
1233850000.0 -0.5522347426 0.2023401072
1243800000.0 -0.345696614 0.4741659876
1253750000.0 -0.0145552388 0.5729178894
1263700000.0 0.3185553242 0.4490307827
1273650000.0 0.5136465139 0.1431107611
1283600000.0 0.4880975254 -0.2168318086
1293550000.0 0.2660758485 -0.484963742
1303500000.0 -0.0511982068 -0.5752765432
1313450000.0 -0.3498103564 -0.4805429131
1323400000.0 -0.5468365806 -0.2477111001
1333350000.0 -0.5959406493 0.055560854
1343300000.0 -0.4740038511 0.349738049
1353250000.0 -0.1960617775 0.5345716574
1363200000.0 0.1522808444 0.5245111214
1373150000.0 0.4350794485 0.3080880143
1383100000.0 0.5407955335 -0.0258730189
1393050000.0 0.4454016428 -0.3486174655
1403000000.0 0.2041309702 -0.5543667873
1412950000.0 -0.0914661957 -0.5947415116
1422900000.0 -0.3536624561 -0.4757502118
1432850000.0 -0.5150006954 -0.2325260518
1442800000.0 -0.5245912333 0.0748157558
1452750000.0 -0.3540561719 0.3487390443
1462700000.0 -0.0490348834 0.4771068354
1472650000.0 0.2717633977 0.4047656872
1482600000.0 0.4827491237 0.1666419246
1492550000.0 0.5174428856 -0.135285428
1502500000.0 0.3807822239 -0.3922442128
1512450000.0 0.1301447801 -0.522403088
1522400000.0 -0.1472891886 -0.4856554141
1532350000.0 -0.3544880121 -0.2895189245
1542300000.0 -0.4088314786 0.0015125662
1552250000.0 -0.2748195387 0.2727679207
1562200000.0 -0.0073508277 0.4047954697
1572150000.0 0.2733288684 0.3489698491
1582100000.0 0.4552621745 0.1440410023
1592050000.0 0.4777616396 -0.1227607041
1602000000.0 0.3369514708 -0.3498382466
1611950000.0 0.0807670912 -0.4526405657
1621900000.0 -0.1976975339 -0.3803619262
1631850000.0 -0.3852118666 -0.144129509
1641800000.0 -0.3929533174 0.1654281672
1651750000.0 -0.2099969942 0.4156272134
1661700000.0 0.0799092212 0.5036244274
1671650000.0 0.3586749408 0.4059793133
1681600000.0 0.5289686394 0.1701211349
1691550000.0 0.5407473628 -0.1211102488
1701500000.0 0.3872074285 -0.3763084015
1711450000.0 0.1113342514 -0.5092060548
1721400000.0 -0.2044323995 -0.46169149
1731350000.0 -0.4458058915 -0.2356613727
1741300000.0 -0.5180815533 0.0909519754
1751250000.0 -0.3970671776 0.394795291
1761200000.0 -0.1388576004 0.5722654322
1771150000.0 0.1626813043 0.5820042961
1781100000.0 0.4178271714 0.4358193226
1791050000.0 0.5612556363 0.1793550165
1801000000.0 0.5519038995 -0.1207928561
1810950000.0 0.3865555752 -0.3791200599
1820900000.0 0.1003432536 -0.5109259985
1830850000.0 -0.2163487735 -0.4552849484
1840800000.0 -0.4364677273 -0.222650128
1850750000.0 -0.4677629843 0.0274119276
1860700000.0 -0.442842888 0.2927122613
1870650000.0 -0.2485724468 0.4935080197
1880600000.0 0.0046216685 0.551513529
1890550000.0 0.237731378 0.4702218571
1900500000.0 0.3889492164 0.2816756813
1910450000.0 0.4195411099 0.0405184902
1920400000.0 0.3189678543 -0.180114052
1930350000.0 0.1194685569 -0.3042571934
1940300000.0 -0.099971062 -0.2950678042
1950250000.0 -0.2590515606 -0.177361785
1960200000.0 -0.3149151663 -0.0163568282
1970150000.0 -0.2748856174 0.1192999161
1980100000.0 -0.1814321118 0.181595358
1990050000.0 -0.0998942426 0.1592173985
2000000000.0 -0.0929296503 0.0904017613
