!Created with skrf (http://scikit-rf.org).
# GHz S RI R 50.0 
!freq ReS11 ImS11
10000000.0 -0.7284643004 0.5647470665
19950000.0 -0.2613537502 0.8917048953
29900000.0 0.310974949 0.8764839306
39850000.0 0.7729486063 0.5125668018
49800000.0 0.9275978748 -0.0745780017
59750000.0 0.6852690761 -0.650802523
69700000.0 0.1264054554 -0.9546963848
79650000.0 -0.5048860572 -0.8216826938
89600000.0 -0.9035483627 -0.286620327
99550000.0 -0.846673053 0.4089582483
109500000.0 -0.3122208732 0.9009006758
119450000.0 0.4450407438 0.8659394439
129400000.0 0.9522736755 0.255051517
139350000.0 0.8224451109 -0.5472155084
149300000.0 0.124725622 -0.9623972258
159250000.0 -0.6239660095 -0.7001337793
169200000.0 -0.9166234991 0.0076202413
179150000.0 -0.6224479739 0.6723136364
189100000.0 0.0149299783 0.9164797747
199050000.0 0.6150730164 0.6587235847
209000000.0 0.8831831883 0.0778442416
218950000.0 0.7191609243 -0.5148923382
228900000.0 0.2287942413 -0.8519745939
238850000.0 -0.3546203663 -0.796503801
248800000.0 -0.709730237 -0.2610026782
258750000.0 -0.8446360018 0.151844859
268700000.0 -0.570869916 0.65641932
278650000.0 -0.0592187381 0.8764273472
288600000.0 0.4687764804 0.7267074804
298550000.0 0.7889688735 0.2743813041
308500000.0 0.7585401911 -0.2860807587
318450000.0 0.3819084156 -0.6995367259
328400000.0 -0.1648999204 -0.7668717778
338350000.0 -0.6045319362 -0.4553573315
348300000.0 -0.7062868105 0.0559737464
358250000.0 -0.4400086764 0.4687512163
368200000.0 -0.0013978753 0.5623103486
378150000.0 0.3311361439 0.3418632999
388100000.0 0.3952576062 0.0031184315
398050000.0 0.2277021843 -0.2316125684
408000000.0 -0.0078964744 -0.2619817536
417950000.0 -0.1581469959 -0.1375835781
427900000.0 -0.169201475 0.0188692417
437850000.0 -0.0832583636 0.1072544416
447800000.0 0.0159645326 0.0996317807
457750000.0 0.0655878494 0.0308889569
467700000.0 0.0498909306 -0.0395173331
477650000.0 0.0011638924 -0.065679271
487600000.0 -0.035865832 -0.0426919022
497550000.0 -0.0045763658 -0.0070496957
507500000.0 -0.0395447438 0.0154054738
517450000.0 0.0056862011 0.0252502757
527400000.0 0.0296638494 0.0006561008
537350000.0 0.0181069933 -0.0317940281
547300000.0 -0.0230348843 -0.0432612651
557250000.0 -0.0641735481 -0.0144385317
567200000.0 -0.0749992138 0.0375382429
577150000.0 -0.0427954951 0.0853176827
587100000.0 0.0216912345 0.0960708179
597050000.0 0.0866908691 0.055189467
607000000.0 0.1143808272 -0.0258603206
616950000.0 0.0854273288 -0.1104708257
626900000.0 0.009510848 -0.1582283881
636850000.0 -0.0791757351 -0.1447713866
646800000.0 -0.1406077572 -0.0737036576
656750000.0 -0.1459865576 0.0238301361
666700000.0 -0.0911507983 0.1060118084
676650000.0 0.0017011107 0.1362367477
686600000.0 0.09154987 0.0970412479
696550000.0 0.1351483506 0.0063800369
706500000.0 0.1093191033 -0.091178641
716450000.0 0.0277073817 -0.1469364889
726400000.0 -0.0665952905 -0.1310354361
736350000.0 -0.1190344588 -0.0520353242
746300000.0 -0.096763011 0.0459959431
756250000.0 -0.0042355812 0.1060482421
766200000.0 0.1102388307 0.0871477439
776150000.0 0.1835251103 -0.0083451709
786100000.0 0.1690117645 -0.1339706112
796050000.0 0.0623421685 -0.2188817104
806000000.0 -0.0887030226 -0.2056808636
815950000.0 -0.2059590241 -0.0843377357
825900000.0 -0.2209699596 0.097366901
835850000.0 -0.1141820789 0.2555149696
845800000.0 0.0744977986 0.31110396
855750000.0 0.265271079 0.229843066
865700000.0 0.3718006677 0.0364461784
875650000.0 0.3350267699 -0.1934365123
885600000.0 0.1536037956 -0.3540124997
895550000.0 -0.1012495979 -0.3592051549
905500000.0 -0.31069301 -0.1885549709
915450000.0 -0.361071969 0.0932959128
925400000.0 -0.2053197434 0.3425481165
935350000.0 0.0523517551 0.4073356273
945300000.0 0.2841799422 0.3026042446
955250000.0 0.4009488293 0.0529070711
965200000.0 0.3003871167 -0.2412871769
975150000.0 -0.0092506228 -0.3909026445
985100000.0 -0.3590193866 -0.2413807321
995050000.0 -0.4749567141 0.1605962622
1005000000.0 -0.217954401 0.5321351727
1014950000.0 0.2748243599 0.5687399879
1024900000.0 0.6469005531 0.1674530203
1034850000.0 0.5639270215 -0.4270102807
1044800000.0 0.019941445 -0.7470577799
1054750000.0 -0.5791532667 -0.5065750761
1064700000.0 -0.7619641382 0.0961365646
1074650000.0 -0.5311844614 0.5801498818
1084600000.0 -0.0090285923 0.8029173619
1094550000.0 0.5155147733 0.5772514364
1104500000.0 0.7239902231 0.0395016154
1114450000.0 0.4875534451 -0.4886653375
1124400000.0 -0.0344814463 -0.6740143673
1134350000.0 -0.4925345003 -0.433363149
1144300000.0 -0.6310713345 0.0296567206
1154250000.0 -0.4249456011 0.431431656
1164200000.0 -0.023030429 0.5727016409
1174150000.0 0.3520112399 0.4044548576
1184100000.0 0.5062006706 0.0274176274
1194050000.0 0.3547667705 -0.3444192541
1204000000.0 0.0024655173 -0.4994864908
1213950000.0 -0.342720558 -0.3850774867
1223900000.0 -0.5279343262 -0.0937618176
1233850000.0 -0.5010305293 0.2360657181
1243800000.0 -0.2851040467 0.4804368608
1253750000.0 0.0416657409 0.5445377109
1263700000.0 0.3522553351 0.3883809641
1273650000.0 0.5093826789 0.0686530317
1283600000.0 0.4462806126 -0.2787334155
1293550000.0 0.2021656416 -0.5137257974
1303500000.0 -0.1125882889 -0.5654790182
1313450000.0 -0.38983437 -0.4413279102
1323400000.0 -0.5588014503 -0.1936545845
1333350000.0 -0.582448118 0.1117942752
1343300000.0 -0.4399469795 0.3956586008
1353250000.0 -0.1500087609 0.5570893884
1363200000.0 0.1960793695 0.5172587454
1373150000.0 0.4624461062 0.2782115919
1383100000.0 0.5442546995 -0.0664360963
1393050000.0 0.4285579192 -0.3847901622
1403000000.0 0.1772321938 -0.5792494063
1412950000.0 -0.1170860397 -0.6084180148
1422900000.0 -0.3704040036 -0.4815002358
1432850000.0 -0.5253018741 -0.2351702922
1442800000.0 -0.5347438869 0.0724008912
1452750000.0 -0.3728862234 0.3496985172
1462700000.0 -0.0758377576 0.4934042241
1472650000.0 0.2509031043 0.4417832617
1482600000.0 0.4838546028 0.2171219627
1492550000.0 0.5457933829 -0.0894855291
1502500000.0 0.4315763601 -0.3681271321
1512450000.0 0.1924906718 -0.5328227353
1522400000.0 -0.0903939302 -0.5364157135
1532350000.0 -0.3262170594 -0.3765733092
1542300000.0 -0.4326615568 -0.098534074
1552250000.0 -0.3570352847 0.2000935281
1562200000.0 -0.1193701529 0.396143165
1572150000.0 0.1773099272 0.4099599877
1582100000.0 0.4101997596 0.2510550558
1592050000.0 0.4966339394 -0.0055048112
1602000000.0 0.4154442119 -0.2579854842
1611950000.0 0.1974672732 -0.4157322608
1621900000.0 -0.081344744 -0.4147584253
1631850000.0 -0.3137937343 -0.2398394909
1641800000.0 -0.3933465867 0.0489503695
1651750000.0 -0.2771727667 0.3252238484
1661700000.0 -0.020186062 0.4666964554
1671650000.0 0.2626186918 0.4247773172
1681600000.0 0.463457134 0.2274165131
1691550000.0 0.5132714284 -0.0474677029
1701500000.0 0.394102725 -0.2990814836
1711450000.0 0.168472146 -0.4274197491
1721400000.0 -0.1069389381 -0.4474370555
1731350000.0 -0.3731275586 -0.275567255
1741300000.0 -0.4868375903 0.0305130314
1751250000.0 -0.4043011113 0.3396757303
1761200000.0 -0.1687831749 0.5363302373
1771150000.0 0.1243615387 0.5656171017
1781100000.0 0.3811342271 0.4358768913
1791050000.0 0.5314292752 0.1913889278
1801000000.0 0.5345332644 -0.1009414919
1810950000.0 0.3860953725 -0.3593602676
1820900000.0 0.1166620733 -0.4991278117
1830850000.0 -0.1922645142 -0.4606227822
1840800000.0 -0.4287055476 -0.2513282089
1850750000.0 -0.5096131303 0.0460847615
1860700000.0 -0.4235294776 0.3231493285
1870650000.0 -0.2205206735 0.5014680965
1880600000.0 0.028357637 0.5455940597
1890550000.0 0.2524286405 0.4564367959
1900500000.0 0.3937602517 0.2628029735
1910450000.0 0.4158236038 0.0196465209
1920400000.0 0.3090427851 -0.2014338146
1930350000.0 0.1038285312 -0.3239626841
1940300000.0 -0.1236646503 -0.3081504563
1950250000.0 -0.2862787155 -0.1799387352
1960200000.0 -0.3432440933 -0.0057225052
1970150000.0 -0.3002584543 0.146598759
1980100000.0 -0.1963381832 0.2293759985
1990050000.0 -0.0895696086 0.2262087022
2000000000.0 -0.0380813092 0.1634329118
