!Created with skrf (http://scikit-rf.org).
# GHz S RI R 50.0 
!freq ReS11 ImS11
10000000.0 -0.7760393586 0.5864766902
19950000.0 -0.2838290173 0.9201794819
29900000.0 0.309312557 0.90181785
39850000.0 0.7874406623 0.5324374725
49800000.0 0.9574315663 -0.0646075884
59750000.0 0.7223809353 -0.6605800059
69700000.0 0.1486875349 -0.9849245235
79650000.0 -0.5146344477 -0.8506185169
89600000.0 -0.9300524365 -0.285985729
99550000.0 -0.8483626641 0.4396168911
109500000.0 -0.2599864442 0.9219496961
119450000.0 0.5304754097 0.8208122216
129400000.0 0.9897595556 0.1256155171
139350000.0 0.7331511652 -0.6816380766
149300000.0 -0.0511069358 -0.9742624524
159250000.0 -0.7475610596 -0.5703611371
169200000.0 -0.9077828483 0.1774908926
179150000.0 -0.5106331482 0.7813165552
189100000.0 0.1572705133 0.9326107919
199050000.0 0.7273937435 0.6038452741
209000000.0 0.9350536625 -0.0019968002
218950000.0 0.7191473515 -0.5763523306
228900000.0 0.208493871 -0.8825193679
238850000.0 -0.3710701448 -0.8151361234
248800000.0 -0.7661002161 -0.4055290041
258750000.0 -0.8914158544 0.1440523407
268700000.0 -0.6391600587 0.6581377792
278650000.0 -0.1333630126 0.9128626705
288600000.0 0.4177305868 0.8039948798
298550000.0 0.7857779785 0.3787030614
308500000.0 0.8174250397 -0.1854374443
318450000.0 0.4942864799 -0.6452737809
328400000.0 -0.0400179645 -0.7927302386
338350000.0 -0.5266314045 -0.555944305
348300000.0 -0.7100783738 -0.0700991247
358250000.0 -0.5127970372 0.3708075855
368200000.0 -0.1041922037 0.5170776248
378150000.0 0.2291885212 0.3465248439
388100000.0 0.3117952268 0.0449548236
398050000.0 0.1738604595 -0.1641815879
408000000.0 -0.0221358503 -0.1826423251
417950000.0 -0.1286580246 -0.0675877451
427900000.0 -0.1028759896 0.0603399092
437850000.0 0.0012847165 0.1077502218
447800000.0 0.0952674691 0.0579912669
457750000.0 0.1215363369 -0.0404913391
467700000.0 0.0709145548 -0.1244689882
477650000.0 -0.0173630819 -0.1473422522
487600000.0 -0.092148582 -0.1044171574
497550000.0 -0.1173479268 -0.029519121
507500000.0 -0.0907977783 0.0463535718
517450000.0 -0.0308964476 0.0783942947
527400000.0 0.0240021035 0.0663985117
537350000.0 0.0459526572 0.0291920923
547300000.0 0.0338583883 -0.0014688228
557250000.0 0.0039060335 -0.0063784234
567200000.0 -0.0141655121 0.0157700174
577150000.0 -0.0019792877 0.0429875196
587100000.0 0.0353592327 0.0476182448
597050000.0 0.0734027996 0.0138799354
607000000.0 0.0814634112 -0.048729118
616950000.0 0.0426493719 -0.1107391089
626900000.0 -0.0331804503 -0.1371792662
636850000.0 -0.1137145927 -0.1072997761
646800000.0 -0.1608639058 -0.0287941468
656750000.0 -0.1494830545 0.0678973
666700000.0 -0.077229032 0.1395830916
676650000.0 0.0270739226 0.1504338689
686600000.0 0.1182357594 0.0907180294
696550000.0 0.1544311971 -0.0140919232
706500000.0 0.1165815593 -0.1183092868
716450000.0 0.0234600497 -0.1746664557
726400000.0 -0.080097166 -0.1536476204
736350000.0 -0.1385927676 -0.0671134736
746300000.0 -0.1173479047 0.0391699241
756250000.0 -0.0237096836 0.1059782074
766200000.0 0.0939418672 0.0907587215
776150000.0 0.1716542036 -0.0025963441
786100000.0 0.1601140315 -0.1264676769
796050000.0 0.0572200727 -0.208617747
806000000.0 -0.0804099793 -0.1943768435
815950000.0 -0.1879275123 -0.0773714943
825900000.0 -0.1947871512 0.0968697753
835850000.0 -0.080674704 0.2453291364
845800000.0 0.1096202444 0.2873819988
855750000.0 0.2917456302 0.1921861905
865700000.0 0.3762099788 -0.0089363122
875650000.0 0.3093966394 -0.2292527312
885600000.0 0.1041075256 -0.3615381142
895550000.0 -0.1545966729 -0.3254540536
905500000.0 -0.3389267422 -0.1193431685
915450000.0 -0.3471558641 0.1704685576
925400000.0 -0.1610904105 0.4006885596
935350000.0 0.1352714128 0.4468229829
945300000.0 0.3899444788 0.268416209
955250000.0 0.451042793 -0.0613398972
965200000.0 0.2422617086 -0.3649244763
975150000.0 -0.1588694188 -0.4256106852
985100000.0 -0.4966123668 -0.1343906355
995050000.0 -0.4851364406 0.3492177264
1005000000.0 -0.0680442883 0.6647643073
1014950000.0 0.4793490136 0.5189150944
1024900000.0 0.7271027185 -0.0458064122
1034850000.0 0.4237150907 -0.6319920326
1044800000.0 -0.2442358654 -0.7579673016
1054750000.0 -0.7533449662 -0.3123070408
1064700000.0 -0.7435058322 0.3070051782
1074650000.0 -0.3637959872 0.741524547
1084600000.0 0.222640824 0.7745151833
1094550000.0 0.6614464351 0.3950247436
1104500000.0 0.7131288447 -0.1880579408
1114450000.0 0.3411118204 -0.6353584087
1124400000.0 -0.2138950713 -0.6781338069
1134350000.0 -0.6065517792 -0.3335038908
1144300000.0 -0.6499617879 0.1515728042
1154250000.0 -0.3773789574 0.519252253
1164200000.0 0.0495423226 0.6136750099
1174150000.0 0.4283937147 0.4100126331
1184100000.0 0.5762807074 0.0036611975
1194050000.0 0.4106018902 -0.3909499212
1204000000.0 0.0365069389 -0.5652358014
1213950000.0 -0.3394957519 -0.4582007644
1223900000.0 -0.5590532034 -0.158468701
1233850000.0 -0.55948246 0.1975056496
1243800000.0 -0.3550947172 0.4826684299
1253750000.0 -0.0179564025 0.5931610384
1263700000.0 0.3274477891 0.4745124442
1273650000.0 0.5351353329 0.163920559
1283600000.0 0.5153770463 -0.2074121411
1293550000.0 0.2910954242 -0.487878219
1303500000.0 -0.0346872382 -0.5875903335
1313450000.0 -0.3471973553 -0.4980954135
1323400000.0 -0.5611185279 -0.2624723969
1333350000.0 -0.6229929318 0.0531573785
1343300000.0 -0.5047341744 0.3636069194
1353250000.0 -0.2223830095 0.5605419416
1363200000.0 0.1369485113 0.5563878269
1373150000.0 0.4313670441 0.3405007891
1383100000.0 0.5500849688 -0.00014887
1393050000.0 0.4656908697 -0.3352353017
1403000000.0 0.2299362067 -0.5599899972
1412950000.0 -0.0711368179 -0.6222165658
1422900000.0 -0.3497437298 -0.5166541637
1432850000.0 -0.5316521816 -0.2739483339
1442800000.0 -0.5565362739 0.0443536361
1452750000.0 -0.3967730262 0.3360635498
1462700000.0 -0.0903484661 0.483586916
1472650000.0 0.242147524 0.4292710383
1482600000.0 0.4747594789 0.2031812895
1492550000.0 0.5359039918 -0.0993950367
1502500000.0 0.421216435 -0.3720061463
1512450000.0 0.1797388616 -0.5264857567
1522400000.0 -0.1029321649 -0.5125324566
1532350000.0 -0.327708755 -0.3320244928
1542300000.0 -0.405209163 -0.0427712561
1552250000.0 -0.2921750264 0.240700528
1562200000.0 -0.0340818137 0.3964517196
1572150000.0 0.2531990795 0.3631470953
1582100000.0 0.4515095999 0.1708267383
1592050000.0 0.4880666877 -0.0952906392
1602000000.0 0.3565589828 -0.3288169481
1611950000.0 0.1021881672 -0.4393475057
1621900000.0 -0.1811195938 -0.373416453
1631850000.0 -0.3774283314 -0.1418867359
1641800000.0 -0.3944604736 0.1700028902
1651750000.0 -0.2182344411 0.4264091735
1661700000.0 0.0729795537 0.521929949
1671650000.0 0.358548049 0.4269394399
1681600000.0 0.5357901196 0.1876176824
1691550000.0 0.5506246369 -0.1129725187
1701500000.0 0.3943154895 -0.3783885559
1711450000.0 0.1091771178 -0.5206866276
1721400000.0 -0.2214137726 -0.4761749854
1731350000.0 -0.4763460505 -0.2442301912
1741300000.0 -0.5555070263 0.0943978801
1751250000.0 -0.4311128535 0.4105987502
1761200000.0 -0.1624883614 0.5953887929
1771150000.0 0.1517768329 0.6059274292
1781100000.0 0.4198134243 0.4566316302
1791050000.0 0.5765569405 0.1929207173
1801000000.0 0.5791384564 -0.120566024
1810950000.0 0.4175402924 -0.3992134415
1820900000.0 0.1244492981 -0.5512693898
1830850000.0 -0.2103806899 -0.510583143
1840800000.0 -0.4638327675 -0.2872279995
1850750000.0 -0.5488510971 0.0282809903
1860700000.0 -0.4565835935 0.3218390387
1870650000.0 -0.2384077973 0.5087962483
1880600000.0 0.0135480908 0.5279157409
1890550000.0 0.2134613809 0.4922741622
1900500000.0 0.3999135901 0.3198524841
1910450000.0 0.4563102509 0.069671451
1920400000.0 0.3679554437 -0.1705923209
1930350000.0 0.166871769 -0.3153880203
1940300000.0 -0.064420282 -0.3208265824
1950250000.0 -0.2405930967 -0.210332027
1960200000.0 -0.3169654538 -0.0485249871
1970150000.0 -0.2962819804 0.0980901503
1980100000.0 -0.214884316 0.1806738222
1990050000.0 -0.1309275447 0.1823706267
2000000000.0 -0.1077642067 0.1272765784
