!Created with skrf (http://scikit-rf.org).
# GHz S RI R 50.0 
!freq ReS11 ImS11
10000000.0 -0.8095710076 0.606247675
19950000.0 -0.2947550624 0.9495058364
29900000.0 0.3203846089 0.9294928774
39850000.0 0.8133697386 0.5515836518
49800000.0 0.9908343051 -0.0560849597
59750000.0 0.7579888821 -0.6623241542
69700000.0 0.1815075483 -0.998395989
79650000.0 -0.4934402249 -0.8800324548
89600000.0 -0.9340305372 -0.3320705175
99550000.0 -0.8913890213 0.3897991041
109500000.0 -0.3455660515 0.9023236796
119450000.0 0.4352430518 0.8740973247
129400000.0 0.9603149047 0.2461392606
139350000.0 0.8210731454 -0.5691546984
149300000.0 0.0926153135 -0.9783690924
159250000.0 -0.6692391134 -0.6865812313
169200000.0 -0.9458092934 0.0492556138
179150000.0 -0.6148476014 0.7293642779
189100000.0 0.0747841044 0.9668871063
199050000.0 0.7133091032 0.6712964402
209000000.0 0.9727866652 0.0419686839
218950000.0 0.7630777261 -0.5757528354
228900000.0 0.2235738472 -0.9101781057
238850000.0 -0.3959504009 -0.8381190811
248800000.0 -0.7500743181 -0.2905540458
258750000.0 -0.9238004065 0.1688255285
268700000.0 -0.633538246 0.7050022538
278650000.0 -0.0774897464 0.9402587144
288600000.0 0.4985890662 0.7766799126
298550000.0 0.8414433948 0.2939718937
308500000.0 0.8064795119 -0.291620692
318450000.0 0.4118461762 -0.7180146722
328400000.0 -0.1583950877 -0.7857351755
338350000.0 -0.6157718055 -0.4607162086
348300000.0 -0.7147491745 0.066556298
358250000.0 -0.4297821414 0.4767304585
368200000.0 0.0174500809 0.547459474
378150000.0 0.333950759 0.3041466792
388100000.0 0.3670104373 -0.0394792957
398050000.0 0.1725089516 -0.2558174498
408000000.0 -0.0682867886 -0.2546438197
417950000.0 -0.2004528754 -0.1041558415
427900000.0 -0.1787411997 0.063322734
437850000.0 -0.0594828883 0.1458987045
447800000.0 0.0632703697 0.1210277638
457750000.0 0.1222202076 0.0305901541
467700000.0 0.1028809318 -0.0600595387
477650000.0 0.0379134295 -0.1003714563
487600000.0 -0.0206362123 -0.0835942557
497550000.0 -0.0072137836 -0.0850749392
507500000.0 -0.0576466196 -0.0079839564
517450000.0 -0.0260759776 0.0078414072
527400000.0 -0.0101091217 -0.0050478276
537350000.0 -0.0225821018 -0.0202305741
547300000.0 -0.0540249309 -0.0140181529
557250000.0 -0.0745943561 0.0273139187
567200000.0 -0.0589948044 0.0827641038
577150000.0 -0.0015997894 0.1214425927
587100000.0 0.0786245657 0.1136565046
597050000.0 0.1446095925 0.0488733173
607000000.0 0.159089851 -0.0516704081
616950000.0 0.1053718367 -0.1479716254
626900000.0 0.0020807556 -0.1966319313
636850000.0 -0.1148524334 -0.1720469202
646800000.0 -0.1935080744 -0.0833191431
656750000.0 -0.2019423903 0.0360230886
666700000.0 -0.1342825757 0.1354855731
676650000.0 -0.0201230084 0.1713043122
686600000.0 0.09082007 0.1284871333
696550000.0 0.1487424605 0.0297459626
706500000.0 0.1312748184 -0.0766359242
716450000.0 0.0545588883 -0.1396193542
726400000.0 -0.0372068703 -0.1308121182
736350000.0 -0.0890819265 -0.0607383953
746300000.0 -0.0714287053 0.0254186553
756250000.0 0.0094511633 0.0720901384
766200000.0 0.1050310267 0.0431469454
776150000.0 0.153214301 -0.0528684721
786100000.0 0.1149060432 -0.1649912091
796050000.0 -0.0046591416 -0.2232641779
806000000.0 -0.1501570588 -0.1777653503
815950000.0 -0.2417194668 -0.0305159947
825900000.0 -0.2161831147 0.161522699
835850000.0 -0.064750402 0.306565105
845800000.0 0.1565926182 0.3283190185
855750000.0 0.3518388973 0.2035567804
865700000.0 0.4320088204 -0.0244579319
875650000.0 0.3466704058 -0.2641954234
885600000.0 0.1192707392 -0.4055387072
895550000.0 -0.1602244932 -0.370960926
905500000.0 -0.3610761895 -0.1607725497
915450000.0 -0.3824847697 0.1282295039
925400000.0 -0.2188285223 0.3637171447
935350000.0 0.0611121981 0.4392152699
945300000.0 0.3235413535 0.3020902671
955250000.0 0.4190304036 0.004551136
965200000.0 0.2565036811 -0.2874962617
975150000.0 -0.1022392527 -0.3657203741
985100000.0 -0.4147450011 -0.1123707671
995050000.0 -0.4008030487 0.3230551321
1005000000.0 -0.0127350974 0.6021656939
1014950000.0 0.4967836688 0.447100414
1024900000.0 0.7113873877 -0.102204309
1034850000.0 0.3926534584 -0.6617188931
1044800000.0 -0.2798899668 -0.7738639618
1054750000.0 -0.7987302671 -0.3228302389
1064700000.0 -0.7920852102 0.313388911
1074650000.0 -0.3995754277 0.7590010271
1084600000.0 0.1673603196 0.8211285104
1094550000.0 0.6607238974 0.4804967806
1104500000.0 0.7716173852 -0.1138356288
1114450000.0 0.4268512653 -0.6074246344
1124400000.0 -0.1481666335 -0.692025393
1134350000.0 -0.5712888383 -0.3544695527
1144300000.0 -0.6204830222 0.1368631981
1154250000.0 -0.3360311189 0.4926632207
1164200000.0 0.0889725351 0.5480720126
1174150000.0 0.4243812429 0.3026797076
1184100000.0 0.4898810116 -0.1050587782
1194050000.0 0.2502029335 -0.4331083044
1204000000.0 -0.1353307379 -0.4980966519
1213950000.0 -0.4492659776 -0.298720106
1223900000.0 -0.5611838799 0.0382740954
1233850000.0 -0.4463196349 0.3675405493
1243800000.0 -0.1548129898 0.5626136035
1253750000.0 0.2049592686 0.5436470487
1263700000.0 0.4881149269 0.3039055989
1273650000.0 0.5704064691 -0.0639035232
1283600000.0 0.4194883558 -0.4067207647
1293550000.0 0.1095508799 -0.5964922908
1303500000.0 -0.240273821 -0.5858807349
1313450000.0 -0.5235310977 -0.3964402561
1323400000.0 -0.6649711266 -0.0884489389
1333350000.0 -0.6210670771 0.2540654905
1343300000.0 -0.3891229837 0.5291846012
1353250000.0 -0.0290547526 0.6317798063
1363200000.0 0.3354194428 0.5103005526
1373150000.0 0.5684867045 0.2055223486
1383100000.0 0.5946801454 -0.1661991394
1393050000.0 0.4270268134 -0.4804190924
1403000000.0 0.1318753118 -0.653825257
1412950000.0 -0.2018553671 -0.6484358555
1422900000.0 -0.4826503935 -0.4695579216
1432850000.0 -0.6262945559 -0.1622330649
1442800000.0 -0.5775226981 0.1836390021
1452750000.0 -0.3397315679 0.4512568977
1462700000.0 0.0095552237 0.5420583036
1472650000.0 0.3441457921 0.426096669
1482600000.0 0.5501239125 0.1553952072
1492550000.0 0.572272831 -0.1674861413
1502500000.0 0.4200684739 -0.4373277139
1512450000.0 0.1492559679 -0.5741743858
1522400000.0 -0.1522865147 -0.5333743583
1532350000.0 -0.3788740186 -0.3220300755
1542300000.0 -0.4401511842 -0.0123236118
1552250000.0 -0.305151008 0.2722463221
1562200000.0 -0.0351528836 0.4147369817
1572150000.0 0.2521953377 0.3696713603
1582100000.0 0.4456637378 0.1695422946
1592050000.0 0.4752135528 -0.0974508692
1602000000.0 0.3362817158 -0.3254601058
1611950000.0 0.0824283169 -0.424091488
1621900000.0 -0.1889551451 -0.3461442136
1631850000.0 -0.3623888984 -0.1102265759
1641800000.0 -0.3526813247 0.1881681139
1651750000.0 -0.1600386634 0.4153552764
1661700000.0 0.1259465161 0.4729768825
1671650000.0 0.3792458379 0.3480702446
1681600000.0 0.5081533232 0.1088753412
1691550000.0 0.4923558816 -0.1630018842
1701500000.0 0.3189233763 -0.4013999052
1711450000.0 0.0231284247 -0.5063675284
1721400000.0 -0.2966351535 -0.4160121662
1731350000.0 -0.5099435531 -0.1481670214
1741300000.0 -0.5256368722 0.1944130377
1751250000.0 -0.3454687256 0.4776495307
1761200000.0 -0.0483850817 0.608119422
1771150000.0 0.2634497185 0.5613222542
1781100000.0 0.5027671016 0.3628293896
1791050000.0 0.6078615755 0.0673364319
1801000000.0 0.5424010913 -0.2491198442
1810950000.0 0.3084093492 -0.4911544896
1820900000.0 -0.0311070524 -0.5651791337
1830850000.0 -0.354646752 -0.4332272292
1840800000.0 -0.543393633 -0.1494919154
1850750000.0 -0.5467862286 0.1740048871
1860700000.0 -0.3909836899 0.4335947344
1870650000.0 -0.1406532079 0.5710420923
1880600000.0 0.1333538807 0.5654770245
1890550000.0 0.363163605 0.4240255728
1900500000.0 0.4853737511 0.1810015398
1910450000.0 0.4552574471 -0.0907558214
1920400000.0 0.2794327594 -0.2974153438
1930350000.0 0.0290847371 -0.3655071316
1940300000.0 -0.1961651048 -0.2895230769
1950250000.0 -0.326159409 -0.1271524347
1960200000.0 -0.3441551932 0.0474585622
1970150000.0 -0.2774909674 0.1752711319
1980100000.0 -0.1758276299 0.2243795659
1990050000.0 -0.0958964978 0.1999775901
2000000000.0 -0.0786395602 0.1465239788
