!Created with skrf (http://scikit-rf.org).
# GHz S RI R 50.0 
!freq ReS11 ImS11
10000000.0 -0.8258922158 0.6138063253
19950000.0 -0.300874508 0.9553264777
29900000.0 0.319299123 0.9274089534
39850000.0 0.8125578137 0.5427519657
49800000.0 0.9899565028 -0.0696335462
59750000.0 0.7550418165 -0.6820108116
69700000.0 0.1696907861 -1.02076691
79650000.0 -0.5144264295 -0.8919309711
89600000.0 -0.9489524994 -0.3253328717
99550000.0 -0.884836127 0.4043584198
109500000.0 -0.3189083763 0.9062907171
119450000.0 0.4684699329 0.8583169776
129400000.0 0.9813444894 0.207736322
139350000.0 0.817972339 -0.6100321317
149300000.0 0.0673679808 -0.9949602002
159250000.0 -0.6855753254 -0.6725182283
169200000.0 -0.9397096096 0.0714932158
179150000.0 -0.5970875608 0.7448117238
189100000.0 0.0950990344 0.9776848876
199050000.0 0.73580649 0.6781865707
209000000.0 0.9928334339 0.042000378
218950000.0 0.7748913268 -0.5780832402
228900000.0 0.2283086022 -0.9091403035
238850000.0 -0.3949307711 -0.8332373477
248800000.0 -0.6695199412 -0.2828417271
258750000.0 -0.9318636232 0.1735608764
268700000.0 -0.6459820786 0.7185245243
278650000.0 -0.0865294776 0.960762812
288600000.0 0.4950734611 0.7973274793
298550000.0 0.8410403322 0.3113255345
308500000.0 0.8083288536 -0.2781954201
318450000.0 0.4165752455 -0.7114598378
328400000.0 -0.155327331 -0.7905630238
338350000.0 -0.6231469761 -0.4747059127
348300000.0 -0.7348733807 0.0530259765
358250000.0 -0.457209313 0.4708633465
368200000.0 -0.009325608 0.5516158414
378150000.0 0.3161474174 0.3153200448
388100000.0 0.3629247823 -0.0292857726
398050000.0 0.1776598501 -0.2553358521
408000000.0 -0.0630233309 -0.2652134687
417950000.0 -0.1985563964 -0.121163695
427900000.0 -0.1810261429 0.044399015
437850000.0 -0.064928845 0.1290310307
447800000.0 0.0570602743 0.1075248344
457750000.0 0.1176052254 0.0209109364
467700000.0 0.1006165803 -0.066033456
477650000.0 0.0383420767 -0.1028025389
487600000.0 -0.0161366647 -0.0815029822
497550000.0 0.0001180652 -0.1078353837
507500000.0 -0.046093287 -0.0086502012
517450000.0 -0.0120096019 0.0083997328
527400000.0 0.0063345867 -0.0045739161
537350000.0 -0.0055040147 -0.0225318483
547300000.0 -0.0402339865 -0.0191610712
557250000.0 -0.0666462751 0.0220862479
567200000.0 -0.0571551285 0.0801613604
577150000.0 -0.0049936469 0.1236134082
587100000.0 0.0722443485 0.1223660881
597050000.0 0.1387404383 0.0644511744
607000000.0 0.1559829159 -0.0321098055
616950000.0 0.1074831865 -0.128077106
626900000.0 0.0071432466 -0.1800086597
636850000.0 -0.1084989163 -0.1636737566
646800000.0 -0.1906782544 -0.0811760754
656750000.0 -0.204784112 0.0334494408
666700000.0 -0.1437941949 0.1306703651
676650000.0 -0.0358986173 0.1670641344
686600000.0 0.0707987164 0.1269324713
696550000.0 0.1276682865 0.0322071083
706500000.0 0.1129443851 -0.0719295317
716450000.0 0.0404273372 -0.1340696271
726400000.0 -0.0471739509 -0.1264119822
736350000.0 -0.0951082419 -0.0585897921
746300000.0 -0.0731780772 0.0242410552
756250000.0 0.0100252538 0.0677397412
766200000.0 0.1077779786 0.0352540157
776150000.0 0.1582196185 -0.0638775515
786100000.0 0.1218980253 -0.1797882455
796050000.0 0.0011839074 -0.2427767419
806000000.0 -0.1487381276 -0.1993650004
815950000.0 -0.2444038279 -0.0496533257
825900000.0 -0.2234927604 0.147672469
835850000.0 -0.0735610851 0.3025667453
845800000.0 0.1521394037 0.3365370375
855750000.0 0.3591065182 0.220245962
865700000.0 0.4518940979 -0.0069995054
875650000.0 0.3791517531 -0.2539047524
885600000.0 0.1565077013 -0.4072731821
895550000.0 -0.1271035551 -0.3903389447
905500000.0 -0.3479839505 -0.1947306507
915450000.0 -0.4009960321 0.1024029546
925400000.0 -0.2514537569 0.3669775481
935350000.0 0.0330438326 0.4680194873
945300000.0 0.3112719424 0.3488974418
955250000.0 0.4334943937 0.0621770845
965200000.0 0.3076343723 -0.2447493183
975150000.0 -0.028743301 -0.3741805336
985100000.0 -0.3770526826 -0.1859314183
995050000.0 -0.4506984145 0.2391232457
1005000000.0 -0.125464401 0.5825433717
1014950000.0 0.3927792346 0.5227421141
1024900000.0 0.6955291019 0.030692279
1034850000.0 0.4843892315 -0.5694357014
1044800000.0 -0.1606883004 -0.7987109519
1054750000.0 -0.7556525287 -0.4207499725
1064700000.0 -0.8020396236 0.2039173125
1074650000.0 -0.5178723862 0.6937569596
1084600000.0 0.0741490462 0.8477343094
1094550000.0 0.6125969734 0.5443287794
1104500000.0 0.7842699828 -0.0466956885
1114450000.0 0.4845732354 -0.5828285597
1124400000.0 -0.0941534423 -0.7218767759
1134350000.0 -0.5540924347 -0.4099903679
1144300000.0 -0.6350113641 0.0910242672
1154250000.0 -0.364786341 0.4691581856
1164200000.0 0.0643644557 0.5494715526
1174150000.0 0.416286891 0.3222722136
1184100000.0 0.5094165575 -0.0842786605
1194050000.0 0.2852539347 -0.4305303437
1204000000.0 -0.1027249228 -0.5128565981
1213950000.0 -0.4289466318 -0.3252687389
1223900000.0 -0.5579329783 0.0115454176
1233850000.0 -0.460303094 0.3491890568
1243800000.0 -0.1792894388 0.5650471609
1253750000.0 0.1841341418 0.5694337182
1263700000.0 0.4842539129 0.3460049298
1273650000.0 0.5882310706 -0.0202807898
1283600000.0 0.4539095842 -0.3747466011
1293550000.0 0.1499040441 -0.5823525771
1303500000.0 -0.2052307898 -0.5913798097
1313450000.0 -0.503356485 -0.4176822322
1323400000.0 -0.666810211 -0.1159564753
1333350000.0 -0.6454409155 0.2320982815
1343300000.0 -0.4298876365 0.5230726677
1353250000.0 -0.0732577249 0.6471705015
1363200000.0 0.2999883404 0.5431059889
1373150000.0 0.5501869275 0.2469028954
1383100000.0 0.5957038113 -0.1266781221
1393050000.0 0.4436803038 -0.4533488027
1403000000.0 0.1576923218 -0.6456920749
1412950000.0 -0.1774689036 -0.6614582109
1422900000.0 -0.4691266599 -0.4995126149
1432850000.0 -0.629034019 -0.2014701272
1442800000.0 -0.597196302 0.143599601
1452750000.0 -0.376399066 0.4197914636
1462700000.0 -0.0368378339 0.5308781811
1472650000.0 0.304157596 0.4399431052
1482600000.0 0.5323664575 0.1866711166
1492550000.0 0.5829960515 -0.135575779
1502500000.0 0.4529987924 -0.4207829797
1512450000.0 0.1901352999 -0.5799656877
1522400000.0 -0.1173907561 -0.5592506272
1532350000.0 -0.3602762044 -0.3586778404
1542300000.0 -0.440798943 -0.0485929733
1552250000.0 -0.3236009795 0.2502085621
1562200000.0 -0.0576954538 0.4164843578
1572150000.0 0.2399720385 0.3909182944
1582100000.0 0.4499115374 0.2008568981
1592050000.0 0.4974806841 -0.0676531555
1602000000.0 0.3712049693 -0.3063777162
1611950000.0 0.1201555718 -0.4213750377
1621900000.0 -0.1576651957 -0.3600419963
1631850000.0 -0.348692592 -0.1393218526
1641800000.0 -0.3726200237 0.1573236465
1651750000.0 -0.2070668933 0.4126241844
1661700000.0 0.0803658737 0.5072438045
1671650000.0 0.3609868387 0.406617858
1681600000.0 0.5257452611 0.1596082955
1691550000.0 0.5195801839 -0.1416178541
1701500000.0 0.3408214238 -0.3957588112
1711450000.0 0.0396685035 -0.5131566618
1721400000.0 -0.2896651108 -0.436901531
1731350000.0 -0.5206628025 -0.1780898641
1741300000.0 -0.5569704298 0.1681422956
1751250000.0 -0.3878831916 0.4661458521
1761200000.0 -0.0902379364 0.6130566946
1771150000.0 0.2298382201 0.5781770882
1781100000.0 0.4822212445 0.3876143279
1791050000.0 0.6050286394 0.0955573743
1801000000.0 0.5612424029 -0.226174606
1810950000.0 0.3469178725 -0.4863538986
1820900000.0 0.0134145369 -0.5888181988
1830850000.0 -0.3241437405 -0.4823549609
1840800000.0 -0.5370425616 -0.2078727493
1850750000.0 -0.5623749977 0.1225720791
1860700000.0 -0.4198566116 0.3984097091
1870650000.0 -0.1742559191 0.5556922507
1880600000.0 0.103389146 0.5713585701
1890550000.0 0.3462080274 0.4500949122
1900500000.0 0.4914214144 0.2200397762
1910450000.0 0.4883838802 -0.0547922053
1920400000.0 0.3315042709 -0.2804834218
1930350000.0 0.0820211894 -0.3740876788
1940300000.0 -0.1592248512 -0.31588175
1950250000.0 -0.3115816742 -0.1588103817
1960200000.0 -0.3511412291 0.0251475836
1970150000.0 -0.2964786003 0.1714022199
1980100000.0 -0.1941183176 0.2415404672
1990050000.0 -0.1008789669 0.2306405604
2000000000.0 -0.0656045871 0.1755785824
