!Created with skrf (http://scikit-rf.org).
# GHz S RI R 50.0 
!freq ReS11 ImS11
10000000.0 -0.9987073886 0.1629844744
19950000.0 -0.9447877669 0.3114366128
29900000.0 -0.8683916787 0.4535551948
39850000.0 -0.7693987406 0.5935568681
49800000.0 -0.6494756201 0.7256767368
59750000.0 -0.5044411555 0.8438360451
69700000.0 -0.3273389223 0.9364216913
79650000.0 -0.1153579962 0.9864838635
89600000.0 0.1295643198 0.9773147677
99550000.0 0.3945907816 0.8916927314
109500000.0 0.6580611247 0.7175324352
119450000.0 0.8817245049 0.4420763742
129400000.0 1.004952241 0.0712912518
139350000.0 0.9691745143 -0.3269128139
149300000.0 0.7589874158 -0.6792542016
159250000.0 0.430281084 -0.902937766
169200000.0 0.0698018846 -0.9819935836
179150000.0 -0.2614247853 -0.9458504059
189100000.0 -0.5335857485 -0.8291026428
199050000.0 -0.7332958561 -0.6625604083
209000000.0 -0.8586454231 -0.4693336663
218950000.0 -0.9242338429 -0.2694786547
228900000.0 -0.9415529192 -0.0732532652
238850000.0 -0.9228895644 0.1179232646
248800000.0 -0.6595640739 0.2646007008
258750000.0 -0.8239245845 0.4243853851
268700000.0 -0.7300200319 0.5730550057
278650000.0 -0.6040745375 0.6880295235
288600000.0 -0.4469332203 0.7351980203
298550000.0 -0.338861177 0.7566875546
308500000.0 -0.190372397 0.831623853
318450000.0 0.0052647359 0.8339725275
328400000.0 0.2022492331 0.7835049793
338350000.0 0.3777754029 0.6784927798
348300000.0 0.508672903 0.5200319262
358250000.0 0.5705490862 0.3226941894
368200000.0 0.5532739812 0.1176283337
378150000.0 0.468120248 -0.0583840857
388100000.0 0.3439041268 -0.1816985386
398050000.0 0.2103755077 -0.2451949317
408000000.0 0.091393463 -0.2539639022
417950000.0 -0.0008857773 -0.2217951902
427900000.0 -0.0634570699 -0.1663987437
437850000.0 -0.1005366702 -0.102655568
447800000.0 -0.1169025288 -0.0430920763
457750000.0 -0.1168143381 0.0044325808
467700000.0 -0.1047090492 0.0353771635
477650000.0 -0.0831064064 0.0472811493
487600000.0 -0.0528518688 0.0416425077
497550000.0 -0.0212855049 -0.0277612072
507500000.0 -0.027589701 0.0290102034
517450000.0 0.0012959016 0.0071179746
527400000.0 0.0125845098 -0.012704789
537350000.0 0.0100237511 -0.0306769644
547300000.0 -0.0047345797 -0.0533306165
557250000.0 -0.0371601461 -0.0680473783
567200000.0 -0.0690417427 -0.0792057483
577150000.0 -0.1005377629 -0.0873685202
587100000.0 -0.128445298 -0.0898501267
597050000.0 -0.1501916069 -0.0838864953
607000000.0 -0.1655882741 -0.0675358702
616950000.0 -0.1766075842 -0.0415424886
626900000.0 -0.1834297977 -0.0081726425
636850000.0 -0.1864706241 0.0278120012
646800000.0 -0.1853151904 0.0628386787
656750000.0 -0.178689222 0.0938789866
666700000.0 -0.1630478219 0.1192832789
676650000.0 -0.1359544424 0.1365086827
686600000.0 -0.095000197 0.1158045411
696550000.0 -0.0396174476 0.1127542568
706500000.0 -0.024311358 0.1149508418
716450000.0 0.0134765629 0.1068179057
726400000.0 0.049822284 0.0891617072
736350000.0 0.0762796882 0.0609399012
746300000.0 0.0894732949 0.0210204845
756250000.0 0.0913457315 -0.0291274737
766200000.0 0.0807546271 -0.0864703082
776150000.0 0.0598724653 -0.1449236121
786100000.0 0.0289305956 -0.198467255
796050000.0 -0.0113000052 -0.2403507465
806000000.0 -0.0602839596 -0.266075665
815950000.0 -0.1184765278 -0.2729925164
825900000.0 -0.1828436411 -0.2623134542
835850000.0 -0.2509175132 -0.2369089875
845800000.0 -0.3171716849 -0.2001212657
855750000.0 -0.3761021478 -0.1548765961
865700000.0 -0.4220084572 -0.1018836693
875650000.0 -0.4496955109 -0.0400595692
885600000.0 -0.456783976 0.0289114392
895550000.0 -0.4436035132 0.1051154768
905500000.0 -0.4118028544 0.1871169491
915450000.0 -0.3633708524 0.2703458791
925400000.0 -0.298840983 0.3480540213
935350000.0 -0.2165316653 0.412079146
945300000.0 -0.1153430928 0.4523518575
955250000.0 0.0058300758 0.4581949371
965200000.0 0.1428397495 0.4193471955
975150000.0 0.2862910592 0.3282387189
985100000.0 0.4148411419 0.1772084265
995050000.0 0.4957040043 -0.03114827
1005000000.0 0.4914090243 -0.2791402575
1014950000.0 0.3643519772 -0.5221790467
1024900000.0 0.1165458853 -0.6916627087
1034850000.0 -0.2004299464 -0.7342875687
1044800000.0 -0.5034804979 -0.6376546708
1054750000.0 -0.7454735429 -0.4262314773
1064700000.0 -0.8303230317 -0.1291899935
1074650000.0 -0.8198893841 0.0189064888
1084600000.0 -0.8168700811 0.2829166314
1094550000.0 -0.6679797418 0.5115707912
1104500000.0 -0.4578611136 0.6771901906
1114450000.0 -0.2065200474 0.7662151696
1124400000.0 0.057210073 0.7622018235
1134350000.0 0.2923524619 0.6614881575
1144300000.0 0.4659067148 0.4823860656
1154250000.0 0.560042841 0.261100363
1164200000.0 0.5768921839 0.0346883255
1174150000.0 0.5369294858 -0.1639763672
1184100000.0 0.4599643753 -0.3321499454
1194050000.0 0.3458847285 -0.4596872946
1204000000.0 0.2115140194 -0.5375510788
1213950000.0 0.0716643995 -0.5712432161
1223900000.0 -0.0622562107 -0.5733918051
1233850000.0 -0.1848351511 -0.555540399
1243800000.0 -0.2936643268 -0.5257946017
1253750000.0 -0.3871689455 -0.4873641027
1263700000.0 -0.4629550978 -0.4405241155
1273650000.0 -0.5225701862 -0.3851846483
1283600000.0 -0.5656409592 -0.3210930958
1293550000.0 -0.5968282476 -0.2503062434
1303500000.0 -0.6201234346 -0.1761373362
1313450000.0 -0.639486721 -0.1026420049
1323400000.0 -0.6569319412 -0.0316308866
1333350000.0 -0.6705625674 0.0351839192
1343300000.0 -0.6763610352 0.0977339625
1353250000.0 -0.6716428142 0.155509004
1363200000.0 -0.6564569396 0.2083235147
1373150000.0 -0.6282794774 0.2625902184
1383100000.0 -0.590513874 0.3170990812
1393050000.0 -0.5475668048 0.3716616971
1403000000.0 -0.504289998 0.424925193
1412950000.0 -0.4609020486 0.4744857304
1422900000.0 -0.4172885639 0.5176149254
1432850000.0 -0.3718908607 0.5501982224
1442800000.0 -0.3230010206 0.5725180642
1452750000.0 -0.2689310022 0.5859525695
1462700000.0 -0.2087522553 0.5936600413
1472650000.0 -0.140526537 0.5999316996
1482600000.0 -0.0662903422 0.6051357844
1492550000.0 0.0097142011 0.6065515424
1502500000.0 0.084933314 0.6002601797
1512450000.0 0.1562848106 0.5833124537
1522400000.0 0.2216017304 0.5517231807
1532350000.0 0.2807055067 0.5028984746
1542300000.0 0.3342889725 0.4382818547
1552250000.0 0.383118466 0.3604252717
1562200000.0 0.4281483165 0.2752584668
1572150000.0 0.4651154278 0.1864427467
1582100000.0 0.4895458037 0.0954112375
1592050000.0 0.4973480345 0.004239324
1602000000.0 0.4840259663 -0.0864337936
1611950000.0 0.4484443795 -0.1730176019
1621900000.0 0.3936076352 -0.2552907765
1631850000.0 0.3256740137 -0.3322338964
1641800000.0 0.2502445374 -0.4019952861
1651750000.0 0.1710101822 -0.4609546426
1661700000.0 0.0897367256 -0.5049242975
1671650000.0 0.0083508192 -0.5297721088
1681600000.0 -0.0724135699 -0.5345099185
1691550000.0 -0.1519438986 -0.52236528
1701500000.0 -0.2312141959 -0.4975767357
1711450000.0 -0.3088802756 -0.4649740038
1721400000.0 -0.3827192505 -0.4287329109
1731350000.0 -0.4496571389 -0.3907121723
1741300000.0 -0.5068320782 -0.3498328464
1751250000.0 -0.5500426175 -0.3035708226
1761200000.0 -0.5794003922 -0.2515672784
1771150000.0 -0.5962780765 -0.1938994048
1781100000.0 -0.6063908089 -0.1310276772
1791050000.0 -0.6128062303 -0.0677100765
1801000000.0 -0.619102705 -0.0055953897
1810950000.0 -0.6262343661 0.0530371269
1820900000.0 -0.6313047692 0.1073926594
1830850000.0 -0.6288005027 0.1563778524
1840800000.0 -0.6146168807 0.2010940282
1850750000.0 -0.5854176891 0.243341931
1860700000.0 -0.5287640049 0.2842446914
1870650000.0 -0.4687240721 0.3276670852
1880600000.0 -0.4733584367 0.3105845229
1890550000.0 -0.4380501311 0.3423580509
1900500000.0 -0.4040689028 0.3809023826
1910450000.0 -0.3736063938 0.405904202
1920400000.0 -0.3417364949 0.4198407954
1930350000.0 -0.3065426259 0.4237737575
1940300000.0 -0.2653483849 0.4170405671
1950250000.0 -0.218107663 0.4015528057
1960200000.0 -0.1683118534 0.3803799071
1970150000.0 -0.1219736056 0.3544111966
1980100000.0 -0.0837142706 0.3239775674
1990050000.0 -0.0588407462 0.287905163
2000000000.0 -0.0496191766 0.2434150517
