!Created with skrf (http://scikit-rf.org).
# GHz S RI R 50.0 
!freq ReS11 ImS11
10000000.0 -0.9925363003 0.0703595958
14975000.0 -0.9894173874 0.1054117529
19950000.0 -0.9852955917 0.1408440826
24925000.0 -0.9796233906 0.1773070217
29900000.0 -0.9728544991 0.2137636733
34875000.0 -0.9634659893 0.2517535435
39850000.0 -0.9515532381 0.2912692987
44825000.0 -0.9368009503 0.3326924378
49800000.0 -0.9194253502 0.3762011909
54775000.0 -0.8985750309 0.4218913646
59750000.0 -0.8737924876 0.4698096786
64725000.0 -0.8446556558 0.5201128094
69700000.0 -0.8099495277 0.5724910054
74675000.0 -0.7686120939 0.6268414752
79650000.0 -0.7196669031 0.6827147896
84625000.0 -0.6622187471 0.7391872061
89600000.0 -0.5947506482 0.7954169163
94575000.0 -0.5165022586 0.8493425879
99550000.0 -0.4263880438 0.8990877235
104525000.0 -0.3236014557 0.9417876245
109500000.0 -0.2082698498 0.9739618436
114475000.0 -0.0807005497 0.9919115982
119450000.0 0.0566997488 0.9922564552
124425000.0 0.2004875701 0.9717665534
129400000.0 0.3572566922 0.9140066983
134375000.0 0.481574143 0.8642324842
139350000.0 0.6127157388 0.7753498642
144325000.0 0.7279840563 0.6671989925
149300000.0 0.8233217193 0.5438249373
154275000.0 0.8966816729 0.4108830004
159250000.0 0.9474640924 0.2738711535
164225000.0 0.9760601397 0.1379158871
169200000.0 0.9849820261 0.0070933215
174175000.0 0.9766048497 -0.1158054338
179150000.0 0.9547107631 -0.2283712381
184125000.0 0.9226005006 -0.3298136058
189100000.0 0.8833004732 -0.4204765843
194075000.0 0.8392643472 -0.5007254362
199050000.0 0.7921429672 -0.5711215643
204025000.0 0.7431108703 -0.6329760653
209000000.0 0.6937049459 -0.6867614517
213975000.0 0.6438501636 -0.7338786913
218950000.0 0.5942858611 -0.7747389968
223925000.0 0.545327089 -0.8102864755
228900000.0 0.496493833 -0.8411048066
233875000.0 0.4478057311 -0.8675693723
238850000.0 0.3976424578 -0.8906099117
243825000.0 0.3405180474 -0.9106562376
248800000.0 0.3178515546 -0.7503424995
253775000.0 0.2882809866 -0.9244571495
258750000.0 0.2339025936 -0.9385536644
263725000.0 0.1848503467 -0.9468714432
268700000.0 0.1368273562 -0.9520328922
273675000.0 0.0889853893 -0.9540753438
278650000.0 0.0410420293 -0.9531901872
283625000.0 -0.0075403095 -0.9495996582
288600000.0 -0.0567710969 -0.9426581702
293575000.0 -0.1066618721 -0.9323830446
298550000.0 -0.1571752966 -0.9174626797
303525000.0 -0.2079777757 -0.8983628342
308500000.0 -0.259070232 -0.8741447857
313475000.0 -0.3094522168 -0.8438443661
318450000.0 -0.3590341166 -0.8068716478
323425000.0 -0.4066625822 -0.7633037959
328400000.0 -0.4511506673 -0.7126269243
333375000.0 -0.4924846299 -0.6547076524
338350000.0 -0.5286304657 -0.5903881575
343325000.0 -0.5569982704 -0.5202890579
348300000.0 -0.5773066961 -0.4447900647
353275000.0 -0.5882251029 -0.3669051391
358250000.0 -0.5877468135 -0.2878133119
363225000.0 -0.5761179884 -0.2089069371
368200000.0 -0.5557994381 -0.1337886145
373175000.0 -0.5251988624 -0.0649524165
378150000.0 -0.4856566591 -0.0026484885
383125000.0 -0.4403391001 0.0512778485
388100000.0 -0.3909496814 0.0953564181
393075000.0 -0.338133571 0.1313374322
398050000.0 -0.2849154853 0.1585806131
403025000.0 -0.2330643802 0.1762810064
408000000.0 -0.1828773881 0.1870432755
412975000.0 -0.1359460255 0.1928842303
417950000.0 -0.0936064021 0.1928090816
422925000.0 -0.0555538749 0.1874166662
427900000.0 -0.0227892682 0.179943614
432875000.0 0.0053609624 0.1689762179
437850000.0 0.030086442 0.1550268026
442825000.0 0.0501073624 0.1408704081
447800000.0 0.064815599 0.1267467597
452775000.0 0.0766073555 0.1111738286
457750000.0 0.0848651983 0.0958242207
462725000.0 0.088809736 0.08091953
467700000.0 0.0902375039 0.066476022
472675000.0 0.0899376625 0.0530128643
477650000.0 0.0863956539 0.0399118795
482625000.0 0.080718919 0.0284676762
487600000.0 0.0713116928 0.0198749223
492575000.0 0.0539523498 0.0161137765
497550000.0 0.0721518635 0.0743083934
502525000.0 0.0793008616 0.0057546208
507500000.0 0.0593539366 -0.0024263085
512475000.0 0.0447143862 -0.0060872044
517450000.0 0.0310103002 -0.0078888758
522425000.0 0.0173299671 -0.0082263106
527400000.0 0.0044788337 -0.0072113671
532375000.0 -0.0080242296 -0.0052137834
537350000.0 -0.0207725653 -0.0028694544
542325000.0 -0.033549558 0.000836878
547300000.0 -0.0460946905 0.0064777947
552275000.0 -0.0569113453 0.0124829978
557250000.0 -0.0665036741 0.018861074
562225000.0 -0.0761636576 0.0260766837
567200000.0 -0.0846748526 0.0332936731
572175000.0 -0.0916918183 0.0407253788
577150000.0 -0.0981503555 0.0490762735
582125000.0 -0.1040924146 0.0579831975
587100000.0 -0.1088356549 0.0673933276
592075000.0 -0.1133935389 0.0765274292
597050000.0 -0.1168690567 0.0858559733
602025000.0 -0.1199634325 0.0949864223
607000000.0 -0.1220000211 0.1038655052
611975000.0 -0.1232532872 0.1121987876
616950000.0 -0.1235200782 0.1201244697
621925000.0 -0.1232643764 0.1278427928
626900000.0 -0.1220818277 0.1348354624
631875000.0 -0.119869489 0.1408344504
636850000.0 -0.1168436768 0.1458238473
641825000.0 -0.1125476883 0.1508764723
646800000.0 -0.1070943206 0.1553835878
651775000.0 -0.101016217 0.1585917119
656750000.0 -0.0933520753 0.161032862
661725000.0 -0.0845554947 0.1636590266
666700000.0 -0.0754465894 0.1658126294
671675000.0 -0.0659886151 0.1663568518
676650000.0 -0.0560814389 0.1658511425
681625000.0 -0.0457313499 0.1644847717
686600000.0 -0.0347400769 0.1618194389
691575000.0 -0.0230554708 0.158114314
696550000.0 -0.0115964607 0.1535390812
701525000.0 -0.0001201912 0.1478106109
706500000.0 0.0114030568 0.1399607174
711475000.0 0.0233331437 0.1308303763
716450000.0 0.035095237 0.1205064925
721425000.0 0.0469258689 0.1082506592
726400000.0 0.059098112 0.0945698342
731375000.0 0.0709890613 0.0800325467
736350000.0 0.0821449134 0.0644720045
741325000.0 0.093195889 0.0475030163
746300000.0 0.1037429277 0.0293323903
751275000.0 0.1132196635 0.0103507343
756250000.0 0.1215674965 -0.0091786425
761225000.0 0.1285086562 -0.0297503824
766200000.0 0.1347760543 -0.0514124943
771175000.0 0.1391729699 -0.073597153
776150000.0 0.1422401843 -0.0957846169
781125000.0 0.1432189211 -0.1184196791
786100000.0 0.142619435 -0.1415715861
791075000.0 0.1409716999 -0.1648499436
796050000.0 0.1374572904 -0.1881640101
801025000.0 0.1327584648 -0.2116479434
806000000.0 0.1271816211 -0.234289438
810975000.0 0.1202173016 -0.256142182
815950000.0 0.1113836712 -0.277449143
820925000.0 0.1014831094 -0.2981986351
825900000.0 0.0908226089 -0.3179726923
830875000.0 0.0793899092 -0.3364364316
835850000.0 0.0661664101 -0.3532562973
840825000.0 0.0518470072 -0.36908461
845800000.0 0.0369637321 -0.3833716186
850775000.0 0.0206960307 -0.3958302638
855750000.0 0.0028847939 -0.4071199526
860725000.0 -0.0155469153 -0.4169083633
865700000.0 -0.0348559799 -0.4252241243
870675000.0 -0.0551050118 -0.4324316404
875650000.0 -0.075800335 -0.4377650409
880625000.0 -0.0973346454 -0.441396785
885600000.0 -0.1191985201 -0.4433171095
890575000.0 -0.1418632591 -0.4431717383
895550000.0 -0.1648245853 -0.4408200613
900525000.0 -0.1877786251 -0.4364539014
905500000.0 -0.2110212376 -0.4292467889
910475000.0 -0.2346991244 -0.4192875656
915450000.0 -0.2582785573 -0.4060588906
920425000.0 -0.2821022475 -0.389532625
925400000.0 -0.3060367267 -0.369597554
930375000.0 -0.3297032222 -0.3458541158
935350000.0 -0.3530070751 -0.3181235491
940325000.0 -0.375972966 -0.2859372318
945300000.0 -0.3976357427 -0.2488946382
950275000.0 -0.4173585981 -0.2072845164
955250000.0 -0.4348161501 -0.1608463435
960225000.0 -0.4484341029 -0.1083412459
965200000.0 -0.4571650226 -0.0508072757
970175000.0 -0.4603317592 0.0119004528
975150000.0 -0.4558983038 0.079759822
980125000.0 -0.4423291108 0.1512809122
985100000.0 -0.4183164824 0.2262704126
990075000.0 -0.3818212332 0.3022485397
995050000.0 -0.3323313447 0.377386363
1000025000.0 -0.2692081082 0.4491586678
1005000000.0 -0.1930021252 0.5144215628
1009975000.0 -0.1042369454 0.5706259386
1014950000.0 -0.0036871381 0.6141620209
1019925000.0 0.1060837503 0.6420601346
1024900000.0 0.2221552235 0.652119311
1029875000.0 0.3404747484 0.6426669465
1034850000.0 0.4567480811 0.6126173151
1039825000.0 0.5667337342 0.5618894496
1044800000.0 0.6669992536 0.4919946649
1049775000.0 0.7536729736 0.4046476405
1054750000.0 0.8230133804 0.302558424
1059725000.0 0.8695192518 0.1876382764
1064700000.0 0.8834921511 0.0751746434
1069675000.0 0.8933392538 -0.0127917637
1074650000.0 0.9073863158 -0.1182633947
1079625000.0 0.8958505595 -0.2334264892
1084600000.0 0.8563758606 -0.3429249567
1089575000.0 0.798633175 -0.4173444963
1094550000.0 0.7694765986 -0.5097483055
1099525000.0 0.695331381 -0.6040931165
1104500000.0 0.6043262545 -0.6767193722
1109475000.0 0.5040207369 -0.7317971051
1114450000.0 0.3973120257 -0.7694214584
1119425000.0 0.2867300882 -0.7906132291
1124400000.0 0.1755845581 -0.7951831482
1129375000.0 0.0671268985 -0.7846050667
1134350000.0 -0.0368035697 -0.7592236015
1139325000.0 -0.1342421019 -0.7210243072
1144300000.0 -0.2227684927 -0.6713532067
1149275000.0 -0.301235977 -0.6131399696
1154250000.0 -0.3691505613 -0.5478119811
1159225000.0 -0.4252326009 -0.4778029563
1164200000.0 -0.469370267 -0.406319567
1169175000.0 -0.5030583229 -0.3360483812
1174150000.0 -0.5286616199 -0.268848486
1179125000.0 -0.5493178911 -0.2036054815
1184100000.0 -0.5651773882 -0.1395792732
1189075000.0 -0.5750633779 -0.0771104823
1194050000.0 -0.5791572653 -0.0174774507
1199025000.0 -0.5792769797 0.038093685
1204000000.0 -0.5758750035 0.0900926587
1208975000.0 -0.569802886 0.1380643662
1213950000.0 -0.5615908075 0.1823738637
1218925000.0 -0.5519318786 0.2227631388
1223900000.0 -0.5417231482 0.2595403709
1228875000.0 -0.5304958788 0.2929584179
1233850000.0 -0.51840711 0.3236829069
1238825000.0 -0.5068160803 0.3513024868
1243800000.0 -0.4944265126 0.3761191004
1248775000.0 -0.4818973248 0.3996579603
1253750000.0 -0.4700565134 0.4208772171
1258725000.0 -0.4591156885 0.4400797348
1263700000.0 -0.4485034265 0.4582085531
1268675000.0 -0.4393684266 0.4747087387
1273650000.0 -0.4309677339 0.4898388413
1278625000.0 -0.4235018418 0.5037896273
1283600000.0 -0.4171366828 0.5163282791
1288575000.0 -0.4110737315 0.5274321485
1293550000.0 -0.4060196409 0.538002758
1298525000.0 -0.4015650473 0.547172644
1303500000.0 -0.3971850113 0.5552678035
1308475000.0 -0.3936196081 0.5630976209
1313450000.0 -0.3905244959 0.5693809148
1318425000.0 -0.3868415245 0.5750523869
1323400000.0 -0.3832446962 0.5803870454
1328375000.0 -0.3796012384 0.5850833247
1333350000.0 -0.3754938837 0.5897367133
1338325000.0 -0.3714136469 0.5940617358
1343300000.0 -0.3668930021 0.5978743518
1348275000.0 -0.362794633 0.6022919392
1353250000.0 -0.3586395736 0.6064109288
1358225000.0 -0.3543371039 0.6102391057
1363200000.0 -0.3504255628 0.6141431337
1368175000.0 -0.3467882015 0.6177414457
1373150000.0 -0.3430589204 0.6208795832
1378125000.0 -0.3393612611 0.6240335732
1383100000.0 -0.3358857785 0.6259325128
1388075000.0 -0.3322534537 0.6278274091
1393050000.0 -0.3287377073 0.6291393359
1398025000.0 -0.3253590306 0.6293641994
1403000000.0 -0.3214030514 0.628781047
1407975000.0 -0.3169470824 0.628401624
1412950000.0 -0.3125369853 0.6273170926
1417925000.0 -0.307749029 0.6259847282
1422900000.0 -0.3024890136 0.6240539804
1427875000.0 -0.29733339 0.6226157962
1432850000.0 -0.2916258715 0.6209582102
1437825000.0 -0.285896958 0.6195545444
1442800000.0 -0.2798114003 0.6178437119
1447775000.0 -0.274011714 0.6162275996
1452750000.0 -0.2670825816 0.6148228728
1457725000.0 -0.2593467301 0.6139293392
1462700000.0 -0.2512757954 0.6130602319
1467675000.0 -0.2429242407 0.6115963536
1472650000.0 -0.2322466434 0.6112834006
1477625000.0 -0.2208281581 0.6108284899
1482600000.0 -0.2093341017 0.6083932529
1487575000.0 -0.1955992467 0.6061144549
1492550000.0 -0.1813094603 0.6045677417
1497525000.0 -0.1657581941 0.600422635
1502500000.0 -0.1491226811 0.5965157344
1507475000.0 -0.1324415881 0.5937043445
1512450000.0 -0.1144945302 0.5899594901
1517425000.0 -0.0960030099 0.5858795826
1522400000.0 -0.078480778 0.5814052178
1527375000.0 -0.0601691868 0.5765362233
1532350000.0 -0.0411091044 0.5717076967
1537325000.0 -0.0231704583 0.5646759688
1542300000.0 -0.0037295479 0.5566717717
1547275000.0 0.0155159046 0.5495255003
1552250000.0 0.0344177469 0.5397873853
1557225000.0 0.0544596752 0.52892029
1562200000.0 0.0735248734 0.5176340861
1567175000.0 0.0920592706 0.5049715978
1572150000.0 0.1122661687 0.4919280676
1577125000.0 0.132227784 0.4788377549
1582100000.0 0.1523363144 0.463982245
1587075000.0 0.1741836055 0.4490526011
1592050000.0 0.1955477023 0.4344438195
1597025000.0 0.2173487983 0.4188128159
1602000000.0 0.2398044739 0.4030237
1606975000.0 0.2618906064 0.3873161539
1611950000.0 0.2837106528 0.3717275455
1616925000.0 0.3054271241 0.3560000162
1621900000.0 0.3270079535 0.3394529165
1626875000.0 0.3474605317 0.3239583622
1631850000.0 0.3658267126 0.3070431265
1636825000.0 0.385435481 0.2892187143
1641800000.0 0.4032084557 0.2723234569
1646775000.0 0.4183378682 0.2546108507
1651750000.0 0.4339487903 0.2366201519
1656725000.0 0.4477131005 0.2199761109
1661700000.0 0.4587692746 0.2028160255
1666675000.0 0.4702924086 0.1873030085
1671650000.0 0.4797174241 0.1744310498
1676625000.0 0.4881357934 0.1638932267
1681600000.0 0.5000032267 0.1570584422
1686575000.0 0.5151071945 0.1513043281
1691550000.0 0.5312063627 0.1405253428
1696525000.0 0.5461555178 0.1278142455
1701500000.0 0.5588147528 0.1148272542
1706475000.0 0.5688714902 0.1017151005
1711450000.0 0.5780787589 0.0890269436
1716425000.0 0.5861475715 0.0772918086
1721400000.0 0.5928381325 0.0656399935
1726375000.0 0.5984297574 0.053933226
1731350000.0 0.6041674022 0.0433015734
1736325000.0 0.6099376126 0.0331527499
1741300000.0 0.614262838 0.0225340055
1746275000.0 0.6195784261 0.0128070691
1751250000.0 0.6249326722 0.0049271321
1756225000.0 0.6297310193 -0.0032825338
1761200000.0 0.6347076864 -0.0105121477
1766175000.0 0.6391779693 -0.0160249129
1771150000.0 0.6435589543 -0.0212607388
1776125000.0 0.6486356675 -0.02550298
1781100000.0 0.6518215975 -0.028871839
1786075000.0 0.6546816115 -0.0314649225
1791050000.0 0.6581704516 -0.0327155493
1796025000.0 0.6598802968 -0.0339972883
1801000000.0 0.6611324636 -0.0347777153
1805975000.0 0.6614419873 -0.034028828
1810950000.0 0.6615774347 -0.0337152868
1815925000.0 0.6616107716 -0.0336382772
1820900000.0 0.6603466149 -0.0329502344
1825875000.0 0.6589258262 -0.0322203691
1830850000.0 0.6581210488 -0.0313024004
1835825000.0 0.6564617568 -0.0302944986
1840800000.0 0.6539238286 -0.0288829469
1845775000.0 0.6518504982 -0.0268468904
1850750000.0 0.6492095191 -0.0248772662
1855725000.0 0.646163737 -0.0229328277
1860700000.0 0.6417268467 -0.0200830132
1865675000.0 0.6373728618 -0.0172540745
1870650000.0 0.6320444232 -0.01447645
1875625000.0 0.6258774898 -0.0113054432
1880600000.0 0.6187473158 -0.0086933147
1885575000.0 0.6106597981 -0.0058229968
1890550000.0 0.6016934099 -0.0029521385
1895525000.0 0.5924125074 -0.0011534929
1900500000.0 0.5816887337 0.0006411629
1905475000.0 0.5707507543 0.0022903359
1910450000.0 0.5596768361 0.0034667158
1915425000.0 0.5476862971 0.0052019682
1920400000.0 0.5352010666 0.0063229868
1925375000.0 0.5227695338 0.0077651599
1930350000.0 0.5091300717 0.0099079081
1935325000.0 0.4955327183 0.0117905375
1940300000.0 0.4800484077 0.0140859716
1945275000.0 0.4635566088 0.0176372361
1950250000.0 0.4468568577 0.0209844406
1955225000.0 0.4279123697 0.0251940976
1960200000.0 0.4076666716 0.0299276572
1965175000.0 0.3863472638 0.0350011465
1970150000.0 0.3626043663 0.0406476773
1975125000.0 0.3376087302 0.0464343137
1980100000.0 0.3107425109 0.0520524688
1985075000.0 0.2819245525 0.0587677186
1990050000.0 0.2520363012 0.0649413066
1995025000.0 0.2203196467 0.071515042
2000000000.0 0.1866053223 0.0794192942
