!Created with skrf (http://scikit-rf.org).
# GHz S RI R 50.0 
!freq ReS11 ImS11
10000000.0 -0.9862663567 0.0711456369
19950000.0 -0.9762856009 0.1353783555
29900000.0 -0.9619362669 0.2018041813
39850000.0 -0.9415048562 0.272295347
49800000.0 -0.9117546299 0.3503064878
59750000.0 -0.8696352251 0.43769235
69700000.0 -0.8099538799 0.5353887713
79650000.0 -0.7266756773 0.6441012282
89600000.0 -0.6085951129 0.7594616707
99550000.0 -0.44423553 0.8706133142
109500000.0 -0.223200112 0.9569987004
119450000.0 0.055479365 0.9848189281
129400000.0 0.3654090008 0.9185379142
139350000.0 0.6528845157 0.7437568438
149300000.0 0.8633626246 0.4834332663
159250000.0 0.9694065634 0.1919657624
169200000.0 0.9804752219 -0.0809279579
179150000.0 0.9270343362 -0.3061866075
189100000.0 0.8402706757 -0.4792534118
199050000.0 0.7431311917 -0.6069805725
209000000.0 0.6471820288 -0.6988857322
218950000.0 0.5587943303 -0.7660693708
228900000.0 0.4796105644 -0.8147925101
238850000.0 0.4056075606 -0.8500821154
248800000.0 0.3315545146 -0.8517822481
258750000.0 0.2694858242 -0.8903791262
268700000.0 0.1996706846 -0.9021261979
278650000.0 0.1277733554 -0.9075106368
288600000.0 0.0536426952 -0.9065409224
298550000.0 -0.0226965922 -0.8968061148
308500000.0 -0.1035816226 -0.8754954855
318450000.0 -0.1887958736 -0.8369488897
328400000.0 -0.2766642567 -0.775281065
338350000.0 -0.3616286295 -0.6853403936
348300000.0 -0.4319326766 -0.5647406209
358250000.0 -0.4715233233 -0.4205796801
368200000.0 -0.4689472871 -0.2670591913
378150000.0 -0.4222358631 -0.1256751091
388100000.0 -0.3397309547 -0.0129989885
398050000.0 -0.2388435664 0.0626932432
408000000.0 -0.1374176192 0.1039353723
417950000.0 -0.0477911803 0.1183459009
427900000.0 0.0242578789 0.1156605121
437850000.0 0.0775312554 0.1021499376
447800000.0 0.1138451817 0.082388992
457750000.0 0.1359028393 0.0593470575
467700000.0 0.1466666445 0.035965792
477650000.0 0.1484509948 0.0142726297
487600000.0 0.143328624 -0.0033060075
497550000.0 0.1359490626 -0.0124239688
507500000.0 0.1180198479 -0.0252370374
517450000.0 0.0979044092 -0.0262157708
527400000.0 0.0743003885 -0.0240299494
537350000.0 0.0490509912 -0.0182052015
547300000.0 0.0235474182 -0.0084250512
557250000.0 -0.0001066435 0.0034946536
567200000.0 -0.0213186338 0.01885936
577150000.0 -0.0394942242 0.0370573638
587100000.0 -0.0546645286 0.0576193763
597050000.0 -0.0670235726 0.0792760298
607000000.0 -0.0765625767 0.1008225404
616950000.0 -0.0833502458 0.1207554191
626900000.0 -0.0862570575 0.1387742081
636850000.0 -0.0847989766 0.1544459766
646800000.0 -0.078671785 0.1677093944
656750000.0 -0.0694180537 0.1794463782
666700000.0 -0.0569100321 0.1894333186
676650000.0 -0.0434082212 0.1970406549
686600000.0 -0.0285321661 0.2010961823
696550000.0 -0.0125532644 0.2003789026
706500000.0 0.0048142593 0.1935200029
716450000.0 0.0244446478 0.1805400295
726400000.0 0.046379005 0.1620357294
736350000.0 0.0697786429 0.1387600696
746300000.0 0.0927249058 0.1120392293
756250000.0 0.1129298439 0.0816025451
766200000.0 0.1275187383 0.0472849807
776150000.0 0.13555633 0.0093023223
786100000.0 0.138265025 -0.032581425
796050000.0 0.1353168036 -0.0801647862
806000000.0 0.1268474458 -0.1312464291
815950000.0 0.1132128781 -0.1820464126
825900000.0 0.0949439157 -0.2293898445
835850000.0 0.0712704562 -0.2710324321
845800000.0 0.0408276523 -0.3052986675
855750000.0 0.0027649427 -0.3317532364
865700000.0 -0.0425171617 -0.3519654909
875650000.0 -0.0940510661 -0.3653963642
885600000.0 -0.1499822754 -0.3718537593
895550000.0 -0.2083581478 -0.3694620394
905500000.0 -0.2680547565 -0.3542737235
915450000.0 -0.3283803401 -0.3140639236
925400000.0 -0.3488439864 -0.2306260324
935350000.0 -0.342801153 -0.2294287379
945300000.0 -0.4080728742 -0.1842085849
955250000.0 -0.4604028205 -0.0962176157
965200000.0 -0.4922429609 0.0183734356
975150000.0 -0.4949852561 0.1568382806
985100000.0 -0.4535318316 0.3134593339
995050000.0 -0.3522811472 0.4750337326
1005000000.0 -0.1800915106 0.6176051754
1014950000.0 0.0584888144 0.7021407287
1024900000.0 0.3292280047 0.6934159931
1034850000.0 0.5793337121 0.5819367575
1044800000.0 0.7628035329 0.3911268516
1054750000.0 0.8599381739 0.1617420445
1064700000.0 0.8760302988 -0.0672658899
1074650000.0 0.8332361489 -0.2706211135
1084600000.0 0.7431255914 -0.4402867575
1094550000.0 0.6265896919 -0.5758537824
1104500000.0 0.4866397465 -0.6736666949
1114450000.0 0.3325645243 -0.7336737043
1124400000.0 0.1732616181 -0.7575560967
1134350000.0 0.0183673032 -0.7477861725
1144300000.0 -0.1240088279 -0.7090208257
1154250000.0 -0.2461349666 -0.6460099962
1164200000.0 -0.3431231729 -0.5705398839
1174150000.0 -0.4255554052 -0.4892690734
1184100000.0 -0.4935252264 -0.3959447286
1194050000.0 -0.5430275847 -0.2977043895
1204000000.0 -0.576027316 -0.2023726168
1213950000.0 -0.5946735202 -0.1146335826
1223900000.0 -0.6033373214 -0.0377757621
1233850000.0 -0.6034017276 0.0285990426
1243800000.0 -0.5974486308 0.0862434391
1253750000.0 -0.5858476285 0.1380412601
1263700000.0 -0.5712022193 0.1868286091
1273650000.0 -0.5557264124 0.2308509865
1283600000.0 -0.5418933336 0.2710886883
1293550000.0 -0.5301678628 0.305087813
1303500000.0 -0.5213526244 0.3323402757
1313450000.0 -0.5143792387 0.3529785935
1323400000.0 -0.5078051382 0.3685135162
1333350000.0 -0.4990043663 0.3816325959
1343300000.0 -0.4889136914 0.3949742924
1353250000.0 -0.4775152651 0.4091672964
1363200000.0 -0.4669692758 0.4249102192
1373150000.0 -0.4566716633 0.4398335297
1383100000.0 -0.4481495932 0.4529768604
1393050000.0 -0.4412870938 0.4626020466
1403000000.0 -0.4344524855 0.4678977639
1412950000.0 -0.4259540404 0.470085257
1422900000.0 -0.4146092489 0.4717283048
1432850000.0 -0.4001270221 0.4742357687
1442800000.0 -0.3827808765 0.4799471121
1452750000.0 -0.3651936394 0.4877647757
1462700000.0 -0.3467676306 0.4974129398
1472650000.0 -0.3289475771 0.5067596471
1482600000.0 -0.3105968744 0.5145960767
1492550000.0 -0.2905588463 0.5201741491
1502500000.0 -0.2661134556 0.5234144748
1512450000.0 -0.2373184419 0.525239794
1522400000.0 -0.203924524 0.527289039
1532350000.0 -0.1673923062 0.5294190985
1542300000.0 -0.1275669077 0.5320572768
1552250000.0 -0.0866082143 0.533683451
1562200000.0 -0.0448862926 0.5336683372
1572150000.0 -0.0029145898 0.5301504744
1582100000.0 0.0400015672 0.5232987504
1592050000.0 0.0841001264 0.5131883597
1602000000.0 0.1285785044 0.5011453602
1611950000.0 0.1723889091 0.4879463544
1621900000.0 0.2148557757 0.473783113
1631850000.0 0.2553303635 0.4585621197
1641800000.0 0.2931100268 0.4411720514
1651750000.0 0.3290341437 0.4210615937
1661700000.0 0.3631736142 0.3985001295
1671650000.0 0.3959040734 0.3751525615
1681600000.0 0.4266362206 0.3526932375
1691550000.0 0.4551025644 0.332186
1701500000.0 0.4810832115 0.3154234217
1711450000.0 0.5033200423 0.3013467445
1721400000.0 0.5217175357 0.2891048125
1731350000.0 0.5360945108 0.2766268411
1741300000.0 0.548056518 0.2634162019
1751250000.0 0.5581912298 0.2506251693
1761200000.0 0.5669219994 0.2378155132
1771150000.0 0.5742864915 0.2277267628
1781100000.0 0.5804114417 0.220789179
1791050000.0 0.5843068116 0.2184947541
1801000000.0 0.5862794978 0.2193527019
1810950000.0 0.5854431502 0.2212736503
1820900000.0 0.5830120215 0.2225653231
1830850000.0 0.5794999012 0.221304515
1840800000.0 0.5759009059 0.2186254078
1850750000.0 0.571281842 0.2146868192
1860700000.0 0.565208229 0.2107244313
1870650000.0 0.5567386644 0.2085380888
1880600000.0 0.5448435731 0.2084549167
1890550000.0 0.5285112667 0.2100525163
1900500000.0 0.508760541 0.2112509766
1910450000.0 0.4869565877 0.2098116876
1920400000.0 0.4639462851 0.2048082403
1930350000.0 0.4411138357 0.1962186273
1940300000.0 0.4168070861 0.1838300389
1950250000.0 0.391127316 0.1688929282
1960200000.0 0.3613725565 0.1520641882
1970150000.0 0.3264272811 0.1326482617
1980100000.0 0.2828177547 0.1110938119
1990050000.0 0.2284344948 0.083760218
2000000000.0 0.1569623567 0.0492326572
