!Created with skrf (http://scikit-rf.org).
# GHz S RI R 50.0 
!freq ReS11 ImS11
10000000.0 -1.000968753 0.1595064537
19950000.0 -0.947357619 0.3053852997
29900000.0 -0.8718715634 0.4455848789
39850000.0 -0.774329704 0.5849844736
49800000.0 -0.6561112846 0.7182575439
59750000.0 -0.5117401871 0.8392003535
69700000.0 -0.3329192526 0.9355743881
79650000.0 -0.1150343993 0.9878260855
89600000.0 0.1407434 0.9765690648
99550000.0 0.4196627403 0.8799070576
109500000.0 0.6948163417 0.681856733
119450000.0 0.9165921401 0.3695195279
129400000.0 1.011199587 -0.0378129936
139350000.0 0.9193863642 -0.4535611486
149300000.0 0.650019142 -0.781992395
159250000.0 0.2897032854 -0.9530904849
169200000.0 -0.0696695987 -0.9794913154
179150000.0 -0.3778367362 -0.9043547064
189100000.0 -0.6170940379 -0.768720449
199050000.0 -0.7848111579 -0.6010275752
209000000.0 -0.8845421882 -0.4189574811
218950000.0 -0.9332706602 -0.2368596037
228900000.0 -0.9429595412 -0.0620827365
238850000.0 -0.9265126035 0.1040895024
248800000.0 -0.8810103046 0.2412022395
258750000.0 -0.8431569319 0.4015402761
268700000.0 -0.7738971257 0.5328359635
278650000.0 -0.6811650584 0.6444345128
288600000.0 -0.5633097002 0.7324100372
298550000.0 -0.422743035 0.7944172103
308500000.0 -0.2634133554 0.8315613012
318450000.0 -0.0891304752 0.839462646
328400000.0 0.0934345574 0.8108902418
338350000.0 0.267361698 0.7337957199
348300000.0 0.4096023561 0.6000386768
358250000.0 0.490752323 0.4179955988
368200000.0 0.4929226531 0.2174888509
378150000.0 0.4229026562 0.0383630497
388100000.0 0.3070160221 -0.0910457857
398050000.0 0.1788382013 -0.1582628555
408000000.0 0.0639649674 -0.1693774542
417950000.0 -0.0234037856 -0.1380911325
427900000.0 -0.0811691228 -0.0830121828
437850000.0 -0.113453352 -0.0202679295
447800000.0 -0.1273617978 0.0382452746
457750000.0 -0.1270017271 0.0853580756
467700000.0 -0.1151302434 0.1169117232
477650000.0 -0.0940932306 0.1310307171
487600000.0 -0.0655858784 0.130799312
497550000.0 -0.0335151739 0.1182149361
507500000.0 -0.0036948466 0.1049984421
517450000.0 0.0220242995 0.0853225202
527400000.0 0.037124695 0.0653187707
537350000.0 0.0380380911 0.0454979306
547300000.0 0.0271816127 0.0265952548
557250000.0 0.0045623013 0.0055932112
567200000.0 -0.0252495555 -0.0134657262
577150000.0 -0.0566579729 -0.028315042
587100000.0 -0.0860205731 -0.0329472545
597050000.0 -0.1041010431 -0.0320622478
607000000.0 -0.1184071425 -0.0211148707
616950000.0 -0.1291644895 0.0005428624
626900000.0 -0.1362729268 0.0302562515
636850000.0 -0.1403583427 0.0631617493
646800000.0 -0.1411434491 0.0947472238
656750000.0 -0.1364825686 0.1214461522
666700000.0 -0.123858955 0.140368695
676650000.0 -0.1023309709 0.1508507056
686600000.0 -0.0709877585 0.154791967
696550000.0 -0.0322376199 0.1534911019
706500000.0 0.0099265868 0.1471204819
716450000.0 0.0505102579 0.1357879176
726400000.0 0.0843611098 0.1170752356
736350000.0 0.1078890688 0.088624854
746300000.0 0.1183241645 0.0487371098
756250000.0 0.1177264782 -0.0011033209
766200000.0 0.1049188962 -0.0583846669
776150000.0 0.0825755638 -0.1171947127
786100000.0 0.0505981305 -0.1710796044
796050000.0 0.0091810089 -0.2132028786
806000000.0 -0.0412953699 -0.2382569282
815950000.0 -0.1014078962 -0.2431220745
825900000.0 -0.1683295544 -0.2285443575
835850000.0 -0.2387673806 -0.1981363313
845800000.0 -0.3067931851 -0.1549230417
855750000.0 -0.3657126681 -0.1017538195
865700000.0 -0.4093049822 -0.0399321249
875650000.0 -0.4312638294 0.0299158451
885600000.0 -0.428508857 0.1071116064
895550000.0 -0.4021346082 0.190217099
905500000.0 -0.3535647374 0.2766275131
915450000.0 -0.2855897279 0.361019956
925400000.0 -0.1979725073 0.4345602035
935350000.0 -0.0907170518 0.4873601895
945300000.0 0.0361141423 0.5043055872
955250000.0 0.1790745111 0.4696504683
965200000.0 0.3176252683 0.3645168576
975150000.0 0.3883713832 0.1928809032
985100000.0 0.3942604774 0.0614731552
995050000.0 0.4575328551 -0.0607419988
1005000000.0 0.4785671113 -0.2527676106
1014950000.0 0.3917061652 -0.4783067998
1024900000.0 0.1696281463 -0.6629183427
1034850000.0 -0.1462845299 -0.7312711775
1044800000.0 -0.4764237898 -0.650365073
1054750000.0 -0.7391233253 -0.4343139348
1064700000.0 -0.8570508945 -0.1338305019
1074650000.0 -0.8667536176 0.1206145696
1084600000.0 -0.777550699 0.4025719802
1094550000.0 -0.5845685356 0.6197973884
1104500000.0 -0.3413268628 0.75850845
1114450000.0 -0.0759023207 0.8144957424
1124400000.0 0.1830787849 0.7805280077
1134350000.0 0.4014914142 0.6616809504
1144300000.0 0.5562147518 0.4787237918
1154250000.0 0.6372261856 0.2651324085
1164200000.0 0.6549399716 0.0564594097
1174150000.0 0.635027848 -0.1365434287
1184100000.0 0.5729304573 -0.3103372275
1194050000.0 0.4748681222 -0.4476812121
1204000000.0 0.3525733726 -0.5420961934
1213950000.0 0.2174008755 -0.5955196487
1223900000.0 0.0813596568 -0.6167383208
1233850000.0 -0.0486280598 -0.6169359704
1243800000.0 -0.1677840648 -0.6021836033
1253750000.0 -0.2734050138 -0.5769137895
1263700000.0 -0.3635707183 -0.5394074143
1273650000.0 -0.4379987554 -0.4910005519
1283600000.0 -0.4959889284 -0.4297979358
1293550000.0 -0.5404797912 -0.3580336709
1303500000.0 -0.5761594484 -0.280463123
1313450000.0 -0.6062919357 -0.2012967232
1323400000.0 -0.6330674112 -0.1244747966
1333350000.0 -0.6551144799 -0.0521545232
1343300000.0 -0.6692999377 0.0168618861
1353250000.0 -0.671736715 0.0805361105
1363200000.0 -0.6597578447 0.1418928904
1373150000.0 -0.6323560497 0.2020894731
1383100000.0 -0.594457385 0.2622736026
1393050000.0 -0.5511277966 0.3232869649
1403000000.0 -0.5068060863 0.3829846505
1412950000.0 -0.4621824892 0.4396915493
1422900000.0 -0.4164615284 0.490375694
1432850000.0 -0.3668661798 0.5311502183
1442800000.0 -0.3090889315 0.5614824682
1452750000.0 -0.2372358316 0.5797445363
1462700000.0 -0.1451091869 0.5650968522
1472650000.0 -0.1320510804 0.5606429719
1482600000.0 -0.0405913932 0.5810969237
1492550000.0 0.0474214262 0.5792437855
1502500000.0 0.1312835147 0.5665500529
1512450000.0 0.207969962 0.5408097946
1522400000.0 0.2755969979 0.4990360075
1532350000.0 0.3335595379 0.4405630347
1542300000.0 0.382419224 0.3673620695
1552250000.0 0.4237588048 0.2833113414
1562200000.0 0.4592187608 0.1940429424
1572150000.0 0.4863254384 0.1028012439
1582100000.0 0.5012681179 0.0112793897
1592050000.0 0.5001445853 -0.0790935795
1602000000.0 0.4788756514 -0.1670064351
1611950000.0 0.4371204025 -0.2502357855
1621900000.0 0.3781816336 -0.3289305241
1631850000.0 0.3070233332 -0.4016695512
1641800000.0 0.2292291811 -0.4665543079
1651750000.0 0.1478026691 -0.5196758196
1661700000.0 0.0650649465 -0.5576975301
1671650000.0 -0.0173539342 -0.5765138376
1681600000.0 -0.0978864001 -0.5750058656
1691550000.0 -0.1760872792 -0.5568543262
1701500000.0 -0.2520414149 -0.5278828327
1711450000.0 -0.3251009967 -0.4941477066
1721400000.0 -0.3941251536 -0.4586603439
1731350000.0 -0.4574636506 -0.4240196261
1741300000.0 -0.511251537 -0.3877440582
1751250000.0 -0.5534990979 -0.3462624742
1761200000.0 -0.5826126192 -0.2980851165
1771150000.0 -0.6001517682 -0.2425516315
1781100000.0 -0.611490945 -0.1812874634
1791050000.0 -0.6202327196 -0.1177846351
1801000000.0 -0.6294424468 -0.0558634496
1810950000.0 -0.6403600966 0.0027035999
1820900000.0 -0.6492199575 0.0566031398
1830850000.0 -0.6516571853 0.1039706073
1840800000.0 -0.6420009344 0.1484935171
1850750000.0 -0.6196114602 0.1891690894
1860700000.0 -0.5844999785 0.2274636904
1870650000.0 -0.5432144856 0.2651702163
1880600000.0 -0.5010485297 0.3006918945
1890550000.0 -0.4625755767 0.3342860019
1900500000.0 -0.4287540743 0.3629882964
1910450000.0 -0.3984861168 0.3842809481
1920400000.0 -0.3676947321 0.3970006821
1930350000.0 -0.3326784707 0.3989964441
1940300000.0 -0.2920565375 0.3907175326
1950250000.0 -0.2454441806 0.3738608409
1960200000.0 -0.1953126391 0.35159091
1970150000.0 -0.1480785428 0.3249829415
1980100000.0 -0.1086240448 0.2945255033
1990050000.0 -0.0819235556 0.2565508053
2000000000.0 -0.0710309981 0.2075369121
