!Created with skrf (http://scikit-rf.org).
# GHz S RI R 50.0 
!freq ReS11 ImS11
10000000.0 -0.7465671592 0.5731325479
19950000.0 -0.2707162057 0.9071175649
29900000.0 0.3123232329 0.8968339527
39850000.0 0.7854976553 0.5343057866
49800000.0 0.9500592762 -0.0567529429
59750000.0 0.7120488446 -0.6419389961
69700000.0 0.1472562444 -0.9559000115
79650000.0 -0.4998405219 -0.8260953544
89600000.0 -0.9117273029 -0.2797931026
99550000.0 -0.845513812 0.4334826895
109500000.0 -0.2764223746 0.9202227953
119450000.0 0.5027457768 0.8334044515
129400000.0 0.9644309854 0.1575915473
139350000.0 0.7315208615 -0.6419885986
149300000.0 -0.0294649498 -0.9566038337
159250000.0 -0.7323918372 -0.5813871345
169200000.0 -0.9109857116 0.1583802432
179150000.0 -0.5240460946 0.7635958186
189100000.0 0.1350237884 0.9137435324
199050000.0 0.6951060388 0.5886157441
209000000.0 0.9012714045 -0.0072382775
218950000.0 0.6930860454 -0.5757097573
228900000.0 0.190255837 -0.8798662446
238850000.0 -0.3829857973 -0.8077145492
248800000.0 -0.7239345189 -0.4187463913
258750000.0 -0.8711457195 0.1459660336
268700000.0 -0.609518034 0.6460949226
278650000.0 -0.1085728004 0.8850166491
288600000.0 0.4288613012 0.7699279138
298550000.0 0.7845847959 0.3475352678
308500000.0 0.8075954478 -0.2086868299
318450000.0 0.480257635 -0.6572114422
328400000.0 -0.0506439694 -0.7894423058
338350000.0 -0.5224638614 -0.5430695167
348300000.0 -0.6931630746 -0.060777062
358250000.0 -0.4928102349 0.374930994
368200000.0 -0.0884690635 0.522760543
378150000.0 0.2436193882 0.3555146618
388100000.0 0.3276036133 0.0559011546
398050000.0 0.190568195 -0.1538508457
408000000.0 -0.0063304273 -0.1764653023
417950000.0 -0.1154413829 -0.0640250539
427900000.0 -0.0960460717 0.0605919842
437850000.0 -0.0013556988 0.1064814626
447800000.0 0.0854992574 0.0600799932
457750000.0 0.1036270213 -0.0348802338
467700000.0 0.050926994 -0.1123160492
477650000.0 -0.0353206322 -0.129513466
487600000.0 -0.1050992742 -0.0820284709
497550000.0 -0.1102671551 -0.0144707955
507500000.0 -0.0900413956 0.0546357991
517450000.0 -0.0287991715 0.0823064654
527400000.0 0.0234292456 0.0636511466
537350000.0 0.0416046987 0.0217029822
547300000.0 0.024630011 -0.0144965821
557250000.0 -0.0097974638 -0.0195973027
567200000.0 -0.0282574236 0.0039885425
577150000.0 -0.0141316275 0.0329698868
587100000.0 0.026903621 0.0376640609
597050000.0 0.068064428 0.0037989721
607000000.0 0.0794955909 -0.0600933267
616950000.0 0.0423794723 -0.1230546902
626900000.0 -0.0317278464 -0.1482973964
636850000.0 -0.110681338 -0.1170744688
646800000.0 -0.1548801364 -0.035216347
656750000.0 -0.1393707686 0.0650633099
666700000.0 -0.0637585555 0.1386669811
676650000.0 0.0432724415 0.1508119618
686600000.0 0.1364197191 0.0922582963
696550000.0 0.1738732255 -0.0155701623
706500000.0 0.1372939894 -0.1229256584
716450000.0 0.0412142943 -0.1807803129
726400000.0 -0.0671533777 -0.1620427341
736350000.0 -0.1329336814 -0.0741620804
746300000.0 -0.1208373673 0.0370632957
756250000.0 -0.0336988908 0.1120483863
766200000.0 0.0810528059 0.109128013
776150000.0 0.1612759218 0.026567926
786100000.0 0.1595887299 -0.0892760702
796050000.0 0.070143062 -0.1736178975
806000000.0 -0.0632417158 -0.1700977775
815950000.0 -0.1681276056 -0.0647052043
825900000.0 -0.177753231 0.0957690078
835850000.0 -0.0729247232 0.2311858244
845800000.0 0.1031650949 0.2650899077
855750000.0 0.2677488345 0.1691156633
865700000.0 0.3370849117 -0.0232300544
875650000.0 0.263973814 -0.2269780315
885600000.0 0.064700786 -0.3430713388
895550000.0 -0.1777630391 -0.2959625339
905500000.0 -0.3406524877 -0.0886530404
915450000.0 -0.3281458226 0.1870098391
925400000.0 -0.1337660252 0.3940806285
935350000.0 0.1541358389 0.4189996205
945300000.0 0.3907518709 0.2319295225
955250000.0 0.4371940177 -0.0895642208
965200000.0 0.2282161869 -0.3764922154
975150000.0 -0.1560901518 -0.4282666308
985100000.0 -0.4750505088 -0.1510333065
995050000.0 -0.4710784449 0.3068900624
1005000000.0 -0.0952193123 0.6208197905
1014950000.0 0.4228345294 0.5243487443
1024900000.0 0.7008596087 0.0147535285
1034850000.0 0.4582642138 -0.5696473232
1044800000.0 -0.1791732472 -0.7354980228
1054750000.0 -0.687996381 -0.3144131312
1064700000.0 -0.6835920116 0.2357016344
1074650000.0 -0.3867874609 0.697174842
1084600000.0 0.1956811495 0.7801964797
1094550000.0 0.6550523398 0.4111880791
1104500000.0 0.7090743713 -0.1788143032
1114450000.0 0.3280415197 -0.6218966331
1124400000.0 -0.2260108967 -0.651091571
1134350000.0 -0.607291806 -0.3006495202
1144300000.0 -0.6399903455 0.1812582335
1154250000.0 -0.3593976596 0.5385850456
1164200000.0 0.0671339943 0.6161574897
1174150000.0 0.4326741071 0.3957253078
1184100000.0 0.5540198249 -0.0171442304
1194050000.0 0.3678363169 -0.3980479245
1204000000.0 -0.0051073568 -0.5515983647
1213950000.0 -0.3682508297 -0.4323606527
1223900000.0 -0.5686630499 -0.1308448364
1233850000.0 -0.5514030125 0.2179479576
1243800000.0 -0.334151494 0.4857243194
1253750000.0 0.0036919238 0.5709968869
1263700000.0 0.3337109311 0.4309139079
1273650000.0 0.5145244169 0.1150931546
1283600000.0 0.4741844354 -0.2461863732
1293550000.0 0.2408996602 -0.5053477035
1303500000.0 -0.0801305577 -0.5801722207
1313450000.0 -0.3733358416 -0.4698766464
1323400000.0 -0.5577137732 -0.2233321553
1333350000.0 -0.5880372927 0.0880771929
1343300000.0 -0.4450878137 0.3771703887
1353250000.0 -0.1517541127 0.5414056164
1363200000.0 0.1940944659 0.5034002477
1373150000.0 0.4581769929 0.2667856476
1383100000.0 0.5377790102 -0.072210413
1393050000.0 0.4200612511 -0.3836746285
1403000000.0 0.1711496127 -0.573925983
1412950000.0 -0.1278821285 -0.5923853377
1422900000.0 -0.3829156414 -0.4501978552
1432850000.0 -0.5251829964 -0.1880763966
1442800000.0 -0.5049726771 0.1224077906
1452750000.0 -0.3103171267 0.378911455
1462700000.0 0.0019955079 0.4780929386
1472650000.0 0.3094335551 0.3787221597
1482600000.0 0.4965751904 0.1284945857
1492550000.0 0.5058801017 -0.1707494855
1502500000.0 0.3524592109 -0.4134314871
1512450000.0 0.0922977794 -0.5237359927
1522400000.0 -0.1841096433 -0.4632911313
1532350000.0 -0.3766264205 -0.2452651941
1542300000.0 -0.4000459735 0.0546555225
1552250000.0 -0.2354196869 0.3103167502
1562200000.0 0.0441104775 0.4076361694
1572150000.0 0.3137977431 0.3212869722
1582100000.0 0.4715614084 0.0972142255
1592050000.0 0.4641957358 -0.170610942
1602000000.0 0.2990849382 -0.3843821164
1611950000.0 0.0294045167 -0.4606855934
1621900000.0 -0.2456948203 -0.355952215
1631850000.0 -0.4103668545 -0.0951082135
1641800000.0 -0.3821907645 0.2187848666
1651750000.0 -0.1710892245 0.4506793633
1661700000.0 0.1299872228 0.5087214411
1671650000.0 0.4022023628 0.3844664916
1681600000.0 0.5563649577 0.1319093177
1691550000.0 0.5457159237 -0.167482494
1701500000.0 0.3690646877 -0.418948315
1711450000.0 0.0715403713 -0.5345957958
1721400000.0 -0.252361146 -0.4571889688
1731350000.0 -0.4817863702 -0.200818747
1741300000.0 -0.5275134023 0.141487412
1751250000.0 -0.3789565285 0.440940733
1761200000.0 -0.1026829838 0.6027142483
1771150000.0 0.2049097917 0.5925363842
1781100000.0 0.4578586091 0.4273207929
1791050000.0 0.5910620168 0.1540953515
1801000000.0 0.5647789381 -0.1569859464
1810950000.0 0.3746641883 -0.4167145789
1820900000.0 0.0683530957 -0.5347527598
1830850000.0 -0.256075868 -0.4596837272
1840800000.0 -0.4821522775 -0.2184895742
1850750000.0 -0.5389418239 0.09279798
1860700000.0 -0.4308362639 0.3676693662
1870650000.0 -0.2127611601 0.5368534892
1880600000.0 0.0471368198 0.5683693546
1890550000.0 0.2784826593 0.4629936701
1900500000.0 0.4185863765 0.2515362343
1910450000.0 0.4284950884 -0.0056960062
1920400000.0 0.2993177207 -0.2274394198
1930350000.0 0.0777586781 -0.3356338702
1940300000.0 -0.1508984081 -0.3023576206
1950250000.0 -0.3042962898 -0.1617352623
1960200000.0 -0.3434611221 0.0138340953
1970150000.0 -0.2831272207 0.1558787881
1980100000.0 -0.1693491957 0.1945953177
1990050000.0 -0.108401135 0.1771756621
2000000000.0 -0.0743243262 0.1295472508
