!Created with skrf (http://scikit-rf.org).
# GHz S RI R 50.0 
!freq ReS11 ImS11
10000000.0 -0.4446549284 0.0453017805
14975000.0 -0.4571277456 0.0735917485
19950000.0 -0.4720957317 0.1070930657
24925000.0 -0.4865431256 0.1466529907
29900000.0 -0.4981743898 0.1913236088
34875000.0 -0.5043811093 0.2405158012
39850000.0 -0.5038438121 0.292809391
44825000.0 -0.4961528405 0.3467414188
49800000.0 -0.4817496051 0.4010573804
54775000.0 -0.4611918627 0.4543375091
59750000.0 -0.4354501602 0.5057042814
64725000.0 -0.4063064261 0.5547982302
69700000.0 -0.3744659394 0.6013431713
74675000.0 -0.3407139477 0.6459548202
79650000.0 -0.3055180835 0.68928959
84625000.0 -0.2686028464 0.7323781794
89600000.0 -0.22874831 0.7759986166
94575000.0 -0.1837025236 0.8204111707
99550000.0 -0.1305452606 0.8643781861
104525000.0 -0.0665947147 0.9050277762
109500000.0 0.0096760047 0.938203905
114475000.0 0.0976236852 0.9587317391
119450000.0 0.1936737265 0.9631704145
124425000.0 0.294083287 0.9486395902
129400000.0 0.3722458443 0.9105264532
134375000.0 0.4846385957 0.8633288816
139350000.0 0.5713323838 0.7922228117
144325000.0 0.6463706444 0.7054845933
149300000.0 0.7071224154 0.6054021692
154275000.0 0.7508449255 0.4960135765
159250000.0 0.7758820921 0.3815543377
164225000.0 0.7809862382 0.2673833711
169200000.0 0.7674620579 0.1585639817
174175000.0 0.7383021081 0.0593362685
179150000.0 0.6988152647 -0.0273283544
184125000.0 0.6546274671 -0.1008370417
189100000.0 0.6104952806 -0.1629842036
194075000.0 0.5693826322 -0.216407764
199050000.0 0.5316591188 -0.2643711985
204025000.0 0.4966239382 -0.3095418351
209000000.0 0.462146818 -0.3535054019
213975000.0 0.4262664434 -0.3969406249
218950000.0 0.3869584693 -0.4393387066
223925000.0 0.3430809187 -0.4798857845
228900000.0 0.2939090563 -0.5175275328
233875000.0 0.2392545228 -0.5509583291
238850000.0 0.1779223295 -0.5797238076
243825000.0 0.0991314655 -0.6030397372
248800000.0 0.1742271249 -0.4884497422
253775000.0 0.0527998827 -0.6102678369
258750000.0 -0.0104960322 -0.6214608314
263725000.0 -0.0625864497 -0.624813575
268700000.0 -0.107844126 -0.6244589306
273675000.0 -0.1480679731 -0.6225593432
278650000.0 -0.1841410068 -0.6202296893
283625000.0 -0.2176090081 -0.618268542
288600000.0 -0.25031155 -0.6172954144
293575000.0 -0.2840447105 -0.6170282962
298550000.0 -0.3202719235 -0.6160420675
303525000.0 -0.3598864525 -0.613051695
308500000.0 -0.4024924448 -0.6062649104
313475000.0 -0.4473037498 -0.5938577343
318450000.0 -0.4929055669 -0.5745167627
323425000.0 -0.5368951147 -0.5482617192
328400000.0 -0.5778550299 -0.5149841617
333375000.0 -0.6144733839 -0.4753980629
338350000.0 -0.6454174746 -0.4306062361
343325000.0 -0.6690429362 -0.381513719
348300000.0 -0.6853651281 -0.3285578045
353275000.0 -0.6940729301 -0.2743955872
358250000.0 -0.6937473147 -0.2189853845
363225000.0 -0.6853177233 -0.1636171294
368200000.0 -0.6694216341 -0.111986519
373175000.0 -0.6458329935 -0.064809834
378150000.0 -0.6157237543 -0.022334099
383125000.0 -0.5809965929 0.0132556895
388100000.0 -0.542613939 0.0413648858
393075000.0 -0.5019662485 0.0632410672
398050000.0 -0.4606903935 0.0783675536
403025000.0 -0.418989981 0.0858340695
408000000.0 -0.3778019132 0.0879162203
412975000.0 -0.3385507032 0.0855785133
417950000.0 -0.3014595682 0.0776933057
422925000.0 -0.2664479743 0.0652632622
427900000.0 -0.2351453357 0.0501457375
432875000.0 -0.2069415979 0.0320829503
437850000.0 -0.1816392807 0.0122270293
442825000.0 -0.1602658363 -0.0081006943
447800000.0 -0.14311669 -0.0288772601
452775000.0 -0.1286764577 -0.0494896979
457750000.0 -0.1171280448 -0.069044073
462725000.0 -0.1083842322 -0.088032977
467700000.0 -0.1013995072 -0.1057153308
472675000.0 -0.0958991523 -0.1216638891
477650000.0 -0.0923504739 -0.1367829035
482625000.0 -0.0906282021 -0.1507104159
487600000.0 -0.0953700455 -0.1638833789
492575000.0 -0.1351962803 -0.1486348953
497550000.0 -0.0534493148 -0.1377939333
502525000.0 -0.0546297331 -0.164746644
507500000.0 -0.0546254225 -0.1761212844
512475000.0 -0.0529386845 -0.1834448301
517450000.0 -0.0508600948 -0.1886836923
522425000.0 -0.0484823864 -0.1927825173
527400000.0 -0.04603487 -0.1954297911
532375000.0 -0.0435120388 -0.1967450711
537350000.0 -0.041493659 -0.1979875119
542325000.0 -0.0410432095 -0.1976736036
547300000.0 -0.0405188097 -0.1932086659
552275000.0 -0.0373827106 -0.1879684812
557250000.0 -0.0336660892 -0.182993708
562225000.0 -0.0307942991 -0.1778147919
567200000.0 -0.0276227691 -0.1715074034
572175000.0 -0.0240407131 -0.1636673225
577150000.0 -0.0198780901 -0.1549274233
582125000.0 -0.0154533153 -0.1454499256
587100000.0 -0.0101576912 -0.1347208295
592075000.0 -0.0038891812 -0.1233487502
597050000.0 0.0036169606 -0.1120463526
602025000.0 0.0123189448 -0.100402979
607000000.0 0.0218286671 -0.0883934722
611975000.0 0.0327872546 -0.0765647532
616950000.0 0.044875821 -0.0650282206
621925000.0 0.0575180321 -0.0541864708
626900000.0 0.0705981024 -0.044206428
631875000.0 0.0842327985 -0.0349841771
636850000.0 0.0979268556 -0.0264986293
641825000.0 0.111135659 -0.0192753575
646800000.0 0.1236830187 -0.0122510595
651775000.0 0.135592866 -0.0058756196
656750000.0 0.1470324275 0.0004929726
661725000.0 0.1571304359 0.0070858646
666700000.0 0.1667696428 0.0137746446
671675000.0 0.1762416918 0.0204600912
676650000.0 0.1860900619 0.0274473787
681625000.0 0.1964864291 0.0343524741
686600000.0 0.2075156704 0.0412840069
691575000.0 0.2193180011 0.0480829707
696550000.0 0.2314687617 0.0536608267
701525000.0 0.2441112007 0.0581565744
706500000.0 0.25679493 0.0611735989
711475000.0 0.2698594983 0.0630557364
716450000.0 0.2827157705 0.0635164571
721425000.0 0.2952438147 0.0626899177
726400000.0 0.3072488296 0.0604996967
731375000.0 0.3183125062 0.0568038296
736350000.0 0.3286045423 0.0519755287
741325000.0 0.337876032 0.0454146667
746300000.0 0.3453120009 0.038522514
751275000.0 0.3516329054 0.0301913022
756250000.0 0.3561568982 0.0206782389
761225000.0 0.3592188675 0.0102395258
766200000.0 0.3604817371 -0.0008182575
771175000.0 0.3601452465 -0.012163488
776150000.0 0.3577125357 -0.0237758172
781125000.0 0.353736541 -0.0361360349
786100000.0 0.347686013 -0.0486181616
791075000.0 0.3395519477 -0.0608476204
796050000.0 0.3298709224 -0.0729394207
801025000.0 0.3181927562 -0.084732814
806000000.0 0.3041593698 -0.0959094572
810975000.0 0.2887822368 -0.1058581297
815950000.0 0.2720924796 -0.1151473147
820925000.0 0.25445568 -0.1228882484
825900000.0 0.2361190126 -0.1294303287
830875000.0 0.2173813954 -0.1344149472
835850000.0 0.19897905 -0.1384512854
840825000.0 0.1812592747 -0.1416518154
845800000.0 0.1642713772 -0.1444631189
850775000.0 0.1475610171 -0.1473280483
855750000.0 0.1309575198 -0.1509806522
860725000.0 0.1136603085 -0.1555579882
865700000.0 0.0952382525 -0.160837682
870675000.0 0.0745600106 -0.1664042523
875650000.0 0.0514173179 -0.1714270192
880625000.0 0.0251050417 -0.175367345
885600000.0 -0.004293954 -0.1780312015
890575000.0 -0.035851048 -0.1776794118
895550000.0 -0.0690681446 -0.1744310987
900525000.0 -0.1032140355 -0.1674318391
905500000.0 -0.1382211069 -0.1579464199
910475000.0 -0.1722661132 -0.1436340836
915450000.0 -0.2050870317 -0.1261048779
920425000.0 -0.2358283117 -0.1053338154
925400000.0 -0.2646568399 -0.0817413938
930375000.0 -0.2908666782 -0.0555965675
935350000.0 -0.3147093724 -0.027303171
940325000.0 -0.3364243703 0.0026972727
945300000.0 -0.3567453246 0.0345552998
950275000.0 -0.3749012051 0.0693574061
955250000.0 -0.3914540476 0.1067726633
960225000.0 -0.4060478239 0.1482718686
965200000.0 -0.4173231811 0.1943226289
970175000.0 -0.4234856234 0.2449708219
975150000.0 -0.4231210194 0.2993332397
980125000.0 -0.4140325673 0.3573994781
985100000.0 -0.3946412346 0.4164827569
990075000.0 -0.3641279085 0.4750842775
995050000.0 -0.3214032701 0.5301744673
1000025000.0 -0.2670553413 0.5786129885
1005000000.0 -0.2008288909 0.6173039013
1009975000.0 -0.1249882628 0.6425029549
1014950000.0 -0.0415855753 0.6511314177
1019925000.0 0.0455503896 0.6399180246
1024900000.0 0.1314399451 0.6085236691
1029875000.0 0.2110869379 0.556832682
1034850000.0 0.2799081236 0.4867349019
1039825000.0 0.334690587 0.4016041153
1044800000.0 0.3732588056 0.3041517194
1049775000.0 0.3904395154 0.1974030107
1054750000.0 0.374024828 0.0957762082
1059725000.0 0.3489257546 0.0523548752
1064700000.0 0.383416992 0.00133277
1069675000.0 0.4008843746 -0.1014824476
1074650000.0 0.3815493461 -0.2134567541
1079625000.0 0.3216188142 -0.2996914092
1084600000.0 0.3000941808 -0.3471463991
1089575000.0 0.2605610491 -0.4382057524
1094550000.0 0.1944605492 -0.5133031486
1099525000.0 0.1191922119 -0.5701074498
1104500000.0 0.0400767552 -0.6095546286
1109475000.0 -0.0380397776 -0.6346367476
1114450000.0 -0.1136387571 -0.646422629
1119425000.0 -0.1844873044 -0.6482245282
1124400000.0 -0.2507314888 -0.6412425826
1129375000.0 -0.3124242383 -0.6262998771
1134350000.0 -0.3691174803 -0.6048770307
1139325000.0 -0.4215113664 -0.5767404894
1144300000.0 -0.4684607655 -0.5431638114
1149275000.0 -0.5097761355 -0.5041317055
1154250000.0 -0.5440991594 -0.4617420662
1159225000.0 -0.57092409 -0.4165633297
1164200000.0 -0.5905363153 -0.3712588932
1169175000.0 -0.6041565554 -0.3293108222
1174150000.0 -0.6152388615 -0.2887365462
1179125000.0 -0.6234154146 -0.2471935013
1184100000.0 -0.6267930327 -0.2052428388
1189075000.0 -0.625002099 -0.1640211102
1194050000.0 -0.6188345775 -0.1252939544
1199025000.0 -0.6084081589 -0.088411324
1204000000.0 -0.5949152252 -0.0567673821
1208975000.0 -0.5784935074 -0.0267906812
1213950000.0 -0.5601080051 -0.0002634126
1218925000.0 -0.5414198883 0.0223763577
1223900000.0 -0.5236083255 0.0415069321
1228875000.0 -0.5075034768 0.0584656263
1233850000.0 -0.4937974744 0.0733432342
1238825000.0 -0.4819338314 0.0882262817
1243800000.0 -0.4712473737 0.1043914073
1248775000.0 -0.4609926004 0.1208531611
1253750000.0 -0.4501354941 0.1393470712
1258725000.0 -0.4372034069 0.1589410249
1263700000.0 -0.4226433784 0.1787687108
1268675000.0 -0.4053768396 0.1985201657
1273650000.0 -0.3854207687 0.2174708464
1278625000.0 -0.3627204432 0.2347340956
1283600000.0 -0.3372310081 0.2502242096
1288575000.0 -0.3098310684 0.2627109103
1293550000.0 -0.2806654921 0.2726340498
1298525000.0 -0.2509232003 0.2786167538
1303500000.0 -0.2227286597 0.2805733085
1308475000.0 -0.1960598915 0.2785959601
1313450000.0 -0.1733911147 0.2730385484
1318425000.0 -0.1562982158 0.2648643593
1323400000.0 -0.1457605535 0.2555093777
1328375000.0 -0.1420381119 0.247678286
1333350000.0 -0.144089726 0.2430470386
1338325000.0 -0.1499678197 0.2440094747
1343300000.0 -0.1572459293 0.2509812641
1348275000.0 -0.162933193 0.263863822
1353250000.0 -0.1652383626 0.2818139259
1358225000.0 -0.1626104174 0.3025772682
1363200000.0 -0.1544196812 0.3247539335
1368175000.0 -0.1406807187 0.3466858693
1373150000.0 -0.1222103326 0.3677016484
1378125000.0 -0.0990461779 0.3859924478
1383100000.0 -0.0731229807 0.4020153184
1388075000.0 -0.0449850322 0.4141576568
1393050000.0 -0.0158074339 0.4224474597
1398025000.0 0.01302312 0.4268317994
1403000000.0 0.0403644484 0.4271075749
1407975000.0 0.064574865 0.4229235559
1412950000.0 0.0850732887 0.4153974674
1417925000.0 0.0997257826 0.4048403562
1422900000.0 0.1069815361 0.3924829783
1427875000.0 0.1073970454 0.3807269473
1432850000.0 0.1008321715 0.3716885744
1437825000.0 0.0888944818 0.3672647551
1442800000.0 0.0736499807 0.3687799046
1447775000.0 0.0584094268 0.3778437698
1452750000.0 0.0459003164 0.3922271027
1457725000.0 0.0385409246 0.4104030855
1462700000.0 0.0365945229 0.4318109066
1467675000.0 0.0404910101 0.4539205397
1472650000.0 0.0501913931 0.4742693168
1477625000.0 0.063565776 0.4920656983
1482600000.0 0.0793351324 0.5093488004
1487575000.0 0.0973236917 0.5222080981
1492550000.0 0.1171668821 0.5319835062
1497525000.0 0.1356492096 0.5389524955
1502500000.0 0.1537278101 0.5444646387
1507475000.0 0.171604258 0.5469534799
1512450000.0 0.1865821101 0.5470845675
1517425000.0 0.1989152753 0.5456814794
1522400000.0 0.2088414521 0.5436177859
1527375000.0 0.2157497477 0.5402758848
1532350000.0 0.21985 0.5366890126
1537325000.0 0.2220546701 0.5348676318
1542300000.0 0.2231069192 0.5340619162
1547275000.0 0.2246943673 0.5334072818
1552250000.0 0.2267835368 0.5346149849
1557225000.0 0.2297567373 0.5354962777
1562200000.0 0.2335950147 0.5366023211
1567175000.0 0.238794984 0.5377016246
1572150000.0 0.2453498438 0.5375742027
1577125000.0 0.2531221803 0.5362127922
1582100000.0 0.2609006036 0.5339575819
1587075000.0 0.268464943 0.5295294474
1592050000.0 0.2761909322 0.5246491069
1597025000.0 0.2829334834 0.5189880536
1602000000.0 0.2894170465 0.5126018165
1606975000.0 0.295361385 0.5057673359
1611950000.0 0.3010564543 0.4985612176
1616925000.0 0.3061611671 0.490771571
1621900000.0 0.3106024347 0.4830954236
1626875000.0 0.3152839991 0.4742626163
1631850000.0 0.3200750771 0.465872176
1636825000.0 0.3237113298 0.4563716553
1641800000.0 0.3283287939 0.4461747227
1646775000.0 0.3328921832 0.4355815565
1651750000.0 0.3371652439 0.4235768133
1656725000.0 0.3411184533 0.4107482445
1661700000.0 0.3442264198 0.3972471338
1666675000.0 0.3470829157 0.3821561726
1671650000.0 0.3485459554 0.366599399
1676625000.0 0.3484516922 0.3508437197
1681600000.0 0.3468089065 0.3334575215
1686575000.0 0.3439149551 0.3158368981
1691550000.0 0.3383972895 0.2986232831
1696525000.0 0.3308150789 0.2818089447
1701500000.0 0.3216487552 0.2652636978
1706475000.0 0.3102690264 0.2506455088
1711450000.0 0.2979522913 0.2377723601
1716425000.0 0.285547453 0.2270328178
1721400000.0 0.274074106 0.2183264074
1726375000.0 0.264915858 0.2120042291
1731350000.0 0.2593025821 0.2062436247
1736325000.0 0.2568630025 0.1997610903
1741300000.0 0.2574773468 0.1926463857
1746275000.0 0.2604718671 0.1834786191
1751250000.0 0.2648254471 0.1711723084
1756225000.0 0.2686578488 0.1572040392
1761200000.0 0.2713330815 0.1410203881
1766175000.0 0.2727277459 0.1229972823
1771150000.0 0.271468492 0.1037541125
1776125000.0 0.2671787152 0.0840094635
1781100000.0 0.2598105598 0.0649771447
1786075000.0 0.2498121199 0.0466337262
1791050000.0 0.2366503551 0.02992161
1796025000.0 0.2216319201 0.0162496932
1801000000.0 0.205605497 0.0057430489
1805975000.0 0.1901404704 -0.001045305
1810950000.0 0.176623732 -0.0041418356
1815925000.0 0.1662784406 -0.0048373779
1820900000.0 0.1608185755 -0.0027631298
1825875000.0 0.1606912907 -0.0008124725
1830850000.0 0.1645559871 -0.0012488477
1835825000.0 0.1718466628 -0.0035806633
1840800000.0 0.1802196879 -0.0094370589
1845775000.0 0.1882555303 -0.0175677196
1850750000.0 0.1971903015 -0.0279122217
1855725000.0 0.204159905 -0.0424503586
1860700000.0 0.2070532402 -0.0586153704
1865675000.0 0.2053568597 -0.0751086292
1870650000.0 0.1997929744 -0.0904990672
1875625000.0 0.1922192122 -0.1048910253
1880600000.0 0.1811169148 -0.1183703525
1885575000.0 0.167020247 -0.1294907335
1890550000.0 0.1524960505 -0.1383167736
1895525000.0 0.1367014086 -0.1453547069
1900500000.0 0.1208285992 -0.1486250183
1905475000.0 0.1038043454 -0.1484349583
1910450000.0 0.0893157119 -0.1424375065
1915425000.0 0.0811434502 -0.1310808679
1920400000.0 0.0792257622 -0.119225972
1925375000.0 0.0829070756 -0.1105151017
1930350000.0 0.0904536205 -0.1042174496
1935325000.0 0.1003767236 -0.1020869968
1940300000.0 0.1100207047 -0.1033442231
1945275000.0 0.1190268111 -0.1066754872
1950250000.0 0.1259317777 -0.1127826911
1955225000.0 0.1292144527 -0.1197924765
1960200000.0 0.1302868628 -0.1270611137
1965175000.0 0.1275257216 -0.1349200557
1970150000.0 0.1217970472 -0.1411849232
1975125000.0 0.1138948658 -0.1470018081
1980100000.0 0.1026713815 -0.1525887274
1985075000.0 0.0894662887 -0.1552958205
1990050000.0 0.0739604629 -0.1574597726
1995025000.0 0.0547784993 -0.1576085989
2000000000.0 0.0343153744 -0.1538450211
