!Created with skrf (http://scikit-rf.org).
# GHz S RI R 50.0 
!freq ReS11 ImS11
10000000.0 -0.9994936398 0.1590919312
19950000.0 -0.947222077 0.3046432788
29900000.0 -0.8734626679 0.4441924479
39850000.0 -0.7774322396 0.5830793415
49800000.0 -0.6606546935 0.7154303356
59750000.0 -0.517347959 0.8352622742
69700000.0 -0.3404397991 0.9312581558
79650000.0 -0.1248933914 0.9848656001
89600000.0 0.1283250724 0.9773211878
99550000.0 0.4055269399 0.8866354392
109500000.0 0.6813221843 0.6956177381
119450000.0 0.9069314345 0.3898235994
129400000.0 1.0095263 -0.0131518871
139350000.0 0.9251804342 -0.4353673396
149300000.0 0.6600395612 -0.7716744149
159250000.0 0.298340367 -0.9502814346
169200000.0 -0.0659388005 -0.9804001039
179150000.0 -0.3786803231 -0.9040782688
189100000.0 -0.6205913715 -0.7647155737
199050000.0 -0.7890224415 -0.5927220727
209000000.0 -0.888200903 -0.4070808967
218950000.0 -0.9357370606 -0.222773774
228900000.0 -0.944132921 -0.0467918267
238850000.0 -0.9255340963 0.1196375097
248800000.0 -0.8866138501 0.2607840739
258750000.0 -0.8364095828 0.4156899996
268700000.0 -0.7638384697 0.5453416536
278650000.0 -0.6686390794 0.6551309059
288600000.0 -0.5491953827 0.7415104902
298550000.0 -0.4082913589 0.8020377681
308500000.0 -0.2492352043 0.8371018238
318450000.0 -0.0767746907 0.842640304
328400000.0 0.1020243413 0.8117338622
338350000.0 0.2697956029 0.7328745328
348300000.0 0.4062210474 0.5984060594
358250000.0 0.4900372117 0.4176053575
368200000.0 0.4979031555 0.2186688818
378150000.0 0.4302104022 0.0399181053
388100000.0 0.313481775 -0.0890838236
398050000.0 0.1817291454 -0.1542933122
408000000.0 0.0638275803 -0.16257871
417950000.0 -0.0267088587 -0.1277934742
427900000.0 -0.0862094103 -0.0717406439
437850000.0 -0.1189225934 -0.006659387
447800000.0 -0.1305842251 0.0519519123
457750000.0 -0.1268709188 0.0969301686
467700000.0 -0.1115936858 0.1254485721
477650000.0 -0.0878470599 0.1375578663
487600000.0 -0.0594608257 0.1345717601
497550000.0 -0.028866951 0.1279056821
507500000.0 0.0011453873 0.1095661434
517450000.0 0.0232836632 0.0907417366
527400000.0 0.0353764414 0.0715837857
537350000.0 0.0342166551 0.0530210034
547300000.0 0.0222599169 0.0346421461
557250000.0 -0.0002080734 0.0163012952
567200000.0 -0.0283876738 -0.0010227843
577150000.0 -0.0578427719 -0.0145525386
587100000.0 -0.0842509089 -0.0219439569
597050000.0 -0.1055003414 -0.0197161302
607000000.0 -0.1213768732 -0.0067981323
616950000.0 -0.1325957627 0.0165477993
626900000.0 -0.1398872472 0.0480896411
636850000.0 -0.1436569779 0.0821107231
646800000.0 -0.1429469136 0.1149465147
656750000.0 -0.1368835224 0.1428061436
666700000.0 -0.1226305877 0.1628236531
676650000.0 -0.09894294 0.174344635
686600000.0 -0.0659490882 0.1785877045
696550000.0 -0.026446203 0.1771337316
706500000.0 0.0159911118 0.1698997674
716450000.0 0.0567396784 0.1575055303
726400000.0 0.0907762492 0.137478571
736350000.0 0.1147865152 0.1081711713
746300000.0 0.125580341 0.0680766441
756250000.0 0.1256383942 0.0185399583
766200000.0 0.1135975908 -0.0373615504
776150000.0 0.0911471869 -0.0944827798
786100000.0 0.0584909679 -0.1464886711
796050000.0 0.0163277917 -0.1864914066
806000000.0 -0.0350472366 -0.2094368924
815950000.0 -0.0955593373 -0.2119288817
825900000.0 -0.1616679631 -0.1947124218
835850000.0 -0.2300736597 -0.1611898886
845800000.0 -0.2946555078 -0.1149747573
855750000.0 -0.3489551032 -0.057753007
865700000.0 -0.3857658489 0.0082343417
875650000.0 -0.4003215914 0.0824815403
885600000.0 -0.3888480984 0.1630994049
895550000.0 -0.352707508 0.2481803215
905500000.0 -0.2933538793 0.3330429353
915450000.0 -0.2134116809 0.3958250584
925400000.0 -0.1134341479 0.4022762689
935350000.0 0.0071607399 0.449283105
945300000.0 0.1468949238 0.463172152
955250000.0 0.2863858924 0.4359749331
965200000.0 0.333789712 0.3514596308
975150000.0 0.4111762838 0.2071498011
985100000.0 0.5138360538 0.0052025277
995050000.0 0.5390623891 -0.2428117529
1005000000.0 0.4447387814 -0.4979283338
1014950000.0 0.2174276471 -0.6920095137
1024900000.0 -0.1066954049 -0.759630775
1034850000.0 -0.4481772914 -0.672863071
1044800000.0 -0.7234887726 -0.4519391744
1054750000.0 -0.8764334809 -0.1517109314
1064700000.0 -0.8887956289 0.1622998711
1074650000.0 -0.7768312768 0.4349348595
1084600000.0 -0.5886157501 0.6302104289
1094550000.0 -0.3551862352 0.7588374936
1104500000.0 -0.1035342281 0.8125199057
1114450000.0 0.1430193647 0.7941928726
1124400000.0 0.3613014998 0.7043884123
1134350000.0 0.5282307182 0.554935559
1144300000.0 0.6321242878 0.3656066482
1154250000.0 0.6730649318 0.1633591613
1164200000.0 0.6632793924 -0.0286164598
1174150000.0 0.6233957554 -0.2023960477
1184100000.0 0.5495659308 -0.3565233457
1194050000.0 0.4468228623 -0.4776608912
1204000000.0 0.3239586342 -0.5592220669
1213950000.0 0.1909364346 -0.6028017804
1223900000.0 0.0575430723 -0.6164829748
1233850000.0 -0.0692901215 -0.6100008595
1243800000.0 -0.185635621 -0.5891103306
1253750000.0 -0.288729571 -0.5571702018
1263700000.0 -0.3766273032 -0.5131373171
1273650000.0 -0.4487909127 -0.4584960451
1283600000.0 -0.5038875343 -0.3922003219
1293550000.0 -0.5454656433 -0.3167660348
1303500000.0 -0.5778640975 -0.2365579418
1313450000.0 -0.6038955733 -0.1555427377
1323400000.0 -0.6264865381 -0.0766136535
1333350000.0 -0.6435608572 -0.0017994641
1343300000.0 -0.6516130084 0.0688215983
1353250000.0 -0.6482665787 0.1347750531
1363200000.0 -0.6298814833 0.1976111763
1373150000.0 -0.5967424362 0.2587448274
1383100000.0 -0.5536807065 0.3191331667
1393050000.0 -0.5046924446 0.3788651483
1403000000.0 -0.4543577786 0.4364730948
1412950000.0 -0.4030217972 0.4897597059
1422900000.0 -0.3506969331 0.5360621581
1432850000.0 -0.2953045491 0.5714670289
1442800000.0 -0.2348188676 0.5952058015
1452750000.0 -0.1669250155 0.6067124943
1462700000.0 -0.0918126422 0.6075926206
1472650000.0 -0.0114770401 0.6013459191
1482600000.0 0.0705716589 0.5904673616
1492550000.0 0.1511342072 0.5735818126
1502500000.0 0.2282007048 0.5490863336
1512450000.0 0.297988225 0.5125366734
1522400000.0 0.3582661861 0.4621112531
1532350000.0 0.4081590408 0.3965838233
1542300000.0 0.4496327396 0.3182759293
1552250000.0 0.4844676869 0.2313151382
1562200000.0 0.5131165874 0.1397184538
1572150000.0 0.5319980422 0.0469291545
1582100000.0 0.5369006785 -0.0451157746
1592050000.0 0.5238614654 -0.1332112181
1602000000.0 0.4903410014 -0.2165607956
1611950000.0 0.4374892777 -0.2931149491
1621900000.0 0.3703961868 -0.3638696716
1631850000.0 0.2943270448 -0.4284496604
1641800000.0 0.2141183125 -0.4856552135
1651750000.0 0.1331427275 -0.5318741396
1661700000.0 0.0529436014 -0.5632643049
1671650000.0 -0.0256022867 -0.5741588329
1681600000.0 -0.1026445838 -0.5478877403
1691550000.0 -0.1785074016 -0.5622478476
1701500000.0 -0.2539782665 -0.5376520989
1711450000.0 -0.327288157 -0.4980160205
1721400000.0 -0.3978206628 -0.4567805012
1731350000.0 -0.4621711349 -0.4158678932
1741300000.0 -0.5173448645 -0.373305398
1751250000.0 -0.5595801974 -0.3254515
1761200000.0 -0.5874933427 -0.2724004624
1771150000.0 -0.6030497182 -0.2131330032
1781100000.0 -0.6110345841 -0.1498520689
1791050000.0 -0.6153069284 -0.0849253269
1801000000.0 -0.6193113865 -0.0215781232
1810950000.0 -0.6238759702 0.039225409
1820900000.0 -0.6258016935 0.0954719795
1830850000.0 -0.6207332616 0.1459355397
1840800000.0 -0.6041669691 0.1928064829
1850750000.0 -0.5753353703 0.2355743177
1860700000.0 -0.5347876486 0.2747210249
1870650000.0 -0.4885037533 0.3122663692
1880600000.0 -0.4411695862 0.3458833931
1890550000.0 -0.3967997601 0.3761696653
1900500000.0 -0.3564570295 0.399809131
1910450000.0 -0.3189675755 0.414598621
1920400000.0 -0.2807963635 0.4188404981
1930350000.0 -0.2398052146 0.4115226892
1940300000.0 -0.1943798732 0.3936476691
1950250000.0 -0.1452542669 0.3666121075
1960200000.0 -0.0952015216 0.3339844102
1970150000.0 -0.0506088277 0.2954709048
1980100000.0 -0.0162774162 0.2512407746
1990050000.0 0.0017978902 0.1970916194
2000000000.0 -0.0016484596 0.1278310955
