!Created with skrf (http://scikit-rf.org).
# GHz S RI R 50.0 
!freq ReS11 ImS11
10000000.0 -0.7706764167 0.6733452747
19950000.0 -0.1443612331 0.9876123737
29900000.0 0.5292215596 0.8232135861
39850000.0 0.9396177877 0.2577915075
49800000.0 0.8787364373 -0.4507380315
59750000.0 0.3437598098 -0.9504199152
69700000.0 -0.4127181074 -0.9407597153
79650000.0 -0.9522853709 -0.3758047412
89600000.0 -0.904369572 0.4252742283
99550000.0 -0.2575173238 0.935634552
109500000.0 0.5753985688 0.7662497854
119450000.0 0.9738752466 -0.0232149048
129400000.0 0.5482939255 -0.8392608199
139350000.0 -0.3802722783 -0.9379456881
149300000.0 -0.9643015709 -0.2174723518
159250000.0 -0.7111986844 0.6379361906
169200000.0 0.0844721446 0.9377051138
179150000.0 0.7914539046 0.5339387882
189100000.0 0.9521132272 -0.2357894075
199050000.0 0.5099656261 -0.8573293942
209000000.0 -0.2223098273 -0.9670207898
218950000.0 -0.8000306025 -0.545394829
228900000.0 -0.9311545675 0.1374907769
238850000.0 -0.5814044812 0.7207832807
248800000.0 0.0544091603 0.916739666
258750000.0 0.6721309069 0.6673771976
268700000.0 0.9636092495 0.0654979145
278650000.0 0.7796291562 -0.5764544795
288600000.0 0.2156561579 -0.9261205236
298550000.0 -0.429503218 -0.8071943165
308500000.0 -0.8220294471 -0.290392004
318450000.0 -0.758334265 0.347864423
328400000.0 -0.2757569267 0.7576156544
338350000.0 0.339878543 0.6998003772
348300000.0 0.6935167349 0.2282794571
358250000.0 0.5742270841 -0.3012385059
368200000.0 0.1441307986 -0.5149603205
378150000.0 -0.2252986359 -0.3409931521
388100000.0 -0.2946418029 -0.012616943
398050000.0 -0.114618854 0.1837641111
408000000.0 0.0899867667 0.1485280933
417950000.0 0.1468617937 -0.0061655698
427900000.0 0.0547620933 -0.1116400232
437850000.0 -0.0715340191 -0.0882469012
447800000.0 -0.1229577083 0.0254776116
457750000.0 -0.0655765329 0.1333646479
467700000.0 0.0516884611 0.157343617
477650000.0 0.1443500565 0.0882462155
487600000.0 0.1570173876 -0.0208816645
497550000.0 0.094416545 -0.1004532051
507500000.0 0.0010551676 -0.1120091296
517450000.0 -0.0612859723 -0.0643876045
527400000.0 -0.0686489305 -0.0021521627
537350000.0 -0.0371538522 0.0315744097
547300000.0 -0.0074175519 0.0252673246
557250000.0 -0.0058533257 0.0014685373
567200000.0 -0.032895604 -0.0047716643
577150000.0 -0.0564412742 0.0255646183
587100000.0 -0.0418961144 0.0750997722
597050000.0 0.0185465048 0.1030707424
607000000.0 0.0953004589 0.0746870658
616950000.0 0.1387090815 -0.0110843479
626900000.0 0.1114084366 -0.1155182801
636850000.0 0.0144036528 -0.1819341471
646800000.0 -0.1080776462 -0.166982392
656750000.0 -0.1921451849 -0.0705056972
666700000.0 -0.1884812692 0.0602704011
676650000.0 -0.0951313194 0.1544701321
686600000.0 0.0384327342 0.1594757829
696550000.0 0.1393128911 0.0720546363
706500000.0 0.1525172432 -0.0576972337
716450000.0 0.0751370048 -0.1547926242
726400000.0 -0.041517219 -0.1659434892
736350000.0 -0.1216695246 -0.0899298894
746300000.0 -0.1095580465 0.0149580954
756250000.0 -0.0199449619 0.0572155819
766200000.0 0.0563070982 0.0278421808
776150000.0 0.0991609344 -0.0603020589
786100000.0 0.0473082911 -0.1630345567
796050000.0 -0.0805684926 -0.1879033657
806000000.0 -0.1948055977 -0.0927250463
815950000.0 -0.1999499084 0.077287019
825900000.0 -0.0632191513 0.213529428
835850000.0 0.1515020627 0.2123547655
845800000.0 0.3181726486 0.0482909326
855750000.0 0.3259661024 -0.2022373959
865700000.0 0.1492318961 -0.4017190249
875650000.0 -0.1315838464 -0.4267461885
885600000.0 -0.3651625443 -0.2424718007
895550000.0 -0.410792643 0.0687514777
905500000.0 -0.2202790376 0.3386502298
915450000.0 0.1168794759 0.4028296117
925400000.0 0.4098026451 0.2057192628
935350000.0 0.4784512121 -0.1484234939
945300000.0 0.2684833585 -0.449832436
955250000.0 -0.106044906 -0.5047022045
965200000.0 -0.4118345513 -0.2524510148
975150000.0 -0.4193235926 0.1697070305
985100000.0 -0.0648848429 0.456619227
995050000.0 0.4114178928 0.3264759043
1005000000.0 0.5820707814 -0.1784913999
1014950000.0 0.2291119335 -0.6332131002
1024900000.0 -0.3941681313 -0.5908170558
1034850000.0 -0.7408524037 -0.0011486303
1044800000.0 -0.4141013813 0.6713796858
1054750000.0 0.3738927275 0.765469932
1064700000.0 0.8789120863 0.1567132935
1074650000.0 0.693665797 -0.5807607304
1084600000.0 0.0383107356 -0.8618301616
1094550000.0 -0.5828865673 -0.6019537197
1104500000.0 -0.8011383424 0.0471245409
1114450000.0 -0.4448170093 0.6333197586
1124400000.0 0.2254451076 0.7166160603
1134350000.0 0.6781288417 0.2617828932
1144300000.0 0.6145645344 -0.3254446429
1154250000.0 0.1717044618 -0.6358709735
1164200000.0 -0.3207802595 -0.5332483488
1174150000.0 -0.5817146451 -0.1264202469
1184100000.0 -0.4651531696 0.3426133488
1194050000.0 -0.0358125267 0.5669483406
1204000000.0 0.4072321728 0.3957413157
1213950000.0 0.5733832678 -0.0297104969
1223900000.0 0.3989405334 -0.4290451657
1233850000.0 0.0169207609 -0.5999712991
1243800000.0 -0.3772191007 -0.4817731629
1253750000.0 -0.6027895738 -0.1332498063
1263700000.0 -0.5437504802 0.2881366058
1273650000.0 -0.2096606036 0.5686723215
1283600000.0 0.2303707697 0.5506432129
1293550000.0 0.5434335465 0.2480786961
1303500000.0 0.5876532061 -0.1726261732
1313450000.0 0.3693749838 -0.5192052053
1323400000.0 -0.0054758664 -0.6624920981
1333350000.0 -0.3917842203 -0.5564786719
1343300000.0 -0.6427077487 -0.2342429758
1353250000.0 -0.6428782083 0.1872635887
1363200000.0 -0.3683159322 0.523718889
1373150000.0 0.0649005464 0.6070400387
1383100000.0 0.4474510907 0.3954777666
1393050000.0 0.6085140128 0.0027571103
1403000000.0 0.5021718986 -0.3916365467
1412950000.0 0.1928759843 -0.6382618104
1422900000.0 -0.19505242 -0.656035128
1432850000.0 -0.5183508132 -0.4410480962
1442800000.0 -0.6480635794 -0.0686702554
1452750000.0 -0.5160355407 0.3109266904
1462700000.0 -0.1679684729 0.5221931976
1472650000.0 0.2337876067 0.4608620028
1482600000.0 0.4964273489 0.1627315871
1492550000.0 0.5088762752 -0.2195276235
1502500000.0 0.2870637771 -0.5123661117
1512450000.0 -0.0575163038 -0.6004995544
1522400000.0 -0.3754264354 -0.4556639592
1532350000.0 -0.527426605 -0.1437533126
1542300000.0 -0.4400582725 0.194372598
1552250000.0 -0.1493720977 0.3909230541
1562200000.0 0.194613182 0.3406123723
1572150000.0 0.408212547 0.074590832
1582100000.0 0.3840259881 -0.2577530286
1592050000.0 0.1466104783 -0.478676001
1602000000.0 -0.1727182832 -0.4821463401
1611950000.0 -0.4141685176 -0.2701194099
1621900000.0 -0.4545971075 0.0552306729
1631850000.0 -0.2621506889 0.332886231
1641800000.0 0.0782754112 0.4100164823
1651750000.0 0.3885938892 0.2301366415
1661700000.0 0.4938165385 -0.116976024
1671650000.0 0.3364867657 -0.4438807001
1681600000.0 0.0048251771 -0.5860082925
1691550000.0 -0.3412604376 -0.4847896559
1701500000.0 -0.5518601595 -0.1883060818
1711450000.0 -0.5379853648 0.1836190209
1721400000.0 -0.2880710642 0.4796456047
1731350000.0 0.1070717768 0.5558934596
1741300000.0 0.4677460899 0.3560274405
1751250000.0 0.6147718839 -0.0334714839
1761200000.0 0.4818264845 -0.4212307831
1771150000.0 0.1474915667 -0.6364684211
1781100000.0 -0.2377601807 -0.6118844424
1791050000.0 -0.5335311126 -0.3760076599
1801000000.0 -0.6440875381 -0.0139890109
1810950000.0 -0.5251242908 0.353048777
1820900000.0 -0.2007019609 0.5844877286
1830850000.0 0.2048637993 0.5651100248
1840800000.0 0.5073836394 0.3009607894
1850750000.0 0.5840820877 -0.0903566147
1860700000.0 0.4054300225 -0.4357580656
1870650000.0 0.0741383794 -0.5971365297
1880600000.0 -0.2689293178 -0.5441961821
1890550000.0 -0.5137832629 -0.3201204784
1900500000.0 -0.5921911842 -0.0059586369
1910450000.0 -0.4803315472 0.2948350094
1920400000.0 -0.2148354747 0.4706808889
1930350000.0 0.0977754983 0.4466616754
1940300000.0 0.3186642172 0.2412558593
1950250000.0 0.3610229546 -0.0360228027
1960200000.0 0.2381603355 -0.2572666792
1970150000.0 0.0341713323 -0.3518394009
1980100000.0 -0.1567857185 -0.3173632551
1990050000.0 -0.2683017894 -0.2014455949
2000000000.0 -0.2827076379 -0.0773135028
