!Created with skrf (http://scikit-rf.org).
# GHz S RI R 50.0 
!freq ReS11 ImS11
10000000.0 -0.8250630113 0.6161537975
19950000.0 -0.2980749399 0.9558713097
29900000.0 0.321559609 0.9254751919
39850000.0 0.8130708331 0.5400358417
49800000.0 0.9891823728 -0.0716471196
59750000.0 0.7538179665 -0.6833505348
69700000.0 0.1673282252 -1.021404684
79650000.0 -0.5174750742 -0.8899928304
89600000.0 -0.9496271637 -0.3201571807
99550000.0 -0.8807402856 0.409361021
109500000.0 -0.3128954198 0.9070460757
119450000.0 0.4717511725 0.8562398716
129400000.0 0.9832638997 0.20012789
139350000.0 0.8216896266 -0.6062030256
149300000.0 0.0740097169 -0.9943800985
159250000.0 -0.6797410726 -0.6761050206
169200000.0 -0.9375088802 0.0644733577
179150000.0 -0.6017711785 0.7376922136
189100000.0 0.0848550644 0.9765709708
199050000.0 0.726545194 0.6856478961
209000000.0 0.9903284426 0.0538895458
218950000.0 0.7788776807 -0.5677473169
228900000.0 0.2351830398 -0.9033969228
238850000.0 -0.3891383577 -0.8311364487
248800000.0 -0.5921321582 -0.3257858397
258750000.0 -0.930148838 0.1627453734
268700000.0 -0.651086346 0.7101209259
278650000.0 -0.0947028187 0.9571655077
288600000.0 0.4881610556 0.7973308731
298550000.0 0.8357208662 0.3107003809
308500000.0 0.8005511355 -0.2803625584
318450000.0 0.4042306764 -0.7103280475
328400000.0 -0.1680193678 -0.7815535905
338350000.0 -0.6281735564 -0.4583128038
348300000.0 -0.7267218356 0.0693109773
358250000.0 -0.4392176621 0.4768758622
368200000.0 0.0077286078 0.5424211297
378150000.0 0.323593013 0.2975768508
388100000.0 0.3590953113 -0.0468613581
398050000.0 0.1663131158 -0.267419982
408000000.0 -0.0762603308 -0.2702228881
417950000.0 -0.2101424068 -0.1197551437
427900000.0 -0.1895505072 0.0499144176
437850000.0 -0.0695187351 0.1368477001
447800000.0 0.0578486842 0.1165188975
457750000.0 0.1237817074 0.028489668
467700000.0 0.1101173889 -0.0620079414
477650000.0 0.0490517754 -0.1042384279
487600000.0 -0.0077117645 -0.0845063642
497550000.0 -0.029881593 -0.1156704607
507500000.0 -0.0468166057 -0.0212440152
517450000.0 -0.0191303005 0.0011786901
527400000.0 -0.0024052157 -0.0047585914
537350000.0 -0.0107008946 -0.0177444009
547300000.0 -0.0438407617 -0.0133100828
557250000.0 -0.066256416 0.030374637
567200000.0 -0.052836945 0.0860524227
577150000.0 0.0008604428 0.1266015088
587100000.0 0.0765834185 0.1217840415
597050000.0 0.1400756408 0.0630232451
607000000.0 0.1547507377 -0.032997034
616950000.0 0.1051181823 -0.126705257
626900000.0 0.0053479674 -0.1759368031
636850000.0 -0.1072327911 -0.1584482498
646800000.0 -0.1863326382 -0.0763295094
656750000.0 -0.1985906706 0.0353606333
666700000.0 -0.1370031263 0.1280528758
676650000.0 -0.0300619849 0.1600504924
686600000.0 0.072003788 0.1169321019
696550000.0 0.12373572 0.0214168489
706500000.0 0.1034806883 -0.0784316507
716450000.0 0.0283549983 -0.1342881453
726400000.0 -0.0568683502 -0.1194622285
736350000.0 -0.0989579075 -0.046293469
746300000.0 -0.0683806033 0.0382482871
756250000.0 0.0246892309 0.0777253322
766200000.0 0.1279088106 0.0376593277
776150000.0 0.178905322 -0.0718441725
786100000.0 0.1368364535 -0.1967543785
796050000.0 0.0069838742 -0.2642624959
806000000.0 -0.1531438684 -0.2205032497
815950000.0 -0.2585401103 -0.0644907586
825900000.0 -0.2418565465 0.1432454725
835850000.0 -0.0913112323 0.3097811896
845800000.0 0.1392742153 0.3532558102
855750000.0 0.3555775667 0.2432648068
865700000.0 0.4604388514 0.0159881587
875650000.0 0.3967454339 -0.236052651
885600000.0 0.1790630348 -0.3999446413
895550000.0 -0.1065356183 -0.391496156
905500000.0 -0.334090351 -0.2014739122
915450000.0 -0.392333645 0.097008463
925400000.0 -0.2414795651 0.3638420469
935350000.0 0.0521865417 0.4566886845
945300000.0 0.3275785457 0.3061483562
955250000.0 0.393423749 -0.0001615452
965200000.0 0.2227099419 -0.2624303245
975150000.0 -0.1290657247 -0.3339353734
985100000.0 -0.4399224008 -0.0597091063
995050000.0 -0.394172512 0.4002598903
1005000000.0 0.0533272883 0.6543000716
1014950000.0 0.5723903388 0.42150069
1024900000.0 0.7256649167 -0.1804214805
1034850000.0 0.333985942 -0.7207138632
1044800000.0 -0.3584910003 -0.767346854
1054750000.0 -0.8206009638 -0.2631173777
1064700000.0 -0.7776015016 0.2776838608
1074650000.0 -0.4114833547 0.7257765252
1084600000.0 0.1239668774 0.8055645464
1094550000.0 0.6141470081 0.4927853154
1104500000.0 0.7513821758 -0.0779483779
1114450000.0 0.4454851615 -0.5769526838
1124400000.0 -0.1086564913 -0.6923078485
1134350000.0 -0.5381272564 -0.3866146515
1144300000.0 -0.6100938469 0.090537393
1154250000.0 -0.3502462332 0.4515902687
1164200000.0 0.0601522249 0.5308733356
1174150000.0 0.4066058196 0.3158146811
1184100000.0 0.5013704947 -0.0815273326
1194050000.0 0.2873163443 -0.4216703349
1204000000.0 -0.0908487506 -0.5109956117
1213950000.0 -0.41569353 -0.3349240069
1223900000.0 -0.5538154721 -0.0081305459
1233850000.0 -0.4713501726 0.3288418821
1243800000.0 -0.2044860731 0.5545059663
1253750000.0 0.1534149279 0.5789866658
1263700000.0 0.4632570764 0.3766792761
1273650000.0 0.5896364806 0.0209712398
1283600000.0 0.4800231491 -0.339413151
1293550000.0 0.1934717614 -0.5671143126
1303500000.0 -0.1583204245 -0.6025433841
1313450000.0 -0.4676026232 -0.453613748
1323400000.0 -0.6540182773 -0.1700468735
1333350000.0 -0.6647841925 0.1734845712
1343300000.0 -0.4813231864 0.4799854922
1353250000.0 -0.1445284826 0.637704389
1363200000.0 0.233767306 0.5746251844
1373150000.0 0.5124321114 0.3084806322
1383100000.0 0.597017338 -0.0579875279
1393050000.0 0.481108133 -0.3978068083
1403000000.0 0.2189269695 -0.618355547
1412950000.0 -0.1075779044 -0.6704391103
1422900000.0 -0.4091997254 -0.5468171959
1432850000.0 -0.5984924873 -0.2786370417
1442800000.0 -0.6117070434 0.0562551934
1452750000.0 -0.4360176307 0.3504604061
1462700000.0 -0.1233853761 0.5052464335
1472650000.0 0.2212302805 0.4654203751
1482600000.0 0.4813502469 0.2506905763
1492550000.0 0.5770923338 -0.056237179
1502500000.0 0.4920444852 -0.3502173106
1512450000.0 0.2647231413 -0.5401130041
1522400000.0 -0.0290799017 -0.56610748
1532350000.0 -0.2873032172 -0.413168039
1542300000.0 -0.4091147117 -0.1318337324
1552250000.0 -0.3414426584 0.1684264518
1562200000.0 -0.1136206099 0.3641516976
1572150000.0 0.1714098461 0.3832950882
1582100000.0 0.3959580796 0.2333888301
1592050000.0 0.4748106175 -0.0129269687
1602000000.0 0.3833767518 -0.2506022988
1611950000.0 0.1593936671 -0.3830447594
1621900000.0 -0.1094921192 -0.3501100656
1631850000.0 -0.3100435284 -0.1520281743
1641800000.0 -0.3476973434 0.133845211
1651750000.0 -0.1997132896 0.3820050471
1661700000.0 0.0677239975 0.4820729729
1671650000.0 0.3361706543 0.3968031779
1681600000.0 0.499876539 0.167592867
1691550000.0 0.5015817308 -0.1199062849
1701500000.0 0.336026943 -0.3676401632
1711450000.0 0.0484300634 -0.4864117411
1721400000.0 -0.2702387404 -0.4175230197
1731350000.0 -0.4944534479 -0.1705888515
1741300000.0 -0.5277693162 0.160036326
1751250000.0 -0.3658535829 0.4337279849
1761200000.0 -0.1021365351 0.5608592191
1771150000.0 0.1751758551 0.5528996033
1781100000.0 0.4259083372 0.4077793223
1791050000.0 0.5732482984 0.1430689991
1801000000.0 0.5615708894 -0.1714324365
1810950000.0 0.3770794203 -0.4419132314
1820900000.0 0.0624861061 -0.5693190481
1830850000.0 -0.2731371396 -0.4940234217
1840800000.0 -0.5020623162 -0.2444673676
1850750000.0 -0.5520313218 0.0755055406
1860700000.0 -0.4335683345 0.3538668386
1870650000.0 -0.2066657362 0.5237033524
1880600000.0 0.058993503 0.5583671908
1890550000.0 0.2991869095 0.4592612755
1900500000.0 0.4524891991 0.2526734076
1910450000.0 0.4693831121 -0.005504908
1920400000.0 0.3373111289 -0.2266120656
1930350000.0 0.1114753073 -0.3277315411
1940300000.0 -0.1132736361 -0.2864088874
1950250000.0 -0.2568909742 -0.1484720464
1960200000.0 -0.2923228143 0.011044776
1970150000.0 -0.2440091674 0.1270078608
1980100000.0 -0.1652101738 0.1615075635
1990050000.0 -0.1272683605 0.1219446482
2000000000.0 -0.1869474802 0.079916405
