!Created with skrf (http://scikit-rf.org).
# GHz S RI R 50.0 
!freq ReS11 ImS11
10000000.0 -0.7648778947 0.578941483
19950000.0 -0.2782727746 0.908550117
29900000.0 0.3093403946 0.8873864577
39850000.0 0.7812212356 0.5162500602
49800000.0 0.9437859803 -0.0789576306
59750000.0 0.7043071356 -0.6675629356
69700000.0 0.1355900114 -0.9826342252
79650000.0 -0.5137729446 -0.8482504338
89600000.0 -0.9216760733 -0.2998124524
99550000.0 -0.8584395661 0.4068338903
109500000.0 -0.3113800091 0.9005417573
119450000.0 0.4580035909 0.8611126424
129400000.0 0.9713009192 0.2369970855
139350000.0 0.828225822 -0.5778190752
149300000.0 0.10620924 -0.9814949222
159250000.0 -0.6455475173 -0.6915586423
169200000.0 -0.9204357259 0.0330028087
179150000.0 -0.6043652654 0.700031368
189100000.0 0.0554280402 0.9363750933
199050000.0 0.6684384305 0.6581398372
209000000.0 0.9246205808 0.0542752011
218950000.0 0.731668791 -0.5434594679
228900000.0 0.2162996702 -0.8679367483
238850000.0 -0.3793108037 -0.79442506
248800000.0 -0.6028096385 -0.2651988982
258750000.0 -0.8693555881 0.1805528578
268700000.0 -0.581465797 0.694682028
278650000.0 -0.0471790337 0.9101483429
288600000.0 0.4956449418 0.7401062402
298550000.0 0.8107082493 0.2669723863
308500000.0 0.7637385639 -0.3010335881
318450000.0 0.3722952693 -0.711656813
328400000.0 -0.1868335306 -0.7711903992
338350000.0 -0.6325952728 -0.4447678975
348300000.0 -0.723895148 0.0807009471
358250000.0 -0.4361837718 0.489467576
368200000.0 0.012848173 0.5626541332
378150000.0 0.337221234 0.323410173
388100000.0 0.3860453429 -0.0221235156
398050000.0 0.2058998017 -0.2519572253
408000000.0 -0.0334024354 -0.2704451499
417950000.0 -0.1769233073 -0.1362185908
427900000.0 -0.1742365776 0.0234520223
437850000.0 -0.075935303 0.1080284723
447800000.0 0.0297558531 0.0938679592
457750000.0 0.0795046198 0.0205618356
467700000.0 0.0631364888 -0.0508418379
477650000.0 0.012301035 -0.07569701
487600000.0 -0.0263809836 -0.050997638
497550000.0 0.0150464827 -0.0225806644
507500000.0 -0.0279289652 0.0091454639
517450000.0 0.0129395536 0.0155653546
527400000.0 0.031178445 -0.009403067
537350000.0 0.0132718787 -0.0370014013
547300000.0 -0.0307591652 -0.0403880846
557250000.0 -0.0690721616 -0.0016653672
567200000.0 -0.0720000981 0.0580593987
577150000.0 -0.0297662949 0.1073658382
587100000.0 0.0426655652 0.1143925907
597050000.0 0.1100628227 0.0650561332
607000000.0 0.1335232132 -0.0233994485
616950000.0 0.0946232425 -0.1138249717
626900000.0 0.0079642488 -0.1621402121
636850000.0 -0.0927996626 -0.1462232012
646800000.0 -0.1607718053 -0.0697059547
656750000.0 -0.167874434 0.0335218396
666700000.0 -0.1094770582 0.1189783194
676650000.0 -0.0115274802 0.1470202107
686600000.0 0.0821880997 0.1040573485
696550000.0 0.1260868532 0.0108602776
706500000.0 0.1002234334 -0.0878801635
716450000.0 0.0208723826 -0.1416265009
726400000.0 -0.0686810851 -0.1243140763
736350000.0 -0.1134258775 -0.0471808291
746300000.0 -0.0842302167 0.0425975957
756250000.0 0.0089669911 0.0889242789
766200000.0 0.1157393286 0.0557915392
776150000.0 0.1717952757 -0.0472362761
786100000.0 0.1376442423 -0.1670217132
796050000.0 0.018346298 -0.2318510856
806000000.0 -0.1283831352 -0.1909191713
815950000.0 -0.2212294612 -0.0499505925
825900000.0 -0.2050045534 0.1328513498
835850000.0 -0.072836551 0.2737754668
845800000.0 0.1263522311 0.3054133962
855750000.0 0.3110845574 0.2017374057
865700000.0 0.3979525757 -0.0031082686
875650000.0 0.3354352613 -0.2298534797
885600000.0 0.135181414 -0.3719483033
895550000.0 -0.1236221726 -0.354032998
905500000.0 -0.3225454763 -0.1681135687
915450000.0 -0.3615338575 0.1108928982
925400000.0 -0.2123909789 0.3546336852
935350000.0 0.0585978085 0.4408641295
945300000.0 0.317407286 0.3167878528
955250000.0 0.4233536319 0.0315413261
965200000.0 0.2860084168 -0.2663258
975150000.0 -0.0524498964 -0.3837459625
985100000.0 -0.3897462014 -0.1874872242
995050000.0 -0.4543338076 0.2289499242
1005000000.0 -0.1458782414 0.5671461031
1014950000.0 0.3565983736 0.5267893005
1024900000.0 0.6667224082 0.0646209463
1034850000.0 0.4912058168 -0.5166625515
1044800000.0 -0.1050535737 -0.7589690384
1054750000.0 -0.6801584226 -0.4299283121
1064700000.0 -0.769271888 0.189313394
1074650000.0 -0.4807418783 0.668276667
1084600000.0 0.0784692911 0.794391107
1094550000.0 0.58411383 0.5176233264
1104500000.0 0.7424405205 -0.0563539389
1114450000.0 0.4393708881 -0.5714164062
1124400000.0 -0.1232906305 -0.6915262346
1134350000.0 -0.5586075398 -0.3730377553
1144300000.0 -0.6197939558 0.1221189436
1154250000.0 -0.3381880755 0.4865357242
1164200000.0 0.0893572455 0.5470622988
1174150000.0 0.4275745855 0.3079708894
1184100000.0 0.5035397583 -0.0993689609
1194050000.0 0.2696981155 -0.4328973728
1204000000.0 -0.112991317 -0.5014296634
1213950000.0 -0.4267001351 -0.3082387989
1223900000.0 -0.5440155652 0.0225342438
1233850000.0 -0.4434964963 0.3472508414
1243800000.0 -0.1679788056 0.5476189591
1253750000.0 0.1817074806 0.5381235997
1263700000.0 0.4630480583 0.3090752737
1273650000.0 0.5483577776 -0.0492072794
1283600000.0 0.4051506482 -0.3831221471
1293550000.0 0.1089803136 -0.5652009678
1303500000.0 -0.221937952 -0.5536027708
1313450000.0 -0.4852970483 -0.3735327563
1323400000.0 -0.6177859159 -0.0847979764
1333350000.0 -0.5841651635 0.2378808553
1343300000.0 -0.3755099696 0.5033991936
1353250000.0 -0.0369198236 0.6062852359
1363200000.0 0.3114124167 0.4898328601
1373150000.0 0.5329416776 0.1926581542
1383100000.0 0.5518288811 -0.1688609381
1393050000.0 0.3821837029 -0.4691655186
1403000000.0 0.0968016891 -0.6273259527
1412950000.0 -0.2136546857 -0.6119535819
1422900000.0 -0.4636927061 -0.4366370659
1432850000.0 -0.5868558875 -0.148255269
1442800000.0 -0.5378744917 0.1747935507
1452750000.0 -0.31473453 0.4271942089
1462700000.0 0.0168871894 0.5151415329
1472650000.0 0.3385366764 0.4038120132
1482600000.0 0.5373274136 0.1397715703
1492550000.0 0.5553506683 -0.1780974598
1502500000.0 0.4003119999 -0.443733965
1512450000.0 0.1306981897 -0.5745837887
1522400000.0 -0.1630103023 -0.5294875904
1532350000.0 -0.3809137782 -0.3175513773
1542300000.0 -0.4384831367 -0.0089007751
1552250000.0 -0.303086758 0.279764707
1562200000.0 -0.0283790996 0.4290026927
1572150000.0 0.2674769431 0.385958193
1582100000.0 0.4675588065 0.1835570171
1592050000.0 0.5022200982 -0.089705378
1602000000.0 0.3653069024 -0.3274255149
1611950000.0 0.10657599 -0.4370837331
1621900000.0 -0.1759291048 -0.3674985749
1631850000.0 -0.3659460628 -0.1350321056
1641800000.0 -0.3748442908 0.1693850394
1651750000.0 -0.1949501829 0.4120327916
1661700000.0 0.0910904192 0.4884971695
1671650000.0 0.3577713838 0.3737424596
1681600000.0 0.4926835445 0.1270431659
1691550000.0 0.476807935 -0.1137659359
1701500000.0 0.3416495294 -0.3684365287
1711450000.0 0.0561085971 -0.4900404862
1721400000.0 -0.2586739221 -0.4169390538
1731350000.0 -0.4788556993 -0.1664385049
1741300000.0 -0.5133957109 0.1666208291
1751250000.0 -0.3522815247 0.450418434
1761200000.0 -0.067907971 0.5858189193
1771150000.0 0.2350946558 0.5440424093
1781100000.0 0.4664717581 0.3519738617
1791050000.0 0.5664505226 0.0676657541
1801000000.0 0.5065222266 -0.2327309264
1810950000.0 0.2946556314 -0.4635161448
1820900000.0 -0.0157782171 -0.5408141623
1830850000.0 -0.3215590453 -0.4239404908
1840800000.0 -0.5079963403 -0.1548664573
1850750000.0 -0.5157650699 0.1599168859
1860700000.0 -0.3651730465 0.4141522918
1870650000.0 -0.122061056 0.5463580888
1880600000.0 0.1392225575 0.536449602
1890550000.0 0.3508634761 0.3972466318
1900500000.0 0.4573985731 0.1666774146
1910450000.0 0.426914813 -0.0896555675
1920400000.0 0.2640428761 -0.2875477452
1930350000.0 0.0256351208 -0.3566084052
1940300000.0 -0.1964569714 -0.2827917303
1950250000.0 -0.3271105316 -0.1174873837
1960200000.0 -0.3444663933 0.0659434627
1970150000.0 -0.270383964 0.2034312769
1980100000.0 -0.1531156463 0.2586481687
1990050000.0 -0.0559367875 0.2298941438
2000000000.0 -0.0283078894 0.1595322993
