!Created with skrf (http://scikit-rf.org).
# GHz S RI R 50.0 
!freq ReS11 ImS11
10000000.0 -0.8023555917 0.058175859
14975000.0 -0.8061918033 0.0896373071
19950000.0 -0.8102793862 0.1237065389
24925000.0 -0.8128885624 0.1606440823
29900000.0 -0.8137207493 0.1997556351
34875000.0 -0.8106035963 0.2413324235
39850000.0 -0.8032380971 0.2852370763
44825000.0 -0.7914963851 0.3308057227
49800000.0 -0.775530959 0.3778629733
54775000.0 -0.7551595288 0.4260114075
59750000.0 -0.7303058573 0.4749916604
64725000.0 -0.7013024958 0.5245982177
69700000.0 -0.6678304803 0.5745745335
74675000.0 -0.6295122069 0.6249251198
79650000.0 -0.586251683 0.675799417
84625000.0 -0.5374309546 0.7269433757
89600000.0 -0.4816654672 0.778424807
94575000.0 -0.4175041494 0.8291553087
99550000.0 -0.3430442045 0.8776549387
104525000.0 -0.2565453331 0.9211966375
109500000.0 -0.1572896398 0.9560721852
114475000.0 -0.0454762387 0.9781297042
119450000.0 0.0760799143 0.9837545595
124425000.0 0.2038891168 0.9699962707
129400000.0 0.338836638 0.9255099255
134375000.0 0.4564578295 0.8794138916
139350000.0 0.5740656094 0.8017732648
144325000.0 0.6783822092 0.7053646806
149300000.0 0.7658599625 0.5935482163
154275000.0 0.8336786617 0.4712456726
159250000.0 0.88046322 0.3431711544
164225000.0 0.9057221535 0.2146200835
169200000.0 0.9111375173 0.0900443526
174175000.0 0.8988704269 -0.0267693114
179150000.0 0.8731660118 -0.1329144964
184125000.0 0.8383442295 -0.2272724205
189100000.0 0.7985027958 -0.3103424522
194075000.0 0.7566518758 -0.3834037575
199050000.0 0.7141517632 -0.4479883876
204025000.0 0.6715245658 -0.5059042085
209000000.0 0.6287188856 -0.5584061104
213975000.0 0.5849250196 -0.6060775318
218950000.0 0.5397002488 -0.6494254234
223925000.0 0.4926970718 -0.6885576971
228900000.0 0.4436055858 -0.7233822307
233875000.0 0.3924127844 -0.7538530998
238850000.0 0.3378271395 -0.7800826835
243825000.0 0.2741756416 -0.8022075466
248800000.0 0.1080026186 -0.702606741
253775000.0 0.2267465748 -0.8118253683
258750000.0 0.1644151482 -0.8281841748
263725000.0 0.1124595937 -0.8355116253
268700000.0 0.0644106405 -0.8391546483
273675000.0 0.0188598269 -0.8400385509
278650000.0 -0.0248344432 -0.8387876177
283625000.0 -0.0676245592 -0.8359699321
288600000.0 -0.1105211862 -0.8316888415
293575000.0 -0.1541584055 -0.8254511712
298550000.0 -0.1993850728 -0.8164608224
303525000.0 -0.2461540119 -0.8040897541
308500000.0 -0.2943890946 -0.7865967289
313475000.0 -0.3433035081 -0.7633628488
318450000.0 -0.3915668861 -0.7335334646
323425000.0 -0.438453766 -0.6967188495
328400000.0 -0.4826699902 -0.6533755162
333375000.0 -0.5223054059 -0.6034456432
338350000.0 -0.5565224057 -0.5468123287
343325000.0 -0.5849531177 -0.4856186841
348300000.0 -0.6051721926 -0.4200876411
353275000.0 -0.6161225297 -0.3507243904
358250000.0 -0.6185958926 -0.2805296923
363225000.0 -0.6110806112 -0.211654055
368200000.0 -0.5930407807 -0.144333438
373175000.0 -0.5670153586 -0.0812517027
378150000.0 -0.5341165044 -0.0257254314
383125000.0 -0.4942533126 0.0227159609
388100000.0 -0.4498280002 0.064059787
393075000.0 -0.403245213 0.0961406897
398050000.0 -0.3552021953 0.1199512967
403025000.0 -0.3074003696 0.1378137991
408000000.0 -0.2618457326 0.1483397233
412975000.0 -0.2182258347 0.1507084185
417950000.0 -0.1768009017 0.1487911159
422925000.0 -0.1394954778 0.143670223
427900000.0 -0.1061369721 0.1337795142
432875000.0 -0.076369569 0.1212295903
437850000.0 -0.0517618006 0.1077500039
442825000.0 -0.0315382157 0.0921265469
447800000.0 -0.0140325637 0.0751619307
452775000.0 -0.0007918995 0.0580798782
457750000.0 0.0088807962 0.0413077948
462725000.0 0.0167822632 0.0251806345
467700000.0 0.0214234049 0.0099696941
472675000.0 0.0228239124 -0.00436183
477650000.0 0.0226815322 -0.016798089
482625000.0 0.0205587606 -0.0282695067
487600000.0 0.0153592483 -0.0391831328
492575000.0 0.0037751481 -0.0471174949
497550000.0 -0.0311919466 -0.011348264
502525000.0 0.0342653078 -0.0378881772
507500000.0 0.0209593378 -0.0555846002
512475000.0 0.0112317237 -0.0613514511
517450000.0 0.0028680239 -0.0645279682
522425000.0 -0.0044584828 -0.0664051599
527400000.0 -0.0122047466 -0.0668364391
532375000.0 -0.020078121 -0.0659628755
537350000.0 -0.0272982614 -0.0644479604
542325000.0 -0.0350625879 -0.0626321246
547300000.0 -0.0435034875 -0.0591495897
552275000.0 -0.0501707768 -0.0530833899
557250000.0 -0.0556505325 -0.0467674781
562225000.0 -0.0604541818 -0.0406330531
567200000.0 -0.0647455439 -0.0332598564
572175000.0 -0.0687982748 -0.0246561397
577150000.0 -0.0721966468 -0.0158202228
582125000.0 -0.0746062968 -0.0066643883
587100000.0 -0.0766655501 0.0033779779
592075000.0 -0.0777823712 0.013577013
597050000.0 -0.0774115256 0.0236163784
602025000.0 -0.0765311071 0.0341435346
607000000.0 -0.0754565067 0.0447221152
611975000.0 -0.0726091176 0.0546969561
616950000.0 -0.0691430871 0.0643376264
621925000.0 -0.06499235 0.0727237638
626900000.0 -0.0596709737 0.0805671939
631875000.0 -0.0538177793 0.0884458629
636850000.0 -0.0473821582 0.0946067631
641825000.0 -0.0401258517 0.1001428675
646800000.0 -0.0329852142 0.105540765
651775000.0 -0.0252935558 0.1101537894
656750000.0 -0.016874448 0.1147194372
661725000.0 -0.0090835425 0.1189258107
666700000.0 -0.0012497248 0.1224832704
671675000.0 0.0075551388 0.125504877
676650000.0 0.0167974707 0.1284413157
681625000.0 0.0267783992 0.1306343513
686600000.0 0.0373551565 0.132801142
691575000.0 0.0483845229 0.1343306022
696550000.0 0.059327503 0.1340125428
701525000.0 0.071193544 0.1323684368
706500000.0 0.0840745429 0.1297931853
711475000.0 0.0965757197 0.1254891212
716450000.0 0.1092905454 0.1197391917
721425000.0 0.1220280467 0.1127579107
726400000.0 0.1343424958 0.1042643153
731375000.0 0.1463932499 0.0941666815
736350000.0 0.1581341717 0.0829980517
741325000.0 0.1686692075 0.0706791115
746300000.0 0.1787101304 0.0569256283
751275000.0 0.1875257015 0.0421327293
756250000.0 0.1947234758 0.0265260228
761225000.0 0.2009874799 0.009660651
766200000.0 0.20619304 -0.0071021051
771175000.0 0.2088186533 -0.0245000373
776150000.0 0.2103053506 -0.0425898929
781125000.0 0.2101446138 -0.0614342551
786100000.0 0.2087584191 -0.0806270318
791075000.0 0.2058221823 -0.1001994831
796050000.0 0.201209861 -0.1195349078
801025000.0 0.1949834805 -0.1390687798
806000000.0 0.1871562812 -0.1582904801
810975000.0 0.1780669852 -0.177002072
815950000.0 0.1672971097 -0.195015673
820925000.0 0.1551365192 -0.2125127751
825900000.0 0.1424391207 -0.2286576404
830875000.0 0.1287556608 -0.2433913135
835850000.0 0.1140259799 -0.2569156103
840825000.0 0.0991015255 -0.2695022203
845800000.0 0.0835932482 -0.2808082367
850775000.0 0.0674186751 -0.2909893525
855750000.0 0.0509608645 -0.3009721942
860725000.0 0.0334928268 -0.3100105789
865700000.0 0.015054313 -0.3185821621
870675000.0 -0.0045684775 -0.3265387565
875650000.0 -0.0259654843 -0.3335053813
880625000.0 -0.04874595 -0.3384586366
885600000.0 -0.0726935583 -0.3419020435
890575000.0 -0.0984741074 -0.3430019867
895550000.0 -0.1249409339 -0.3419664464
900525000.0 -0.1515917637 -0.3382469911
905500000.0 -0.1786190143 -0.3312727112
910475000.0 -0.2057043961 -0.3211579539
915450000.0 -0.2323256657 -0.3081633236
920425000.0 -0.2583846745 -0.2917600928
925400000.0 -0.2837791991 -0.2722677509
930375000.0 -0.3078362657 -0.2496618903
935350000.0 -0.3309479438 -0.2239414162
940325000.0 -0.352826099 -0.1949925704
945300000.0 -0.3734857594 -0.1626427956
950275000.0 -0.3927918211 -0.1266357597
955250000.0 -0.4104376838 -0.086636547
960225000.0 -0.4252766073 -0.0419612585
965200000.0 -0.4365632379 0.0073642986
970175000.0 -0.4433797342 0.0619203024
975150000.0 -0.4442605391 0.1208804885
980125000.0 -0.4373089268 0.1840904533
985100000.0 -0.4209531656 0.2506324077
990075000.0 -0.39422279 0.3187854349
995050000.0 -0.3553869084 0.3867215669
1000025000.0 -0.3039310003 0.4523196168
1005000000.0 -0.2400831543 0.5122647581
1009975000.0 -0.1636023576 0.563452161
1014950000.0 -0.0750047926 0.6023056508
1019925000.0 0.022701478 0.6254935838
1024900000.0 0.126225339 0.6301913507
1029875000.0 0.2314731849 0.6145722088
1034850000.0 0.3329580045 0.5784008871
1039825000.0 0.426405087 0.522889947
1044800000.0 0.5083646685 0.4501067679
1049775000.0 0.5764923741 0.3625943197
1054750000.0 0.6273630374 0.2621190464
1059725000.0 0.6529987938 0.1518906082
1064700000.0 0.6424535431 0.0625272686
1069675000.0 0.6593642105 0.0083927788
1074650000.0 0.6858521497 -0.0848151006
1079625000.0 0.6844988451 -0.1916127276
1084600000.0 0.6594532315 -0.2954436624
1089575000.0 0.6152278931 -0.3874648091
1094550000.0 0.5618313378 -0.4698521402
1099525000.0 0.4962235675 -0.5420090736
1104500000.0 0.4217166657 -0.6004836445
1109475000.0 0.3420931513 -0.6456938016
1114450000.0 0.259692783 -0.6780212554
1119425000.0 0.1769554345 -0.6983242849
1124400000.0 0.0947455942 -0.7076733812
1129375000.0 0.0140916078 -0.7069061634
1134350000.0 -0.0644836687 -0.6965195149
1139325000.0 -0.1397750518 -0.6765503463
1144300000.0 -0.2109851447 -0.6477257444
1149275000.0 -0.276750019 -0.6107136948
1154250000.0 -0.3358178429 -0.5667334863
1159225000.0 -0.3868431153 -0.5172226251
1164200000.0 -0.4295566007 -0.4638451901
1169175000.0 -0.4633777726 -0.4102006824
1174150000.0 -0.4906280964 -0.3572529922
1179125000.0 -0.5141031773 -0.3057741102
1184100000.0 -0.5334119258 -0.2533962068
1189075000.0 -0.5482049303 -0.200626787
1194050000.0 -0.5573910082 -0.1491728989
1199025000.0 -0.5618265968 -0.0993501257
1204000000.0 -0.5619744746 -0.0517953131
1208975000.0 -0.5583729882 -0.0072817971
1213950000.0 -0.5519171501 0.0344114462
1218925000.0 -0.5434394277 0.0718495254
1223900000.0 -0.5339352016 0.1062702867
1228875000.0 -0.5236628039 0.1381065852
1233850000.0 -0.5140220337 0.1664284234
1238825000.0 -0.5040352534 0.1930759812
1243800000.0 -0.4945014088 0.2186623522
1248775000.0 -0.4849287443 0.2429043092
1253750000.0 -0.4745822307 0.2661643794
1258725000.0 -0.464219029 0.2891023918
1263700000.0 -0.4533271815 0.3110124503
1268675000.0 -0.4414816881 0.3318496296
1273650000.0 -0.4293182491 0.3511516047
1278625000.0 -0.4165253013 0.368593862
1283600000.0 -0.4029869141 0.3854136257
1288575000.0 -0.3891738613 0.3993244042
1293550000.0 -0.3749295475 0.4116405331
1298525000.0 -0.3602410322 0.4224336363
1303500000.0 -0.3466449485 0.4307138519
1308475000.0 -0.3329691065 0.4365617125
1313450000.0 -0.3211568304 0.4405712681
1318425000.0 -0.3115758676 0.4426058047
1323400000.0 -0.3045174674 0.4434903541
1328375000.0 -0.300167216 0.4444645145
1333350000.0 -0.2989416216 0.4465024607
1338325000.0 -0.2994754886 0.4506124339
1343300000.0 -0.3007533377 0.4573561712
1348275000.0 -0.3009266727 0.4665092823
1353250000.0 -0.2992901518 0.4776052753
1358225000.0 -0.295956415 0.4897201206
1363200000.0 -0.2898227474 0.5018966536
1368175000.0 -0.2814864172 0.51389084
1373150000.0 -0.2715909373 0.5251315198
1378125000.0 -0.2604182684 0.5351102905
1383100000.0 -0.2476846262 0.5436994015
1388075000.0 -0.2341598843 0.5506297755
1393050000.0 -0.2203283764 0.5555184957
1398025000.0 -0.2063325009 0.5586419604
1403000000.0 -0.1925866113 0.5598922596
1407975000.0 -0.1792572273 0.5589613985
1412950000.0 -0.1675470498 0.5553745926
1417925000.0 -0.1579994412 0.5507746016
1422900000.0 -0.151403468 0.5449734151
1427875000.0 -0.1483267561 0.5389545599
1432850000.0 -0.1489854487 0.5332142878
1437825000.0 -0.1526256833 0.530217449
1442800000.0 -0.1572002995 0.530474603
1447775000.0 -0.1608525047 0.5330136011
1452750000.0 -0.163226421 0.5381765485
1457725000.0 -0.1632668626 0.5459053441
1462700000.0 -0.1591664238 0.5537430122
1467675000.0 -0.1521747631 0.5616394336
1472650000.0 -0.1435133699 0.5697244586
1477625000.0 -0.1323142598 0.5765104658
1482600000.0 -0.118321405 0.5822137432
1487575000.0 -0.1044747578 0.586741606
1492550000.0 -0.0897634595 0.5890743605
1497525000.0 -0.0726507978 0.590551406
1502500000.0 -0.0563413095 0.5916853424
1507475000.0 -0.0402084646 0.5908529189
1512450000.0 -0.0243523482 0.5900211329
1517425000.0 -0.0093250272 0.5883391906
1522400000.0 0.004260237 0.5855900047
1527375000.0 0.0167193934 0.5827604736
1532350000.0 0.0272972332 0.579719042
1537325000.0 0.0377100497 0.5763985133
1542300000.0 0.0479434962 0.5739438967
1547275000.0 0.0581109343 0.5708043982
1552250000.0 0.0698739308 0.5678822614
1557225000.0 0.0822813669 0.5649598907
1562200000.0 0.0952023929 0.5604685786
1567175000.0 0.1094992955 0.5549276054
1572150000.0 0.123959172 0.5486861388
1577125000.0 0.1387672805 0.5410241375
1582100000.0 0.1551508021 0.5327303209
1587075000.0 0.1705022581 0.5239082423
1592050000.0 0.1862260088 0.5136606023
1597025000.0 0.202788645 0.5041734219
1602000000.0 0.2195832654 0.494147084
1606975000.0 0.2354933299 0.4836595089
1611950000.0 0.251542525 0.473290986
1616925000.0 0.267775577 0.4629336106
1621900000.0 0.2839134459 0.4517003214
1626875000.0 0.2987669644 0.4405343848
1631850000.0 0.313685156 0.4286448238
1636825000.0 0.3287841311 0.4171665645
1641800000.0 0.3426492062 0.4046625045
1646775000.0 0.3556031102 0.3910186483
1651750000.0 0.3691567726 0.3780922792
1656725000.0 0.3813763287 0.3645626427
1661700000.0 0.3931104508 0.3495242308
1666675000.0 0.4040805923 0.3352746607
1671650000.0 0.4138985513 0.3208581527
1676625000.0 0.4231951848 0.3050102273
1681600000.0 0.4310341235 0.2896856142
1686575000.0 0.4372221153 0.2737467911
1691550000.0 0.442118869 0.2570976913
1696525000.0 0.4452937458 0.2405124443
1701500000.0 0.4457888362 0.2235065172
1706475000.0 0.4421562317 0.206467447
1711450000.0 0.4320513473 0.1922736475
1716425000.0 0.4177659335 0.1897216859
1721400000.0 0.4159433992 0.2010026605
1726375000.0 0.430095193 0.2034063143
1731350000.0 0.4438212253 0.1944128028
1736325000.0 0.4539491206 0.1822374565
1741300000.0 0.4616283027 0.1688966636
1746275000.0 0.4696523517 0.1562525097
1751250000.0 0.477428791 0.1439828892
1756225000.0 0.4847609962 0.1311701066
1761200000.0 0.4912821128 0.1184038923
1766175000.0 0.4964271302 0.106041519
1771150000.0 0.5008168421 0.094044301
1776125000.0 0.5042416154 0.0827482552
1781100000.0 0.5049118009 0.0716467242
1786075000.0 0.5045487704 0.0619131763
1791050000.0 0.5027846716 0.0535798098
1796025000.0 0.4989022665 0.0460083774
1801000000.0 0.4941445585 0.0401008198
1805975000.0 0.4882836924 0.036293713
1810950000.0 0.4824114819 0.0338636184
1815925000.0 0.4781658945 0.0326808784
1820900000.0 0.4746087422 0.0326437289
1825875000.0 0.4742773542 0.0326670008
1830850000.0 0.4753319768 0.0320288257
1835825000.0 0.4783072763 0.0303649695
1840800000.0 0.4819149382 0.0270434295
1845775000.0 0.4856620932 0.0231199503
1850750000.0 0.4891203468 0.0177575497
1855725000.0 0.490910026 0.0107115743
1860700000.0 0.490719402 0.0040097683
1865675000.0 0.4894875288 -0.0029004898
1870650000.0 0.4860143 -0.010438343
1875625000.0 0.4804365324 -0.0171598307
1880600000.0 0.4729648329 -0.0239734493
1885575000.0 0.4632434764 -0.0296938536
1890550000.0 0.4516702327 -0.0346364932
1895525000.0 0.43867723 -0.0386234113
1900500000.0 0.4245965715 -0.0404859504
1905475000.0 0.4103148401 -0.0407871787
1910450000.0 0.3968747218 -0.03994854
1915425000.0 0.3855957117 -0.0366917286
1920400000.0 0.3767947636 -0.0336422568
1925375000.0 0.3703220792 -0.0305390084
1930350000.0 0.3658106503 -0.0279835137
1935325000.0 0.3618385855 -0.0274085795
1940300000.0 0.3573835872 -0.0280929132
1945275000.0 0.3521878834 -0.0295836583
1950250000.0 0.3453257589 -0.0317167204
1955225000.0 0.3365072796 -0.0342415909
1960200000.0 0.3255069987 -0.0373350875
1965175000.0 0.3126944791 -0.0390641685
1970150000.0 0.297733302 -0.0410620082
1975125000.0 0.2800915886 -0.0432478748
1980100000.0 0.2605599474 -0.0447062494
1985075000.0 0.2393126826 -0.0452860411
1990050000.0 0.2155204355 -0.0465110393
1995025000.0 0.1892820011 -0.0462632323
2000000000.0 0.1608118709 -0.0452340536
