!Created with skrf (http://scikit-rf.org).
# GHz S RI R 50.0 
!freq ReS11 ImS11
10000000.0 -0.9989600935 0.1617547932
19950000.0 -0.945173587 0.3092488789
29900000.0 -0.8693679795 0.4509600018
39850000.0 -0.7702420255 0.5912370071
49800000.0 -0.6494065939 0.7247400091
59750000.0 -0.5007867877 0.8449731708
69700000.0 -0.3170755361 0.9393529065
79650000.0 -0.0932085766 0.9882894511
89600000.0 0.1684019148 0.97084973
99550000.0 0.4515516274 0.8639886306
109500000.0 0.7256379026 0.650701995
119450000.0 0.9363369772 0.3207260821
129400000.0 1.001775467 -0.1137324778
139350000.0 0.8876834396 -0.5093696913
149300000.0 0.5985380718 -0.819060272
159250000.0 0.2329107668 -0.966814885
169200000.0 -0.1203753006 -0.9737162523
179150000.0 -0.4174574854 -0.886073918
189100000.0 -0.644895508 -0.7436771139
199050000.0 -0.802035272 -0.5735890822
209000000.0 -0.8936851959 -0.3923383159
218950000.0 -0.9371995644 -0.2127186616
228900000.0 -0.9437513705 -0.0411789105
238850000.0 -0.9246392641 0.1216983995
248800000.0 -0.8841955714 0.2708755402
258750000.0 -0.8384761122 0.4077490162
268700000.0 -0.769131546 0.5377602223
278650000.0 -0.6768194314 0.6473450894
288600000.0 -0.5602216689 0.7341480956
298550000.0 -0.4216540924 0.7956684839
308500000.0 -0.2644759752 0.8327764537
318450000.0 -0.0925276672 0.8410892905
328400000.0 0.0879838361 0.8131742268
338350000.0 0.2605278555 0.7370492238
348300000.0 0.402623179 0.6047217462
358250000.0 0.4843285223 0.4236643798
368200000.0 0.4884667042 0.2238984617
378150000.0 0.4201706042 0.0445194593
388100000.0 0.3049190874 -0.0849484261
398050000.0 0.1751846555 -0.1520315292
408000000.0 0.0596296735 -0.1608852963
417950000.0 -0.0283954992 -0.127605673
427900000.0 -0.0859280092 -0.0712468866
437850000.0 -0.1172248206 -0.0076561961
447800000.0 -0.1289987208 0.0504186919
457750000.0 -0.1260497732 0.0966238869
467700000.0 -0.1111152731 0.1267860414
477650000.0 -0.0875765132 0.1397443145
487600000.0 -0.0581822269 0.1378039022
497550000.0 -0.0286931765 0.1242526815
507500000.0 0.0019040901 0.1123819038
517450000.0 0.0262862553 0.0919659309
527400000.0 0.0395340854 0.070751767
537350000.0 0.0386173196 0.0497431189
547300000.0 0.0251345776 0.0317958063
557250000.0 0.002434479 0.0136770442
567200000.0 -0.0237636816 -0.0053358558
577150000.0 -0.0531907623 -0.0196263731
587100000.0 -0.0799026291 -0.0274679032
597050000.0 -0.1010517437 -0.0262315922
607000000.0 -0.1169124729 -0.0140570914
616950000.0 -0.1281928259 0.0076415502
626900000.0 -0.1357687738 0.0373031768
636850000.0 -0.1397061135 0.0698438124
646800000.0 -0.1393799456 0.1013686829
656750000.0 -0.133448422 0.1275907887
666700000.0 -0.1198099458 0.1462658295
676650000.0 -0.0968792924 0.1569912884
686600000.0 -0.0647302448 0.1604658493
696550000.0 -0.0253459341 0.1584339749
706500000.0 0.0167259924 0.1509443814
716450000.0 0.056878186 0.1382449074
726400000.0 0.0901369794 0.1179615425
736350000.0 0.1132805179 0.087798398
746300000.0 0.1238432164 0.0471318922
756250000.0 0.1222141836 -0.0035569521
766200000.0 0.1084461548 -0.0613651914
776150000.0 0.0851754628 -0.119407756
786100000.0 0.0516164925 -0.1723309482
796050000.0 0.0079814267 -0.213820165
806000000.0 -0.0445136857 -0.237809255
815950000.0 -0.1065616154 -0.2416513371
825900000.0 -0.1746500882 -0.2262936267
835850000.0 -0.2453748489 -0.1948555051
845800000.0 -0.3129682666 -0.1507040533
855750000.0 -0.3715613278 -0.0965695754
865700000.0 -0.4137263966 -0.0338207101
875650000.0 -0.4358008359 0.0366759348
885600000.0 -0.4333398086 0.1144648206
895550000.0 -0.4075426088 0.1974504741
905500000.0 -0.3600183866 0.2836422119
915450000.0 -0.2926300623 0.3676982628
925400000.0 -0.2052476419 0.441472632
935350000.0 -0.0956250063 0.4942111307
945300000.0 0.0339177688 0.5090968708
955250000.0 0.1472937102 0.4576672676
965200000.0 0.1876004663 0.3311742723
975150000.0 0.2694496845 0.2774684951
985100000.0 0.3962697374 0.2165900876
995050000.0 0.5000409598 0.0667265735
1005000000.0 0.5365365086 -0.14204028
1014950000.0 0.4773418422 -0.3767947653
1024900000.0 0.2961206539 -0.5890769541
1034850000.0 0.0072664548 -0.7130805631
1044800000.0 -0.3317223602 -0.6994814831
1054750000.0 -0.6407228541 -0.5357024214
1064700000.0 -0.8362781306 -0.25306774
1074650000.0 -0.8881504388 0.0695094091
1084600000.0 -0.7964397124 0.3766210199
1094550000.0 -0.5981893969 0.6161622136
1104500000.0 -0.3408817815 0.768718631
1114450000.0 -0.0590775066 0.8262041536
1124400000.0 0.2115892064 0.7846517285
1134350000.0 0.4343737328 0.654925307
1144300000.0 0.5873289018 0.4616870411
1154250000.0 0.6642687031 0.2404951061
1164200000.0 0.6753293846 0.0211285602
1174150000.0 0.6406981496 -0.1769675309
1184100000.0 0.5632935304 -0.3469733489
1194050000.0 0.4545323421 -0.476273117
1204000000.0 0.3273419057 -0.5612288154
1213950000.0 0.190216057 -0.6071738731
1223900000.0 0.0536151647 -0.6220889971
1233850000.0 -0.075700696 -0.6163613293
1243800000.0 -0.192831034 -0.5965072201
1253750000.0 -0.2964425207 -0.5659509535
1263700000.0 -0.3838198208 -0.5238406696
1273650000.0 -0.4554582055 -0.4715022755
1283600000.0 -0.5100208116 -0.4075191819
1293550000.0 -0.5510662018 -0.3341887488
1303500000.0 -0.5835923844 -0.2555454869
1313450000.0 -0.610329952 -0.1763165884
1323400000.0 -0.6336221769 -0.0992858135
1333350000.0 -0.6516284752 -0.0258726457
1343300000.0 -0.6617378909 0.0439139139
1353250000.0 -0.6604824619 0.1087808591
1363200000.0 -0.6450289479 0.1711680716
1373150000.0 -0.6142755505 0.2323295478
1383100000.0 -0.5737938606 0.2926805595
1393050000.0 -0.527639332 0.3530008276
1403000000.0 -0.4800356739 0.4110156361
1412950000.0 -0.4314550745 0.4649109899
1422900000.0 -0.3821893228 0.5114744185
1432850000.0 -0.3304004381 0.5470763819
1442800000.0 -0.2736893597 0.5715123866
1452750000.0 -0.2101304301 0.5849638085
1462700000.0 -0.1379727824 0.5900124802
1472650000.0 -0.0587980849 0.5884217017
1482600000.0 0.0234065353 0.5829337369
1492550000.0 0.104854365 0.5717406895
1502500000.0 0.1833318896 0.5523533118
1512450000.0 0.2554499966 0.5205599077
1522400000.0 0.318398278 0.473667931
1532350000.0 0.3719560406 0.409531253
1542300000.0 0.4160276836 0.3306654898
1552250000.0 0.4505935229 0.2414335684
1562200000.0 0.4791838494 0.1502870007
1572150000.0 0.5024303269 0.0574391964
1582100000.0 0.5130353262 -0.0371946133
1592050000.0 0.505503948 -0.1285419532
1602000000.0 0.4761971079 -0.214577146
1611950000.0 0.4263298036 -0.292603729
1621900000.0 0.3604860148 -0.3634777321
1631850000.0 0.2845584555 -0.427344627
1641800000.0 0.2045492432 -0.4837887781
1651750000.0 0.1231950939 -0.5299125104
1661700000.0 0.0425673612 -0.5629216078
1671650000.0 -0.0368098582 -0.5790199207
1681600000.0 -0.1143461513 -0.5770765323
1691550000.0 -0.1904333869 -0.5590409364
1701500000.0 -0.2650990687 -0.5291798809
1711450000.0 -0.3377142851 -0.4932656285
1721400000.0 -0.4070447229 -0.4542257574
1731350000.0 -0.4704132238 -0.4147494415
1741300000.0 -0.524559746 -0.3732033662
1751250000.0 -0.5661243597 -0.3268019912
1761200000.0 -0.5937623027 -0.2752694849
1771150000.0 -0.6094924221 -0.2182098991
1781100000.0 -0.6181140515 -0.1572059394
1791050000.0 -0.6242330913 -0.0956660842
1801000000.0 -0.6304622706 -0.0357948198
1810950000.0 -0.6381662315 0.0212741596
1820900000.0 -0.643604209 0.0735338289
1830850000.0 -0.643352617 0.1207895665
1840800000.0 -0.632123508 0.1640053936
1850750000.0 -0.6087031815 0.2038989024
1860700000.0 -0.5736042115 0.2412418065
1870650000.0 -0.5328205559 0.2778877312
1880600000.0 -0.4905980077 0.3121029101
1890550000.0 -0.4518578335 0.3437003305
1900500000.0 -0.4170962178 0.3712600403
1910450000.0 -0.3857220093 0.3905281359
1920400000.0 -0.3531523656 0.3998427797
1930350000.0 -0.3178864109 0.3996855959
1940300000.0 -0.2770409883 0.3899270108
1950250000.0 -0.2317189782 0.3719199154
1960200000.0 -0.18424112 0.3503547195
1970150000.0 -0.1408839356 0.3252405782
1980100000.0 -0.1054654374 0.2967926476
1990050000.0 -0.0823027735 0.2626538811
2000000000.0 -0.0747679884 0.2191674239
