!Created with skrf (http://scikit-rf.org).
# GHz S RI R 50.0 
!freq ReS11 ImS11
10000000.0 -0.7746896832 0.6773689425
19950000.0 -0.14416183 0.9899524589
29900000.0 0.5309071926 0.8209177369
39850000.0 0.9392356857 0.2518963255
49800000.0 0.8746090441 -0.4587174584
59750000.0 0.3345438269 -0.9576164334
69700000.0 -0.4267114215 -0.9419337564
79650000.0 -0.9626629744 -0.3667991316
89600000.0 -0.9017532717 0.4386446519
99550000.0 -0.2422916483 0.9390289404
109500000.0 0.590316127 0.7526935259
119450000.0 0.9746917253 -0.0472630576
129400000.0 0.5315404347 -0.8572788973
139350000.0 -0.4049336875 -0.9349494177
149300000.0 -0.9721030343 -0.1988001889
159250000.0 -0.6988406849 0.6499462622
169200000.0 0.1005327521 0.9340712915
179150000.0 0.8003681067 0.5218344575
189100000.0 0.9539705226 -0.2495362476
199050000.0 0.5055239956 -0.8690196881
209000000.0 -0.2306772303 -0.9718929131
218950000.0 -0.8056026224 -0.5429259315
228900000.0 -0.9301339034 0.1420620602
238850000.0 -0.5756496022 0.7230441995
248800000.0 0.0570419522 0.9042329408
258750000.0 0.6773941474 0.6666055032
268700000.0 0.9706326149 0.0640577712
278650000.0 0.7872433262 -0.5802531233
288600000.0 0.221411406 -0.9317625395
298550000.0 -0.4253302924 -0.813148277
308500000.0 -0.819623331 -0.2971732066
318450000.0 -0.7608083995 0.3412915605
328400000.0 -0.2836630108 0.7566830416
338350000.0 0.3326758291 0.7103000373
348300000.0 0.6980628591 0.2467277505
358250000.0 0.5941060618 -0.2880017615
368200000.0 0.1683876411 -0.5174012674
378150000.0 -0.2102213484 -0.3559955843
388100000.0 -0.2942125443 -0.0289956438
398050000.0 -0.123702561 0.1762788393
408000000.0 0.0809214186 0.1511460676
417950000.0 0.1419902599 0.0025757454
427900000.0 0.0546708393 -0.1008239765
437850000.0 -0.0686327236 -0.0772510649
447800000.0 -0.1161157597 0.0351840304
457750000.0 -0.0555051358 0.1400681356
467700000.0 0.0620768872 0.1600190125
477650000.0 0.1527671128 0.087609017
487600000.0 0.161955983 -0.0240702066
497550000.0 0.0959846572 -0.1016321452
507500000.0 -0.0010945817 -0.1167025449
517450000.0 -0.0683060622 -0.0663547198
527400000.0 -0.0794251448 0.0015197371
537350000.0 -0.0474564794 0.0428419525
547300000.0 -0.0107820503 0.042539695
557250000.0 -0.0006035092 0.0182833673
567200000.0 -0.0203096649 0.0066284729
577150000.0 -0.0419288341 0.0268980052
587100000.0 -0.0318997638 0.0675533422
597050000.0 0.0198186068 0.0916165618
607000000.0 0.0879330908 0.0649915454
616950000.0 0.1258426002 -0.0148598989
626900000.0 0.0980724725 -0.1127227926
636850000.0 0.0037767704 -0.1739031782
646800000.0 -0.1144962236 -0.1557930796
656750000.0 -0.1936094166 -0.0584960299
666700000.0 -0.1842003073 0.0711067566
676650000.0 -0.0845850723 0.1612541487
686600000.0 0.0539315337 0.1554313248
696550000.0 0.1412345204 0.0477173133
706500000.0 0.1444565712 -0.0594533335
716450000.0 0.075583346 -0.1599432331
726400000.0 -0.043936625 -0.1779633623
736350000.0 -0.133307423 -0.1041365948
746300000.0 -0.1349326237 0.0077342176
756250000.0 -0.0477158596 0.079283429
766200000.0 0.0648605966 0.0558927547
776150000.0 0.1186586482 -0.0515352991
786100000.0 0.0664867718 -0.1649399165
796050000.0 -0.0600348194 -0.202345776
806000000.0 -0.1860243073 -0.1213307384
815950000.0 -0.2096800344 0.0475131897
825900000.0 -0.0882027881 0.1961275551
835850000.0 0.1234886899 0.2145028133
845800000.0 0.3018277694 0.0677926696
855750000.0 0.3303096618 -0.1777799496
865700000.0 0.1720197527 -0.3875075093
875650000.0 -0.1022444125 -0.4321758681
885600000.0 -0.3450127602 -0.26583011
895550000.0 -0.4091033268 0.0381002904
905500000.0 -0.2375434863 0.3160326567
915450000.0 0.0918122164 0.4005708798
925400000.0 0.3944597174 0.2257078274
935350000.0 0.4878929995 -0.1193765073
945300000.0 0.3030432855 -0.4337672969
955250000.0 -0.0622720124 -0.519243741
965200000.0 -0.3862521717 -0.2998324572
975150000.0 -0.4378023651 0.1121942135
985100000.0 -0.1294924867 0.43446047
995050000.0 0.3483674728 0.3758227702
1005000000.0 0.5887775663 -0.083188516
1014950000.0 0.3232576891 -0.5750381398
1024900000.0 -0.2824749217 -0.6343586096
1034850000.0 -0.7103385312 -0.118920986
1044800000.0 -0.4946290135 0.5882220539
1054750000.0 0.27391912 0.7953825194
1064700000.0 0.8627465152 0.2405406823
1074650000.0 0.7376454869 -0.5281137931
1084600000.0 0.0812978074 -0.8460801884
1094550000.0 -0.5252174207 -0.6481232496
1104500000.0 -0.8064721789 -0.0101910521
1114450000.0 -0.4895243608 0.6092152463
1124400000.0 0.1822006205 0.7414866938
1134350000.0 0.6720862132 0.3138117241
1144300000.0 0.6494354496 -0.2848097012
1154250000.0 0.2244973408 -0.6315023623
1164200000.0 -0.2808399231 -0.56641491
1174150000.0 -0.5757621792 -0.1794835256
1184100000.0 -0.5056992806 0.2992842159
1194050000.0 -0.0992550371 0.5708219697
1204000000.0 0.3653013271 0.4464558717
1213950000.0 0.5771010262 0.0356134545
1223900000.0 0.4422574255 -0.3835739951
1233850000.0 0.0764558597 -0.5929415261
1243800000.0 -0.3289103522 -0.5135980747
1253750000.0 -0.5884340759 -0.1886626238
1263700000.0 -0.5705256245 0.2369673583
1273650000.0 -0.2639645301 0.5486544335
1283600000.0 0.1769155774 0.570579532
1293550000.0 0.5151805022 0.2942893324
1303500000.0 0.5927091772 -0.1234088194
1313450000.0 0.4001467284 -0.4861422891
1323400000.0 0.0371491063 -0.6564575793
1333350000.0 -0.3555795349 -0.5782957577
1343300000.0 -0.6286973288 -0.2744971758
1353250000.0 -0.6580127124 0.1457272271
1363200000.0 -0.4064298145 0.4995845908
1373150000.0 0.021278372 0.6094306635
1383100000.0 0.4167249896 0.4204498138
1393050000.0 0.6007798633 0.0374770515
1403000000.0 0.5173044695 -0.3617923064
1412950000.0 0.222888631 -0.6254628688
1422900000.0 -0.1636567065 -0.666925188
1432850000.0 -0.4992879754 -0.4732019189
1442800000.0 -0.6508513833 -0.1100819389
1452750000.0 -0.541949428 0.2769505954
1462700000.0 -0.2073724294 0.5115831299
1472650000.0 0.197697242 0.4785639792
1482600000.0 0.4815564137 0.1984533184
1492550000.0 0.5229399484 -0.1861199859
1502500000.0 0.3239797721 -0.499547565
1512450000.0 -0.0149472781 -0.6174680318
1522400000.0 -0.3476752581 -0.497550387
1532350000.0 -0.5305944248 -0.1948484151
1542300000.0 -0.4766556858 0.1555770806
1552250000.0 -0.2030802952 0.3831854848
1562200000.0 0.1532306166 0.3679544964
1572150000.0 0.4023919013 0.1211614945
1582100000.0 0.4167157068 -0.215808717
1592050000.0 0.2029404322 -0.4642706984
1602000000.0 -0.1175728134 -0.5067710471
1611950000.0 -0.3841010804 -0.3282373946
1621900000.0 -0.464203376 -0.0149390429
1631850000.0 -0.3099567366 0.2833375532
1641800000.0 0.0131108127 0.4083784843
1651750000.0 0.3409895785 0.2787690091
1661700000.0 0.4910585609 -0.0472877259
1671650000.0 0.3803689412 -0.3921261871
1681600000.0 0.0730364621 -0.5764612911
1691550000.0 -0.2786725696 -0.517635218
1701500000.0 -0.5187162884 -0.2472915887
1711450000.0 -0.5460105026 0.1222283955
1721400000.0 -0.3330204018 0.4402554911
1731350000.0 0.046605505 0.5551716026
1741300000.0 0.4245239567 0.3933021133
1751250000.0 0.6097168555 0.0217956168
1761200000.0 0.5137333191 -0.3745307401
1771150000.0 0.1980030906 -0.6157066928
1781100000.0 -0.1883787418 -0.6200075191
1791050000.0 -0.500424126 -0.4076252239
1801000000.0 -0.635945408 -0.0575278066
1810950000.0 -0.5442140543 0.3142447068
1820900000.0 -0.2404645227 0.5698766029
1830850000.0 0.1683472733 0.5865642053
1840800000.0 0.498390485 0.3378381738
1850750000.0 0.5917619959 -0.0595675818
1860700000.0 0.4252742832 -0.414245601
1870650000.0 0.1005169787 -0.5903422409
1880600000.0 -0.2449066709 -0.5525049779
1890550000.0 -0.500662253 -0.3389726866
1900500000.0 -0.5946723528 -0.0267841694
1910450000.0 -0.4977183809 0.2819547424
1920400000.0 -0.2379138919 0.4723121997
1930350000.0 0.0810374725 0.4620192408
1940300000.0 0.3155519992 0.2609110799
1950250000.0 0.3695526705 -0.022254001
1960200000.0 0.2509119938 -0.2549785437
1970150000.0 0.0424991143 -0.3600525425
1980100000.0 -0.1584553247 -0.3310867279
1990050000.0 -0.2837668716 -0.2126542368
2000000000.0 -0.3090460698 -0.0758200494
