!Created with skrf (http://scikit-rf.org).
# GHz S RI R 50.0 
!freq ReS11 ImS11
10000000.0 0.9589513227 0.2350604624
14975000.0 0.9039232375 0.3516784304
19950000.0 0.8222953365 0.4611646673
24925000.0 0.7108908626 0.5558049969
29900000.0 0.5687794351 0.6231869577
34875000.0 0.4009687054 0.6488364224
39850000.0 0.2202220591 0.612976592
44825000.0 0.0556520976 0.5015404254
49800000.0 -0.0494725383 0.3181877909
54775000.0 -0.0546859816 0.0991033192
59750000.0 0.0500076971 -0.0942155995
64725000.0 0.2297170438 -0.2083554088
69700000.0 0.4300397311 -0.2260285842
74675000.0 0.606579234 -0.1636030211
79650000.0 0.73764362 -0.0496081807
84625000.0 0.8191164745 0.090802943
89600000.0 0.8548386829 0.2392102423
94575000.0 0.8516384477 0.3848669907
99550000.0 0.8161305201 0.5210726148
104525000.0 0.7535714968 0.6438446305
109500000.0 0.668124911 0.7502651802
114475000.0 0.5629118925 0.8376581935
119450000.0 0.4411387438 0.9031816548
124425000.0 0.3060889526 0.943750374
129400000.0 0.1618513524 0.9552912948
134375000.0 0.0138484917 0.9335786189
139350000.0 -0.1298464568 0.8745580326
144325000.0 -0.2578018563 0.7750285626
149300000.0 -0.3546482352 0.6355606908
154275000.0 -0.4017190291 0.4641877291
159250000.0 -0.3813159107 0.2803556319
164225000.0 -0.2854703511 0.1148703784
169200000.0 -0.1247862776 0.0045237821
174175000.0 0.0688335375 -0.024018729
179150000.0 0.252678979 0.0351402422
184125000.0 0.3904206489 0.1630173545
189100000.0 0.4631393031 0.3290534416
194075000.0 0.4698973467 0.5024640952
199050000.0 0.4206121637 0.661956231
204025000.0 0.3289764344 0.7940672671
209000000.0 0.2081563133 0.8932635105
213975000.0 0.0690993544 0.9572319995
218950000.0 -0.0789483959 0.9861507967
223925000.0 -0.2288386521 0.9812248349
228900000.0 -0.3739458055 0.9437167822
233875000.0 -0.5082288531 0.8753907348
238850000.0 -0.6256635481 0.7783895205
243825000.0 -0.7194403136 0.6554971887
248800000.0 -0.782326335 0.511006116
253775000.0 -0.8067896986 0.3515094356
258750000.0 -0.7858529877 0.1876626567
263725000.0 -0.7148767625 0.033622162
268700000.0 -0.5947344564 -0.0915722355
273675000.0 -0.434449041 -0.1676267897
278650000.0 -0.254426332 -0.1775969986
283625000.0 -0.0840503074 -0.1146819444
288600000.0 0.0454572164 0.0126646216
293575000.0 0.1102072136 0.1809202418
298550000.0 0.1017584519 0.3581911219
303525000.0 0.0268411559 0.5156168343
308500000.0 -0.0980505134 0.6330736196
313475000.0 -0.2521147058 0.7003763518
318450000.0 -0.4168130362 0.7162875762
323425000.0 -0.576874515 0.6848479348
328400000.0 -0.721365604 0.6128370018
333375000.0 -0.8423503893 0.5077487735
338350000.0 -0.9340940472 0.3775259399
343325000.0 -0.9929914147 0.229755075
348300000.0 -1.016086189 0.0719416547
353275000.0 -1.001540463 -0.0876262665
358250000.0 -0.9485745344 -0.2402129383
363225000.0 -0.8577925524 -0.3759136993
368200000.0 -0.7331038571 -0.484036526
373175000.0 -0.581334177 -0.5536459271
378150000.0 -0.4134379151 -0.5752697016
383125000.0 -0.2461763166 -0.541609565
388100000.0 -0.0993234486 -0.4525711824
393075000.0 0.0059623896 -0.3163269685
398050000.0 0.0510880937 -0.1509877648
403025000.0 0.0285126668 0.0178467688
408000000.0 -0.058541127 0.1629384862
412975000.0 -0.1944216487 0.2617820117
417950000.0 -0.3570929289 0.3016469926
422925000.0 -0.522803302 0.2805667588
427900000.0 -0.671846118 0.2050412209
432875000.0 -0.7899402496 0.0868807421
437850000.0 -0.8682649857 -0.060170716
442825000.0 -0.9029580175 -0.2228164277
447800000.0 -0.8941624834 -0.3887177582
452775000.0 -0.8438530969 -0.5468487389
457750000.0 -0.7560230274 -0.6873673553
462725000.0 -0.6361499549 -0.8018754751
467700000.0 -0.4913391029 -0.8831338922
472675000.0 -0.3300395616 -0.9251583957
477650000.0 -0.1625472628 -0.9235280851
482625000.0 -0.0007507321 -0.8764521939
487600000.0 0.1415550183 -0.7851004082
492575000.0 0.2506884654 -0.6554008746
497550000.0 0.3135684048 -0.4985929163
502525000.0 0.3207414641 -0.3312664155
507500000.0 0.2697018309 -0.1738287079
512475000.0 0.1661375474 -0.047492336
517450000.0 0.0243749371 0.0295107302
522425000.0 -0.1351165437 0.0461265653
527400000.0 -0.289272597 0.0009949934
532375000.0 -0.416617583 -0.0987866993
537350000.0 -0.5014152767 -0.2381704363
542325000.0 -0.5356113893 -0.3999612367
547300000.0 -0.5174095397 -0.5661781907
552275000.0 -0.4502111172 -0.7205336147
557250000.0 -0.3417609732 -0.8509766146
562225000.0 -0.2013043119 -0.9473885632
567200000.0 -0.0401944334 -1.003438925
572175000.0 0.1303565455 -1.015785214
577150000.0 0.2987424803 -0.9837048634
582125000.0 0.4533978108 -0.9086495664
587100000.0 0.5837767474 -0.795123318
592075000.0 0.6787608117 -0.6507687719
597050000.0 0.7305445453 -0.4855410012
602025000.0 0.7331248806 -0.3134169682
607000000.0 0.6851179824 -0.1498947311
611975000.0 0.5902259627 -0.0113898638
616950000.0 0.4584788887 0.0866786202
621925000.0 0.304673726 0.1329134242
626900000.0 0.1476408589 0.1218280338
631875000.0 0.0079635448 0.0546573016
636850000.0 -0.0965327487 -0.0590719256
641825000.0 -0.1516301808 -0.2039852261
646800000.0 -0.1515760988 -0.3612456341
651775000.0 -0.0954787186 -0.5118134535
656750000.0 0.0091163941 -0.6379018978
661725000.0 0.1504260825 -0.7267459255
666700000.0 0.3147308769 -0.76962065
671675000.0 0.4865944452 -0.7631335098
676650000.0 0.6508871273 -0.7089922229
681625000.0 0.7956331117 -0.6110494281
686600000.0 0.9092756981 -0.476697633
691575000.0 0.983551537 -0.3159256033
696550000.0 1.011778635 -0.1403839122
701525000.0 0.9919722905 0.0367370104
706500000.0 0.9240298429 0.201570583
711475000.0 0.8144134304 0.3399203907
716450000.0 0.6709389099 0.439797474
721425000.0 0.5076777972 0.4920409857
726400000.0 0.3404460123 0.4917341896
731375000.0 0.1861420209 0.4388762248
736350000.0 0.0625667396 0.3409210447
741325000.0 -0.0177628944 0.2092980253
746300000.0 -0.0452031281 0.060372022
751275000.0 -0.0171290446 -0.0873028064
756250000.0 0.0629322579 -0.2157012218
761225000.0 0.1848609519 -0.309154207
766200000.0 0.3349825776 -0.3566911932
771175000.0 0.4965021564 -0.3524605226
776150000.0 0.6528585433 -0.2964039951
781125000.0 0.7881757498 -0.1932810827
786100000.0 0.8892928543 -0.0518864001
791075000.0 0.9468478548 0.1155216975
796050000.0 0.955602222 0.295002725
801025000.0 0.9135793019 0.4719190151
806000000.0 0.8236889135 0.6316255671
810975000.0 0.6929688849 0.7608640465
815950000.0 0.5320043944 0.8491259694
820925000.0 0.353926793 0.8883479779
825900000.0 0.1740186021 0.8764166143
830875000.0 0.0084614038 0.8141247217
835850000.0 -0.1280125642 0.7085218518
840825000.0 -0.2227384362 0.570030911
845800000.0 -0.2672722519 0.4142917304
850775000.0 -0.2592157497 0.2578037234
855750000.0 -0.2008052501 0.117450132
860725000.0 -0.0990926107 0.008501837
865700000.0 0.0330226001 -0.0566886687
870675000.0 0.1800579364 -0.0716129178
875650000.0 0.3253523902 -0.0337689072
880625000.0 0.4523570498 0.0531790065
885600000.0 0.546373078 0.1805684915
890575000.0 0.5977730158 0.3365895002
895550000.0 0.599253513 0.5062947995
900525000.0 0.5492165059 0.6738919685
905500000.0 0.4505444439 0.823822017
910475000.0 0.3104382517 0.9415277999
915450000.0 0.1404886706 1.016240652
920425000.0 -0.0451348353 1.04012671
925400000.0 -0.2305131682 1.010555588
930375000.0 -0.3998213975 0.9299355934
935350000.0 -0.5372123419 0.8051119001
940325000.0 -0.631310429 0.6482939138
945300000.0 -0.6744899455 0.4745379249
950275000.0 -0.6644261852 0.3007047075
955250000.0 -0.6048673944 0.1435829773
960225000.0 -0.5036318159 0.0175878152
965200000.0 -0.3727105848 -0.0664477123
970175000.0 -0.227101083 -0.1015104352
975150000.0 -0.0825026624 -0.0858994026
980125000.0 0.0452159816 -0.0218510724
985100000.0 0.1424510377 0.0824780392
990075000.0 0.198356184 0.2162880297
995050000.0 0.2055237987 0.3652049671
1000025000.0 0.1619553896 0.5145403561
1005000000.0 0.0698102555 0.6478055583
1009975000.0 -0.0632850315 0.751086034
1014950000.0 -0.2270019725 0.8125587823
1019925000.0 -0.4067093495 0.8248829976
1024900000.0 -0.5863479509 0.7843967921
1029875000.0 -0.7491795148 0.6930749862
1034850000.0 -0.8801574495 0.5573074529
1039825000.0 -0.9661853756 0.3888019642
1044800000.0 -0.9990197405 0.2030732864
1049775000.0 -0.9759761253 0.0175175577
1054750000.0 -0.900240469 -0.1508239654
1059725000.0 -0.7809309039 -0.2866124421
1064700000.0 -0.6314521986 -0.3781804074
1069675000.0 -0.4677334883 -0.4195759169
1074650000.0 -0.3060052179 -0.4097840281
1079625000.0 -0.162300399 -0.3531825759
1084600000.0 -0.0500445094 -0.2577261881
1089575000.0 0.0209053994 -0.1352291073
1094550000.0 0.0447628772 0.0008332853
1099525000.0 0.0194545462 0.136144723
1104500000.0 -0.0524518592 0.2562470404
1109475000.0 -0.1651171749 0.3483687947
1114450000.0 -0.3077688181 0.401158253
1119425000.0 -0.4670628373 0.4072318758
1124400000.0 -0.6283366704 0.3632031329
1129375000.0 -0.7761895675 0.2703265404
1134350000.0 -0.8942069202 0.1345667441
1139325000.0 -0.9695393665 -0.033763912
1144300000.0 -0.993094317 -0.2196388202
1149275000.0 -0.9603129576 -0.4055986944
1154250000.0 -0.8727948845 -0.573957858
1159225000.0 -0.7393065201 -0.7087560891
1164200000.0 -0.5721871716 -0.7967973602
1169175000.0 -0.3888151167 -0.8308855284
1174150000.0 -0.2067588865 -0.809785005
1179125000.0 -0.0441382859 -0.7388395949
1184100000.0 0.0850253858 -0.6273113938
1189075000.0 0.1703005551 -0.489441955
1194050000.0 0.2068970019 -0.340973373
1199025000.0 0.195018095 -0.1963870442
1204000000.0 0.1380025183 -0.0703308309
1208975000.0 0.0437836553 0.0260728369
1213950000.0 -0.0779285294 0.0831415175
1218925000.0 -0.2145901589 0.0949913095
1223900000.0 -0.3526963246 0.0588980337
1228875000.0 -0.4783021365 -0.0233950128
1233850000.0 -0.5778642668 -0.1466658656
1238825000.0 -0.6393078829 -0.301643983
1243800000.0 -0.6532917722 -0.4751027544
1248775000.0 -0.6147022984 -0.6508544591
1253750000.0 -0.5241973955 -0.8113414965
1258725000.0 -0.3877082126 -0.9398373562
1263700000.0 -0.2166042788 -1.022146197
1268675000.0 -0.0267706328 -1.048726855
1273650000.0 0.1633446824 -1.016328636
1278625000.0 0.3343596333 -0.9279466379
1283600000.0 0.4701287847 -0.7940579156
1288575000.0 0.5583603471 -0.6298398124
1293550000.0 0.5937714643 -0.4533388325
1298525000.0 0.5764921988 -0.2825766272
1303500000.0 0.5130450788 -0.1329140091
1308475000.0 0.4132522626 -0.0177320802
1313450000.0 0.289049136 0.0554123678
1318425000.0 0.1544397005 0.0819437222
1323400000.0 0.0224969562 0.0612531223
1328375000.0 -0.0938117722 -0.0036744988
1333350000.0 -0.1830227985 -0.106565724
1338325000.0 -0.2356139938 -0.2387345559
1343300000.0 -0.2444339942 -0.3878786156
1348275000.0 -0.2055847715 -0.5413385617
1353250000.0 -0.1185767903 -0.6825780365
1358225000.0 0.0108740813 -0.7971465262
1363200000.0 0.1746155467 -0.8715864902
1368175000.0 0.3581348903 -0.8943309063
1373150000.0 0.5441433852 -0.8597237072
1378125000.0 0.713725092 -0.7679654858
1383100000.0 0.8489168964 -0.6266009222
1388075000.0 0.9347127599 -0.4488785447
1393050000.0 0.962450889 -0.2539281595
1398025000.0 0.9313437521 -0.0617682955
1403000000.0 0.8468726879 0.1080609027
1407975000.0 0.7216171556 0.2410451988
1412950000.0 0.5709517166 0.3273319196
1417925000.0 0.4111331755 0.3630582558
1422900000.0 0.2579318662 0.3486108042
1427875000.0 0.126062517 0.2906075268
1432850000.0 0.025906971 0.1967821418
1437825000.0 -0.0347492466 0.0782393412
1442800000.0 -0.0515940742 -0.0531106685
1447775000.0 -0.0221093529 -0.1848364123
1452750000.0 0.0513591614 -0.3042354375
1457725000.0 0.1640376598 -0.3993390637
1462700000.0 0.3079317099 -0.4589758116
1467675000.0 0.4711270209 -0.4741742035
1472650000.0 0.6395884832 -0.4390067876
1477625000.0 0.7968121223 -0.3522728228
1482600000.0 0.9254976849 -0.2182414387
1487575000.0 1.009571477 -0.0459535869
1492550000.0 1.036764099 0.1475027613
1497525000.0 1.002103053 0.3431158583
1502500000.0 0.9076178221 0.5194076688
1507475000.0 0.7640301535 0.658416811
1512450000.0 0.5874487575 0.746348791
1517425000.0 0.3977655118 0.7767431237
1522400000.0 0.2147771127 0.7510350275
1527375000.0 0.055424309 0.6766305332
1532350000.0 -0.0675760692 0.5649635683
1537325000.0 -0.1457181975 0.4303717737
1542300000.0 -0.1757993592 0.2878253195
1547275000.0 -0.1591039139 0.1505214618
1552250000.0 -0.1001360865 0.0311301477
1557225000.0 -0.0057114237 -0.0605030518
1562200000.0 0.1154474159 -0.1154951035
1567175000.0 0.2526842092 -0.1282391257
1572150000.0 0.3932025325 -0.0952781593
1577125000.0 0.5243043464 -0.0164741444
1582100000.0 0.6320940918 0.1048464111
1587075000.0 0.7028742718 0.2606814188
1592050000.0 0.7257134159 0.4383902467
1597025000.0 0.6931877246 0.622620833
1602000000.0 0.6040731737 0.7929679842
1606975000.0 0.46397576 0.9311752059
1611950000.0 0.2851777873 1.020441086
1616925000.0 0.0859600376 1.049820527
1621900000.0 -0.111766713 1.0154527
1626875000.0 -0.287502212 0.9239601244
1631850000.0 -0.4236580554 0.7866452581
1636825000.0 -0.5097585704 0.6214245465
1641800000.0 -0.5421021545 0.4460744519
1646775000.0 -0.5223977685 0.2788905334
1651750000.0 -0.4578877609 0.1349761904
1656725000.0 -0.359187552 0.0247990976
1661700000.0 -0.2377663876 -0.0442821014
1666675000.0 -0.1065301769 -0.0689411983
1671650000.0 0.0225824905 -0.0486436664
1676625000.0 0.1374872649 0.0144154281
1681600000.0 0.228178693 0.11455018
1686575000.0 0.2843713768 0.2450337896
1691550000.0 0.2984919577 0.395186257
1696525000.0 0.2651799439 0.5515964816
1701500000.0 0.1826340223 0.7001664129
1706475000.0 0.0533432479 0.8237876486
1711450000.0 -0.1132787419 0.907254155
1716425000.0 -0.3032167755 0.9375835428
1721400000.0 -0.4973966177 0.9072247673
1726375000.0 -0.674981711 0.8164630833
1731350000.0 -0.8149617871 0.6733681051
1736325000.0 -0.9033015981 0.4939508927
1741300000.0 -0.9312776766 0.2978412354
1746275000.0 -0.8993342972 0.1062883182
1751250000.0 -0.8143899289 -0.0616060133
1756225000.0 -0.6896508406 -0.1912928565
1761200000.0 -0.5409753214 -0.2742196162
1766175000.0 -0.3847606915 -0.3074012265
1771150000.0 -0.2369100318 -0.2927195935
1776125000.0 -0.1094958053 -0.2363099487
1781100000.0 -0.0125692802 -0.1459756178
1786075000.0 0.0468374393 -0.0318139874
1791050000.0 0.0637568942 0.0959166866
1796025000.0 0.0364562354 0.2258252186
1801000000.0 -0.0349246376 0.3456176738
1805975000.0 -0.1460621962 0.4442448674
1810950000.0 -0.2915565636 0.5094554385
1815925000.0 -0.4584393025 0.5310015278
1820900000.0 -0.6341160781 0.501434577
1825875000.0 -0.8004600062 0.4170804678
1830850000.0 -0.9368499625 0.2834699776
1835825000.0 -1.02672607 0.1099321649
1840800000.0 -1.056862019 -0.0855772125
1845775000.0 -1.022656752 -0.2820409903
1850750000.0 -0.9269541773 -0.4575926003
1855725000.0 -0.7820894432 -0.5942308653
1860700000.0 -0.6052348691 -0.6784830654
1865675000.0 -0.4178206666 -0.7063238667
1870650000.0 -0.2377611058 -0.6800629788
1875625000.0 -0.0830303935 -0.6071908454
1880600000.0 0.035779886 -0.5005178323
1885575000.0 0.1112047212 -0.3729919425
1890550000.0 0.1406698817 -0.2381494799
1895525000.0 0.1250516282 -0.1088646701
1900500000.0 0.0683014754 0.0037222451
1905475000.0 -0.0238908477 0.0895346798
1910450000.0 -0.1432755384 0.1409570468
1915425000.0 -0.2797729174 0.152416743
1920400000.0 -0.4227645978 0.1187915462
1925375000.0 -0.5588884929 0.0393376155
1930350000.0 -0.6726561159 -0.0826432017
1935325000.0 -0.7518494734 -0.2414738511
1940300000.0 -0.7809240291 -0.4230985924
1945275000.0 -0.7536139744 -0.6105337009
1950250000.0 -0.6656629001 -0.7841751457
1955225000.0 -0.5248260236 -0.9222610137
1960200000.0 -0.3440479232 -1.007435345
1965175000.0 -0.1432800756 -1.030504674
1970150000.0 0.0534079923 -0.9895640789
1975125000.0 0.2260805975 -0.8917932977
1980100000.0 0.3586436689 -0.7521221393
1985075000.0 0.4413101356 -0.5876777426
1990050000.0 0.4711636175 -0.4171467271
1995025000.0 0.4525664377 -0.2567326659
2000000000.0 0.3909893986 -0.1208199159
