!Created with skrf (http://scikit-rf.org).
# GHz S RI R 50.0 
!freq ReS11 ImS11
10000000.0 -0.7335693767 0.563348053
19950000.0 -0.2689784723 0.8912539013
29900000.0 0.3019007606 0.8803649689
39850000.0 0.766926258 0.5223067045
49800000.0 0.9292535544 -0.062308049
59750000.0 0.6943672082 -0.6431337598
69700000.0 0.1357017455 -0.9555123333
79650000.0 -0.5035764879 -0.8253354962
89600000.0 -0.9074250982 -0.2801809996
99550000.0 -0.8374951248 0.4303806047
109500000.0 -0.2696071071 0.916083166
119450000.0 0.5098946626 0.831201209
129400000.0 0.9757421344 0.1532080081
139350000.0 0.7435161652 -0.6508546441
149300000.0 -0.0208740202 -0.9643469108
159250000.0 -0.7225144092 -0.5840818578
169200000.0 -0.8987666727 0.1547274215
179150000.0 -0.516763867 0.7553715309
189100000.0 0.1309648962 0.9056153963
199050000.0 0.6822170019 0.5871646437
209000000.0 0.8879177829 -0.0001296046
218950000.0 0.6865449589 -0.5611266053
228900000.0 0.194334939 -0.8620111886
238850000.0 -0.3679170239 -0.7928842961
248800000.0 -0.7486294832 -0.4068869375
258750000.0 -0.8507979708 0.1528166793
268700000.0 -0.5925118691 0.6457261355
278650000.0 -0.1009223218 0.8801119228
288600000.0 0.4242469563 0.7643099687
298550000.0 0.7705644994 0.3456936509
308500000.0 0.7909016681 -0.2056275541
318450000.0 0.4655407057 -0.6509377653
328400000.0 -0.0617578731 -0.7838866594
338350000.0 -0.5327021566 -0.5385905932
348300000.0 -0.7010565227 -0.0541875509
358250000.0 -0.4974931971 0.3815970334
368200000.0 -0.0885986811 0.5254557795
378150000.0 0.2452381801 0.3549367947
388100000.0 0.3298397049 0.0529462428
398050000.0 0.1945654725 -0.1585021743
408000000.0 -0.0012070926 -0.1818423591
417950000.0 -0.1123327424 -0.0730090135
427900000.0 -0.0961089155 0.050128325
437850000.0 -0.0045949307 0.0959401612
447800000.0 0.0767444142 0.0494072061
457750000.0 0.09402892 -0.0406449309
467700000.0 0.0423828444 -0.1134997023
477650000.0 -0.0385900059 -0.1273033515
487600000.0 -0.1009130167 -0.080675386
497550000.0 -0.1175214886 -0.0062085858
507500000.0 -0.078046214 0.0611563938
517450000.0 -0.0143856247 0.083150402
527400000.0 0.0388462742 0.0616393724
537350000.0 0.0566915493 0.0165537806
547300000.0 0.0358999463 -0.0178555873
557250000.0 -0.0025445171 -0.0230330902
567200000.0 -0.0281229946 0.0012726168
577150000.0 -0.0203615783 0.0323073374
587100000.0 0.0159379874 0.0407757562
597050000.0 0.055535895 0.0101774418
607000000.0 0.0669257384 -0.0498737192
616950000.0 0.0333943228 -0.1088622349
626900000.0 -0.0352155451 -0.1323821347
636850000.0 -0.1064217133 -0.1004660076
646800000.0 -0.143838788 -0.0227611965
656750000.0 -0.1259238686 0.0695305092
666700000.0 -0.0528738824 0.1351214306
676650000.0 0.0469023523 0.141050265
686600000.0 0.131031905 0.0784727682
696550000.0 0.1596067886 -0.0271690545
706500000.0 0.1144843384 -0.1299194697
716450000.0 0.0156136707 -0.1826221013
726400000.0 -0.0910704955 -0.1567397051
736350000.0 -0.1498648887 -0.0649447331
746300000.0 -0.1268149351 0.0464302686
756250000.0 -0.0299814595 0.1175572049
766200000.0 0.0914922672 0.1064354681
776150000.0 0.1737985827 0.0168636019
786100000.0 0.1691147605 -0.104750986
796050000.0 0.0740567468 -0.1897303469
806000000.0 -0.0694753011 -0.1782950163
815950000.0 -0.1731124216 -0.0658717029
825900000.0 -0.177420174 0.0990079841
835850000.0 -0.0669178435 0.2340965984
845800000.0 0.1115162319 0.263512637
855750000.0 0.2755582073 0.1626601525
865700000.0 0.3418144211 -0.0337142084
875650000.0 0.2628593402 -0.2389255197
885600000.0 0.0560265448 -0.3485629883
895550000.0 -0.1885852143 -0.2883002829
905500000.0 -0.3427481659 -0.0673681097
915450000.0 -0.3125063816 0.2166755419
925400000.0 -0.0959077168 0.4148187718
935350000.0 0.2027038357 0.4095712521
945300000.0 0.4182204887 0.1804297657
955250000.0 0.3950764601 -0.1516746289
965200000.0 0.1569669333 -0.3620346017
975150000.0 -0.1969927255 -0.3811120026
985100000.0 -0.4889236689 -0.085001304
995050000.0 -0.4392861755 0.3719844617
1005000000.0 -0.0178639264 0.6451043174
1014950000.0 0.5020939862 0.469719486
1024900000.0 0.7077327802 -0.0973493853
1034850000.0 0.3723939034 -0.6467252875
1044800000.0 -0.2838365635 -0.7204163568
1054750000.0 -0.7468368831 -0.2510707344
1064700000.0 -0.7121319162 0.3681340408
1074650000.0 -0.2693309538 0.7693126278
1084600000.0 0.3040808685 0.7352832323
1094550000.0 0.6912593008 0.3107073596
1104500000.0 0.669128353 -0.269050178
1114450000.0 0.2492879026 -0.6590275221
1124400000.0 -0.2940069107 -0.6303963384
1134350000.0 -0.633396983 -0.2489440649
1144300000.0 -0.6214029128 0.2285265665
1154250000.0 -0.315347381 0.5581550112
1164200000.0 0.1119689265 0.6056522173
1174150000.0 0.4634535887 0.3649906476
1184100000.0 0.5655913616 -0.0524689701
1194050000.0 0.3629499919 -0.4237491531
1204000000.0 -0.0189864885 -0.5600444662
1213950000.0 -0.377233948 -0.4247214587
1223900000.0 -0.5688857781 -0.1144068357
1233850000.0 -0.5429956358 0.2346286629
1243800000.0 -0.3215322452 0.4982206174
1253750000.0 0.017548029 0.5794376925
1263700000.0 0.3472784716 0.4344899776
1273650000.0 0.5275903615 0.1122031526
1283600000.0 0.4809808771 -0.2506688539
1293550000.0 0.2416707138 -0.5076677864
1303500000.0 -0.0810886367 -0.5789766497
1313450000.0 -0.3742179874 -0.4657565237
1323400000.0 -0.5594662657 -0.2185152721
1333350000.0 -0.5930547594 0.0928563425
1343300000.0 -0.4537988842 0.3850181774
1353250000.0 -0.1632071967 0.5535937981
1363200000.0 0.1864542296 0.5185241874
1373150000.0 0.4544845919 0.2809017012
1383100000.0 0.5377107096 -0.0628502706
1393050000.0 0.4209419724 -0.3806716286
1403000000.0 0.1673888009 -0.5726901187
1412950000.0 -0.1300182387 -0.5963450879
1422900000.0 -0.383677356 -0.4583756956
1432850000.0 -0.5281423335 -0.2000638312
1442800000.0 -0.5146423722 0.1132332939
1452750000.0 -0.3215915587 0.3761265967
1462700000.0 -0.0073524097 0.481793775
1472650000.0 0.3068513929 0.3850306269
1482600000.0 0.498540911 0.1321318047
1492550000.0 0.5104876698 -0.1714203725
1502500000.0 0.3548599878 -0.4196999581
1512450000.0 0.0932754374 -0.5327778257
1522400000.0 -0.182656291 -0.4730731218
1532350000.0 -0.3742861448 -0.2571568674
1542300000.0 -0.4014941325 0.0426191272
1552250000.0 -0.2410509945 0.301878688
1562200000.0 0.0369816863 0.4088418666
1572150000.0 0.3106762051 0.3309466839
1582100000.0 0.477846699 0.1117139212
1592050000.0 0.477688398 -0.1598752025
1602000000.0 0.3145747833 -0.3785348768
1611950000.0 0.0433937796 -0.4602609198
1621900000.0 -0.2368912142 -0.3605000016
1631850000.0 -0.4098629414 -0.102381238
1641800000.0 -0.3923108986 0.2149339803
1651750000.0 -0.1868125113 0.4531275549
1661700000.0 0.1147747518 0.5181751177
1671650000.0 0.3916481147 0.3962668349
1681600000.0 0.5489121166 0.1422592766
1691550000.0 0.5410226933 -0.1584774874
1701500000.0 0.3661565738 -0.4097061577
1711450000.0 0.0744842854 -0.5265998267
1721400000.0 -0.2448901767 -0.4546131002
1731350000.0 -0.4761844619 -0.2054523688
1741300000.0 -0.5296468661 0.1324753687
1751250000.0 -0.3891836056 0.4331322252
1761200000.0 -0.1174478763 0.59699131
1771150000.0 0.1889638067 0.5879782113
1781100000.0 0.4404461599 0.4241164288
1791050000.0 0.5737710218 0.1540261225
1801000000.0 0.5527264785 -0.1522315168
1810950000.0 0.3756407989 -0.41099094
1820900000.0 0.0830307946 -0.536174538
1830850000.0 -0.2363524349 -0.4731517833
1840800000.0 -0.4673895873 -0.2400660344
1850750000.0 -0.5326104357 0.0705820187
1860700000.0 -0.4302864544 0.3501298499
1870650000.0 -0.2149316792 0.5245004543
1880600000.0 0.0420673271 0.5609833115
1890550000.0 0.2692179381 0.4625454183
1900500000.0 0.408830625 0.2607482741
1910450000.0 0.4246722182 0.0126464137
1920400000.0 0.3105735808 -0.2063947314
1930350000.0 0.1040881626 -0.3213254208
1940300000.0 -0.1157399539 -0.3013458345
1950250000.0 -0.2713803728 -0.17526511
1960200000.0 -0.3233965623 -0.0094940752
1970150000.0 -0.2808975252 0.1302872487
1980100000.0 -0.1847030774 0.1989861621
1990050000.0 -0.0954184985 0.1843979033
2000000000.0 -0.0764627982 0.1160655136
