!Created with skrf (http://scikit-rf.org).
# GHz S RI R 50.0 
!freq ReS11 ImS11
10000000.0 -0.9988419861 0.1624523527
19950000.0 -0.9446816181 0.3104367079
29900000.0 -0.8683385358 0.4524879797
39850000.0 -0.7686248927 0.5930278965
49800000.0 -0.6470648119 0.7267606485
59750000.0 -0.4976683686 0.8469604436
69700000.0 -0.3124629964 0.9409457602
79650000.0 -0.0874002769 0.9888028229
89600000.0 0.1754105951 0.9696377241
99550000.0 0.4588790596 0.8603350287
109500000.0 0.7322576844 0.6441255944
119450000.0 0.9399587 0.3117123137
129400000.0 1.007291523 -0.1068179066
139350000.0 0.8826875115 -0.5190848609
149300000.0 0.5906977614 -0.8250141629
159250000.0 0.2253235295 -0.969026734
169200000.0 -0.1271614909 -0.9733653729
179150000.0 -0.4228809274 -0.8839658493
189100000.0 -0.648826404 -0.7409420394
199050000.0 -0.8047577875 -0.5703703377
209000000.0 -0.8955580759 -0.3888768573
218950000.0 -0.9379776521 -0.2093895393
228900000.0 -0.9436641871 -0.0377891878
238850000.0 -0.9243859552 0.1247267335
248800000.0 -0.8833082506 0.2631758689
258750000.0 -0.835939947 0.4165416134
268700000.0 -0.7642449699 0.5452617064
278650000.0 -0.669424421 0.6545667224
288600000.0 -0.5495316701 0.7407408969
298550000.0 -0.408051826 0.8008893308
308500000.0 -0.2475342615 0.8354708238
318450000.0 -0.0728581364 0.8398060167
328400000.0 0.1092270586 0.8063183509
338350000.0 0.2815679813 0.7233992488
348300000.0 0.4199624295 0.5837323151
358250000.0 0.4952325913 0.3982239486
368200000.0 0.4912276055 0.197223592
378150000.0 0.4158278086 0.0203615497
388100000.0 0.2962760778 -0.104236066
398050000.0 0.1650449501 -0.1658587449
408000000.0 0.0498592845 -0.1706627879
417950000.0 -0.0362486769 -0.1351608307
427900000.0 -0.0920879467 -0.0779004581
437850000.0 -0.1222232178 -0.0141479982
447800000.0 -0.1324802338 0.0442970566
457750000.0 -0.1285570719 0.0895428881
467700000.0 -0.1136822885 0.1183613935
477650000.0 -0.090847815 0.1297969197
487600000.0 -0.062476784 0.1269017674
497550000.0 -0.0376080972 0.1143024006
507500000.0 -0.006506856 0.0996477661
517450000.0 0.0156705349 0.080582364
527400000.0 0.0278841419 0.0616997847
537350000.0 0.0269880282 0.0434098106
547300000.0 0.0163572442 0.0249407033
557250000.0 -0.0068541075 0.0057372034
567200000.0 -0.0356359383 -0.0111478986
577150000.0 -0.0651057796 -0.0237681772
587100000.0 -0.0915980744 -0.0302651616
597050000.0 -0.1121672054 -0.0271946856
607000000.0 -0.127025358 -0.0136733978
616950000.0 -0.1368023258 0.0099782707
626900000.0 -0.1422584895 0.041000438
636850000.0 -0.1438423748 0.0743569809
646800000.0 -0.1409028995 0.1061813372
656750000.0 -0.1326585698 0.1317335366
666700000.0 -0.1164388849 0.1493476983
676650000.0 -0.0912471825 0.1579844383
686600000.0 -0.0576956551 0.1586561362
696550000.0 -0.0183766246 0.1536782602
706500000.0 0.0226884413 0.1426784545
716450000.0 0.0612845267 0.126951297
726400000.0 0.0925378496 0.1043957837
736350000.0 0.1132787353 0.0720972835
746300000.0 0.1200759981 0.0300400958
756250000.0 0.1152653409 -0.0203274658
766200000.0 0.0982003818 -0.0768039397
776150000.0 0.0717882545 -0.1332956186
786100000.0 0.0357715537 -0.183804138
796050000.0 -0.0093010961 -0.2216357837
806000000.0 -0.0620765145 -0.2415302325
815950000.0 -0.1230089059 -0.2413179803
825900000.0 -0.1888262093 -0.2225073189
835850000.0 -0.2565384345 -0.1881252957
845800000.0 -0.3201220497 -0.1419844336
855750000.0 -0.3736563567 -0.0864208142
865700000.0 -0.4105511315 -0.0237123791
875650000.0 -0.4272348861 0.0463547979
885600000.0 -0.4195389354 0.1216683045
895550000.0 -0.3886627156 0.2015960348
905500000.0 -0.3366805393 0.2833429938
915450000.0 -0.2661480261 0.3610763535
925400000.0 -0.178098581 0.42689028
935350000.0 -0.07282471 0.4712462395
945300000.0 0.0481224606 0.4819451129
955250000.0 0.1820591985 0.4480423779
965200000.0 0.3192647387 0.3596255072
975150000.0 0.4432331366 0.2118483127
985100000.0 0.5258212017 0.0045125375
995050000.0 0.528026003 -0.2457855846
1005000000.0 0.4132371131 -0.4981876912
1014950000.0 0.1723729533 -0.6834043625
1024900000.0 -0.1486442418 -0.7387883074
1034850000.0 -0.4715824906 -0.6448713275
1044800000.0 -0.7214549607 -0.430069096
1054750000.0 -0.85583986 -0.1475778499
1064700000.0 -0.8674240736 0.1463363135
1074650000.0 -0.7597697401 0.4145195267
1084600000.0 -0.5808722503 0.5609148172
1094550000.0 -0.3950510498 0.7201542004
1104500000.0 -0.1395879025 0.7992842129
1114450000.0 0.1208389679 0.7906498157
1124400000.0 0.3530386233 0.6982721552
1134350000.0 0.5283176536 0.5369823062
1144300000.0 0.6326479165 0.3324433693
1154250000.0 0.6674193051 0.1168286836
1164200000.0 0.6471325125 -0.0855544624
1174150000.0 0.5904638509 -0.2649034699
1184100000.0 0.499970676 -0.4151197019
1194050000.0 0.3839865062 -0.5256683803
1204000000.0 0.2532390237 -0.5929612229
1213950000.0 0.1176778136 -0.6221836547
1223900000.0 -0.0140808075 -0.6237204331
1233850000.0 -0.1367396199 -0.6078125529
1243800000.0 -0.2472731241 -0.5800713555
1253750000.0 -0.3441118656 -0.5437184287
1263700000.0 -0.4250337127 -0.4977148224
1273650000.0 -0.4902666984 -0.4423364214
1283600000.0 -0.5385709845 -0.3771018153
1293550000.0 -0.5743580966 -0.3036209935
1303500000.0 -0.6019801128 -0.2257038365
1313450000.0 -0.6245737774 -0.1478326855
1323400000.0 -0.6442655168 -0.0726560449
1333350000.0 -0.6594702811 -0.0017214239
1343300000.0 -0.6670408562 0.0656249134
1353250000.0 -0.6637292223 0.1275692807
1363200000.0 -0.6467640438 0.1869319848
1373150000.0 -0.6152683215 0.2451163215
1383100000.0 -0.574613812 0.302753583
1393050000.0 -0.5290567867 0.3605225762
1403000000.0 -0.4819824488 0.4166452059
1412950000.0 -0.4341855935 0.4690055413
1422900000.0 -0.3853920486 0.5149235448
1432850000.0 -0.3336410869 0.550118663
1442800000.0 -0.2756557554 0.574511309
1452750000.0 -0.2097204446 0.5869679291
1462700000.0 -0.135379788 0.5895489405
1472650000.0 -0.0548718318 0.5855471467
1482600000.0 0.0283379659 0.5768092481
1492550000.0 0.1103498574 0.5620919246
1502500000.0 0.1883585156 0.5390915755
1512450000.0 0.259276193 0.5039144159
1522400000.0 0.3199512867 0.4536865696
1532350000.0 0.3707186978 0.386832128
1542300000.0 0.4138661424 0.3056384114
1552250000.0 0.4527000158 0.2090552203
1562200000.0 0.4631733845 0.1075202988
1572150000.0 0.4793602661 0.0177998198
1582100000.0 0.4817513632 -0.0763409305
1592050000.0 0.4650475867 -0.1663074973
1602000000.0 0.4268472564 -0.2494224656
1611950000.0 0.369190519 -0.3234756631
1621900000.0 0.2963908756 -0.3897517871
1631850000.0 0.2142631131 -0.448347863
1641800000.0 0.1281643843 -0.498195721
1651750000.0 0.0416752614 -0.5361336676
1661700000.0 -0.0421060364 -0.5589357724
1671650000.0 -0.1221441993 -0.5637325808
1681600000.0 -0.1976106374 -0.5501348628
1691550000.0 -0.2696194823 -0.5226644205
1701500000.0 -0.3391118761 -0.4847226344
1711450000.0 -0.4054143072 -0.4428279155
1721400000.0 -0.4678074098 -0.3994506908
1731350000.0 -0.5244168076 -0.3574309261
1741300000.0 -0.5704488178 -0.3141906043
1751250000.0 -0.6046090056 -0.2667704155
1761200000.0 -0.624544152 -0.2151443876
1771150000.0 -0.6331838346 -0.1583296942
1781100000.0 -0.6358117429 -0.0982273255
1791050000.0 -0.6367030838 -0.0377026442
1801000000.0 -0.638317716 0.0209493847
1810950000.0 -0.6418625514 0.076834545
1820900000.0 -0.6434276815 0.1277655042
1830850000.0 -0.6385637902 0.1735821932
1840800000.0 -0.6228344202 0.2144433272
1850750000.0 -0.5952333765 0.2515334319
1860700000.0 -0.5562657094 0.2853678678
1870650000.0 -0.5117521495 0.3182736262
1880600000.0 -0.4667798221 0.3482700406
1890550000.0 -0.4252833097 0.3758058972
1900500000.0 -0.3881892829 0.3986177456
1910450000.0 -0.3542459548 0.4124948059
1920400000.0 -0.3192967416 0.4161439352
1930350000.0 -0.2818014399 0.4081211488
1940300000.0 -0.2406516315 0.3889273134
1950250000.0 -0.1961514719 0.3599784312
1960200000.0 -0.1510248437 0.3254948403
1970150000.0 -0.1122559873 0.2854787542
1980100000.0 -0.0845431573 0.2398834498
1990050000.0 -0.0746283659 0.185304488
2000000000.0 -0.0899754657 0.1169457927
