!Created with skrf (http://scikit-rf.org).
# GHz S RI R 50.0 
!freq ReS11 ImS11
10000000.0 -0.7918872243 0.6016876028
19950000.0 -0.2818751104 0.9431167022
29900000.0 0.3289710812 0.9221030801
39850000.0 0.8161975302 0.5424756213
49800000.0 0.984379847 -0.0645609732
59750000.0 0.7420980601 -0.6630637293
69700000.0 0.1638460249 -0.985952902
79650000.0 -0.5031011341 -0.8567187672
89600000.0 -0.9311534614 -0.3054551494
99550000.0 -0.8767960736 0.4117747096
109500000.0 -0.3242472703 0.9111202173
119450000.0 0.4499786864 0.8654364965
129400000.0 0.9563172606 0.2367385394
139350000.0 0.8043657871 -0.5713028871
149300000.0 0.0815651447 -0.9691915342
159250000.0 -0.6710096685 -0.6781979417
169200000.0 -0.943972277 0.0512845517
179150000.0 -0.6146158066 0.7232252142
189100000.0 0.0657024876 0.9552542187
199050000.0 0.6940428112 0.6637946771
209000000.0 0.9526736905 0.0442441645
218950000.0 0.7506949281 -0.5689723145
228900000.0 0.2174323422 -0.9038032072
238850000.0 -0.3991531979 -0.8301411373
248800000.0 -0.6027940736 -0.3145819783
258750000.0 -0.9104599697 0.1621938143
268700000.0 -0.6210916064 0.6917782551
278650000.0 -0.0723361843 0.9223225275
288600000.0 0.4953973141 0.7609592829
298550000.0 0.8350754575 0.2834640175
308500000.0 0.7994115541 -0.298343569
318450000.0 0.4046569143 -0.7188350205
328400000.0 -0.1599512912 -0.7801022003
338350000.0 -0.6081972103 -0.4562911937
348300000.0 -0.7057701714 0.0635870819
358250000.0 -0.4289511984 0.4722366543
368200000.0 0.0132688254 0.5506554918
378150000.0 0.3342119625 0.3157353282
388100000.0 0.3759624638 -0.0247815263
398050000.0 0.1890122454 -0.2458603716
408000000.0 -0.05096102 -0.2544015224
417950000.0 -0.1885040855 -0.1115995639
427900000.0 -0.1773689253 0.0528404622
437850000.0 -0.0679800337 0.1383231596
447800000.0 0.0492502323 0.1195550978
457750000.0 0.107135748 0.0352377538
467700000.0 0.0876710525 -0.0504634626
477650000.0 0.0252290409 -0.0866311939
487600000.0 -0.0287552873 -0.0651089598
497550000.0 0.0098106017 -0.0738250054
507500000.0 -0.0589210725 -0.0030406636
517450000.0 -0.0250470553 0.0145162236
527400000.0 -0.0049385447 0.0004766259
537350000.0 -0.0133726168 -0.0211498165
547300000.0 -0.0467553346 -0.0238018877
557250000.0 -0.0723836771 0.0122588666
567200000.0 -0.0636594074 0.0638561491
577150000.0 -0.0141802619 0.1035277379
587100000.0 0.0594312462 0.1008481713
597050000.0 0.1234294335 0.0456648653
607000000.0 0.1410738726 -0.0459915811
616950000.0 0.0970292305 -0.135389407
626900000.0 0.0041196059 -0.1818202656
636850000.0 -0.1004206214 -0.1619393936
646800000.0 -0.1717628314 -0.0806078256
656750000.0 -0.1782086024 0.0290378965
666700000.0 -0.1147116854 0.1188554109
676650000.0 -0.0086121486 0.1503878155
686600000.0 0.092404696 0.1078557065
696550000.0 0.1421264841 0.0133152525
706500000.0 0.119300189 -0.0848722504
716450000.0 0.0409108712 -0.1387728566
726400000.0 -0.0486505979 -0.1212110234
736350000.0 -0.0956923589 -0.044575026
746300000.0 -0.0706369127 0.0454200756
756250000.0 0.0182031599 0.0930856235
766200000.0 0.1208566397 0.0613968855
776150000.0 0.1755353078 -0.0406164799
786100000.0 0.1400519848 -0.162699734
796050000.0 0.017572086 -0.2332502381
806000000.0 -0.1380905778 -0.1982422995
815950000.0 -0.2449705326 -0.054892264
825900000.0 -0.2357694008 0.1409917397
835850000.0 -0.0971478029 0.2990838569
845800000.0 0.1200907178 0.3388097922
855750000.0 0.323496984 0.2311190207
865700000.0 0.4211825607 0.0122692743
875650000.0 0.3585854124 -0.2311804152
885600000.0 0.1475097066 -0.3885353331
895550000.0 -0.1283871053 -0.3778431714
905500000.0 -0.3439645001 -0.1879851575
915450000.0 -0.3866201101 0.1029436109
925400000.0 -0.2309403374 0.3474964981
935350000.0 0.0434330944 0.4308127596
945300000.0 0.309552771 0.3062482866
955250000.0 0.4174130701 0.0165810301
965200000.0 0.2692816463 -0.283455194
975150000.0 -0.0812348051 -0.3787690916
985100000.0 -0.4039633232 -0.1464773959
995050000.0 -0.4240031661 0.2837298386
1005000000.0 -0.0669621666 0.5947062903
1014950000.0 0.4503017767 0.4922000813
1024900000.0 0.7170491382 -0.0287566597
1034850000.0 0.4541434063 -0.6134573911
1044800000.0 -0.2032674657 -0.7796777073
1054750000.0 -0.7475356832 -0.3655748051
1064700000.0 -0.7649348249 0.2445180588
1074650000.0 -0.4441933507 0.7090046235
1084600000.0 0.1114176801 0.8072325339
1094550000.0 0.6132639374 0.5091413223
1104500000.0 0.7531529031 -0.0671334098
1114450000.0 0.4380474176 -0.5632584238
1124400000.0 -0.115110536 -0.6683422879
1134350000.0 -0.5398104216 -0.3625312829
1144300000.0 -0.6145306147 0.1122113156
1154250000.0 -0.3564746225 0.4746910145
1164200000.0 0.0561120673 0.5529493493
1174150000.0 0.4012465855 0.331574515
1184100000.0 0.4914235289 -0.0682815511
1194050000.0 0.2768229277 -0.407585349
1204000000.0 -0.0969812057 -0.5013032457
1213950000.0 -0.4220763842 -0.3329951382
1223900000.0 -0.5617167073 -0.0121161627
1233850000.0 -0.4797969268 0.3184649509
1243800000.0 -0.2156871016 0.5355514961
1253750000.0 0.1352552318 0.5534180125
1263700000.0 0.4361334379 0.3490152867
1273650000.0 0.555725978 -0.0005046694
1283600000.0 0.4470015331 -0.351067562
1293550000.0 0.1647518501 -0.5693099963
1303500000.0 -0.1771580473 -0.59415987
1313450000.0 -0.470047648 -0.4365586852
1323400000.0 -0.6347425041 -0.1516667717
1333350000.0 -0.624664405 0.1822121737
1343300000.0 -0.4292766106 0.4683214273
1353250000.0 -0.0944837853 0.6025305377
1363200000.0 0.2686066019 0.5218605174
1373150000.0 0.5249631969 0.2489757703
1383100000.0 0.5839738644 -0.1112607909
1393050000.0 0.4448494497 -0.4302304294
1403000000.0 0.1713441147 -0.6168542892
1412950000.0 -0.1476208059 -0.6306887276
1422900000.0 -0.4222451442 -0.4777979259
1432850000.0 -0.5752933239 -0.2004646778
1442800000.0 -0.5564505538 0.12216417
1452750000.0 -0.3617462678 0.3891278858
1462700000.0 -0.0458735299 0.5076706749
1472650000.0 0.2821856074 0.4306929261
1482600000.0 0.5050358975 0.1903429503
1492550000.0 0.554124498 -0.1194198577
1502500000.0 0.4284418558 -0.3914685627
1512450000.0 0.1787775075 -0.54299498
1522400000.0 -0.1129177483 -0.526138777
1532350000.0 -0.3463755823 -0.3409115309
1542300000.0 -0.4301465525 -0.0472122919
1552250000.0 -0.3218661505 0.2409117356
1562200000.0 -0.0658938318 0.4008823921
1572150000.0 0.2218490795 0.3735343494
1582100000.0 0.4244877657 0.1887739972
1592050000.0 0.4727937751 -0.0696913227
1602000000.0 0.3579668308 -0.301126459
1611950000.0 0.1238950214 -0.4188442072
1621900000.0 -0.1435593086 -0.3715823745
1631850000.0 -0.3354105249 -0.1645628886
1641800000.0 -0.3623405921 0.1195940144
1651750000.0 -0.2121916573 0.3709980428
1661700000.0 0.0625902713 0.4719322112
1671650000.0 0.3335993371 0.3880160596
1681600000.0 0.5023675291 0.1669701553
1691550000.0 0.5188253591 -0.1160881892
1701500000.0 0.3669219921 -0.3670322321
1711450000.0 0.0867671437 -0.494027844
1721400000.0 -0.2310237283 -0.4336211419
1731350000.0 -0.4602472459 -0.1922579267
1741300000.0 -0.5052146641 0.1376163954
1751250000.0 -0.3563584524 0.4254681121
1761200000.0 -0.0823323881 0.5745851379
1771150000.0 0.2180215844 0.5521570732
1781100000.0 0.4574774872 0.3785503021
1791050000.0 0.5717034149 0.1048502661
1801000000.0 0.5221067435 -0.1941974853
1810950000.0 0.3108076538 -0.4243922957
1820900000.0 -0.0012035745 -0.4951425189
1830850000.0 -0.2977837967 -0.3728267754
1840800000.0 -0.4647240114 -0.1137191903
1850750000.0 -0.4570915056 0.1714349932
1860700000.0 -0.3060696586 0.3817610423
1870650000.0 -0.0846706661 0.4643175063
1880600000.0 0.12818607 0.4140848541
1890550000.0 0.2642417959 0.2681411056
1900500000.0 0.2878333861 0.0954936119
1910450000.0 0.2148294966 -0.0294845864
1920400000.0 0.1042978877 -0.0715405425
1930350000.0 0.0178721389 -0.0512266618
1940300000.0 -0.0136458878 -0.0247283723
1950250000.0 -0.014359921 -0.048269608
1960200000.0 -0.0554813374 -0.1154064809
1970150000.0 -0.1676149686 -0.131283587
1980100000.0 -0.2690869904 -0.0443640564
1990050000.0 -0.2879075287 0.0757565336
2000000000.0 -0.2558421213 0.1543850862
