!Created with skrf (http://scikit-rf.org).
# GHz S RI R 50.0 
!freq ReS11 ImS11
10000000.0 -0.8153341314 0.6111928004
19950000.0 -0.2950081362 0.951742307
29900000.0 0.3206842999 0.9268179387
39850000.0 0.8116476737 0.547135446
49800000.0 0.9893355072 -0.0597273177
59750000.0 0.7584179122 -0.6672755494
69700000.0 0.1805838328 -1.006113359
79650000.0 -0.4979102128 -0.8861530357
89600000.0 -0.9373794509 -0.3328503062
99550000.0 -0.8889497328 0.3902420443
109500000.0 -0.3414886803 0.8993602236
119450000.0 0.4369631675 0.8724253873
129400000.0 0.9662484409 0.2526896688
139350000.0 0.833773346 -0.566001907
149300000.0 0.1070089137 -0.9820184883
159250000.0 -0.6573920156 -0.6954545611
169200000.0 -0.9408970131 0.0362710086
179150000.0 -0.6216484124 0.7188534306
189100000.0 0.060688651 0.9697195454
199050000.0 0.7051309974 0.6883730415
209000000.0 0.9768036973 0.0628480859
218950000.0 0.7747438099 -0.5596111732
228900000.0 0.2372298587 -0.9004360684
238850000.0 -0.3847375881 -0.8335032425
248800000.0 -0.7500823001 -0.2480409308
258750000.0 -0.9243304189 0.1534000851
268700000.0 -0.6461836812 0.6976763649
278650000.0 -0.0940033752 0.9433538975
288600000.0 0.4849227673 0.7872038768
298550000.0 0.8327766771 0.3064072651
308500000.0 0.8013977077 -0.280195492
318450000.0 0.4101787508 -0.7080896989
328400000.0 -0.1559511507 -0.781011756
338350000.0 -0.6142668434 -0.4650353142
348300000.0 -0.721185207 0.0566687954
358250000.0 -0.4450889855 0.4694840376
368200000.0 -0.0007886594 0.5491221201
378150000.0 0.3231169035 0.3147452216
388100000.0 0.3705838932 -0.0277974332
398050000.0 0.1863522048 -0.2559122429
408000000.0 -0.0562530176 -0.2709444108
417950000.0 -0.1985709025 -0.129201559
427900000.0 -0.1895411593 0.0398425676
437850000.0 -0.0780876285 0.1322622574
447800000.0 0.0460004083 0.1181601229
457750000.0 0.1106793239 0.036272354
467700000.0 0.0998717266 -0.0493282613
477650000.0 0.0440772577 -0.0906770959
487600000.0 -0.0091164414 -0.076850601
497550000.0 0.0024783321 -0.0395568759
507500000.0 -0.0490151 -0.0188497993
517450000.0 -0.0152405026 0.0006410037
527400000.0 0.0001922406 -0.0123226105
537350000.0 -0.0135797463 -0.0300636441
547300000.0 -0.0500963925 -0.025882717
557250000.0 -0.0773762963 0.0175801755
567200000.0 -0.0676364016 0.0774402065
577150000.0 -0.0141791404 0.1231619746
587100000.0 0.0656795096 0.1239860627
597050000.0 0.1354575199 0.068422664
607000000.0 0.1588191116 -0.0277005064
616950000.0 0.1157487011 -0.1257437967
626900000.0 0.0194772692 -0.1814909065
636850000.0 -0.0945137765 -0.1691382397
646800000.0 -0.1775176685 -0.0920805684
656750000.0 -0.195300256 0.0192899962
666700000.0 -0.1391074373 0.1171124417
676650000.0 -0.0345268796 0.1562546548
686600000.0 0.0701677874 0.1205046402
696550000.0 0.1269703723 0.0294415003
706500000.0 0.1130083037 -0.0697421656
716450000.0 0.0414752625 -0.1283932111
726400000.0 -0.0440663739 -0.1182772435
736350000.0 -0.090438107 -0.047464912
746300000.0 -0.0647525154 0.0388273784
756250000.0 0.0243084615 0.0818171021
766200000.0 0.1278251888 0.0456473091
776150000.0 0.180603266 -0.0632482807
786100000.0 0.1377215838 -0.1887499569
796050000.0 0.0062348843 -0.2554455122
806000000.0 -0.1536755954 -0.2081573027
815950000.0 -0.2512573135 -0.0527419615
825900000.0 -0.2308173948 0.1401619542
835850000.0 -0.0955141991 0.2944710643
845800000.0 0.117339065 0.3435128685
855750000.0 0.3269463969 0.2502910772
865700000.0 0.4394738473 0.0388809974
875650000.0 0.3944993302 -0.2068748208
885600000.0 0.1970364217 -0.3807185293
895550000.0 -0.0794958094 -0.3951357317
905500000.0 -0.314985101 -0.2287173577
915450000.0 -0.3962565782 0.0534503865
925400000.0 -0.2789217897 0.32477101
935350000.0 -0.0125893295 0.4523940462
945300000.0 0.2722041164 0.3628721438
955250000.0 0.416372787 0.0908462485
965200000.0 0.313384102 -0.2199984401
975150000.0 -0.0103684836 -0.365883514
985100000.0 -0.3612915348 -0.1975992615
995050000.0 -0.4527535062 0.2182708803
1005000000.0 -0.1522847729 0.5717774653
1014950000.0 0.3564428623 0.5478102481
1024900000.0 0.6891631523 0.0951939152
1034850000.0 0.5425943628 -0.5041133409
1044800000.0 -0.0511084891 -0.7969288963
1054750000.0 -0.6737899926 -0.5205214125
1064700000.0 -0.8451126771 0.117263917
1074650000.0 -0.5899229127 0.5979848854
1084600000.0 -0.0429747554 0.8448146975
1094550000.0 0.5160637094 0.6288659913
1104500000.0 0.7729257496 0.0782781495
1114450000.0 0.5542585593 -0.4918431899
1124400000.0 0.0010187468 -0.706730992
1134350000.0 -0.4914140382 -0.4531846188
1144300000.0 -0.624607449 0.0328925183
1154250000.0 -0.390203377 0.4297696963
1164200000.0 0.0270853751 0.5367497493
1174150000.0 0.3823620433 0.3307373988
1184100000.0 0.4907357811 -0.0620234513
1194050000.0 0.2854746617 -0.4105021981
1204000000.0 -0.0924765466 -0.5090231411
1213950000.0 -0.4223653473 -0.3371801166
1223900000.0 -0.5636203868 -0.0104369912
1233850000.0 -0.4822728453 0.3276057153
1243800000.0 -0.2141543765 0.5539756315
1253750000.0 0.1457411754 0.5780730305
1263700000.0 0.4571231175 0.3746508256
1273650000.0 0.5854225393 0.018582916
1283600000.0 0.479734233 -0.3429161687
1293550000.0 0.1952866892 -0.5733165753
1303500000.0 -0.1545225883 -0.6118644947
1313450000.0 -0.4634064562 -0.4665080265
1323400000.0 -0.6515937047 -0.1856779739
1333350000.0 -0.6648533826 0.1567322633
1343300000.0 -0.4863444995 0.4638088857
1353250000.0 -0.154251591 0.6274812618
1363200000.0 0.2238145392 0.5735419683
1373150000.0 0.5080365472 0.315649768
1383100000.0 0.6011684705 -0.0471869275
1393050000.0 0.4921150881 -0.3880134262
1403000000.0 0.2350244092 -0.6116672007
1412950000.0 -0.0892332095 -0.6681348853
1422900000.0 -0.3905819288 -0.5492549572
1432850000.0 -0.5831433831 -0.2864654285
1442800000.0 -0.6028935888 0.0445833846
1452750000.0 -0.4358314798 0.3387401021
1462700000.0 -0.1320659824 0.4978386001
1472650000.0 0.2082514396 0.4666447174
1482600000.0 0.4678507131 0.2601419394
1492550000.0 0.5676889933 -0.0408341043
1502500000.0 0.4880512686 -0.3332653016
1512450000.0 0.2650558786 -0.5241061221
1522400000.0 -0.0251621389 -0.5525568173
1532350000.0 -0.2812630136 -0.4043300922
1542300000.0 -0.4039318358 -0.12799673
1552250000.0 -0.3367802522 0.1700203694
1562200000.0 -0.1071661782 0.3627742736
1572150000.0 0.1789422501 0.3732229077
1582100000.0 0.3970791617 0.2151433025
1592050000.0 0.466364927 -0.0323472601
1602000000.0 0.3675626394 -0.2662475696
1611950000.0 0.1396277474 -0.3926521342
1621900000.0 -0.1297868151 -0.3501103903
1631850000.0 -0.3242776104 -0.1420487645
1641800000.0 -0.3481776256 0.1488870472
1651750000.0 -0.1861023966 0.3920276075
1661700000.0 0.0877283787 0.4806614953
1671650000.0 0.3547330956 0.3845405822
1681600000.0 0.5081038373 0.147720785
1691550000.0 0.4885489952 -0.1110352596
1701500000.0 0.3713289357 -0.3644164773
1711450000.0 0.0794699111 -0.5081785627
1721400000.0 -0.2539139901 -0.4519243879
1731350000.0 -0.4990059271 -0.2067500387
1741300000.0 -0.5549330762 0.1359040086
1751250000.0 -0.4072665054 0.44197029
1761200000.0 -0.1243404317 0.6081071698
1771150000.0 0.1935408555 0.599126676
1781100000.0 0.457038176 0.4325471009
1791050000.0 0.6031202011 0.155847378
1801000000.0 0.5888424922 -0.1654222903
1810950000.0 0.4017992534 -0.4433040626
1820900000.0 0.0817551068 -0.5795071228
1830850000.0 -0.2642618514 -0.5119483078
1840800000.0 -0.5089453682 -0.2660308916
1850750000.0 -0.5758064903 0.058555766
1860700000.0 -0.4705040354 0.3509647851
1870650000.0 -0.2477589851 0.5392303738
1880600000.0 0.0246057713 0.5918224243
1890550000.0 0.2805290107 0.5066830528
1900500000.0 0.4578972657 0.303496973
1910450000.0 0.5025008068 0.0332689218
1920400000.0 0.3904625588 -0.2172568764
1930350000.0 0.1631022347 -0.3599742706
1940300000.0 -0.0897838688 -0.3539352752
1950250000.0 -0.2795628142 -0.2294130938
1960200000.0 -0.3648677717 -0.05131712
1970150000.0 -0.3494778327 0.1138103381
1980100000.0 -0.2670738127 0.2218919701
1990050000.0 -0.1675757714 0.2548608818
2000000000.0 -0.0976942767 0.229720902
