!Created with skrf (http://scikit-rf.org).
# GHz S RI R 50.0 
!freq ReS11 ImS11
10000000.0 -0.9735709875 0.0687773455
19950000.0 -0.9645403134 0.1348097984
29900000.0 -0.9497268172 0.2042632147
39850000.0 -0.9275047059 0.2786997082
49800000.0 -0.8952175452 0.3605563387
59750000.0 -0.8493465877 0.4513708462
69700000.0 -0.7850061959 0.551587607
79650000.0 -0.6954909984 0.6617176185
89600000.0 -0.5691478727 0.7766796692
99550000.0 -0.393764326 0.8838447655
109500000.0 -0.16060674 0.9594529106
119450000.0 0.1260298058 0.9680730743
129400000.0 0.432414826 0.8771779015
139350000.0 0.6993540752 0.6847887347
149300000.0 0.8848846245 0.4169244525
159250000.0 0.9675405238 0.1309381683
169200000.0 0.9627766943 -0.1289768915
179150000.0 0.901488017 -0.3392952449
189100000.0 0.8137135843 -0.4986562855
199050000.0 0.7195537429 -0.6157255787
209000000.0 0.627692349 -0.7003843463
218950000.0 0.5434385063 -0.7629136672
228900000.0 0.4668820511 -0.8089810823
238850000.0 0.394953211 -0.8426981717
248800000.0 0.3183460165 -0.8483856822
258750000.0 0.2619171634 -0.8813510652
268700000.0 0.1949038416 -0.8922069245
278650000.0 0.1261986707 -0.8971110726
288600000.0 0.0548326661 -0.8962129617
298550000.0 -0.0207089915 -0.8867298406
308500000.0 -0.102476817 -0.8654563694
318450000.0 -0.1899577901 -0.826611986
328400000.0 -0.2796105887 -0.7639260738
338350000.0 -0.3644045698 -0.6729789948
348300000.0 -0.4332356135 -0.5527778748
358250000.0 -0.4708454691 -0.40837837
368200000.0 -0.465201666 -0.2544711614
378150000.0 -0.4148791556 -0.1131020966
388100000.0 -0.3303754242 -0.001281986
398050000.0 -0.2301502917 0.0725340793
408000000.0 -0.1304002509 0.1121754669
417950000.0 -0.0422391753 0.1253049073
427900000.0 0.0291207263 0.1204962403
437850000.0 0.0825856851 0.1044810076
447800000.0 0.1195647425 0.0826896167
457750000.0 0.1427053433 0.0585469417
467700000.0 0.1546586007 0.0352882258
477650000.0 0.1566637577 0.0141408211
487600000.0 0.1511136192 -0.0035547246
497550000.0 0.1351286548 -0.0152836493
507500000.0 0.123450737 -0.0222737241
517450000.0 0.1029600904 -0.0259365322
527400000.0 0.0796252765 -0.0256353147
537350000.0 0.0554827153 -0.0214201042
547300000.0 0.0325522889 -0.0145865091
557250000.0 0.0085600728 -0.0038845939
567200000.0 -0.0121495577 0.0110964176
577150000.0 -0.0298430026 0.0288613912
587100000.0 -0.0446888049 0.0489766807
597050000.0 -0.0568068091 0.0697809578
607000000.0 -0.0659359189 0.0907318386
616950000.0 -0.0721758666 0.1102317299
626900000.0 -0.0744738205 0.1279349816
636850000.0 -0.0728854097 0.1435769775
646800000.0 -0.0670453936 0.1566966518
656750000.0 -0.0581033236 0.1678662665
666700000.0 -0.0458787591 0.1769065462
676650000.0 -0.0321944215 0.182916046
686600000.0 -0.0165115162 0.1856631537
696550000.0 0.0007484286 0.1839721123
706500000.0 0.0194794032 0.1764465871
716450000.0 0.039924518 0.1633999625
726400000.0 0.0617800657 0.1454175017
736350000.0 0.0842326456 0.1226055885
746300000.0 0.105946567 0.0960613261
756250000.0 0.1257122958 0.0646569627
766200000.0 0.141206564 0.0289535549
776150000.0 0.1513606806 -0.0112691588
786100000.0 0.1557232968 -0.0552415742
796050000.0 0.1539084206 -0.1024199677
806000000.0 0.1462679369 -0.1517784507
815950000.0 0.1335222473 -0.2000346598
825900000.0 0.1153276316 -0.2452946925
835850000.0 0.0915199687 -0.285802755
845800000.0 0.0618443663 -0.3201741977
855750000.0 0.0258336318 -0.3484987887
865700000.0 -0.0155641089 -0.3713058278
875650000.0 -0.0612997528 -0.3879386252
885600000.0 -0.1098796694 -0.3982901767
895550000.0 -0.1602681955 -0.4008515155
905500000.0 -0.2111532395 -0.3939221184
915450000.0 -0.2617311484 -0.3756169802
925400000.0 -0.3108600136 -0.3440382355
935350000.0 -0.3574609751 -0.2992935613
945300000.0 -0.4024866183 -0.2430559372
955250000.0 -0.446673888 -0.1698937453
965200000.0 -0.4825057858 -0.0742657256
975150000.0 -0.5005470162 0.0466695069
985100000.0 -0.485847138 0.1915291219
995050000.0 -0.4226857613 0.353161204
1005000000.0 -0.2959660705 0.512878173
1014950000.0 -0.0999014548 0.6396610519
1024900000.0 0.1523233523 0.693583176
1034850000.0 0.4198652031 0.644962554
1044800000.0 0.6490938074 0.4936678392
1054750000.0 0.7958487337 0.2698820098
1064700000.0 0.8299217127 0.040490607
1074650000.0 0.8412290243 -0.165023566
1084600000.0 0.7540040307 -0.3616009663
1094550000.0 0.6748317928 -0.5046223554
1104500000.0 0.5351632455 -0.6357697593
1114450000.0 0.3722051273 -0.7171283495
1124400000.0 0.2014559722 -0.755216352
1134350000.0 0.0351323888 -0.7536731621
1144300000.0 -0.1174189269 -0.7180905727
1154250000.0 -0.2490059247 -0.6548239763
1164200000.0 -0.3552926946 -0.5725022195
1174150000.0 -0.4369323518 -0.4816995104
1184100000.0 -0.5019682505 -0.3870741852
1194050000.0 -0.5510656108 -0.2890988599
1204000000.0 -0.583170056 -0.1947208648
1213950000.0 -0.6007678841 -0.1076228529
1223900000.0 -0.6073374394 -0.0309385204
1233850000.0 -0.6059362403 0.0354684591
1243800000.0 -0.5988353546 0.0927715797
1253750000.0 -0.588096949 0.1434298958
1263700000.0 -0.5752379781 0.1897462477
1273650000.0 -0.5629870555 0.2303241834
1283600000.0 -0.5513023678 0.2664497716
1293550000.0 -0.540961442 0.2967445602
1303500000.0 -0.531540993 0.3209084595
1313450000.0 -0.5228870008 0.3399630983
1323400000.0 -0.5146421436 0.3547856161
1333350000.0 -0.505772342 0.3675614042
1343300000.0 -0.4972297232 0.380626313
1353250000.0 -0.4894761954 0.3940450194
1363200000.0 -0.482475575 0.4078586016
1373150000.0 -0.4750370547 0.4203199111
1383100000.0 -0.4675032969 0.4307700415
1393050000.0 -0.4596128075 0.4384326799
1403000000.0 -0.4503642821 0.4432086445
1412950000.0 -0.4394822503 0.4456468057
1422900000.0 -0.4271520031 0.4479515318
1432850000.0 -0.4137889453 0.4513613531
1442800000.0 -0.3994510652 0.4572916809
1452750000.0 -0.3849072432 0.4653536751
1462700000.0 -0.3682081221 0.4745582968
1472650000.0 -0.3495937497 0.4834331525
1482600000.0 -0.3287198739 0.4910507443
1492550000.0 -0.3050789479 0.4966361445
1502500000.0 -0.2781654492 0.5009552116
1512450000.0 -0.2484727291 0.5046262192
1522400000.0 -0.2162160233 0.5083026555
1532350000.0 -0.1818236225 0.5114644003
1542300000.0 -0.1445541927 0.5139200737
1552250000.0 -0.1051373406 0.5148811456
1562200000.0 -0.0634455176 0.5136921349
1572150000.0 -0.0202917779 0.5097392281
1582100000.0 0.0241817732 0.503090662
1592050000.0 0.0691351224 0.4952176493
1602000000.0 0.1132417581 0.4858908711
1611950000.0 0.1570412693 0.4763628472
1621900000.0 0.199335472 0.4649978401
1631850000.0 0.2398353881 0.4508937978
1641800000.0 0.2781356029 0.4337715446
1651750000.0 0.3144971531 0.4136853897
1661700000.0 0.3489309325 0.3923280651
1671650000.0 0.3815445709 0.3713960281
1681600000.0 0.4113318947 0.3524831782
1691550000.0 0.4382295773 0.335937306
1701500000.0 0.4619648885 0.3218711181
1711450000.0 0.4821921012 0.3091557067
1721400000.0 0.498770523 0.2971915118
1731350000.0 0.5122528159 0.2844912941
1741300000.0 0.5239323519 0.2717937235
1751250000.0 0.5335525364 0.2601690454
1761200000.0 0.5412805777 0.250878187
1771150000.0 0.5480789905 0.2457504249
1781100000.0 0.5539651299 0.2423175508
1791050000.0 0.557076474 0.2410357555
1801000000.0 0.5578980445 0.2409410983
1810950000.0 0.5569059583 0.2408869792
1820900000.0 0.5546021624 0.2403011608
1830850000.0 0.5525065319 0.2385247088
1840800000.0 0.5501818512 0.2370503063
1850750000.0 0.5461177973 0.2352226753
1860700000.0 0.5392686119 0.2334567767
1870650000.0 0.5285589686 0.2320944618
1880600000.0 0.5137266946 0.2314060799
1890550000.0 0.4946399203 0.2307358376
1900500000.0 0.4730457347 0.2290236795
1910450000.0 0.4501270238 0.2250339754
1920400000.0 0.42709959 0.2198248872
1930350000.0 0.4033763922 0.2128040275
1940300000.0 0.3776699126 0.2046740433
1950250000.0 0.3487854187 0.1953816478
1960200000.0 0.3151649338 0.1849722425
1970150000.0 0.2763849441 0.1725115242
1980100000.0 0.2313333648 0.1584280084
1990050000.0 0.1801680032 0.1415597224
2000000000.0 0.1220862421 0.1228765244
