!Created with skrf (http://scikit-rf.org).
# GHz S RI R 50.0 
!freq ReS11 ImS11
10000000.0 -0.7008798394 0.5487870963
19950000.0 -0.256337848 0.8704049324
29900000.0 0.2967148096 0.8590135921
39850000.0 0.7480782047 0.5021051378
49800000.0 0.8981727478 -0.0795680488
59750000.0 0.6539326074 -0.6518822648
69700000.0 0.0970715136 -0.9493949883
79650000.0 -0.5240584117 -0.8044411424
89600000.0 -0.9019929758 -0.2543440902
99550000.0 -0.8129950262 0.4489473466
109500000.0 -0.2389751499 0.9201046149
119450000.0 0.5336995383 0.8189503804
129400000.0 0.9830784848 0.1328573542
139350000.0 0.7388955499 -0.66521446
149300000.0 -0.021244846 -0.9656357908
159250000.0 -0.7115153407 -0.5815419043
169200000.0 -0.8839516887 0.151583911
179150000.0 -0.5104588828 0.7445463361
189100000.0 0.1193879752 0.8917164917
199050000.0 0.6544842753 0.5778194496
209000000.0 0.8569137632 0.0006056937
218950000.0 0.6651335253 -0.5506959115
228900000.0 0.1883298555 -0.8458214225
238850000.0 -0.3581804043 -0.7752355611
248800000.0 -0.7153474117 -0.3850598156
258750000.0 -0.816457893 0.1617619838
268700000.0 -0.5569668486 0.6443578555
278650000.0 -0.0776148356 0.8678301964
288600000.0 0.4259050274 0.7473103087
298550000.0 0.7537905146 0.3331794373
308500000.0 0.7672988062 -0.2086348017
318450000.0 0.4464529494 -0.6481318214
328400000.0 -0.0733669145 -0.7814431801
338350000.0 -0.5392778787 -0.5393500702
348300000.0 -0.7074940876 -0.0558987492
358250000.0 -0.5041451883 0.3836985966
368200000.0 -0.0951200229 0.5358629685
378150000.0 0.2464819002 0.3721039753
388100000.0 0.3440976862 0.0693040452
398050000.0 0.217589779 -0.1498058681
408000000.0 0.0233745979 -0.1841659506
417950000.0 -0.0921915081 -0.0830314987
427900000.0 -0.0860739648 0.0338312251
437850000.0 -0.006660976 0.0759165743
447800000.0 0.0634008919 0.030499106
457750000.0 0.0688332354 -0.0544834664
467700000.0 0.0149437278 -0.1182774776
477650000.0 -0.0609091472 -0.1228196546
487600000.0 -0.1153275578 -0.0679481605
497550000.0 -0.1170130263 0.0110622186
507500000.0 -0.067220858 0.0813494536
517450000.0 0.0101999103 0.101468959
527400000.0 0.0709737793 0.0714617998
537350000.0 0.0878570163 0.0154186866
547300000.0 0.0596503477 -0.0311860877
557250000.0 0.0088919646 -0.0448545091
567200000.0 -0.0326464872 -0.02293386
577150000.0 -0.0402786511 0.0138143254
587100000.0 -0.0129314676 0.0325534994
597050000.0 0.0257409774 0.0148106206
607000000.0 0.0428944225 -0.0338471543
616950000.0 0.0213199711 -0.086312331
626900000.0 -0.0313728862 -0.1088434911
636850000.0 -0.0895075768 -0.0818876185
646800000.0 -0.1185749972 -0.0130351658
656750000.0 -0.0979736562 0.0690627644
666700000.0 -0.031600662 0.1264165529
676650000.0 0.0577798103 0.1283714115
686600000.0 0.1304515523 0.0653877279
696550000.0 0.148298538 -0.0393465533
706500000.0 0.0966898817 -0.1388737583
716450000.0 -0.0054436998 -0.1862281364
726400000.0 -0.1123980108 -0.1564802295
736350000.0 -0.1681614172 -0.0588967283
746300000.0 -0.1397232631 0.0561750565
756250000.0 -0.0351056543 0.129170888
766200000.0 0.0944961291 0.1196727935
776150000.0 0.1844777172 0.0276693069
786100000.0 0.1866437924 -0.0992281439
796050000.0 0.0944742466 -0.1902077382
806000000.0 -0.044711973 -0.1898810187
815950000.0 -0.157154473 -0.0863809512
825900000.0 -0.1764452892 0.0756828674
835850000.0 -0.0826029234 0.2129812694
845800000.0 0.0824135217 0.2509210992
855750000.0 0.2405522168 0.1624367571
865700000.0 0.3140194459 -0.021734452
875650000.0 0.2512733723 -0.2204446224
885600000.0 0.0649966694 -0.3314623681
895550000.0 -0.1616892055 -0.2845496806
905500000.0 -0.3139782383 -0.0826170817
915450000.0 -0.3020611527 0.1877751152
925400000.0 -0.1208243316 0.3967047792
935350000.0 0.1610367503 0.428156403
945300000.0 0.395714454 0.2491744435
955250000.0 0.4504577804 -0.0701289891
965200000.0 0.2564019237 -0.3686477107
975150000.0 -0.1233817179 -0.4515267236
985100000.0 -0.4695480516 -0.2081934414
995050000.0 -0.518764444 0.2459671917
1005000000.0 -0.1876986967 0.6052864395
1014950000.0 0.3365705291 0.5786069679
1024900000.0 0.6770632563 0.1154370156
1034850000.0 0.5239235638 -0.4893802955
1044800000.0 -0.0711367126 -0.7471748639
1054750000.0 -0.6421675631 -0.4078191585
1064700000.0 -0.722690912 0.2217816574
1074650000.0 -0.3936056873 0.6945290862
1084600000.0 0.1906812145 0.7783251884
1094550000.0 0.647605018 0.4040724045
1104500000.0 0.6959873735 -0.1917733287
1114450000.0 0.3106882588 -0.6414776744
1124400000.0 -0.2487129538 -0.6687798487
1134350000.0 -0.6286552273 -0.3042221694
1144300000.0 -0.6498371162 0.1918072414
1154250000.0 -0.3562347677 0.5534110638
1164200000.0 0.0809075127 0.6302975777
1174150000.0 0.4573282058 0.4069972293
1184100000.0 0.5886691307 -0.0146124339
1194050000.0 0.4037960272 -0.4083923372
1204000000.0 0.0191060148 -0.5698442656
1213950000.0 -0.3543703977 -0.4485741677
1223900000.0 -0.5633443932 -0.1410433906
1233850000.0 -0.553114559 0.213920753
1243800000.0 -0.3422393452 0.4876945755
1253750000.0 -0.0069374156 0.5808794027
1263700000.0 0.3275896722 0.4446702804
1273650000.0 0.5157858219 0.1260162604
1283600000.0 0.4757887496 -0.2380574803
1293550000.0 0.2412293531 -0.4959338921
1303500000.0 -0.0751132908 -0.566647067
1313450000.0 -0.3585432991 -0.4539244038
1323400000.0 -0.5370658955 -0.2097903665
1333350000.0 -0.5707553231 0.097305641
1343300000.0 -0.4354793841 0.3860404067
1353250000.0 -0.1482901813 0.5485732496
1363200000.0 0.1927237833 0.5058648983
1373150000.0 0.4494010981 0.262653458
1383100000.0 0.518118186 -0.0803494885
1393050000.0 0.3914403974 -0.3905778893
1403000000.0 0.135060581 -0.5684908377
1412950000.0 -0.1501983956 -0.5797376859
1422900000.0 -0.3857099482 -0.43655031
1432850000.0 -0.515541391 -0.1774209251
1442800000.0 -0.492903003 0.132874735
1452750000.0 -0.2947292836 0.3904556843
1462700000.0 0.0208415151 0.4851442909
1472650000.0 0.3284346748 0.3764158361
1482600000.0 0.5080445851 0.1163134241
1492550000.0 0.5061095723 -0.1919923243
1502500000.0 0.3377171743 -0.4384341171
1512450000.0 0.0691184594 -0.5453858083
1522400000.0 -0.2060996417 -0.4782587772
1532350000.0 -0.3922608879 -0.2557465365
1542300000.0 -0.4155363204 0.0483147939
1552250000.0 -0.253082556 0.3151626815
1562200000.0 0.0323185231 0.4313735034
1572150000.0 0.31951536 0.3539221717
1582100000.0 0.4926045245 0.1279406768
1592050000.0 0.4961717947 -0.1520278832
1602000000.0 0.3332149342 -0.3808110583
1611950000.0 0.0571134619 -0.4726331039
1621900000.0 -0.2323486818 -0.3797054309
1631850000.0 -0.4169123947 -0.1236961249
1641800000.0 -0.4117111801 0.1966772203
1651750000.0 -0.2147619591 0.4464634463
1661700000.0 0.086660692 0.524007354
1671650000.0 0.3704341882 0.4107110826
1681600000.0 0.5373955133 0.1592582696
1691550000.0 0.5375045545 -0.1420379115
1701500000.0 0.3717434814 -0.3973504721
1711450000.0 0.0893286205 -0.5191287854
1721400000.0 -0.2234568663 -0.4559463137
1731350000.0 -0.4567939718 -0.2159973471
1741300000.0 -0.5194121963 0.1183499376
1751250000.0 -0.3880598732 0.4202524879
1761200000.0 -0.1206426993 0.5859731357
1771150000.0 0.181863651 0.5761897086
1781100000.0 0.4271648046 0.410064669
1791050000.0 0.5520490889 0.1403121886
1801000000.0 0.5254433951 -0.1609249061
1810950000.0 0.3517066258 -0.4114003218
1820900000.0 0.0697164011 -0.5298195014
1830850000.0 -0.2385654119 -0.4617940676
1840800000.0 -0.4593911148 -0.2250035662
1850750000.0 -0.5148615727 0.0863538064
1860700000.0 -0.4039516455 0.3620996782
1870650000.0 -0.1841505632 0.5276804929
1880600000.0 0.0686534011 0.5528223287
1890550000.0 0.2828874521 0.44511404
1900500000.0 0.4075993814 0.2395292898
1910450000.0 0.4157515434 -0.0091965354
1920400000.0 0.2984609825 -0.2297328537
1930350000.0 0.0867000948 -0.344689742
1940300000.0 -0.1408339844 -0.3178946133
1950250000.0 -0.2991552111 -0.1796039229
1960200000.0 -0.3490340745 0.0013746065
1970150000.0 -0.2986380073 0.1576525014
1980100000.0 -0.1880414473 0.2426737773
1990050000.0 -0.0768284969 0.2395389146
2000000000.0 -0.0242834293 0.1725849589
