!Created with skrf (http://scikit-rf.org).
# GHz S RI R 50.0 
!freq ReS11 ImS11
10000000.0 -0.7950675224 0.6027240174
19950000.0 -0.2841042108 0.9457173203
29900000.0 0.3283825091 0.9265738438
39850000.0 0.8180290974 0.548601
49800000.0 0.9890817619 -0.0579585133
59750000.0 0.749856018 -0.6576260778
69700000.0 0.1735799776 -0.983816357
79650000.0 -0.4947520716 -0.8604357467
89600000.0 -0.9289049705 -0.3140828675
99550000.0 -0.8830217301 0.4033519131
109500000.0 -0.3359508359 0.9086442991
119450000.0 0.4389540387 0.870978654
129400000.0 0.9510996328 0.2417376649
139350000.0 0.8071421119 -0.5617946955
149300000.0 0.0867430632 -0.966960222
159250000.0 -0.6701796639 -0.6809921975
169200000.0 -0.9472053363 0.0494195662
179150000.0 -0.6174171344 0.7243516851
189100000.0 0.0664191382 0.9568168896
199050000.0 0.6971331546 0.663325463
209000000.0 0.9556211316 0.0414613005
218950000.0 0.751083801 -0.5729093398
228900000.0 0.2152368314 -0.9079238817
238850000.0 -0.4040138299 -0.8330047385
248800000.0 -0.5741806656 -0.4070163477
258750000.0 -0.91534169 0.1574797953
268700000.0 -0.6271601347 0.6890860616
278650000.0 -0.077913773 0.9226317463
288600000.0 0.4925766514 0.7645365826
298550000.0 0.8366533923 0.2889112056
308500000.0 0.8053504953 -0.2929050465
318450000.0 0.4151421397 -0.7161587306
328400000.0 -0.1476658923 -0.7839506574
338350000.0 -0.6005835781 -0.4670299692
348300000.0 -0.7069093973 0.0510487572
358250000.0 -0.4379094094 0.4649500418
368200000.0 0.0018842739 0.5527813007
378150000.0 0.3277484698 0.3264360005
388100000.0 0.3784622708 -0.0121187791
398050000.0 0.1979311003 -0.2383243989
408000000.0 -0.0415352754 -0.253924452
417950000.0 -0.1828937465 -0.1156290581
427900000.0 -0.1759423975 0.0480718443
437850000.0 -0.0698647259 0.1351510066
447800000.0 0.0458865679 0.1191893551
457750000.0 0.103599149 0.0380758683
467700000.0 0.0865373044 -0.0448958587
477650000.0 0.0273464938 -0.081722319
487600000.0 -0.0250517433 -0.063332163
497550000.0 0.0171916245 -0.0600844943
507500000.0 -0.0618067068 -0.0025949203
517450000.0 -0.0260133852 0.0137726592
527400000.0 -0.0066167799 -0.0021744451
537350000.0 -0.0170175384 -0.0242986207
547300000.0 -0.0511074776 -0.0250379366
557250000.0 -0.0766167092 0.0115944283
567200000.0 -0.0675837949 0.0645046458
577150000.0 -0.0164036276 0.1055542823
587100000.0 0.0593361973 0.1037214045
597050000.0 0.1259599953 0.0482453976
607000000.0 0.1461066913 -0.0451608608
616950000.0 0.1029296993 -0.1379517506
626900000.0 0.007831232 -0.1876511604
636850000.0 -0.1011209976 -0.1705028927
646800000.0 -0.1762195012 -0.0888281614
656750000.0 -0.1863160419 0.024674975
666700000.0 -0.1232622019 0.1202793514
676650000.0 -0.014262325 0.1566743859
686600000.0 0.0920464399 0.1173654124
696550000.0 0.1482554913 0.0227268874
706500000.0 0.1304618175 -0.0789965186
716450000.0 0.0539424337 -0.1387134485
726400000.0 -0.0379685609 -0.1275562654
736350000.0 -0.0912191073 -0.0543241949
746300000.0 -0.0736277102 0.0368994863
756250000.0 0.0099016494 0.089661742
766200000.0 0.1118778406 0.0654647113
776150000.0 0.1699592059 -0.0311823237
786100000.0 0.1403598682 -0.1510987316
796050000.0 0.0235557843 -0.2242020483
806000000.0 -0.1293231617 -0.195747371
815950000.0 -0.238732571 -0.0589411896
825900000.0 -0.235645296 0.1343493253
835850000.0 -0.1023446641 0.29478258
845800000.0 0.1129993756 0.3395648916
855750000.0 0.3181773309 0.2368513388
865700000.0 0.4199456902 0.0206510674
875650000.0 0.3633291818 -0.2227186587
885600000.0 0.1570977942 -0.3866612068
895550000.0 -0.1194426031 -0.3853091846
905500000.0 -0.3428943427 -0.203825746
915450000.0 -0.4000404419 0.0864133415
925400000.0 -0.2533077423 0.3449052947
935350000.0 0.024686773 0.4413631008
945300000.0 0.2980009375 0.3272558749
955250000.0 0.4241168567 0.0454709651
965200000.0 0.3025259329 -0.2634279865
975150000.0 -0.0367418916 -0.3924320704
985100000.0 -0.3832389754 -0.1948641918
995050000.0 -0.4479422026 0.2338945566
1005000000.0 -0.1222042575 0.5786563586
1014950000.0 0.3992709027 0.5279999264
1024900000.0 0.7137953804 0.0405508795
1034850000.0 0.5102828776 -0.5646713556
1044800000.0 -0.1305249652 -0.7943327588
1054750000.0 -0.7182114992 -0.4312716725
1064700000.0 -0.7946649407 0.2092202636
1074650000.0 -0.4829984185 0.6853480462
1084600000.0 0.0738085393 0.8171308586
1094550000.0 0.5929090143 0.5441286044
1104500000.0 0.7629894559 -0.0272984091
1114450000.0 0.4700695005 -0.5420426687
1124400000.0 -0.0840039667 -0.6728386968
1134350000.0 -0.5240703004 -0.3804621287
1144300000.0 -0.6132936463 0.0946998192
1154250000.0 -0.3635067254 0.4629136675
1164200000.0 0.0447152176 0.5473841387
1174150000.0 0.3884379046 0.3354359436
1184100000.0 0.4852862791 -0.0573604444
1194050000.0 0.2792904915 -0.3982016529
1204000000.0 -0.0915600667 -0.4975558844
1213950000.0 -0.4176016899 -0.3349550043
1223900000.0 -0.5614584893 -0.016430972
1233850000.0 -0.4826878283 0.3155107579
1243800000.0 -0.2191176355 0.5351768081
1253750000.0 0.1320878017 0.5550557511
1263700000.0 0.4346250953 0.3545242554
1273650000.0 0.5588691677 0.0064338951
1283600000.0 0.4545896424 -0.3468313078
1293550000.0 0.1756459408 -0.5708873179
1303500000.0 -0.1682939589 -0.6033245519
1313450000.0 -0.4671266776 -0.4507554189
1323400000.0 -0.6394105638 -0.1668709462
1333350000.0 -0.6356602059 0.1696520211
1343300000.0 -0.4449609877 0.4622519926
1353250000.0 -0.1114562146 0.6069770033
1363200000.0 0.2569614916 0.5383028237
1373150000.0 0.5248497077 0.2729064273
1383100000.0 0.5982795581 -0.0880265606
1393050000.0 0.4706122403 -0.4166750368
1403000000.0 0.2011952885 -0.6185695235
1412950000.0 -0.1224353689 -0.6483238095
1422900000.0 -0.4101073302 -0.5072476877
1432850000.0 -0.580708309 -0.2330678132
1442800000.0 -0.5785324353 0.0969041714
1452750000.0 -0.3943678425 0.379299377
1462700000.0 -0.0805244911 0.5183935857
1472650000.0 0.2565275848 0.4614882834
1482600000.0 0.4984955164 0.2326182432
1492550000.0 0.5691043508 -0.0777597277
1502500000.0 0.4621043707 -0.3620628631
1512450000.0 0.2232380475 -0.5352326894
1522400000.0 -0.0710731001 -0.5457994511
1532350000.0 -0.3235765512 -0.3830574208
1542300000.0 -0.4366762521 -0.0969176688
1552250000.0 -0.3566681319 0.2036900699
1562200000.0 -0.1151839936 0.391548366
1572150000.0 0.178084638 0.3942586436
1582100000.0 0.4004259748 0.2286480451
1592050000.0 0.4749032019 -0.0258214008
1602000000.0 0.3830649489 -0.2697766118
1611950000.0 0.1591123494 -0.4110292476
1621900000.0 -0.1143697603 -0.387507551
1631850000.0 -0.3240064646 -0.1937189445
1641800000.0 -0.3699016466 0.0950487425
1651750000.0 -0.2281493855 0.350225626
1661700000.0 0.0354062927 0.4650103957
1671650000.0 0.3108290361 0.4000618512
1681600000.0 0.4940919986 0.1876733176
1691550000.0 0.5233140134 -0.095547173
1701500000.0 0.3826255064 -0.3538303373
1711450000.0 0.1081959993 -0.4938589645
1721400000.0 -0.2122805017 -0.4487880028
1731350000.0 -0.4541831837 -0.218815595
1741300000.0 -0.5174216205 0.1103073874
1751250000.0 -0.384584066 0.4096399782
1761200000.0 -0.118611867 0.5793171043
1771150000.0 0.1873103998 0.5805708873
1781100000.0 0.445211377 0.4253418819
1791050000.0 0.5881308919 0.1584447169
1801000000.0 0.5716011204 -0.1528958882
1810950000.0 0.3843951471 -0.4187213413
1820900000.0 0.0707177746 -0.5425593764
1830850000.0 -0.2627206043 -0.4688109078
1840800000.0 -0.4936224733 -0.2262127689
1850750000.0 -0.5517172143 0.0883020651
1860700000.0 -0.4423138546 0.3674057384
1870650000.0 -0.2200346757 0.5405651925
1880600000.0 0.0463604688 0.576294118
1890550000.0 0.2885255088 0.4743049288
1900500000.0 0.4436631089 0.2612537045
1910450000.0 0.4607386827 -0.0044470133
1920400000.0 0.3291845745 -0.2351462913
1930350000.0 0.0995543284 -0.3509100413
1940300000.0 -0.1374127582 -0.3208499722
1950250000.0 -0.3018736837 -0.183006886
1960200000.0 -0.3555892969 -0.0079626656
1970150000.0 -0.3128250017 0.1389609155
1980100000.0 -0.2149108409 0.2148140328
1990050000.0 -0.1205991888 0.2086955613
2000000000.0 -0.0859573811 0.1539289781
