!Created with skrf (http://scikit-rf.org).
# GHz S RI R 50.0 
!freq ReS11 ImS11
10000000.0 -0.764057902 0.5802506443
19950000.0 -0.2804431122 0.9168240902
29900000.0 0.3090252017 0.9072730702
39850000.0 0.7883390444 0.5463499033
49800000.0 0.9617056083 -0.044607427
59750000.0 0.7334111142 -0.6356762415
69700000.0 0.1719920437 -0.9625303517
79650000.0 -0.4834518477 -0.8465644034
89600000.0 -0.9117851128 -0.3076009262
99550000.0 -0.8633415928 0.408982659
109500000.0 -0.3063525924 0.911428905
119450000.0 0.4770372378 0.8486284329
129400000.0 0.9627407995 0.1859830572
139350000.0 0.7540244091 -0.6232492678
149300000.0 -0.0051013231 -0.9620687951
159250000.0 -0.7233265177 -0.6012926337
169200000.0 -0.9197167543 0.1400315432
179150000.0 -0.5416796345 0.7596688121
189100000.0 0.1243841366 0.9268101745
199050000.0 0.7003720049 0.6091108783
209000000.0 0.9191534069 0.0090111474
218950000.0 0.7150195532 -0.5690917258
228900000.0 0.2097796714 -0.8838961051
238850000.0 -0.3703056081 -0.8223928952
248800000.0 -0.7873506163 -0.4126040876
258750000.0 -0.8875738492 0.1333562034
268700000.0 -0.6334202959 0.643111873
278650000.0 -0.129676825 0.8947259912
288600000.0 0.4188475914 0.7875872984
298550000.0 0.7871130342 0.3657565888
308500000.0 0.8186948023 -0.1955848637
318450000.0 0.4942025411 -0.6517420695
328400000.0 -0.0395430898 -0.7910470283
338350000.0 -0.5181925035 -0.5481200964
348300000.0 -0.6943390005 -0.0640868732
358250000.0 -0.494117837 0.373339762
368200000.0 -0.0876503412 0.5186180165
378150000.0 0.2434311251 0.3469391427
388100000.0 0.3229258688 0.0446758355
398050000.0 0.1803359922 -0.1640091643
408000000.0 -0.0205195928 -0.1821901962
417950000.0 -0.1300421624 -0.0636621652
427900000.0 -0.1072841789 0.0671309572
437850000.0 -0.0059000949 0.1181784703
447800000.0 0.0900398436 0.0733339343
457750000.0 0.1167231821 -0.0241650145
467700000.0 0.0690881783 -0.1081438674
477650000.0 -0.0167816218 -0.1334324486
487600000.0 -0.0902146542 -0.0942611117
497550000.0 -0.1125043088 -0.0223945773
507500000.0 -0.0906147498 0.0414823121
517450000.0 -0.0346587827 0.0696003919
527400000.0 0.0127967883 0.0543687368
537350000.0 0.0279707035 0.0177960397
547300000.0 0.0105634916 -0.0095141883
557250000.0 -0.018962123 -0.0084779422
567200000.0 -0.0312779151 0.0193476153
577150000.0 -0.0097231228 0.0497349046
587100000.0 0.0384086449 0.0526153511
597050000.0 0.0848973311 0.014015798
607000000.0 0.0983087523 -0.0569961962
616950000.0 0.0593992552 -0.1279006752
626900000.0 -0.0206730258 -0.1605723191
636850000.0 -0.1087911927 -0.1340267112
646800000.0 -0.1640914088 -0.0524502999
656750000.0 -0.1574682998 0.052393233
666700000.0 -0.0863148375 0.1343429009
676650000.0 0.0214944589 0.1561917561
686600000.0 0.1206925144 0.1058376193
696550000.0 0.1670352264 0.0027952805
706500000.0 0.1402134714 -0.1042736943
716450000.0 0.0527915175 -0.1661476757
726400000.0 -0.050342046 -0.1545823565
736350000.0 -0.1147478551 -0.0755090001
746300000.0 -0.1054286173 0.0267456378
756250000.0 -0.0254334093 0.0954264593
766200000.0 0.0814466089 0.0902768352
776150000.0 0.1540688611 0.0087579721
786100000.0 0.1462132299 -0.10344864
796050000.0 0.0525076543 -0.1812703471
806000000.0 -0.0824620449 -0.168810222
815950000.0 -0.183376787 -0.0545839983
825900000.0 -0.1841530969 0.1127613659
835850000.0 -0.0673172438 0.2495328582
845800000.0 0.1199195518 0.2774270246
855750000.0 0.2868266902 0.1686280553
865700000.0 0.3432225044 -0.0250160596
875650000.0 0.2743233853 -0.215689211
885600000.0 0.0875889775 -0.3388204904
895550000.0 -0.1552242871 -0.3086457539
905500000.0 -0.3309667821 -0.1142453838
915450000.0 -0.3372349385 0.1597182047
925400000.0 -0.1575861686 0.3771206933
935350000.0 0.1269000884 0.4179622271
945300000.0 0.3701672617 0.2432237831
955250000.0 0.4248984869 -0.073915796
965200000.0 0.2183995049 -0.3598784773
975150000.0 -0.1668119744 -0.4038699969
985100000.0 -0.4755121741 -0.1116304792
995050000.0 -0.4441114433 0.3478432962
1005000000.0 -0.0409622175 0.6367251377
1014950000.0 0.4783814067 0.4946847348
1024900000.0 0.7196376128 -0.0443436558
1034850000.0 0.4360987561 -0.6154724647
1044800000.0 -0.2085944131 -0.7586172941
1054750000.0 -0.7296194823 -0.3519284049
1064700000.0 -0.772019941 0.2835460373
1074650000.0 -0.385883084 0.7322914926
1084600000.0 0.1798733076 0.7904197964
1094550000.0 0.6469121492 0.4470932277
1104500000.0 0.7320054309 -0.1384400969
1114450000.0 0.3753256027 -0.6059320548
1124400000.0 -0.1827240089 -0.6687588784
1134350000.0 -0.5874100719 -0.3359472841
1144300000.0 -0.6425410239 0.1472478904
1154250000.0 -0.3740263316 0.5154427945
1164200000.0 0.050745239 0.6042733396
1174150000.0 0.4193000021 0.3890577177
1184100000.0 0.5420199497 -0.0216662568
1194050000.0 0.3539228653 -0.3991205574
1204000000.0 -0.0219134412 -0.5449412625
1213950000.0 -0.3809838075 -0.4169813764
1223900000.0 -0.5727193698 -0.1098152572
1233850000.0 -0.5443304946 0.2391376865
1243800000.0 -0.3165617356 0.5018266159
1253750000.0 0.0282614749 0.5782445719
1263700000.0 0.3590540838 0.4274329011
1273650000.0 0.5356005381 0.101405222
1283600000.0 0.4854247432 -0.2638364852
1293550000.0 0.2432648749 -0.5235206291
1303500000.0 -0.0862477544 -0.5981964089
1313450000.0 -0.3890875455 -0.4865366915
1323400000.0 -0.5826410314 -0.2351225275
1333350000.0 -0.6178065457 0.0848888976
1343300000.0 -0.4744547082 0.3851416721
1353250000.0 -0.1758022235 0.5620294767
1363200000.0 0.1819811926 0.5362393159
1373150000.0 0.4639265406 0.3055589047
1383100000.0 0.5643197664 -0.0375571121
1393050000.0 0.4639148121 -0.3648478535
1403000000.0 0.217749252 -0.5764314761
1412950000.0 -0.0866751492 -0.6215416696
1422900000.0 -0.3618340911 -0.5017768599
1432850000.0 -0.5341792559 -0.2491067648
1442800000.0 -0.545410147 0.0705134123
1452750000.0 -0.3720295311 0.3538670591
1462700000.0 -0.0622718822 0.4885625583
1472650000.0 0.2628924351 0.4209819906
1482600000.0 0.4811976107 0.1877537575
1492550000.0 0.5251301568 -0.1125883393
1502500000.0 0.3987587842 -0.3734970755
1512450000.0 0.1542585744 -0.512838222
1522400000.0 -0.1235960712 -0.486715845
1532350000.0 -0.3360552215 -0.2972662247
1542300000.0 -0.3937645344 -0.0091431727
1552250000.0 -0.2635663065 0.2587539179
1562200000.0 -0.0006126912 0.3860785855
1572150000.0 0.2723744831 0.3255256363
1582100000.0 0.4418665509 0.1171809541
1592050000.0 0.4483952693 -0.1435053757
1602000000.0 0.2947576874 -0.3550279645
1611950000.0 0.0352326592 -0.4331947114
1621900000.0 -0.2306144441 -0.3319606249
1631850000.0 -0.3865464914 -0.0766099143
1641800000.0 -0.3516023295 0.2274071717
1651750000.0 -0.1395301743 0.446732527
1661700000.0 0.1559370415 0.4922852821
1671650000.0 0.4164209218 0.3587045175
1681600000.0 0.5553356149 0.102700287
1691550000.0 0.5295763554 -0.1934468601
1701500000.0 0.3409462492 -0.4357379636
1711450000.0 0.0360545241 -0.5371552926
1721400000.0 -0.2867357181 -0.4432136478
1731350000.0 -0.5044634996 -0.173825097
1741300000.0 -0.5326433259 0.1727484069
1751250000.0 -0.3685941944 0.4674247229
1761200000.0 -0.0833399043 0.6197157406
1771150000.0 0.2273540252 0.5998436163
1781100000.0 0.4803838951 0.4265552295
1791050000.0 0.6122539555 0.1464316313
1801000000.0 0.5833756295 -0.1718759899
1810950000.0 0.3875309327 -0.4394593259
1820900000.0 0.0706735356 -0.5637053429
1830850000.0 -0.2666427786 -0.4908498798
1840800000.0 -0.5050136464 -0.2456338216
1850750000.0 -0.571743453 0.0760842531
1860700000.0 -0.4682602491 0.3670764748
1870650000.0 -0.2470812757 0.5543919861
1880600000.0 0.0237709495 0.6040651338
1890550000.0 0.2755366562 0.5126482114
1900500000.0 0.4453953813 0.3032726431
1910450000.0 0.4817491197 0.0308883842
1920400000.0 0.3676766889 -0.22049122
1930350000.0 0.1418424325 -0.3654812855
1940300000.0 -0.1089001087 -0.3630501036
1950250000.0 -0.2996767903 -0.2383985156
1960200000.0 -0.3827936311 -0.0579496722
1970150000.0 -0.361931272 0.1113785836
1980100000.0 -0.2701228878 0.2207577898
1990050000.0 -0.1570512569 0.2491883378
2000000000.0 -0.0802710746 0.2111958377
