!Created with skrf (http://scikit-rf.org).
# GHz S RI R 50.0 
!freq ReS11 ImS11
10000000.0 -0.7753048034 0.6826866835
19950000.0 -0.1375308175 0.9917675892
29900000.0 0.5392536452 0.8130477091
39850000.0 0.941826047 0.2352302142
49800000.0 0.8662306318 -0.4765454968
59750000.0 0.316084562 -0.9670368844
69700000.0 -0.4469861103 -0.9365581765
79650000.0 -0.9727876345 -0.3510874586
89600000.0 -0.8988064862 0.4496696499
99550000.0 -0.2403755026 0.9386291535
109500000.0 0.5813616277 0.7573385294
119450000.0 0.9748532219 -0.0206838803
129400000.0 0.5745044188 -0.8307509832
139350000.0 -0.3450158026 -0.9645479405
149300000.0 -0.9588665503 -0.2764830137
159250000.0 -0.7530783172 0.5903758233
169200000.0 0.0251010889 0.9358448921
179150000.0 0.7598600553 0.5709159961
189100000.0 0.9658186551 -0.198658631
199050000.0 0.54539339 -0.8487916369
209000000.0 -0.1990134241 -0.9790143216
218950000.0 -0.795940155 -0.5533007539
228900000.0 -0.9292622008 0.144994998
238850000.0 -0.5581766258 0.7338802945
248800000.0 0.0244970628 0.9004466516
258750000.0 0.6993101428 0.634083082
268700000.0 0.9717517288 0.0031998449
278650000.0 0.740761336 -0.6365466947
288600000.0 0.1359133026 -0.9372947173
298550000.0 -0.5044371151 -0.7435463255
308500000.0 -0.8347673888 -0.1752316458
318450000.0 -0.6818543343 0.4505469676
328400000.0 -0.1372345438 0.7817064527
338350000.0 0.4618146723 0.6246543919
348300000.0 0.7208322351 0.0987978968
358250000.0 0.5105113526 -0.4099709297
368200000.0 0.0509084012 -0.551778903
378150000.0 -0.3098527576 -0.3048391392
388100000.0 -0.3459127307 0.0659433104
398050000.0 -0.1136129462 0.2712723021
408000000.0 0.138289045 0.2175024188
417950000.0 0.2224569021 0.0269656218
427900000.0 0.1342186293 -0.1190023984
437850000.0 -0.0131613776 -0.1298849502
447800000.0 -0.1007558161 -0.0347244388
457750000.0 -0.0845037768 0.0737679195
467700000.0 -0.0013011306 0.1175498072
477650000.0 0.0718984616 0.0842053736
487600000.0 0.0839191201 0.0219089578
497550000.0 0.0885118193 -0.0458534999
507500000.0 0.0155835336 -0.045200326
517450000.0 -0.0107119251 -0.0105262639
527400000.0 0.00141832 0.0164924433
537350000.0 0.025247075 0.0090629457
547300000.0 0.0259599131 -0.0284927275
557250000.0 -0.017149368 -0.0583056836
567200000.0 -0.0797269839 -0.044400945
577150000.0 -0.1197865934 0.0204142521
587100000.0 -0.0990043319 0.103974469
597050000.0 -0.015003796 0.1526669447
607000000.0 0.0925621901 0.1273864433
616950000.0 0.161766038 0.0289676969
626900000.0 0.1494190303 -0.0960560478
636850000.0 0.0551310692 -0.1835033326
646800000.0 -0.0758682693 -0.1859990952
656750000.0 -0.1779729405 -0.1000936185
666700000.0 -0.1955840969 0.0275968153
676650000.0 -0.1227573612 0.1260968306
686600000.0 -0.0041108861 0.1369339742
696550000.0 0.0909045793 0.0564117967
706500000.0 0.1104910429 -0.0251079089
716450000.0 0.0511623378 -0.1065598111
726400000.0 -0.0397983222 -0.1222334411
736350000.0 -0.0925253638 -0.0621756832
746300000.0 -0.0651313964 0.0182118592
756250000.0 0.0248173673 0.0463628406
766200000.0 0.1082865258 -0.0130156231
776150000.0 0.1108250682 -0.131366996
786100000.0 0.0063912265 -0.2265485397
796050000.0 -0.1553531938 -0.2183858481
806000000.0 -0.2722289654 -0.0826034185
815950000.0 -0.2423385183 0.1185524078
825900000.0 -0.0637671452 0.2662302715
835850000.0 0.1729452397 0.2567245872
845800000.0 0.3585448048 0.0721527675
855750000.0 0.3829414923 -0.2061551368
865700000.0 0.2082736355 -0.4330161394
875650000.0 -0.0859738811 -0.4847766714
885600000.0 -0.3555956611 -0.3150628141
895550000.0 -0.4488218562 0.000682976
905500000.0 -0.3016043653 0.3020802979
915450000.0 0.0212670016 0.4205833954
925400000.0 0.3472792971 0.2797891562
935350000.0 0.4892209001 -0.0494840051
945300000.0 0.356104196 -0.3774364858
955250000.0 0.0230501708 -0.5033561813
965200000.0 -0.3051792847 -0.335703237
975150000.0 -0.3981090371 0.0373821247
985100000.0 -0.1479886986 0.3569914865
995050000.0 0.2888858575 0.3339292204
1005000000.0 0.5256301645 -0.0767319805
1014950000.0 0.2853893366 -0.5316181181
1024900000.0 -0.2737461339 -0.5821984087
1034850000.0 -0.6722929336 -0.0994903906
1044800000.0 -0.4820025065 0.5642607309
1054750000.0 0.2335421435 0.7668505459
1064700000.0 0.8036907022 0.29164665
1074650000.0 0.7901713059 -0.4484885375
1084600000.0 0.2030753594 -0.8481227639
1094550000.0 -0.4631465089 -0.6874400153
1104500000.0 -0.7968697135 -0.0748305316
1114450000.0 -0.5274851451 0.5653989404
1124400000.0 0.1464278117 0.7200536724
1134350000.0 0.6366598369 0.2807577735
1144300000.0 0.5714781213 -0.3091791814
1154250000.0 0.1161029745 -0.5860111949
1164200000.0 -0.345929928 -0.4296849
1174150000.0 -0.52882169 -0.0029122301
1184100000.0 -0.3210935774 0.4136174292
1194050000.0 0.1321911013 0.5109710416
1204000000.0 0.4889912183 0.2306612902
1213950000.0 0.5214525651 -0.2012616108
1223900000.0 0.2528699252 -0.5162998752
1233850000.0 -0.1496914298 -0.5699341356
1243800000.0 -0.49585331 -0.3518834375
1253750000.0 -0.6263082207 0.0433230218
1263700000.0 -0.4619658495 0.4344976547
1273650000.0 -0.0645401751 0.6151662962
1283600000.0 0.3626269081 0.4824011612
1293550000.0 0.6020513955 0.1143928403
1303500000.0 0.5621048514 -0.3015538098
1313450000.0 0.2868903496 -0.5962339221
1323400000.0 -0.1078436754 -0.6703132928
1333350000.0 -0.4806251122 -0.5000746632
1343300000.0 -0.6917050503 -0.1366767106
1353250000.0 -0.6386084692 0.2867907677
1363200000.0 -0.319877702 0.5836292456
1373150000.0 0.1267792505 0.6053336374
1383100000.0 0.4905440461 0.3453850729
1393050000.0 0.6196066896 -0.0625547144
1403000000.0 0.4876643913 -0.4449642216
1412950000.0 0.1649206638 -0.6666495625
1422900000.0 -0.2247348001 -0.6587212121
1432850000.0 -0.5421549621 -0.4248292499
1442800000.0 -0.6637249989 -0.045161948
1452750000.0 -0.5264539057 0.3300681533
1462700000.0 -0.1761130092 0.5324738558
1472650000.0 0.2278783253 0.462856811
1482600000.0 0.4957653652 0.1601092306
1492550000.0 0.5171868479 -0.2244866591
1502500000.0 0.3035671812 -0.5212249894
1512450000.0 -0.0378909787 -0.6153717229
1522400000.0 -0.3600710753 -0.476328012
1532350000.0 -0.5210659978 -0.1673816192
1542300000.0 -0.4466686261 0.1704683876
1552250000.0 -0.1679132774 0.3715953065
1562200000.0 0.1690947216 0.3318919697
1572150000.0 0.3859382952 0.0783755611
1582100000.0 0.3701910455 -0.2460286103
1592050000.0 0.1426735942 -0.4615054857
1602000000.0 -0.1640832057 -0.4620142137
1611950000.0 -0.3896282293 -0.2531955862
1621900000.0 -0.4159773028 0.0581324022
1631850000.0 -0.217783261 0.3108513101
1641800000.0 0.1101084561 0.3616993076
1651750000.0 0.3918160938 0.1685367451
1661700000.0 0.4647413594 -0.1675830218
1671650000.0 0.2871837572 -0.4617354761
1681600000.0 -0.0440746847 -0.5604240743
1691550000.0 -0.3676567155 -0.4244645029
1701500000.0 -0.5443444047 -0.1145011672
1711450000.0 -0.4931855964 0.2423585094
1721400000.0 -0.2195261258 0.4972305071
1731350000.0 0.1756194512 0.5183382764
1741300000.0 0.5084786682 0.2761812953
1751250000.0 0.6117203081 -0.1202524062
1761200000.0 0.4400768717 -0.4758714859
1771150000.0 0.0893768506 -0.6384474675
1781100000.0 -0.2869224404 -0.5627039303
1791050000.0 -0.5552837611 -0.2936911968
1801000000.0 -0.6302423772 0.0729613957
1810950000.0 -0.4787652696 0.4171886543
1820900000.0 -0.1365802683 0.6022089103
1830850000.0 0.2675565974 0.5302378244
1840800000.0 0.5483499916 0.2199781147
1850750000.0 0.5736831792 -0.1767691759
1860700000.0 0.3571767654 -0.4820000274
1870650000.0 0.0173713895 -0.5878731001
1880600000.0 -0.3120414126 -0.4896069161
1890550000.0 -0.5291369339 -0.2407003312
1900500000.0 -0.5759402103 0.0728809184
1910450000.0 -0.436730791 0.3461749237
1920400000.0 -0.1618588862 0.4730601829
1930350000.0 0.1337463866 0.4009174019
1940300000.0 0.3131640581 0.1716211415
1950250000.0 0.3149480151 -0.0828324694
1960200000.0 0.1815712144 -0.2560346575
1970150000.0 -0.0003026248 -0.3134762274
1980100000.0 -0.147158521 -0.2732169122
1990050000.0 -0.2290709182 -0.178730038
2000000000.0 -0.2516413076 -0.0893275893
