!Created with skrf (http://scikit-rf.org).
# GHz S RI R 50.0 
!freq ReS11 ImS11
10000000.0 -0.8098949815 0.6058071925
19950000.0 -0.2951428236 0.9458117994
29900000.0 0.3166875416 0.9234507641
39850000.0 0.8062826098 0.5474404075
49800000.0 0.9847599947 -0.0558617142
59750000.0 0.7572575125 -0.6608374759
69700000.0 0.185440701 -1.000532327
79650000.0 -0.4885378903 -0.8870260044
89600000.0 -0.9306430319 -0.3430336513
99550000.0 -0.8935334701 0.3758202581
109500000.0 -0.3588122598 0.8920853623
119450000.0 0.4158528367 0.8819998685
129400000.0 0.9568303578 0.2713535159
139350000.0 0.8491532592 -0.541874552
149300000.0 0.1362974007 -0.9792109405
159250000.0 -0.6372404842 -0.714921567
169200000.0 -0.9408573439 0.0110506411
179150000.0 -0.6363903284 0.7024179448
189100000.0 0.0415962945 0.9663447927
199050000.0 0.6900223346 0.6953831901
209000000.0 0.9704044933 0.074147221
218950000.0 0.7764613653 -0.5503790832
228900000.0 0.2427810907 -0.8964504636
238850000.0 -0.3795378555 -0.8335451486
248800000.0 -0.6888548651 -0.235433142
258750000.0 -0.9203142886 0.1501870902
268700000.0 -0.6441323887 0.6928919094
278650000.0 -0.0952130734 0.9389426694
288600000.0 0.4813579431 0.7858114876
298550000.0 0.8303441156 0.308716402
308500000.0 0.8028049559 -0.276825913
318450000.0 0.4151921648 -0.7074459505
328400000.0 -0.1506310902 -0.7851295351
338350000.0 -0.6126170915 -0.4729600558
348300000.0 -0.7255031038 0.0489623618
358250000.0 -0.4547272544 0.4672406606
368200000.0 -0.0102646872 0.5549631254
378150000.0 0.319714484 0.3262680531
388100000.0 0.3744346466 -0.0170189548
398050000.0 0.1948898045 -0.2493641344
408000000.0 -0.046783589 -0.2690671904
417950000.0 -0.1909096892 -0.1307648994
427900000.0 -0.1844417838 0.0355762932
437850000.0 -0.0760731454 0.1257497912
447800000.0 0.0432932808 0.1121780776
457750000.0 0.10568311 0.0321642549
467700000.0 0.0927199676 -0.0515200146
477650000.0 0.0358048853 -0.0892292492
487600000.0 -0.0166647669 -0.0710338941
497550000.0 0.0139423961 -0.0367691978
507500000.0 -0.0477100777 -0.0107138466
517450000.0 -0.0130177172 0.0071588641
527400000.0 0.0050937712 -0.007557937
537350000.0 -0.0069754082 -0.028478958
547300000.0 -0.0443813202 -0.0292568146
557250000.0 -0.0756135206 0.0124776867
567200000.0 -0.0689721586 0.0718201688
577150000.0 -0.0179606091 0.119125249
587100000.0 0.0601809783 0.1221867516
597050000.0 0.1309810537 0.0687524855
607000000.0 0.1551231452 -0.0268649238
616950000.0 0.1137017905 -0.1247934868
626900000.0 0.0182199923 -0.1816915039
636850000.0 -0.0952818985 -0.1703536423
646800000.0 -0.1792103028 -0.0925772777
656750000.0 -0.1979566251 0.0202434776
666700000.0 -0.1413337046 0.1190518763
676650000.0 -0.0352145919 0.1597523653
686600000.0 0.070597844 0.1240436384
696550000.0 0.1290822173 0.035069436
706500000.0 0.1203719686 -0.0647760548
716450000.0 0.0533923436 -0.13017483
726400000.0 -0.0337596012 -0.1288467329
736350000.0 -0.087814833 -0.0653734845
746300000.0 -0.0741689883 0.0193200418
756250000.0 0.0040377265 0.0701195469
766200000.0 0.1022247576 0.0478636297
776150000.0 0.1603706671 -0.0441774589
786100000.0 0.1340610108 -0.1600556252
796050000.0 0.0221025127 -0.2312516647
806000000.0 -0.1264269047 -0.2024746457
815950000.0 -0.2323599582 -0.0659618383
825900000.0 -0.2276374256 0.1262111941
835850000.0 -0.0948613737 0.2869648969
845800000.0 0.11932525 0.3351491313
855750000.0 0.3260741812 0.2372859247
865700000.0 0.4314299399 0.0244264799
875650000.0 0.3786822923 -0.2178151721
885600000.0 0.175732465 -0.382848516
895550000.0 -0.0999862423 -0.3849778601
905500000.0 -0.3262145564 -0.2087559223
915450000.0 -0.3939000597 0.0786834153
925400000.0 -0.2606117605 0.3451744963
935350000.0 0.0164488434 0.4575700041
945300000.0 0.2992674148 0.3494433795
955250000.0 0.4303966453 0.0630213844
965200000.0 0.3075359436 -0.2515479606
975150000.0 -0.0353751632 -0.3842571885
985100000.0 -0.3884417761 -0.1896376487
995050000.0 -0.4604626979 0.2444250099
1005000000.0 -0.1315401273 0.592941563
1014950000.0 0.3917325832 0.5398227734
1024900000.0 0.7057635278 0.053434996
1034850000.0 0.5122170966 -0.5504787213
1044800000.0 -0.1177641361 -0.7963930428
1054750000.0 -0.7127725043 -0.4489234446
1064700000.0 -0.7747019253 0.1644828236
1074650000.0 -0.5552342747 0.6301088303
1084600000.0 0.0008756274 0.8150123775
1094550000.0 0.535612681 0.5976692098
1104500000.0 0.7690628524 0.0460655415
1114450000.0 0.535585006 -0.5070195758
1124400000.0 -0.0122291991 -0.7055849698
1134350000.0 -0.4937901931 -0.4524959102
1144300000.0 -0.6284187877 0.0263058502
1154250000.0 -0.4052535542 0.4238487704
1164200000.0 0.0021553258 0.5447620322
1174150000.0 0.3669528383 0.3613123595
1184100000.0 0.4985475723 -0.025458287
1194050000.0 0.3150648972 -0.384896358
1204000000.0 -0.055685502 -0.5053109149
1213950000.0 -0.3927153839 -0.3528491702
1223900000.0 -0.5492789206 -0.0350578704
1233850000.0 -0.4823025862 0.3032278642
1243800000.0 -0.2248799672 0.5357502376
1253750000.0 0.1287062923 0.5690560266
1263700000.0 0.4400846766 0.3759316688
1273650000.0 0.5730881592 0.0265319126
1283600000.0 0.472037909 -0.332410064
1293550000.0 0.192337953 -0.5620108435
1303500000.0 -0.1546869297 -0.6001555331
1313450000.0 -0.4599610715 -0.453749381
1323400000.0 -0.6424093504 -0.1732575697
1333350000.0 -0.6509757108 0.1654821292
1343300000.0 -0.469255949 0.4670871762
1353250000.0 -0.1367056434 0.6227626453
1363200000.0 0.2374920375 0.560980704
1373150000.0 0.5138241857 0.2973419281
1383100000.0 0.5965100174 -0.0668924173
1393050000.0 0.4772043351 -0.4036169877
1403000000.0 0.2122321318 -0.6183296203
1412950000.0 -0.1133428529 -0.6626484975
1422900000.0 -0.410023314 -0.5330343584
1432850000.0 -0.5937676508 -0.2626575836
1442800000.0 -0.6026027547 0.0723759563
1452750000.0 -0.4232627996 0.3652948968
1462700000.0 -0.1075782445 0.5160831583
1472650000.0 0.2374160432 0.4697885778
1482600000.0 0.4932123214 0.2480118152
1492550000.0 0.5813958115 -0.0630596656
1502500000.0 0.4884963878 -0.3573201058
1512450000.0 0.2550430404 -0.5452531644
1522400000.0 -0.0423831755 -0.5689027191
1532350000.0 -0.3042979741 -0.4140187281
1542300000.0 -0.4301305575 -0.1285474621
1552250000.0 -0.3635523031 0.1792779108
1562200000.0 -0.1306866357 0.3831661353
1572150000.0 0.1648861153 0.4057016266
1582100000.0 0.4002468827 0.2528605564
1592050000.0 0.4892267295 0.0004191707
1602000000.0 0.4068106123 -0.2487289008
1611950000.0 0.1857918518 -0.3988441945
1621900000.0 -0.0905084586 -0.3840098451
1631850000.0 -0.3081982941 -0.1968366215
1641800000.0 -0.3652876087 0.0886309431
1651750000.0 -0.2399201419 0.3446035522
1661700000.0 0.0135818669 0.4799005891
1671650000.0 0.2977865119 0.425426698
1681600000.0 0.4881662033 0.2124517499
1691550000.0 0.522853489 -0.0730645101
1701500000.0 0.3865308831 -0.3385916864
1711450000.0 0.1127378835 -0.4881143343
1721400000.0 -0.2135885681 -0.4533946516
1731350000.0 -0.4668209936 -0.229560593
1741300000.0 -0.5415535786 0.1022231926
1751250000.0 -0.4123868659 0.4104156935
1761200000.0 -0.1412813242 0.5864274721
1771150000.0 0.1716555978 0.5887924747
1781100000.0 0.4361387882 0.4321142552
1791050000.0 0.585264948 0.1625192505
1801000000.0 0.5758780541 -0.1534788138
1810950000.0 0.3949565179 -0.4280580298
1820900000.0 0.0822061524 -0.5636462199
1830850000.0 -0.2580393391 -0.4981717647
1840800000.0 -0.4983065791 -0.2550642894
1850750000.0 -0.5618966655 0.0662531823
1860700000.0 -0.4532785549 0.3534035932
1870650000.0 -0.2293271552 0.5351623433
1880600000.0 0.0410035481 0.580053093
1890550000.0 0.2914859488 0.4869884083
1900500000.0 0.4589763159 0.2787933375
1910450000.0 0.4900490257 0.0088844718
1920400000.0 0.3656625883 -0.2341852492
1930350000.0 0.1312284785 -0.3634020735
1940300000.0 -0.1197805384 -0.3404278366
1950250000.0 -0.2988749682 -0.200203337
1960200000.0 -0.3659149885 -0.0145362818
1970150000.0 -0.3308640414 0.1483868343
1980100000.0 -0.2320128117 0.2430995422
1990050000.0 -0.1241087492 0.2550958547
2000000000.0 -0.0631971271 0.2059043963
