!Created with skrf (http://scikit-rf.org).
# GHz S RI R 50.0 
!freq ReS11 ImS11
10000000.0 -0.9826973884 0.3185241112
19950000.0 -0.8327158507 0.5853915369
29900000.0 -0.6124063976 0.7924051384
39850000.0 -0.3410193353 0.9250413181
49800000.0 -0.0439511841 0.9732191658
59750000.0 0.255139426 0.933771139
69700000.0 0.531642456 0.8101884192
79650000.0 0.7614756577 0.6110234062
89600000.0 0.923775056 0.3518246469
99550000.0 1.000845287 0.0545612768
109500000.0 0.982738671 -0.2524450996
119450000.0 0.8687139025 -0.5380280465
129400000.0 0.6708477394 -0.7711464863
139350000.0 0.4111003849 -0.9279067957
149300000.0 0.1178275059 -0.9941919724
159250000.0 -0.1786192066 -0.9677362337
169200000.0 -0.4512845011 -0.8552636134
179150000.0 -0.6778384911 -0.6708822156
189100000.0 -0.8419089017 -0.4313280111
199050000.0 -0.9327220832 -0.1562676372
209000000.0 -0.9433057117 0.1363303312
218950000.0 -0.8704193142 0.4153373466
228900000.0 -0.7188776386 0.6650504325
238850000.0 -0.497516905 0.8598157073
248800000.0 -0.2255837145 0.9778661022
258750000.0 0.0722306604 1.004114736
268700000.0 0.3644442052 0.9331641283
278650000.0 0.6191207441 0.7723567249
288600000.0 0.8102535746 0.5394767414
298550000.0 0.9203254285 0.2607182215
308500000.0 0.9415389916 -0.0365090054
318450000.0 0.8751724033 -0.3240958204
328400000.0 0.7302476679 -0.5782635165
338350000.0 0.5206798604 -0.778331775
348300000.0 0.2652699466 -0.9089450155
358250000.0 -0.0140488953 -0.9605555138
368200000.0 -0.2948028041 -0.9284621528
378150000.0 -0.5526909707 -0.8147962184
388100000.0 -0.7647098389 -0.6281697242
398050000.0 -0.9103492903 -0.3841015712
408000000.0 -0.9747774765 -0.1049687089
417950000.0 -0.9509855373 0.1827796516
427900000.0 -0.8404433286 0.4526351276
437850000.0 -0.6525003675 0.6794256469
447800000.0 -0.4032128384 0.8412321237
457750000.0 -0.1156281072 0.9225292407
467700000.0 0.1835969237 0.9137628362
477650000.0 0.4659543027 0.8159683517
487600000.0 0.7036146693 0.6381859483
497550000.0 0.8731862307 0.3985061078
507500000.0 0.9598998878 0.1228648288
517450000.0 0.9573659553 -0.1618476795
527400000.0 0.8695137772 -0.4277692735
537350000.0 0.7077059873 -0.6519617612
547300000.0 0.4900249159 -0.8174372595
557250000.0 0.2354234737 -0.9135463752
567200000.0 -0.0363943157 -0.9341338506
577150000.0 -0.3057928231 -0.8781124924
587100000.0 -0.5521265584 -0.7476593748
597050000.0 -0.7547870735 -0.5487779544
607000000.0 -0.8934927782 -0.294655463
616950000.0 -0.9502886111 -0.0046529927
626900000.0 -0.9122466312 0.292815263
636850000.0 -0.7793942138 0.5651318755
646800000.0 -0.564809517 0.7780388304
656750000.0 -0.2945396057 0.9082157428
666700000.0 -0.001660785 0.9434788115
676650000.0 0.2809004083 0.8872213294
686600000.0 0.5275244828 0.7527839643
696550000.0 0.721059803 0.5586615156
706500000.0 0.8508656302 0.3244599805
716450000.0 0.9133711156 0.0679652625
726400000.0 0.9048696202 -0.194117085
736350000.0 0.8259488621 -0.4456084673
746300000.0 0.678376694 -0.6680168494
756250000.0 0.468928508 -0.8419928391
766200000.0 0.210224572 -0.94799646
776150000.0 -0.0777620346 -0.9681653687
786100000.0 -0.3649447729 -0.8909628124
796050000.0 -0.6164630814 -0.7186865801
806000000.0 -0.800633113 -0.470178984
815950000.0 -0.892507195 -0.1758937212
825900000.0 -0.8870733612 0.1281711675
835850000.0 -0.7921602169 0.4094759475
845800000.0 -0.6244284497 0.6432014593
855750000.0 -0.4044971333 0.8134446796
865700000.0 -0.1543637852 0.9118569964
875650000.0 0.1058012453 0.9375287149
885600000.0 0.3572819738 0.8914219063
895550000.0 0.5840429822 0.7774178829
905500000.0 0.7699713628 0.602498653
915450000.0 0.8989326498 0.3770602167
925400000.0 0.9572211626 0.1162587024
935350000.0 0.933022404 -0.1599633374
945300000.0 0.8219187516 -0.4254347019
955250000.0 0.6279691007 -0.6519158919
965200000.0 0.3668500846 -0.8105928104
975150000.0 0.0647236675 -0.8807278283
985100000.0 -0.243764436 -0.8523676132
995050000.0 -0.5235429394 -0.7303777053
1005000000.0 -0.7454323313 -0.532006307
1014950000.0 -0.8897215454 -0.2844168051
1024900000.0 -0.9492687895 -0.0155360335
1034850000.0 -0.9265193715 0.2477151535
1044800000.0 -0.8311711165 0.4846243317
1054750000.0 -0.6759477875 0.6799637
1064700000.0 -0.4740186212 0.8226382595
1074650000.0 -0.2406869309 0.9054367729
1084600000.0 0.0120943103 0.9234200883
1094550000.0 0.2685003097 0.8697848341
1104500000.0 0.5096201288 0.7438675382
1114450000.0 0.7142770427 0.5445188064
1124400000.0 0.8542229945 0.2809615712
1134350000.0 0.9050804297 -0.0245781388
1144300000.0 0.8496941714 -0.336193586
1154250000.0 0.6912575432 -0.6106497744
1164200000.0 0.4528755508 -0.8106898703
1174150000.0 0.1713087799 -0.9138690701
1184100000.0 -0.1150370952 -0.9199999226
1194050000.0 -0.3745660243 -0.8423239689
1204000000.0 -0.5891911227 -0.7009371118
1213950000.0 -0.7512151738 -0.515941315
1223900000.0 -0.8577937867 -0.3020459441
1233850000.0 -0.907987787 -0.0719946984
1243800000.0 -0.9000663771 0.165243981
1253750000.0 -0.8305952892 0.3986689088
1263700000.0 -0.69649265 0.6150406077
1273650000.0 -0.4944230513 0.7944018594
1283600000.0 -0.2307393267 0.9098088233
1293550000.0 0.0748746893 0.9325830067
1303500000.0 0.3830990701 0.8426685569
1313450000.0 0.6444062263 0.6426348752
1323400000.0 0.8156579117 0.3638436305
1333350000.0 0.8781022101 0.0531917802
1343300000.0 0.8392297757 -0.2435367229
1353250000.0 0.7219549928 -0.4972558575
1363200000.0 0.5521390418 -0.6942003385
1373150000.0 0.3505178454 -0.8318074825
1383100000.0 0.1321679723 -0.9110955784
1393050000.0 -0.0918909765 -0.9340317763
1403000000.0 -0.3137172591 -0.9007530142
1412950000.0 -0.523725774 -0.8092425863
1422900000.0 -0.7094711481 -0.6572636727
1432850000.0 -0.8522148892 -0.4446006529
1442800000.0 -0.9286529196 -0.1782982551
1452750000.0 -0.9135074076 0.1203314553
1462700000.0 -0.7900505925 0.4142354183
1472650000.0 -0.5636268219 0.6571312385
1482600000.0 -0.2644614213 0.8079250273
1492550000.0 0.0605965876 0.8477732501
1502500000.0 0.3652473745 0.7826539367
1512450000.0 0.6170019517 0.636628878
1522400000.0 0.8012446735 0.4389689961
1532350000.0 0.9135460709 0.2143447884
1542300000.0 0.9575369182 -0.0172409131
1552250000.0 0.9385953566 -0.2422343265
1562200000.0 0.8628234318 -0.449725769
1572150000.0 0.7343625655 -0.6310003277
1582100000.0 0.556390964 -0.7764182349
1592050000.0 0.3339729456 -0.8736702209
1602000000.0 0.0746340979 -0.9088913654
1611950000.0 -0.2030973191 -0.8631982541
1621900000.0 -0.4718424745 -0.7263010961
1631850000.0 -0.6949909124 -0.4979303628
1641800000.0 -0.8335345408 -0.1979273462
1651750000.0 -0.8606842501 0.1340312779
1661700000.0 -0.7728030163 0.4474500042
1671650000.0 -0.591164924 0.6991794046
1681600000.0 -0.3529627609 0.8638718222
1691550000.0 -0.095295057 0.9383258991
1701500000.0 0.1535655339 0.9334616936
1711450000.0 0.3767966888 0.8636458193
1721400000.0 0.5664756824 0.7426002719
1731350000.0 0.7171251451 0.5819806277
1741300000.0 0.8257931137 0.3892108907
1751250000.0 0.8867963262 0.1704154859
1761200000.0 0.8928481303 -0.0690396383
1771150000.0 0.8327714249 -0.3188587929
1781100000.0 0.6932739769 -0.5599959714
1791050000.0 0.4683942599 -0.7616521188
1801000000.0 0.1681607707 -0.8830044696
1810950000.0 -0.1720887154 -0.8854539292
1820900000.0 -0.4914986967 -0.7569575624
1830850000.0 -0.7319982739 -0.5222584791
1840800000.0 -0.8634432359 -0.234119195
1850750000.0 -0.8888348999 0.0563997363
1860700000.0 -0.8311647671 0.3152786652
1870650000.0 -0.7168178005 0.5287873182
1880600000.0 -0.5661965882 0.6943772736
1890550000.0 -0.3925226116 0.8145738838
1900500000.0 -0.2021785789 0.8914029357
1910450000.0 0.0020128908 0.9244877468
1920400000.0 0.2160626969 0.9089563881
1930350000.0 0.4333324962 0.8344350036
1940300000.0 0.6396602548 0.6890904846
1950250000.0 0.8084333859 0.4641101542
1960200000.0 0.9001264653 0.1642110457
1970150000.0 0.8719434586 -0.1760584474
1980100000.0 0.7077165952 -0.4934082949
1990050000.0 0.435074044 -0.7221916225
2000000000.0 0.1142904964 -0.8304551305
