!Created with skrf (http://scikit-rf.org).
# GHz S RI R 50.0 
!freq ReS11 ImS11
10000000.0 -0.8075315388 0.6035592133
19950000.0 -0.2943385777 0.9484249526
29900000.0 0.3212643208 0.9297692025
39850000.0 0.8149212959 0.5503244398
49800000.0 0.9895166225 -0.0610914178
59750000.0 0.7475046628 -0.6687886798
69700000.0 0.157974707 -0.9969155824
79650000.0 -0.5239092412 -0.8560740038
89600000.0 -0.9486972861 -0.2759845079
99550000.0 -0.8551672828 0.463098872
109500000.0 -0.2403725633 0.9376330848
119450000.0 0.561330837 0.8009017688
129400000.0 0.9891406185 0.0720200924
139350000.0 0.6808317023 -0.7224258465
149300000.0 -0.1236950862 -0.9676852226
159250000.0 -0.7989857512 -0.5252727666
169200000.0 -0.9200668127 0.2342885231
179150000.0 -0.4839556985 0.8253447524
189100000.0 0.2100002673 0.9466788739
199050000.0 0.7822494277 0.5841243222
209000000.0 0.9692224153 -0.0428479841
218950000.0 0.7256281299 -0.6209554158
228900000.0 0.193113217 -0.9196328937
238850000.0 -0.4003928863 -0.8408029916
248800000.0 -0.8166608153 -0.4205898325
258750000.0 -0.9297284397 0.1475269641
268700000.0 -0.6680192156 0.6740547933
278650000.0 -0.1441584285 0.9357206806
288600000.0 0.4276362064 0.8271964562
298550000.0 0.8130641982 0.3974475217
308500000.0 0.856246637 -0.1749751653
318450000.0 0.5376851552 -0.648115785
328400000.0 -0.0030937129 -0.8106530257
338350000.0 -0.5063929105 -0.5835775183
348300000.0 -0.7109786649 -0.0977811556
358250000.0 -0.529064615 0.3549915945
368200000.0 -0.1254538834 0.5184847382
378150000.0 0.2140395471 0.3601313846
388100000.0 0.3035380979 0.0625253445
398050000.0 0.1682662704 -0.1466887945
408000000.0 -0.0257570338 -0.1640597941
417950000.0 -0.1264035614 -0.0478474508
427900000.0 -0.0926308534 0.0768382963
437850000.0 0.0171345553 0.1177844492
447800000.0 0.1137001771 0.0598922874
457750000.0 0.1351762486 -0.0476097199
467700000.0 0.0758825254 -0.1359324458
477650000.0 -0.024255951 -0.1581203061
487600000.0 -0.1084043455 -0.1097758444
497550000.0 -0.1366840662 -0.0285345508
507500000.0 -0.1102707956 0.0528011106
517450000.0 -0.045821743 0.086577663
527400000.0 0.0131639479 0.0722643426
537350000.0 0.0383503822 0.0310450579
547300000.0 0.02673281 -0.0027840086
557250000.0 -0.0008345 -0.0092628551
567200000.0 -0.015664401 0.0127150335
577150000.0 0.0006573416 0.0408468868
587100000.0 0.0426509218 0.0455896768
597050000.0 0.0846617934 0.0116036723
607000000.0 0.0952839749 -0.0535581127
616950000.0 0.0566396342 -0.1196905904
626900000.0 -0.0225810111 -0.1514664204
636850000.0 -0.1116185328 -0.1253827158
646800000.0 -0.1688439957 -0.0456489002
656750000.0 -0.1640968311 0.0572220115
666700000.0 -0.0935608756 0.1379924654
676650000.0 0.0147603786 0.1582152013
686600000.0 0.1135797023 0.1061300169
696550000.0 0.1591230076 0.0046255675
706500000.0 0.1311391302 -0.099371886
716450000.0 0.0455478339 -0.1582457448
726400000.0 -0.0534892153 -0.1442474076
736350000.0 -0.1132529442 -0.066946331
746300000.0 -0.1005420774 0.0303797855
756250000.0 -0.0200375506 0.0915542955
766200000.0 0.0832756302 0.0774897701
776150000.0 0.1482968115 -0.0107132302
786100000.0 0.1295884789 -0.1258761236
796050000.0 0.0251447586 -0.1992848098
806000000.0 -0.1161557207 -0.17545759
815950000.0 -0.2159789147 -0.0471857272
825900000.0 -0.2065843385 0.133698788
835850000.0 -0.0721482045 0.2794456011
845800000.0 0.1381873629 0.3093827704
855750000.0 0.3314612 0.1933447215
865700000.0 0.4129237749 -0.0300640217
875650000.0 0.3313939564 -0.2670332508
885600000.0 0.1059597351 -0.4091640704
895550000.0 -0.1741157877 -0.3786956243
905500000.0 -0.384319518 -0.1705893153
915450000.0 -0.4192842565 0.1339945654
925400000.0 -0.2502224257 0.3978789055
935350000.0 0.0536703949 0.4932369263
945300000.0 0.3519069159 0.3645633445
955250000.0 0.4933183027 0.0607590624
965200000.0 0.3854656183 -0.2741741508
975150000.0 0.0551514714 -0.4491957927
985100000.0 -0.3184664942 -0.3240107534
995050000.0 -0.4848462118 0.0467765998
1005000000.0 -0.3171577768 0.4353831127
1014950000.0 0.1100378835 0.5783708055
1024900000.0 0.5409631884 0.3271772473
1034850000.0 0.6348769824 -0.2297297649
1044800000.0 0.2071677847 -0.7005379373
1054750000.0 -0.4812720999 -0.635455606
1064700000.0 -0.8470844423 -0.0329813235
1074650000.0 -0.6265193885 0.6134036482
1084600000.0 -0.0058071693 0.8707195891
1094550000.0 0.5487667727 0.6107061372
1104500000.0 0.8162237718 0.0278857357
1114450000.0 0.541792805 -0.5706578979
1124400000.0 -0.0713888295 -0.7559114184
1134350000.0 -0.5823828964 -0.4472706136
1144300000.0 -0.7029247868 0.083110464
1154250000.0 -0.4449007594 0.5101861798
1164200000.0 0.0070685633 0.6396336712
1174150000.0 0.4140339145 0.4371682676
1184100000.0 0.5759424502 0.0133087883
1194050000.0 0.3986216207 -0.4009946745
1204000000.0 0.0004712602 -0.5714726519
1213950000.0 -0.3861370728 -0.4428598737
1223900000.0 -0.5920668464 -0.1190286156
1233850000.0 -0.5609102557 0.2487904864
1243800000.0 -0.3180218183 0.5242601506
1253750000.0 0.0482372832 0.6021356477
1263700000.0 0.3967251584 0.4386276565
1273650000.0 0.5764224702 0.0917282672
1283600000.0 0.5117299956 -0.2907664513
1293550000.0 0.2456718287 -0.5548413432
1303500000.0 -0.1074772017 -0.6218052047
1313450000.0 -0.4290814047 -0.491594842
1323400000.0 -0.6298343422 -0.2140366784
1333350000.0 -0.650819925 0.1322544798
1343300000.0 -0.4736748229 0.444266822
1353250000.0 -0.1393049198 0.6094232741
1363200000.0 0.2391088644 0.5531647714
1373150000.0 0.5183745031 0.2908629576
1383100000.0 0.6004438831 -0.0728028938
1393050000.0 0.476702461 -0.4077110131
1403000000.0 0.2053167769 -0.6162062607
1412950000.0 -0.1260389075 -0.6491254188
1422900000.0 -0.4232834131 -0.5025236681
1432850000.0 -0.597321719 -0.2135462111
1442800000.0 -0.5822797094 0.1335234391
1452750000.0 -0.3698454274 0.4189077511
1462700000.0 -0.0308096118 0.5341304559
1472650000.0 0.3067209938 0.4399087491
1482600000.0 0.5243649367 0.1832402193
1492550000.0 0.5604945921 -0.135787565
1502500000.0 0.4185801064 -0.4095107383
1512450000.0 0.1522796717 -0.5531763529
1522400000.0 -0.1494532024 -0.5175927023
1532350000.0 -0.3771470641 -0.3081484992
1542300000.0 -0.4363969472 0.0011945162
1552250000.0 -0.297319817 0.283828857
1562200000.0 -0.0208345058 0.4205776127
1572150000.0 0.2697538941 0.3632964685
1582100000.0 0.4582029951 0.1506312683
1592050000.0 0.4787116428 -0.1248658982
1602000000.0 0.327860974 -0.3568036315
1611950000.0 0.0611241979 -0.4535303872
1621900000.0 -0.2211007908 -0.3664727177
1631850000.0 -0.4000307029 -0.1165716374
1641800000.0 -0.388385839 0.1988335535
1651750000.0 -0.1855049943 0.4426157967
1661700000.0 0.1199834345 0.5124900191
1671650000.0 0.4023531976 0.3897183921
1681600000.0 0.5607524314 0.1291620299
1691550000.0 0.5457147525 -0.1790461882
1701500000.0 0.3569473683 -0.4350087738
1711450000.0 0.044899834 -0.5483626491
1721400000.0 -0.292556702 -0.4616509087
1731350000.0 -0.5263237068 -0.1896258929
1741300000.0 -0.5602422439 0.1688358565
1751250000.0 -0.3878733708 0.476015681
1761200000.0 -0.0862515198 0.6310681584
1771150000.0 0.2396483687 0.6039734659
1781100000.0 0.4998970574 0.417717305
1791050000.0 0.6309953187 0.1245640059
1801000000.0 0.5925156713 -0.2038442788
1810950000.0 0.3777442634 -0.4742272829
1820900000.0 0.0370105899 -0.5865638594
1830850000.0 -0.3103317992 -0.4845219522
1840800000.0 -0.5263232726 -0.2186392498
1850750000.0 -0.5813760158 0.0973738847
1860700000.0 -0.4660226226 0.3903293876
1870650000.0 -0.2300586924 0.5719049956
1880600000.0 0.0516603689 0.6098889811
1890550000.0 0.3101295297 0.5047447788
1900500000.0 0.4809590313 0.2806279497
1910450000.0 0.5077538541 -0.0048996697
1920400000.0 0.3738543079 -0.2596178072
1930350000.0 0.1282577324 -0.3947608459
1940300000.0 -0.1333670286 -0.3758080925
1950250000.0 -0.3246629076 -0.2373621708
1960200000.0 -0.4068887627 -0.0470807476
1970150000.0 -0.3854110708 0.1314750573
1980100000.0 -0.2908505104 0.2543220519
1990050000.0 -0.1660449497 0.3010921424
2000000000.0 -0.0568854766 0.2769309745
