!Created with skrf (http://scikit-rf.org).
# GHz S RI R 50.0 
!freq ReS11 ImS11
10000000.0 -0.730077467 0.5622146672
19950000.0 -0.2659297326 0.8872782548
29900000.0 0.3026910023 0.8723261538
39850000.0 0.7638031222 0.510808718
49800000.0 0.9210629932 -0.0754613163
59750000.0 0.680177754 -0.6553621472
69700000.0 0.1160076575 -0.9616321893
79650000.0 -0.5224106506 -0.8186039604
89600000.0 -0.9138754555 -0.2606098956
99550000.0 -0.8235943137 0.4511971794
109500000.0 -0.2400070877 0.9220965713
119450000.0 0.5386759493 0.8144619945
129400000.0 0.9861708356 0.1221379806
139350000.0 0.7317039618 -0.6755105294
149300000.0 -0.0384490046 -0.9670135151
159250000.0 -0.7269799424 -0.5728809569
169200000.0 -0.8909225432 0.1629559274
179150000.0 -0.5088847112 0.755647779
189100000.0 0.1322543872 0.9043401534
199050000.0 0.6793800692 0.589680275
209000000.0 0.8863096099 0.0066739522
218950000.0 0.6889532104 -0.5523271407
228900000.0 0.201753068 -0.8540876635
238850000.0 -0.3570953696 -0.7889646414
248800000.0 -0.7380229519 -0.3861239251
258750000.0 -0.8454210863 0.1496620178
268700000.0 -0.5923391266 0.6435977031
278650000.0 -0.1045600326 0.8807461227
288600000.0 0.4180862898 0.7673819747
298550000.0 0.7633644208 0.3505674158
308500000.0 0.7842761163 -0.1999573918
318450000.0 0.460617607 -0.6458699726
328400000.0 -0.0661652345 -0.7806165621
338350000.0 -0.5379841778 -0.5353747982
348300000.0 -0.7050630687 -0.0492283176
358250000.0 -0.4977596998 0.3855719693
368200000.0 -0.0863435565 0.5254150714
378150000.0 0.2468197701 0.3495132544
388100000.0 0.328740637 0.045413503
398050000.0 0.1914509728 -0.1659363537
408000000.0 -0.0051129676 -0.1884343198
417950000.0 -0.117252495 -0.0779202924
427900000.0 -0.1014721867 0.0475694154
437850000.0 -0.0088110566 0.0954068999
447800000.0 0.0747224169 0.0503356087
457750000.0 0.0941856487 -0.0414058069
467700000.0 0.043212285 -0.1158520614
477650000.0 -0.0374214725 -0.1299460882
487600000.0 -0.0992699053 -0.0826525255
497550000.0 -0.1086813567 -0.008149665
507500000.0 -0.0739618586 0.0591778625
517450000.0 -0.0090317465 0.0833867116
527400000.0 0.0451506508 0.0625836593
537350000.0 0.0622720968 0.0183005291
547300000.0 0.0420678813 -0.0178432097
557250000.0 0.0015349657 -0.0249118619
567200000.0 -0.0270740904 -0.000860326
577150000.0 -0.0233471969 0.0320469487
587100000.0 0.010454934 0.0447064566
597050000.0 0.0507383249 0.0188745992
607000000.0 0.0653977665 -0.0379886818
616950000.0 0.0363371395 -0.0966181977
626900000.0 -0.027672605 -0.1232072825
636850000.0 -0.0962365457 -0.0968684939
646800000.0 -0.1344877038 -0.0260140411
656750000.0 -0.1210203103 0.0608325137
666700000.0 -0.0549753906 0.1244814793
676650000.0 0.0381042832 0.1317863109
686600000.0 0.1169734208 0.0733075489
696550000.0 0.1429772698 -0.0262551374
706500000.0 0.0999912289 -0.1234109803
716450000.0 0.0055849531 -0.1721852273
726400000.0 -0.0949355124 -0.1445400873
736350000.0 -0.1465299967 -0.0541522946
746300000.0 -0.1172802001 0.0516733968
756250000.0 -0.0171900793 0.1152192471
766200000.0 0.1042466911 0.0962627503
776150000.0 0.1830412945 -0.0006258486
786100000.0 0.1721355535 -0.126843848
796050000.0 0.0688413997 -0.2118062464
806000000.0 -0.0770686843 -0.1980036026
815950000.0 -0.1875820987 -0.0781984653
825900000.0 -0.1950044714 0.0975232089
835850000.0 -0.0835534078 0.2432765862
845800000.0 0.1005917524 0.2832359414
855750000.0 0.2769315225 0.1888960071
865700000.0 0.3603472998 -0.0087679005
875650000.0 0.2983391257 -0.2259302417
885600000.0 0.1004944706 -0.3578062605
895550000.0 -0.1504688936 -0.3243602092
905500000.0 -0.3301063376 -0.1227004623
915450000.0 -0.3383775238 0.1625864744
925400000.0 -0.1574979976 0.3908014702
935350000.0 0.1287350626 0.4407200892
945300000.0 0.3768714599 0.2756371338
955250000.0 0.4469649636 -0.0381860006
965200000.0 0.2665001331 -0.3403714125
975150000.0 -0.1052062938 -0.4317725212
985100000.0 -0.4495872053 -0.1955520118
995050000.0 -0.4959821512 0.2519300359
1005000000.0 -0.1658298257 0.5915172354
1014950000.0 0.3374543027 0.5497764432
1024900000.0 0.6546909318 0.0993107443
1034850000.0 0.5047493275 -0.4760660567
1044800000.0 -0.0621241115 -0.7290496587
1054750000.0 -0.6235990426 -0.4288946453
1064700000.0 -0.7459721909 0.1739924474
1074650000.0 -0.4471303195 0.664262413
1084600000.0 0.1219257322 0.7878495801
1094550000.0 0.6029268517 0.4684154249
1104500000.0 0.7170523887 -0.1086793037
1114450000.0 0.3866858858 -0.5967213614
1124400000.0 -0.1686801 -0.6889974043
1134350000.0 -0.5896138112 -0.3669469022
1144300000.0 -0.6590734755 0.1250365331
1154250000.0 -0.3968432595 0.5112580002
1164200000.0 0.0343726161 0.6192312695
1174150000.0 0.4199609926 0.4188891049
1184100000.0 0.5727383311 0.0103757137
1194050000.0 0.4059808567 -0.3877166977
1204000000.0 0.0291151782 -0.5575173928
1213950000.0 -0.3427648798 -0.4440598986
1223900000.0 -0.5528799855 -0.1440416098
1233850000.0 -0.547494467 0.2061630769
1243800000.0 -0.3427917578 0.48115176
1253750000.0 -0.0103297003 0.5792954215
1263700000.0 0.3247047871 0.4493711346
1273650000.0 0.5176120232 0.1354541317
1283600000.0 0.4844927767 -0.2275950938
1293550000.0 0.2553667931 -0.4900593732
1303500000.0 -0.0608224639 -0.5692721795
1313450000.0 -0.3507632822 -0.4659872028
1323400000.0 -0.5388884623 -0.2301460979
1333350000.0 -0.584848077 0.0730497988
1343300000.0 -0.4646866305 0.3658417994
1353250000.0 -0.1893277166 0.5455127128
1363200000.0 0.1558409316 0.5266288471
1373150000.0 0.4311306097 0.3018165885
1383100000.0 0.526986313 -0.0369321102
1393050000.0 0.4236579566 -0.3579800633
1403000000.0 0.1804728537 -0.5592353951
1412950000.0 -0.1084217776 -0.595573488
1422900000.0 -0.3585989897 -0.4753525433
1432850000.0 -0.5115193595 -0.2338942413
1442800000.0 -0.519318919 0.0715506316
1452750000.0 -0.351437811 0.3449598427
1462700000.0 -0.049167556 0.4753044044
1472650000.0 0.2703634433 0.4045026656
1482600000.0 0.4815158316 0.1672459831
1492550000.0 0.5170066643 -0.1353537143
1502500000.0 0.3806864695 -0.3952569234
1512450000.0 0.1309482264 -0.5294148479
1522400000.0 -0.1438261376 -0.4954744133
1532350000.0 -0.3490823738 -0.3023542631
1542300000.0 -0.4045185177 -0.0123930524
1552250000.0 -0.2745293758 0.2615942798
1562200000.0 -0.0096432143 0.4009549779
1572150000.0 0.2724964575 0.352207373
1582100000.0 0.4586599391 0.1516965393
1592050000.0 0.4835056105 -0.1137657445
1602000000.0 0.3431596826 -0.3411472195
1611950000.0 0.0860490249 -0.4414417838
1621900000.0 -0.1925454053 -0.3654198128
1631850000.0 -0.3789457561 -0.1282684061
1641800000.0 -0.3849136405 0.1793695492
1651750000.0 -0.2020564988 0.4246191895
1661700000.0 0.0876177813 0.5054685826
1671650000.0 0.3634590961 0.3989769903
1681600000.0 0.5260903734 0.1562469174
1691550000.0 0.5264471315 -0.13641578
1701500000.0 0.3638404463 -0.3839944586
1711450000.0 0.0870584546 -0.5031346388
1721400000.0 -0.2212356471 -0.4420805376
1731350000.0 -0.4514907319 -0.2075874832
1741300000.0 -0.5137788313 0.1207776179
1751250000.0 -0.3838405072 0.4179977391
1761200000.0 -0.1199244181 0.5811248025
1771150000.0 0.1794880746 0.5729000535
1781100000.0 0.4242265138 0.4117481586
1791050000.0 0.5528032702 0.1479096345
1801000000.0 0.5414886926 -0.1552836074
1810950000.0 0.3682112846 -0.4102067783
1820900000.0 0.0823843487 -0.535441595
1830850000.0 -0.2326034396 -0.4750577442
1840800000.0 -0.4629570802 -0.2442847705
1850750000.0 -0.5283047421 0.0661165868
1860700000.0 -0.4266040099 0.3455769701
1870650000.0 -0.2123549886 0.5208929173
1880600000.0 0.0438686306 0.5595679879
1890550000.0 0.2721885044 0.4636406835
1900500000.0 0.4135396971 0.2623071298
1910450000.0 0.4311011758 0.012315126
1920400000.0 0.3187640882 -0.2111608119
1930350000.0 0.1060885241 -0.324769948
1940300000.0 -0.1037612301 -0.2931214834
1950250000.0 -0.25588759 -0.1936641931
1960200000.0 -0.3308617959 -0.0325503962
1970150000.0 -0.3055271824 0.1212703828
1980100000.0 -0.2148793694 0.2124062284
1990050000.0 -0.1163648488 0.2229212515
2000000000.0 -0.0671157404 0.1735223547
