!Created with skrf (http://scikit-rf.org).
# GHz S RI R 50.0 
!freq ReS11 ImS11
10000000.0 -0.9184869482 0.4556111219
19950000.0 -0.618453536 0.7932138321
29900000.0 -0.2019926466 0.965324619
39850000.0 0.2548009883 0.9386912851
49800000.0 0.6624777521 0.7083463892
59750000.0 0.9314521801 0.3052617814
69700000.0 0.9806715343 -0.1971323103
79650000.0 0.7643056553 -0.6785797778
89600000.0 0.3075885644 -0.9876156916
99550000.0 -0.2673047985 -0.9930284648
109500000.0 -0.7613432095 -0.6561786393
119450000.0 -0.9739942318 -0.0732506819
129400000.0 -0.7781482209 0.5468366202
139350000.0 -0.2579541093 0.9313101699
149300000.0 0.416393204 0.8965032477
159250000.0 0.9094205642 0.4379754982
169200000.0 0.9899639259 -0.2100463805
179150000.0 0.6682100997 -0.7352357473
189100000.0 0.1371603139 -0.9541773814
199050000.0 -0.3895800648 -0.8536861354
209000000.0 -0.770925027 -0.5149883465
218950000.0 -0.9297464612 -0.0565272737
228900000.0 -0.8534452797 0.4134080285
238850000.0 -0.562069962 0.7882465349
248800000.0 -0.1363906278 0.7320124172
258750000.0 0.2947753436 0.9323063224
268700000.0 0.6820618798 0.6743552496
278650000.0 0.8902089311 0.2674326843
288600000.0 0.8788982704 -0.1834715678
298550000.0 0.6598420309 -0.5710381211
308500000.0 0.2876969577 -0.8060257394
318450000.0 -0.1471550863 -0.8321047812
328400000.0 -0.5330639611 -0.6383266694
338350000.0 -0.7547640303 -0.274051682
348300000.0 -0.7353226891 0.140728425
358250000.0 -0.4892561626 0.4513142572
368200000.0 -0.1346563515 0.545940298
378150000.0 0.1709103609 0.4233722236
388100000.0 0.3206903353 0.1792819062
398050000.0 0.2991833004 -0.0610130846
408000000.0 0.1675830195 -0.2073083892
417950000.0 0.0112130252 -0.2363600935
427900000.0 -0.10323986 -0.1739689473
437850000.0 -0.1452513226 -0.0715387197
447800000.0 -0.1171932203 0.0202851501
457750000.0 -0.0487631259 0.0690533886
467700000.0 0.0224306767 0.0686714454
477650000.0 0.0688790357 0.0338667909
487600000.0 0.0774094672 -0.0125018332
497550000.0 0.0930080419 0.0249117624
507500000.0 0.0590714588 -0.0587006998
517450000.0 0.024711532 -0.0496106195
527400000.0 0.0110633018 -0.0221747152
537350000.0 0.0194623167 0.0061801764
547300000.0 0.0498806114 0.0246781197
557250000.0 0.0856604939 0.010436178
567200000.0 0.1048708859 -0.0262037897
577150000.0 0.0986671725 -0.0737229491
587100000.0 0.0636213632 -0.1179966425
597050000.0 0.0046455619 -0.1427857294
607000000.0 -0.0665693087 -0.1368231954
616950000.0 -0.1312925065 -0.095332506
626900000.0 -0.1698703835 -0.0260811598
636850000.0 -0.1713651207 0.0547118701
646800000.0 -0.1327969291 0.1266109254
656750000.0 -0.0633875704 0.1707793209
666700000.0 0.0201335295 0.1746244997
676650000.0 0.0956780208 0.1373093339
686600000.0 0.1444146418 0.0685074889
696550000.0 0.154241745 -0.0134967938
706500000.0 0.1235072389 -0.0861912726
716450000.0 0.0629383417 -0.1295656452
726400000.0 -0.007762638 -0.1304516703
736350000.0 -0.0632415296 -0.0888829984
746300000.0 -0.0820247787 -0.0187902929
756250000.0 -0.0523799487 0.0555173329
766200000.0 0.0214075458 0.1039546948
776150000.0 0.1175216877 0.1040698087
786100000.0 0.2040770036 0.049552419
796050000.0 0.2509591707 -0.048069694
806000000.0 0.2387154323 -0.1635930914
815950000.0 0.1584485597 -0.2630680205
825900000.0 0.0233397831 -0.3098175392
835850000.0 -0.132444666 -0.2767513632
845800000.0 -0.2622707278 -0.1617289247
855750000.0 -0.3263643907 0.0118166381
865700000.0 -0.3022567738 0.2026103128
875650000.0 -0.1919840669 0.364449006
885600000.0 -0.0191942834 0.4575762356
895550000.0 0.1778416726 0.4581863698
905500000.0 0.3534788084 0.3619689053
915450000.0 0.4622349214 0.1840784813
925400000.0 0.4653766579 -0.0372973341
935350000.0 0.3445760374 -0.2421880033
945300000.0 0.1177977969 -0.3601488863
955250000.0 -0.1541732488 -0.3313919368
965200000.0 -0.3714260968 -0.1403826131
975150000.0 -0.4312352413 0.1571613444
985100000.0 -0.2807807539 0.4414479872
995050000.0 0.0449404943 0.568859407
1005000000.0 0.4156991515 0.4321381746
1014950000.0 0.6251494572 0.027724814
1024900000.0 0.4830608643 -0.4677955506
1034850000.0 0.0104066932 -0.7414941399
1044800000.0 -0.5222978916 -0.6226073351
1054750000.0 -0.8415138121 -0.1926332814
1064700000.0 -0.7861480483 0.2632082627
1074650000.0 -0.5733776191 0.6390776064
1084600000.0 -0.1821591727 0.750574042
1094550000.0 0.2328025818 0.7408334202
1104500000.0 0.5668771972 0.4479743099
1114450000.0 0.6927219968 0.0288431592
1124400000.0 0.5428182872 -0.4181514479
1134350000.0 0.1385095659 -0.655800361
1144300000.0 -0.2832003296 -0.5815353179
1154250000.0 -0.5388816743 -0.3002114261
1164200000.0 -0.5824609277 0.0373210765
1174150000.0 -0.4523385953 0.322571731
1184100000.0 -0.1987342065 0.4977680819
1194050000.0 0.1130581294 0.5088762292
1204000000.0 0.3824236919 0.3463843224
1213950000.0 0.5181994425 0.0637656034
1223900000.0 0.4804220672 -0.2408435993
1233850000.0 0.2982844546 -0.4708048582
1243800000.0 0.0434421718 -0.5770214713
1253750000.0 -0.2157346571 -0.5596343143
1263700000.0 -0.4331339755 -0.4435931374
1273650000.0 -0.5831141836 -0.2585075406
1283600000.0 -0.6516817301 -0.033099567
1293550000.0 -0.6293697594 0.2056737897
1303500000.0 -0.5113514211 0.424273447
1313450000.0 -0.3040229044 0.5829726837
1323400000.0 -0.035942712 0.640443769
1333350000.0 0.2400843418 0.5722288772
1343300000.0 0.4616636759 0.3890473672
1353250000.0 0.5837070839 0.1342383415
1363200000.0 0.5937198926 -0.135796176
1373150000.0 0.5069000807 -0.3755090595
1383100000.0 0.3508688539 -0.5567935472
1393050000.0 0.1529208926 -0.6673026238
1403000000.0 -0.0632377275 -0.7007363383
1412950000.0 -0.274611349 -0.6553963193
1422900000.0 -0.4567494454 -0.5328833949
1432850000.0 -0.5814928942 -0.3425679866
1442800000.0 -0.6229802553 -0.1073325685
1452750000.0 -0.564600118 0.1359140158
1462700000.0 -0.4058554505 0.344348956
1472650000.0 -0.1689921604 0.4729058019
1482600000.0 0.0984237369 0.4910423874
1492550000.0 0.3400801438 0.400670078
1502500000.0 0.5127273985 0.230502317
1512450000.0 0.5956565523 0.0200231765
1522400000.0 0.5866905692 -0.1923072985
1532350000.0 0.49354961 -0.3739519471
1542300000.0 0.3334108181 -0.4971739185
1552250000.0 0.1307494496 -0.5383782289
1562200000.0 -0.0775385525 -0.4833654141
1572150000.0 -0.2476916004 -0.3340465946
1582100000.0 -0.3348339638 -0.115864044
1592050000.0 -0.31233452 0.1199424946
1602000000.0 -0.1880494473 0.3157641611
1611950000.0 0.0059690632 0.4256743429
1621900000.0 0.2159494308 0.4318016936
1631850000.0 0.394667622 0.3428401312
1641800000.0 0.5070878034 0.1855328474
1651750000.0 0.532856066 -0.0008605571
1661700000.0 0.489190588 -0.1826472176
1671650000.0 0.3543422708 -0.3539082772
1681600000.0 0.1428132555 -0.4503898866
1691550000.0 -0.102574311 -0.4445479193
1701500000.0 -0.3293930656 -0.3261570606
1711450000.0 -0.4819989158 -0.1152173662
1721400000.0 -0.5221632362 0.1400483077
1731350000.0 -0.4476064265 0.3766123612
1741300000.0 -0.2870453963 0.5484762828
1751250000.0 -0.081469435 0.6347412379
1761200000.0 0.1317850428 0.6353762906
1771150000.0 0.3255918562 0.5612088356
1781100000.0 0.4809687728 0.4251924689
1791050000.0 0.5825119358 0.2414692888
1801000000.0 0.6153493494 0.0262427239
1810950000.0 0.5660743566 -0.1972047793
1820900000.0 0.4279501347 -0.3953076244
1830850000.0 0.2123338239 -0.5250280304
1840800000.0 -0.0431235323 -0.5506381064
1850750000.0 -0.283160852 -0.4645994214
1860700000.0 -0.4569709213 -0.292201542
1870650000.0 -0.5414101156 -0.0797901847
1880600000.0 -0.5408803113 0.1297387024
1890550000.0 -0.4738003121 0.3087145223
1900500000.0 -0.3607543852 0.4424686792
1910450000.0 -0.2204726897 0.5249815945
1920400000.0 -0.0693785684 0.5528475942
1930350000.0 0.0758936838 0.5247234992
1940300000.0 0.1961452431 0.4433134237
1950250000.0 0.2703790759 0.3203635796
1960200000.0 0.2834804701 0.1799203858
1970150000.0 0.2351298568 0.0557884047
1980100000.0 0.1464823337 -0.0239004781
1990050000.0 0.0513482199 -0.0481280632
2000000000.0 -0.0152946024 -0.026763146
