!Created with skrf (http://scikit-rf.org).
# GHz S RI R 50.0 
!freq ReS11 ImS11
10000000.0 -0.792983837 0.5897638519
19950000.0 -0.2928504208 0.9242553026
29900000.0 0.3073502079 0.9031427024
39850000.0 0.7897691039 0.529623407
49800000.0 0.9618678021 -0.0717500336
59750000.0 0.725928856 -0.672266385
69700000.0 0.1461941911 -0.9984162828
79650000.0 -0.5244858413 -0.8593813481
89600000.0 -0.9405848656 -0.2861731778
99550000.0 -0.8505734162 0.4442782843
109500000.0 -0.2507471451 0.9235816685
119450000.0 0.5477611643 0.8119177976
129400000.0 1.002628733 0.1025435004
139350000.0 0.7257186184 -0.7083668476
149300000.0 -0.0728554237 -0.982148134
159250000.0 -0.7621934003 -0.5583515935
169200000.0 -0.9060485006 0.1956410468
179150000.0 -0.4948226804 0.7959331915
189100000.0 0.1833599737 0.9388897247
199050000.0 0.7558580405 0.5987614479
209000000.0 0.9544005957 -0.0154723303
218950000.0 0.724173366 -0.588993377
228900000.0 0.2034760928 -0.8879442506
238850000.0 -0.3804628402 -0.8130573238
248800000.0 -0.7879546232 -0.3867284855
258750000.0 -0.9031232433 0.155950472
268700000.0 -0.6469142375 0.6746998879
278650000.0 -0.132640376 0.9297081523
288600000.0 0.4254064788 0.8155945916
298550000.0 0.7951430487 0.3857890738
308500000.0 0.8272180132 -0.1805249601
318450000.0 0.5054744543 -0.6447267925
328400000.0 -0.0317615835 -0.8006362449
338350000.0 -0.5293744448 -0.570934591
348300000.0 -0.726577997 -0.0829991293
358250000.0 -0.5367418674 0.3682881382
368200000.0 -0.1252303285 0.5256296319
378150000.0 0.2172350477 0.3618423794
388100000.0 0.3102250096 0.0588911198
398050000.0 0.1806045651 -0.1572124761
408000000.0 -0.0151796881 -0.1832153601
417950000.0 -0.1208574001 -0.0730187434
427900000.0 -0.0942690925 0.0495951487
437850000.0 0.0065910092 0.0926000043
447800000.0 0.0989053683 0.0420344797
457750000.0 0.1214482661 -0.0556219212
467700000.0 0.0658018472 -0.134762445
477650000.0 -0.025501247 -0.1516968652
487600000.0 -0.0998648165 -0.099154824
497550000.0 -0.1193979767 -0.0176874398
507500000.0 -0.0859663591 0.0585954782
517450000.0 -0.0157716927 0.0878590737
527400000.0 0.0429955674 0.0684652489
537350000.0 0.063504821 0.0257861632
547300000.0 0.0439504577 -0.0096987507
557250000.0 0.0072714846 -0.0143896174
567200000.0 -0.0166080103 0.0101843119
577150000.0 -0.0078116043 0.0442653608
587100000.0 0.0312165139 0.0556513188
597050000.0 0.0728198688 0.027549621
607000000.0 0.0845452227 -0.0332739333
616950000.0 0.0499336294 -0.0978726186
626900000.0 -0.0249712016 -0.1283192366
636850000.0 -0.1100720555 -0.1047465389
646800000.0 -0.1615149435 -0.031182561
656750000.0 -0.1554908206 0.0640816403
666700000.0 -0.0888545529 0.1362198066
676650000.0 0.0125345292 0.1504360113
686600000.0 0.1036632349 0.096374138
696550000.0 0.1428982319 -0.0077732538
706500000.0 0.1101360297 -0.1115316669
716450000.0 0.0218006439 -0.1678702056
726400000.0 -0.0765645562 -0.1511138806
736350000.0 -0.1347656266 -0.069587176
746300000.0 -0.1157450696 0.0313561638
756250000.0 -0.0267654454 0.0945286818
766200000.0 0.0841042555 0.0786995297
776150000.0 0.1591120821 -0.0125156274
786100000.0 0.1470012169 -0.130365866
796050000.0 0.046792905 -0.2105265251
806000000.0 -0.091635689 -0.1922360562
815950000.0 -0.1952623285 -0.0691877116
825900000.0 -0.1906908624 0.1071871905
835850000.0 -0.0650488876 0.2529312736
845800000.0 0.1338632635 0.2864723749
855750000.0 0.3188348256 0.1817098737
865700000.0 0.3982922913 -0.0292241765
875650000.0 0.3192354439 -0.2536933901
885600000.0 0.0999363892 -0.383199228
895550000.0 -0.1674883622 -0.3390100994
905500000.0 -0.3533928066 -0.122093229
915450000.0 -0.3591717039 0.1616762574
925400000.0 -0.1935065752 0.3925262825
935350000.0 0.0912628761 0.4681593388
945300000.0 0.3635092961 0.3275550214
955250000.0 0.4721378267 0.0192884034
965200000.0 0.3288765219 -0.3013804003
975150000.0 -0.0266494592 -0.4402448109
985100000.0 -0.4024883233 -0.2628187708
995050000.0 -0.5241630278 0.1670044114
1005000000.0 -0.2552930024 0.562067533
1014950000.0 0.2614919222 0.6066346058
1024900000.0 0.6552227328 0.1949163293
1034850000.0 0.5752895093 -0.4268003031
1044800000.0 -0.0062458159 -0.7722226816
1054750000.0 -0.6588119791 -0.5031875841
1064700000.0 -0.8381822233 0.1762281847
1074650000.0 -0.4339276005 0.7139976439
1084600000.0 0.1587833763 0.6626418817
1094550000.0 0.5136682116 0.5374022427
1104500000.0 0.7651878439 -0.0455425284
1114450000.0 0.4592782374 -0.6056351932
1124400000.0 -0.1405016756 -0.7356782526
1134350000.0 -0.604531167 -0.3999759313
1144300000.0 -0.6801263852 0.1228812786
1154250000.0 -0.3984125691 0.5220482319
1164200000.0 0.0526640892 0.6245529226
1174150000.0 0.4455073206 0.4075117212
1184100000.0 0.5915154942 -0.014889867
1194050000.0 0.4079581802 -0.4189216116
1204000000.0 0.0106002241 -0.5803500771
1213950000.0 -0.372065887 -0.4466606956
1223900000.0 -0.5762568915 -0.1214665196
1233850000.0 -0.5472435434 0.2453415624
1243800000.0 -0.3111256059 0.5225969221
1253750000.0 0.0489114263 0.6056608341
1263700000.0 0.3946676715 0.4494314115
1273650000.0 0.5751918419 0.1078696218
1283600000.0 0.5126054748 -0.2701981864
1293550000.0 0.2510540791 -0.5305720726
1303500000.0 -0.0947248881 -0.5973900093
1313450000.0 -0.4083832046 -0.4740765134
1323400000.0 -0.6073992279 -0.2098965474
1333350000.0 -0.6403526078 0.1235293233
1343300000.0 -0.4812690068 0.4327942401
1353250000.0 -0.1612934364 0.6030383553
1363200000.0 0.211545609 0.5541299735
1373150000.0 0.4894489853 0.295457619
1383100000.0 0.5714184266 -0.0663975885
1393050000.0 0.4489828661 -0.3989827408
1403000000.0 0.183576401 -0.6046102667
1412950000.0 -0.1356966816 -0.638841406
1422900000.0 -0.4207340705 -0.5000312103
1432850000.0 -0.5888672234 -0.2236442069
1442800000.0 -0.5780392787 0.1140838309
1452750000.0 -0.3713990174 0.396143358
1462700000.0 -0.0366377661 0.5132404057
1472650000.0 0.3003216349 0.4211252142
1482600000.0 0.5192357869 0.1663782181
1492550000.0 0.5567275772 -0.1517381727
1502500000.0 0.415124464 -0.4249914461
1512450000.0 0.1513321729 -0.5660915663
1522400000.0 -0.1454677652 -0.5287004127
1532350000.0 -0.3687643891 -0.3204569012
1542300000.0 -0.4308860954 -0.0108753625
1552250000.0 -0.2941299753 0.2790897435
1562200000.0 -0.0180215827 0.4263892369
1572150000.0 0.280688965 0.3800418896
1582100000.0 0.4804420522 0.1702683125
1592050000.0 0.5086056943 -0.1098325538
1602000000.0 0.3598179513 -0.3494589835
1611950000.0 0.0897864608 -0.4537664542
1621900000.0 -0.2007485014 -0.3737251458
1631850000.0 -0.3937721738 -0.126982774
1641800000.0 -0.3976471905 0.192737324
1651750000.0 -0.2068452523 0.4481325195
1661700000.0 0.0959587301 0.5318425452
1671650000.0 0.3832115115 0.4187213604
1681600000.0 0.5492740508 0.1612178271
1691550000.0 0.5415588506 -0.1476400179
1701500000.0 0.3613401208 -0.4065896928
1711450000.0 0.0595122838 -0.5293605828
1721400000.0 -0.2738878333 -0.4590734211
1731350000.0 -0.5150743289 -0.2043879035
1741300000.0 -0.5656001927 0.1455218317
1751250000.0 -0.4079505496 0.4551780612
1761200000.0 -0.1123348383 0.6155716715
1771150000.0 0.2116789385 0.5911837978
1781100000.0 0.4705399277 0.4072908957
1791050000.0 0.6012042067 0.1189195116
1801000000.0 0.5684073127 -0.2016055631
1810950000.0 0.3694298186 -0.4677314285
1820900000.0 0.0479059084 -0.5874099672
1830850000.0 -0.2928432992 -0.5021665797
1840800000.0 -0.5244036653 -0.2402153707
1850750000.0 -0.5713248977 0.0927658331
1860700000.0 -0.4435372089 0.3812786571
1870650000.0 -0.2037972881 0.5542227798
1880600000.0 0.0750105151 0.5840468864
1890550000.0 0.3236658282 0.4727616683
1900500000.0 0.4785300484 0.2464268126
1910450000.0 0.4800640233 -0.0357014092
1920400000.0 0.3130777649 -0.2232131086
1930350000.0 0.1455471127 -0.3432785059
1940300000.0 -0.1044252601 -0.345355909
1950250000.0 -0.2920671742 -0.2139107214
1960200000.0 -0.3708819122 -0.0282431684
1970150000.0 -0.3469366563 0.1449247908
1980100000.0 -0.251752196 0.2577672112
1990050000.0 -0.1347629988 0.2889181067
2000000000.0 -0.0488729488 0.2518381911
