!Created with skrf (http://scikit-rf.org).
# GHz S RI R 50.0 
!freq ReS11 ImS11
10000000.0 -0.8016781414 0.6028930449
19950000.0 -0.2915049029 0.9462548431
29900000.0 0.3203498262 0.9297018372
39850000.0 0.8124476576 0.5557617244
49800000.0 0.9902104717 -0.0493394454
59750000.0 0.7570577421 -0.6541087898
69700000.0 0.1786420317 -0.9881392778
79650000.0 -0.4991144989 -0.863844843
89600000.0 -0.9359345831 -0.3025409256
99550000.0 -0.8699234689 0.4310056278
109500000.0 -0.2835723202 0.9251865298
119450000.0 0.5130908721 0.8303787239
129400000.0 0.9773310891 0.1368440067
139350000.0 0.7233137449 -0.6705356355
149300000.0 -0.0633792658 -0.9683885528
159250000.0 -0.767305928 -0.5654260242
169200000.0 -0.9276387989 0.1909968936
179150000.0 -0.5155337408 0.8017829559
189100000.0 0.1741214586 0.947496516
199050000.0 0.7568850127 0.6031850642
209000000.0 0.9611132838 -0.0182478226
218950000.0 0.7310671117 -0.6027982698
228900000.0 0.2030173946 -0.9118748061
238850000.0 -0.3920153269 -0.8403148723
248800000.0 -0.814533765 -0.4226702538
258750000.0 -0.9244275773 0.1413364567
268700000.0 -0.6653900009 0.6648306228
278650000.0 -0.1448598813 0.925851139
288600000.0 0.4253239651 0.818008041
298550000.0 0.8093158771 0.3873831542
308500000.0 0.8482526026 -0.1858707727
318450000.0 0.5234536516 -0.653964968
328400000.0 -0.0175800717 -0.8055080163
338350000.0 -0.5122450538 -0.5701238576
348300000.0 -0.7047621021 -0.0837904546
358250000.0 -0.5152992451 0.3623633118
368200000.0 -0.10841341 0.5167792418
378150000.0 0.2276316096 0.3507518157
388100000.0 0.3103540476 0.049289508
398050000.0 0.1692428324 -0.1591579461
408000000.0 -0.0294117605 -0.1738876085
417950000.0 -0.1339931143 -0.0543965179
427900000.0 -0.1027939462 0.0767745795
437850000.0 0.0083024362 0.1247194006
447800000.0 0.1089727833 0.0714024334
457750000.0 0.1379707435 -0.0328413949
467700000.0 0.0844970319 -0.1232054501
477650000.0 -0.0113084003 -0.1508727812
487600000.0 -0.0951008631 -0.1095885027
497550000.0 -0.1277859616 -0.0308704706
507500000.0 -0.1050469239 0.0442825426
517450000.0 -0.0474912632 0.0759543203
527400000.0 0.005873891 0.0641206471
537350000.0 0.0270826863 0.0275871267
547300000.0 0.014809274 1.19708e-05
557250000.0 -0.0099295236 -0.0009257137
567200000.0 -0.0206170124 0.0237007351
577150000.0 0.000866083 0.0512800208
587100000.0 0.0472064301 0.0533978857
597050000.0 0.091743323 0.0137177738
607000000.0 0.1024000424 -0.0571320889
616950000.0 0.0608032347 -0.1280213166
626900000.0 -0.0238449565 -0.1616678878
636850000.0 -0.1164579181 -0.1341647926
646800000.0 -0.1758334206 -0.0518199112
656750000.0 -0.172295872 0.0541457254
666700000.0 -0.1004781503 0.1383808837
676650000.0 0.0108754491 0.1614730682
686600000.0 0.114501653 0.1107026272
696550000.0 0.1657677759 0.0089668459
706500000.0 0.1416110337 -0.0984684765
716450000.0 0.0574511495 -0.1634513509
726400000.0 -0.0440162787 -0.1543368574
736350000.0 -0.1086691415 -0.0797642784
746300000.0 -0.101726734 0.0193418854
756250000.0 -0.0247031853 0.086264611
766200000.0 0.0786888357 0.07854117
776150000.0 0.147844345 -0.0028737878
786100000.0 0.1360248139 -0.1147969269
796050000.0 0.0389307746 -0.1905293778
806000000.0 -0.0974050849 -0.1729574955
815950000.0 -0.1984064226 -0.0532567901
825900000.0 -0.1950434257 0.1203897751
835850000.0 -0.0698069045 0.2639726992
845800000.0 0.1297647892 0.2966664305
855750000.0 0.3144173203 0.1897374561
865700000.0 0.3927208195 -0.0213456378
875650000.0 0.3147545379 -0.2468048202
885600000.0 0.0980803043 -0.3800677014
895550000.0 -0.1704186576 -0.3433663072
905500000.0 -0.3642550027 -0.135562008
915450000.0 -0.3798021648 0.1592331929
925400000.0 -0.1965618585 0.3981129513
935350000.0 0.104314326 0.4572734241
945300000.0 0.3745275989 0.2931710244
955250000.0 0.4622742747 -0.0283345833
965200000.0 0.2849769136 -0.3409963882
975150000.0 -0.0953530436 -0.4354835306
985100000.0 -0.4471500375 -0.1921371649
995050000.0 -0.4890032825 0.2676873275
1005000000.0 -0.1343421667 0.6151950881
1014950000.0 0.402299944 0.5549076758
1024900000.0 0.7233952562 0.0569871587
1034850000.0 0.5203123757 -0.560070289
1044800000.0 -0.1303128723 -0.7975388598
1054750000.0 -0.7307769177 -0.431643699
1064700000.0 -0.8359553297 0.2414779283
1074650000.0 -0.4328079525 0.7491658454
1084600000.0 0.1692341608 0.8050334072
1094550000.0 0.6516848101 0.4773108366
1104500000.0 0.7644571291 -0.1205742075
1114450000.0 0.4147769978 -0.6120686264
1124400000.0 -0.1597318382 -0.6949149824
1134350000.0 -0.5897500982 -0.362591332
1144300000.0 -0.6578453061 0.1338357833
1154250000.0 -0.388485118 0.5157886139
1164200000.0 0.0457918014 0.611412161
1174150000.0 0.4220716942 0.3977780012
1184100000.0 0.5559345994 -0.0126752149
1194050000.0 0.3743315942 -0.3994967426
1204000000.0 -0.0092715941 -0.5559383915
1213950000.0 -0.3808273131 -0.429021775
1223900000.0 -0.5817992408 -0.1141139715
1233850000.0 -0.5527768966 0.2450561222
1243800000.0 -0.3177249202 0.5151194975
1253750000.0 0.0375162133 0.5955617145
1263700000.0 0.3784911375 0.4434676742
1273650000.0 0.5626872209 0.1102424105
1283600000.0 0.5120969611 -0.2652864729
1293550000.0 0.2607283014 -0.5346917617
1303500000.0 -0.0837291721 -0.6146799989
1313450000.0 -0.4053788583 -0.4999889425
1323400000.0 -0.6136403155 -0.2370571063
1333350000.0 -0.650309547 0.0980070896
1343300000.0 -0.4945294271 0.4096052578
1353250000.0 -0.1808765232 0.5890990762
1363200000.0 0.1917476268 0.558953174
1373150000.0 0.4826137601 0.3203940391
1383100000.0 0.5880776416 -0.0331067704
1393050000.0 0.486885625 -0.3718185355
1403000000.0 0.2326336915 -0.5928029845
1412950000.0 -0.0885137031 -0.6447217814
1422900000.0 -0.384920131 -0.5196991276
1432850000.0 -0.5694066229 -0.2529576005
1442800000.0 -0.5782331071 0.0823033454
1452750000.0 -0.3905855336 0.3724840193
1462700000.0 -0.0680536335 0.5067368591
1472650000.0 0.269041662 0.4341728961
1482600000.0 0.4944697076 0.193022032
1492550000.0 0.5425337818 -0.1155563233
1502500000.0 0.4149819959 -0.3845534661
1512450000.0 0.164482905 -0.5295822289
1522400000.0 -0.1235268653 -0.5033666153
1532350000.0 -0.3458810132 -0.3100564663
1542300000.0 -0.4108129537 -0.0140258114
1552250000.0 -0.2812207869 0.2617377898
1562200000.0 -0.0136963738 0.3975004711
1572150000.0 0.267591935 0.341392236
1582100000.0 0.4478894017 0.1346011418
1592050000.0 0.4622089548 -0.1322782152
1602000000.0 0.3117741345 -0.3525111174
1611950000.0 0.0492564999 -0.4400834852
1621900000.0 -0.2259087355 -0.3474802777
1631850000.0 -0.3948868231 -0.0951314732
1641800000.0 -0.3732277601 0.217157069
1651750000.0 -0.1645844201 0.4502291482
1661700000.0 0.1371686217 0.5101131176
1671650000.0 0.4108537044 0.3836875247
1681600000.0 0.5631385082 0.1259942127
1691550000.0 0.5479076766 -0.1783067012
1701500000.0 0.3606641569 -0.4331705038
1711450000.0 0.0498114731 -0.549067148
1721400000.0 -0.2890098228 -0.4652292859
1731350000.0 -0.5246754275 -0.1950017808
1741300000.0 -0.5625808841 0.1606397906
1751250000.0 -0.3972335136 0.4679064573
1761200000.0 -0.1033420027 0.6286419355
1771150000.0 0.2195479845 0.612254031
1781100000.0 0.4845354717 0.4380126126
1791050000.0 0.6272380195 0.152478142
1801000000.0 0.6037254292 -0.1754132425
1810950000.0 0.4031220379 -0.4541010737
1820900000.0 0.0692733699 -0.5810875148
1830850000.0 -0.2816405197 -0.4904550557
1840800000.0 -0.4728634274 -0.2297928057
1850750000.0 -0.571689674 0.0304314696
1860700000.0 -0.4933812022 0.3424672493
1870650000.0 -0.2730274634 0.5479906342
1880600000.0 0.0054915651 0.6102407988
1890550000.0 0.2708186846 0.5273201359
1900500000.0 0.4573542289 0.3202784714
1910450000.0 0.506389153 0.0428322479
1920400000.0 0.3962506685 -0.2175139268
1930350000.0 0.166712294 -0.3690806842
1940300000.0 -0.0910413774 -0.3715684906
1950250000.0 -0.2888531542 -0.2496868154
1960200000.0 -0.3808488234 -0.0690433462
1970150000.0 -0.368060754 0.1032200482
1980100000.0 -0.2826147105 0.2185607757
1990050000.0 -0.1727252798 0.256664941
2000000000.0 -0.0895888159 0.2270625459
