!Created with skrf (http://scikit-rf.org).
# GHz S RI R 50.0 
!freq ReS11 ImS11
10000000.0 -1.001705527 0.1606260225
19950000.0 -0.9473752991 0.3070401912
29900000.0 -0.8710406406 0.4479081016
39850000.0 -0.7724463191 0.5880008854
49800000.0 -0.6529135714 0.7220533441
59750000.0 -0.507016812 0.8431886668
69700000.0 -0.3259625279 0.9391343699
79650000.0 -0.1056815635 0.9897799291
89600000.0 0.1527140557 0.9752079549
99550000.0 0.433273769 0.8735227055
109500000.0 0.7081627932 0.6686083877
119450000.0 0.9257988472 0.3491106061
129400000.0 1.011401683 -0.0642063268
139350000.0 0.9081109978 -0.4776786328
149300000.0 0.6296973234 -0.7984567539
159250000.0 0.2663039119 -0.9591010148
169200000.0 -0.0914073161 -0.976983731
179150000.0 -0.3959506906 -0.8966039773
189100000.0 -0.631218424 -0.7579800011
199050000.0 -0.7948926145 -0.588938457
209000000.0 -0.8910896483 -0.4062961059
218950000.0 -0.9366771042 -0.224364059
228900000.0 -0.9438404658 -0.0497276065
238850000.0 -0.9251151573 0.1162724468
248800000.0 -0.8730146474 0.2552454652
258750000.0 -0.8380552889 0.4134797713
268700000.0 -0.7668332794 0.5439737697
278650000.0 -0.6721843326 0.6546168259
288600000.0 -0.5518936512 0.7410442301
298550000.0 -0.408579705 0.8008384324
308500000.0 -0.2463259596 0.8344990407
318450000.0 -0.0693637941 0.837595442
328400000.0 0.1145322162 0.8019147614
338350000.0 0.2875691791 0.7154426116
348300000.0 0.4236094834 0.5708311651
358250000.0 0.4910917137 0.3832775489
368200000.0 0.4761504282 0.2117209009
378150000.0 0.4010644575 0.0511520563
388100000.0 0.3046204087 -0.1022427314
398050000.0 0.1797966774 -0.1774737112
408000000.0 0.0575811143 -0.1864311117
417950000.0 -0.0357961657 -0.1496978912
427900000.0 -0.0961649457 -0.0891085853
437850000.0 -0.128685256 -0.021148267
447800000.0 -0.141138236 0.041197059
457750000.0 -0.1384220069 0.0900411258
467700000.0 -0.1245074602 0.1214349322
477650000.0 -0.1021528447 0.1343674262
487600000.0 -0.0737049552 0.1321949553
497550000.0 -0.0442693933 0.1249384117
507500000.0 -0.011571788 0.1064713449
517450000.0 0.0127632235 0.0872054255
527400000.0 0.026919692 0.0688472096
537350000.0 0.0273472198 0.0513060239
547300000.0 0.0166340392 0.0339879166
557250000.0 -0.00566737 0.0156008541
567200000.0 -0.0336787013 -0.0017503185
577150000.0 -0.0627483438 -0.0158561344
587100000.0 -0.0885383671 -0.0240840151
597050000.0 -0.1084937085 -0.0231669674
607000000.0 -0.1225678345 -0.01091621
616950000.0 -0.1320612862 0.0117396053
626900000.0 -0.1378457916 0.042282538
636850000.0 -0.1407195151 0.0758635876
646800000.0 -0.1399944678 0.1079321603
656750000.0 -0.1340571323 0.1341732153
666700000.0 -0.1198860791 0.1521938533
676650000.0 -0.0959738591 0.1613073456
686600000.0 -0.0627314972 0.1626567232
696550000.0 -0.0231273028 0.1584241046
706500000.0 0.0190144896 0.1493207722
716450000.0 0.0593001056 0.1351199444
726400000.0 0.0913275676 0.1137241996
736350000.0 0.1122995468 0.0833509084
746300000.0 0.1198429059 0.0423942749
756250000.0 0.1141307878 -0.0083285844
766200000.0 0.0972499136 -0.0653531754
776150000.0 0.0711699657 -0.1230597463
786100000.0 0.0357521499 -0.1744372931
796050000.0 -0.0082546319 -0.212829063
806000000.0 -0.0597225663 -0.2327970445
815950000.0 -0.1194053357 -0.2318554952
825900000.0 -0.1844964062 -0.2121524313
835850000.0 -0.2517418839 -0.1763546669
845800000.0 -0.3153949896 -0.1289051911
855750000.0 -0.3689862323 -0.0728484034
865700000.0 -0.4064735923 -0.0097161409
875650000.0 -0.4215561085 0.0599717203
885600000.0 -0.4120082431 0.1353101436
895550000.0 -0.3790525306 0.2148561574
905500000.0 -0.3244711158 0.2960763698
915450000.0 -0.2514620388 0.3738411367
925400000.0 -0.1613872024 0.4390368665
935350000.0 -0.0546203027 0.4819963593
945300000.0 0.0673355316 0.4901853491
955250000.0 0.2008821317 0.4524883717
965200000.0 0.3366981925 0.360003718
975150000.0 0.4594852467 0.208352731
985100000.0 0.5412699725 -0.0021551382
995050000.0 0.5434284727 -0.2568278445
1005000000.0 0.4262439664 -0.5134403672
1014950000.0 0.1811609477 -0.702010116
1024900000.0 -0.1469828116 -0.7579019315
1034850000.0 -0.4794166879 -0.6616565059
1044800000.0 -0.7408064533 -0.4391544806
1054750000.0 -0.8843316867 -0.1439571139
1064700000.0 -0.8918047919 0.1615149173
1074650000.0 -0.7772895313 0.4309879584
1084600000.0 -0.595879201 0.5949067634
1094550000.0 -0.3835550291 0.7445281159
1104500000.0 -0.1310980963 0.8112274404
1114450000.0 0.1201732206 0.8012947756
1124400000.0 0.3455084988 0.7153684376
1134350000.0 0.5198466719 0.5637272371
1144300000.0 0.6279728048 0.3675180547
1154250000.0 0.6695102598 0.1578244746
1164200000.0 0.6620286511 -0.0402181389
1174150000.0 0.6194738837 -0.222705975
1184100000.0 0.5396439903 -0.3799979399
1194050000.0 0.4310375137 -0.4990634144
1204000000.0 0.3032491873 -0.5758202546
1213950000.0 0.1669605599 -0.613090669
1223900000.0 0.031780232 -0.6207895896
1233850000.0 -0.0954506372 -0.6104522547
1243800000.0 -0.2111830058 -0.5882733168
1253750000.0 -0.3130880619 -0.5563696844
1263700000.0 -0.3983414102 -0.5137845595
1273650000.0 -0.4675871118 -0.4609635857
1283600000.0 -0.5189749729 -0.3956397963
1293550000.0 -0.5571844805 -0.3212593425
1303500000.0 -0.586935143 -0.2409554025
1313450000.0 -0.6114594437 -0.1603603235
1323400000.0 -0.6334337745 -0.082203155
1333350000.0 -0.6509171128 -0.0084614979
1343300000.0 -0.6604016734 0.0606460977
1353250000.0 -0.6581213854 0.1243443362
1363200000.0 -0.6413667495 0.1843824519
1373150000.0 -0.6093950684 0.2436301804
1383100000.0 -0.5675175721 0.3021506422
1393050000.0 -0.5196701199 0.3611080056
1403000000.0 -0.4710224379 0.41847553
1412950000.0 -0.4218320656 0.4723359008
1422900000.0 -0.3712985051 0.5192797044
1432850000.0 -0.316923015 0.5548375605
1442800000.0 -0.2570739465 0.5773696193
1452750000.0 -0.1893682674 0.5876880517
1462700000.0 -0.1140351247 0.5877872731
1472650000.0 -0.0327292689 0.5819217526
1482600000.0 0.0507616572 0.5724972615
1492550000.0 0.1333786946 0.5576771132
1502500000.0 0.2111700969 0.5340680798
1512450000.0 0.2804540116 0.497863472
1522400000.0 0.3395038818 0.4454002316
1532350000.0 0.386977893 0.3761855267
1542300000.0 0.4248719098 0.2920581442
1552250000.0 0.4551050056 0.1976745851
1562200000.0 0.4778984441 0.1004313324
1572150000.0 0.4930490242 0.005998504
1582100000.0 0.4972150958 -0.08686303
1592050000.0 0.4828808614 -0.1746914733
1602000000.0 0.445986531 -0.2555443174
1611950000.0 0.3882934421 -0.3271296578
1621900000.0 0.3153757725 -0.3918289606
1631850000.0 0.2339192419 -0.4498979662
1641800000.0 0.1485401497 -0.5010200299
1651750000.0 0.0635300871 -0.5419045922
1661700000.0 -0.0196834494 -0.5685226337
1671650000.0 -0.0987179128 -0.5770306966
1681600000.0 -0.1735045643 -0.5664540028
1691550000.0 -0.2456293996 -0.5409346558
1701500000.0 -0.3154222821 -0.5044886224
1711450000.0 -0.3828004106 -0.4632062294
1721400000.0 -0.4472088671 -0.4204949106
1731350000.0 -0.505329272 -0.3792119782
1741300000.0 -0.5542378194 -0.3355046831
1751250000.0 -0.590076137 -0.2879646308
1761200000.0 -0.611886358 -0.2354127814
1771150000.0 -0.6217008306 -0.1768741824
1781100000.0 -0.6254416984 -0.11425096
1791050000.0 -0.6274988486 -0.0510694133
1801000000.0 -0.6302976577 0.0099467223
1810950000.0 -0.6348117298 0.0676061097
1820900000.0 -0.637100561 0.1207469423
1830850000.0 -0.6319003385 0.1674239132
1840800000.0 -0.6133075734 0.2113199771
1850750000.0 -0.5783778477 0.2524550442
1860700000.0 -0.5191519616 0.2903955913
1870650000.0 -0.441539591 0.2567951987
1880600000.0 -0.4598873192 0.3021080682
1890550000.0 -0.4199781945 0.3489540272
1900500000.0 -0.3805907026 0.3787320829
1910450000.0 -0.3442514533 0.3965773392
1920400000.0 -0.3099384642 0.4015101381
1930350000.0 -0.2733578954 0.3927156609
1940300000.0 -0.232347866 0.3713065858
1950250000.0 -0.1876093414 0.3399595577
1960200000.0 -0.1418615256 0.302813286
1970150000.0 -0.1019147828 0.260962102
1980100000.0 -0.0730825368 0.2152311677
1990050000.0 -0.0618385504 0.1617162675
2000000000.0 -0.0756592552 0.0966126322
