!Created with skrf (http://scikit-rf.org).
# GHz S RI R 50.0 
!freq ReS11 ImS11
10000000.0 -0.7500310709 0.5697023274
19950000.0 -0.2800801829 0.8962987622
29900000.0 0.2919191624 0.8816403187
39850000.0 0.7577196375 0.5235833
49800000.0 0.9267851182 -0.0602100329
59750000.0 0.7020321115 -0.6481116244
69700000.0 0.1460006071 -0.9745378902
79650000.0 -0.4997237996 -0.8532878652
89600000.0 -0.9106268897 -0.3079738514
99550000.0 -0.8469099744 0.4060089125
109500000.0 -0.2882651606 0.9024758776
119450000.0 0.4924184098 0.8424837841
129400000.0 0.9855184303 0.1831120337
139350000.0 0.7829435593 -0.638622916
149300000.0 0.0226700328 -0.9808947035
159250000.0 -0.6952612589 -0.6193635404
169200000.0 -0.8983575227 0.1175043936
179150000.0 -0.5417574822 0.739309241
189100000.0 0.1038089706 0.9241777227
199050000.0 0.6760313089 0.6274982595
209000000.0 0.9205904701 0.0350145331
218950000.0 0.7277690263 -0.5441401431
228900000.0 0.2322897147 -0.8632690865
238850000.0 -0.342006444 -0.8103494439
248800000.0 -0.7627970416 -0.4084253684
258750000.0 -0.8739717755 0.1298741964
268700000.0 -0.6335392608 0.6455967625
278650000.0 -0.1391756407 0.906270869
288600000.0 0.4030865815 0.8047597138
298550000.0 0.7676567074 0.3860732952
308500000.0 0.801246194 -0.1746562305
318450000.0 0.4827566395 -0.6355010184
328400000.0 -0.0480930513 -0.7868470553
338350000.0 -0.5331349065 -0.5528488082
348300000.0 -0.7143356115 -0.0663563373
358250000.0 -0.5128655225 0.3749424016
368200000.0 -0.100894682 0.5192354873
378150000.0 0.2340591832 0.3449705095
388100000.0 0.3166978031 0.0392262462
398050000.0 0.1776539681 -0.1735625985
408000000.0 -0.0159904509 -0.1956369153
417950000.0 -0.1285704223 -0.0815895074
427900000.0 -0.1099349497 0.0479044646
437850000.0 -0.0116729147 0.099015063
447800000.0 0.0792013418 0.0539154036
457750000.0 0.1059612571 -0.0398920676
467700000.0 0.0598128363 -0.1206133334
477650000.0 -0.0209909629 -0.1418199224
487600000.0 -0.0876740287 -0.0988769039
497550000.0 -0.1017488819 -0.0200224919
507500000.0 -0.0738121467 0.0462808318
517450000.0 -0.0125849257 0.0761007249
527400000.0 0.0413895772 0.061856118
537350000.0 0.0601178205 0.0230426744
547300000.0 0.0428678055 -0.0086030781
557250000.0 0.0048857794 -0.0131444766
567200000.0 -0.0211071957 0.0123921658
577150000.0 -0.0142237291 0.0449291728
587100000.0 0.0217499219 0.0552220194
597050000.0 0.0624178039 0.0256555183
607000000.0 0.0757959592 -0.0353737445
616950000.0 0.0433824319 -0.0982512045
626900000.0 -0.0263701325 -0.128053561
636850000.0 -0.1023383967 -0.1022890675
646800000.0 -0.1487165595 -0.0285171258
656750000.0 -0.1392402003 0.0643777058
666700000.0 -0.0730390062 0.1345964181
676650000.0 0.0240182351 0.1467656854
686600000.0 0.1102346894 0.0897919153
696550000.0 0.1442026437 -0.0133619109
706500000.0 0.1059773665 -0.1173898153
716450000.0 0.0132228799 -0.1754528434
726400000.0 -0.0903461971 -0.1565757943
736350000.0 -0.1485652788 -0.0710408919
746300000.0 -0.1262620951 0.03601048
756250000.0 -0.0299263175 0.1049941219
766200000.0 0.0920739863 0.0925394216
776150000.0 0.1756299833 0.0017326923
786100000.0 0.1716180685 -0.1226746506
796050000.0 0.0748909414 -0.2105316686
806000000.0 -0.0669827867 -0.2013714208
815950000.0 -0.1764242597 -0.0851383371
825900000.0 -0.1830800647 0.0869419833
835850000.0 -0.0736247417 0.2271926612
845800000.0 0.1001886435 0.2655143565
855750000.0 0.2673206763 0.1808149171
865700000.0 0.3501202886 -0.0039611448
875650000.0 0.2929479553 -0.211052767
885600000.0 0.1035825054 -0.3360696295
895550000.0 -0.1374013299 -0.2998031418
905500000.0 -0.3059968199 -0.1004652037
915450000.0 -0.3043920079 0.1763066423
925400000.0 -0.1177201228 0.3885768011
935350000.0 0.1665799951 0.4137252202
945300000.0 0.3926778278 0.2168504604
955250000.0 0.4087848608 -0.1153745993
965200000.0 0.1507515864 -0.3843500048
975150000.0 -0.2618292897 -0.3620907535
985100000.0 -0.5234997806 0.0025286748
995050000.0 -0.4015708891 0.4742851864
1005000000.0 0.0918995143 0.6842464561
1014950000.0 0.5971711597 0.3912167516
1024900000.0 0.6917326067 -0.2315376904
1034850000.0 0.2565094953 -0.7198364023
1044800000.0 -0.3977429153 -0.6823872507
1054750000.0 -0.7753942862 -0.1553577449
1064700000.0 -0.6379301921 0.3847934594
1074650000.0 -0.2824294316 0.7448594339
1084600000.0 0.2776531526 0.7308019475
1094550000.0 0.6662454922 0.3263375435
1104500000.0 0.6687927023 -0.2411059965
1114450000.0 0.2800633884 -0.6489742326
1124400000.0 -0.2562190489 -0.6571173263
1134350000.0 -0.6149992705 -0.3009445876
1144300000.0 -0.6312588131 0.174539314
1154250000.0 -0.3483548191 0.5227222791
1164200000.0 0.0726559394 0.6014807431
1174150000.0 0.4405838514 0.3915396546
1184100000.0 0.5768439874 -0.0146083181
1194050000.0 0.4033339111 -0.4019687605
1204000000.0 0.0290727006 -0.5646579793
1213950000.0 -0.339339181 -0.4498751913
1223900000.0 -0.5508207744 -0.1488013856
1233850000.0 -0.5479614317 0.2041679206
1243800000.0 -0.3458487635 0.4854313451
1253750000.0 -0.0139082205 0.5936258883
1263700000.0 0.3271113501 0.473662502
1273650000.0 0.5308587072 0.162912798
1283600000.0 0.5084197216 -0.2060670071
1293550000.0 0.2849403908 -0.4817272297
1303500000.0 -0.03417604 -0.5770943649
1313450000.0 -0.3365656423 -0.4876755508
1323400000.0 -0.5437599438 -0.2577218987
1333350000.0 -0.6088071792 0.0509505021
1343300000.0 -0.5016330277 0.358672472
1353250000.0 -0.2301515235 0.5583474268
1363200000.0 0.122845882 0.5591529237
1373150000.0 0.4154107304 0.3467489548
1383100000.0 0.5346939243 0.0080654095
1393050000.0 0.4527214558 -0.3267786576
1403000000.0 0.2238473509 -0.5551383167
1412950000.0 -0.0705413728 -0.6214611722
1422900000.0 -0.3420370413 -0.5222450137
1432850000.0 -0.5224569336 -0.287168683
1442800000.0 -0.5546556849 0.0276685958
1452750000.0 -0.4011362523 0.3209768141
1462700000.0 -0.1022397385 0.4772181683
1472650000.0 0.2295793219 0.4334594515
1482600000.0 0.4676550382 0.2141001384
1492550000.0 0.5360607645 -0.0880128629
1502500000.0 0.427187905 -0.3658400808
1512450000.0 0.1898973272 -0.5281977585
1522400000.0 -0.0901221535 -0.5233699114
1532350000.0 -0.3156989577 -0.3516802731
1542300000.0 -0.4017035362 -0.0673002394
1552250000.0 -0.3008958931 0.2214542997
1562200000.0 -0.0507100111 0.3916691655
1572150000.0 0.2388365644 0.3752868859
1582100000.0 0.4477292228 0.194109123
1592050000.0 0.4980468315 -0.070437963
1602000000.0 0.3765917527 -0.3102623189
1611950000.0 0.1278677306 -0.4320598395
1621900000.0 -0.157272771 -0.3792550506
1631850000.0 -0.363329188 -0.1579945212
1641800000.0 -0.3957469094 0.1510975925
1651750000.0 -0.2334673608 0.4141769199
1661700000.0 0.0503491028 0.5212882353
1671650000.0 0.3357434315 0.4367831752
1681600000.0 0.5177615155 0.2041780643
1691550000.0 0.5394547482 -0.0932611227
1701500000.0 0.3926410199 -0.3585394927
1711450000.0 0.1194864063 -0.5048354463
1721400000.0 -0.2010345625 -0.4703776384
1731350000.0 -0.4559166168 -0.251548692
1741300000.0 -0.5453736588 0.0788218291
1751250000.0 -0.4342725501 0.3946374153
1761200000.0 -0.1758366357 0.5834257588
1771150000.0 0.13234739 0.5988188508
1781100000.0 0.3966229262 0.4541279129
1791050000.0 0.5518444692 0.1963870237
1801000000.0 0.5601457212 -0.1094294669
1810950000.0 0.4131836955 -0.3854174394
1820900000.0 0.1385162 -0.5442085572
1830850000.0 -0.1856020655 -0.5176969587
1840800000.0 -0.4417544143 -0.3069247308
1850750000.0 -0.5373209929 0.0032127947
1860700000.0 -0.4590851841 0.298650075
1870650000.0 -0.2570858857 0.4977081773
1880600000.0 -0.0019943128 0.5635010672
1890550000.0 0.2365748199 0.4944061079
1900500000.0 0.4006516407 0.3132628066
1910450000.0 0.4503153053 0.0685891997
1920400000.0 0.3677870878 -0.1691710887
1930350000.0 0.1731986987 -0.3177821133
1940300000.0 -0.058483366 -0.3278678813
1950250000.0 -0.2379109881 -0.2184704424
1960200000.0 -0.3193898823 -0.0536927043
1970150000.0 -0.3030718761 0.1001135427
1980100000.0 -0.2234243241 0.1944141273
1990050000.0 -0.1353635551 0.212158583
2000000000.0 -0.094974975 0.1728610139
