!Created with skrf (http://scikit-rf.org).
# GHz S RI R 50.0 
!freq ReS11 ImS11
10000000.0 -0.8014126263 0.6027116292
19950000.0 -0.2880048554 0.9404038066
29900000.0 0.3227275129 0.9126157936
39850000.0 0.8078071372 0.5279874192
49800000.0 0.9741090038 -0.0824714969
59750000.0 0.7282490009 -0.6849827098
69700000.0 0.1417864378 -1.006424337
79650000.0 -0.5290731316 -0.8631595013
89600000.0 -0.9444456318 -0.293452377
99550000.0 -0.8646158686 0.4290744427
109500000.0 -0.289899099 0.9152609824
119450000.0 0.4928477057 0.8448443993
129400000.0 0.9762673688 0.1759084014
139350000.0 0.7942313525 -0.6276496017
149300000.0 0.0388798491 -0.9885767071
159250000.0 -0.6997613354 -0.6479490922
169200000.0 -0.9306034202 0.0980260847
179150000.0 -0.5704121349 0.7534855478
189100000.0 0.1179620528 0.9580560678
199050000.0 0.734197165 0.6411051223
209000000.0 0.9657689897 0.0095378487
218950000.0 0.7362206969 -0.5921249032
228900000.0 0.192540762 -0.9019116209
238850000.0 -0.4161933983 -0.8082197257
248800000.0 -0.775082884 -0.4260364676
258750000.0 -0.9041110293 0.2061325054
268700000.0 -0.6016038744 0.7262548475
278650000.0 -0.0475623572 0.9414802505
288600000.0 0.5130701744 0.7627531985
298550000.0 0.8367458876 0.2775074642
308500000.0 0.7897723847 -0.3005243036
318450000.0 0.3942658868 -0.7182734271
328400000.0 -0.1703593538 -0.7839968722
338350000.0 -0.626118029 -0.4639701482
348300000.0 -0.7297796097 0.0595967589
358250000.0 -0.4522446244 0.4734969521
368200000.0 -0.0086704295 0.5551391353
378150000.0 0.3154821799 0.3241280486
388100000.0 0.364221465 -0.013630014
398050000.0 0.1870946442 -0.2357605474
408000000.0 -0.0420873844 -0.2482925727
417950000.0 -0.1710421187 -0.1128519613
427900000.0 -0.1548266596 0.038682904
437850000.0 -0.0486349822 0.1105339795
447800000.0 0.0567232478 0.082119769
457750000.0 0.0998712486 -0.0015685153
467700000.0 0.0707054168 -0.0767941099
477650000.0 0.006101502 -0.0981234245
487600000.0 -0.0334768607 -0.0599183348
497550000.0 -0.0786914297 -0.0302429604
507500000.0 -0.0449419534 0.0260751773
517450000.0 -2.58607e-05 0.0371493612
527400000.0 0.0274757003 0.0153831372
537350000.0 0.0223659618 -0.0132928982
547300000.0 -0.0116424111 -0.0238001298
557250000.0 -0.0427963503 0.0029813229
567200000.0 -0.0450720757 0.0499924693
577150000.0 -0.0087633076 0.0881513694
587100000.0 0.0521404774 0.089434036
597050000.0 0.1050374856 0.0408895787
607000000.0 0.1163047186 -0.0392029457
616950000.0 0.0697878968 -0.1163418935
626900000.0 -0.0175425493 -0.1503288187
636850000.0 -0.1125293623 -0.1224181556
646800000.0 -0.1688945841 -0.0403841396
656750000.0 -0.161224507 0.0613486214
666700000.0 -0.0896099697 0.1353059229
676650000.0 0.0146505809 0.1455253324
686600000.0 0.1039615467 0.0867609636
696550000.0 0.1345557216 -0.0176153054
706500000.0 0.0930629605 -0.1159252299
716450000.0 0.0007008862 -0.1580655217
726400000.0 -0.0925496052 -0.1250814078
736350000.0 -0.1314188423 -0.0325268501
746300000.0 -0.0882136674 0.0641374239
756250000.0 0.0145847143 0.1039596419
766200000.0 0.1235676802 0.0657877971
776150000.0 0.1827045251 -0.0427024628
786100000.0 0.148906567 -0.1693990501
796050000.0 0.0270659663 -0.2421039387
806000000.0 -0.1271725302 -0.2071736061
815950000.0 -0.2305753853 -0.0635082371
825900000.0 -0.2166928 0.1294111991
835850000.0 -0.0764356344 0.2810439146
845800000.0 0.1373831562 0.3129193748
855750000.0 0.3306703408 0.2001948875
865700000.0 0.4130956735 -0.0192904544
875650000.0 0.3335708878 -0.2492030599
885600000.0 0.1130496408 -0.3832089325
895550000.0 -0.1541529324 -0.3434249835
905500000.0 -0.3443021397 -0.1325559033
915450000.0 -0.3540344622 0.1584120959
925400000.0 -0.1693383434 0.3834213811
935350000.0 0.1165852803 0.4280337848
945300000.0 0.3623157748 0.2591522666
955250000.0 0.4161079559 -0.0593843192
965200000.0 0.202535037 -0.3401432537
975150000.0 -0.1895462308 -0.3654224879
985100000.0 -0.484898126 -0.042708089
995050000.0 -0.3981037121 0.4293491655
1005000000.0 0.0776501303 0.6633321506
1014950000.0 0.5963391817 0.396352761
1024900000.0 0.7143538561 -0.2298652838
1034850000.0 0.269384258 -0.7471376394
1044800000.0 -0.4359298615 -0.7170071355
1054750000.0 -0.8402086663 -0.1541247811
1064700000.0 -0.7213078786 0.4541841732
1074650000.0 -0.2381813576 0.7899164026
1084600000.0 0.3424968267 0.7317145195
1094550000.0 0.7158207267 0.277160256
1104500000.0 0.6657736021 -0.3055008062
1114450000.0 0.2233949135 -0.6723121494
1124400000.0 -0.3198020172 -0.6060199483
1134350000.0 -0.6237555853 -0.1993297413
1144300000.0 -0.5610174122 0.2642886771
1154250000.0 -0.2246079181 0.5420519751
1164200000.0 0.1903115109 0.5231684509
1174150000.0 0.4823670905 0.2401699175
1184100000.0 0.5049266459 -0.1683898561
1194050000.0 0.2410647826 -0.4751772427
1204000000.0 -0.1467463212 -0.5174710254
1213950000.0 -0.4541001876 -0.3095731899
1223900000.0 -0.5642982789 0.0291485291
1233850000.0 -0.4549672485 0.3588212747
1243800000.0 -0.1720222795 0.561807558
1253750000.0 0.1846918284 0.5559751254
1263700000.0 0.474703711 0.3302033482
1273650000.0 0.570911368 -0.0308451174
1283600000.0 0.435711629 -0.3750519837
1293550000.0 0.1377281489 -0.5737732302
1303500000.0 -0.2060335467 -0.5770746219
1313450000.0 -0.4901632018 -0.4026781331
1323400000.0 -0.6410611259 -0.1076472233
1333350000.0 -0.6138859521 0.2292361172
1343300000.0 -0.3993487643 0.5068474483
1353250000.0 -0.0513174487 0.6183323286
1363200000.0 0.3081232181 0.505774505
1373150000.0 0.5398010906 0.2077977577
1383100000.0 0.5673461336 -0.1575218575
1393050000.0 0.4029236203 -0.4664001736
1403000000.0 0.1155128438 -0.6355760353
1412950000.0 -0.207038514 -0.6285992482
1422900000.0 -0.4748370692 -0.4535338082
1432850000.0 -0.6081999453 -0.1551635205
1442800000.0 -0.5557831587 0.1786580628
1452750000.0 -0.3211295904 0.4336290064
1462700000.0 0.0187021552 0.5155446286
1472650000.0 0.3417178077 0.3971166918
1482600000.0 0.5378057765 0.1301512036
1492550000.0 0.5532881314 -0.1869883962
1502500000.0 0.3964920934 -0.4488563748
1512450000.0 0.1252555711 -0.5746011423
1522400000.0 -0.1693834765 -0.5227435762
1532350000.0 -0.3837159605 -0.3026633813
1542300000.0 -0.4305225696 0.0080114937
1552250000.0 -0.2852539258 0.2879846772
1562200000.0 -0.0085516045 0.4233458982
1572150000.0 0.2808597417 0.3691715051
1582100000.0 0.4703726066 0.1610194299
1592050000.0 0.492851016 -0.1109918659
1602000000.0 0.345560551 -0.3396067576
1611950000.0 0.0834542059 -0.4355276792
1621900000.0 -0.1933467926 -0.353028134
1631850000.0 -0.3707634963 -0.1133237792
1641800000.0 -0.3671601822 0.1901860504
1651750000.0 -0.1786323398 0.4264208979
1661700000.0 0.1102055073 0.4956930805
1671650000.0 0.3774159645 0.3787502352
1681600000.0 0.5245121311 0.1286727852
1691550000.0 0.5032057865 -0.1648390037
1701500000.0 0.3165690472 -0.4032292834
1711450000.0 0.018407992 -0.5007947312
1721400000.0 -0.2961954071 -0.4071708741
1731350000.0 -0.5040553037 -0.1422824163
1741300000.0 -0.5178466526 0.1951862055
1751250000.0 -0.3356965286 0.4714467767
1761200000.0 -0.0386883396 0.5909864955
1771150000.0 0.2662611203 0.5297154741
1781100000.0 0.488167702 0.3179219409
1791050000.0 0.5599715826 0.0203290542
1801000000.0 0.4464983592 -0.2462250973
1810950000.0 0.2828786398 -0.4062196073
1820900000.0 0.0086723745 -0.5264264945
1830850000.0 -0.3112217595 -0.4305210791
1840800000.0 -0.5072268274 -0.1643870213
1850750000.0 -0.518594924 0.1503466996
1860700000.0 -0.370138204 0.404431705
1870650000.0 -0.1282051065 0.5369580298
1880600000.0 0.1332643326 0.5283149435
1890550000.0 0.3460993349 0.3901836041
1900500000.0 0.4523148431 0.1603129871
1910450000.0 0.4149822121 -0.0902804332
1920400000.0 0.2449604935 -0.2726913755
1930350000.0 0.01264792 -0.3214235663
1940300000.0 -0.1868353027 -0.2359653319
1950250000.0 -0.2885429703 -0.079548649
1960200000.0 -0.2853684077 0.0752784107
1970150000.0 -0.2101173092 0.1709735836
1980100000.0 -0.1216892803 0.1821177911
1990050000.0 -0.085456037 0.1285955769
2000000000.0 -0.1400577436 0.0831891741
