!Created with skrf (http://scikit-rf.org).
# GHz S RI R 50.0 
!freq ReS11 ImS11
10000000.0 -0.7663204626 0.6749114913
19950000.0 -0.1376064208 0.9874219215
29900000.0 0.5362490208 0.8189091957
39850000.0 0.9429505938 0.2497686849
49800000.0 0.8755576829 -0.4584322983
59750000.0 0.3372159398 -0.9519850913
69700000.0 -0.4146563953 -0.9376957191
79650000.0 -0.9475915004 -0.379187002
89600000.0 -0.9093093695 0.4091835876
99550000.0 -0.2916224066 0.9256528377
109500000.0 0.5250078075 0.8020633193
119450000.0 0.9697738245 0.0699247794
129400000.0 0.6387341255 -0.7649142308
139350000.0 -0.2360191496 -0.9828240826
149300000.0 -0.9179335648 -0.3736646771
159250000.0 -0.8100747575 0.5112577247
169200000.0 -0.0670859301 0.939110864
179150000.0 0.7043868469 0.6390888124
189100000.0 0.9688298652 -0.1200083024
199050000.0 0.5865236559 -0.8032972116
209000000.0 -0.154750265 -0.9784409725
218950000.0 -0.7736374625 -0.5800964706
228900000.0 -0.9317564467 0.1173853354
238850000.0 -0.5759040403 0.7216903507
248800000.0 0.1345508592 0.7815059364
258750000.0 0.6840911458 0.6493965895
268700000.0 0.9603084511 0.0207907711
278650000.0 0.7329319888 -0.6217696429
288600000.0 0.1320848527 -0.9296617646
298550000.0 -0.5067395252 -0.7437345874
308500000.0 -0.838232173 -0.1766245178
318450000.0 -0.6856138452 0.4532532379
328400000.0 -0.1420334994 0.7857237355
338350000.0 0.4578470777 0.623927943
348300000.0 0.7244192926 0.0937582956
358250000.0 0.5094294359 -0.4126865146
368200000.0 0.0338559312 -0.5536150591
378150000.0 -0.324518566 -0.3080685098
388100000.0 -0.3507145593 0.0630402122
398050000.0 -0.1185957272 0.2716360431
408000000.0 0.1332477318 0.2210010173
417950000.0 0.2207120135 0.0290666864
427900000.0 0.1336108534 -0.123877277
437850000.0 -0.0145704209 -0.1411605992
447800000.0 -0.1042864102 -0.0478697674
457750000.0 -0.0890560458 0.0636516194
467700000.0 -0.0049063616 0.1124552429
477650000.0 0.0727928857 0.08045954
487600000.0 0.0875746193 0.0094212475
497550000.0 0.1057765802 0.0210416771
507500000.0 0.0288611554 -0.0532483602
517450000.0 -0.0085332677 -0.0278617979
527400000.0 -0.0058881196 0.000123511
537350000.0 0.0152966138 0.0019924262
547300000.0 0.0262390995 -0.0306851832
557250000.0 -0.016277025 -0.0609712899
567200000.0 -0.0740948798 -0.0448691059
577150000.0 -0.107824007 0.0176086683
587100000.0 -0.0841120964 0.0972897287
597050000.0 -0.0016567051 0.1431089304
607000000.0 0.100416668 0.1164407201
616950000.0 0.1638183309 0.0189925809
626900000.0 0.1468392264 -0.1035080519
636850000.0 0.0498149095 -0.1876987584
646800000.0 -0.0815223612 -0.1863580767
656750000.0 -0.1787798347 -0.0972671173
666700000.0 -0.1893225262 0.0328787934
676650000.0 -0.1083489245 0.133204893
686600000.0 0.017565185 0.1479948938
696550000.0 0.1161441193 0.072336779
706500000.0 0.1328243885 -0.0452997733
716450000.0 0.0651011646 -0.1321847159
726400000.0 -0.0380257057 -0.1373579199
736350000.0 -0.1040730164 -0.0647046039
746300000.0 -0.0856292436 0.0275375728
756250000.0 0.0057853558 0.0661164538
766200000.0 0.1024806651 0.0125270068
776150000.0 0.1247396941 -0.1053132877
786100000.0 0.0371205242 -0.2078669992
796050000.0 -0.1192165185 -0.2109253867
806000000.0 -0.2313710162 -0.0857153878
815950000.0 -0.2190000989 0.0888021519
825900000.0 -0.0837645824 0.2336681622
835850000.0 0.1412590006 0.246890667
845800000.0 0.3288607922 0.0891360014
855750000.0 0.3604894281 -0.1695538349
865700000.0 0.2011583193 -0.3919294271
875650000.0 -0.0794107898 -0.4498551905
885600000.0 -0.3346689145 -0.2949917232
895550000.0 -0.4182181294 0.0045292355
905500000.0 -0.2677415617 0.2902960041
915450000.0 0.0479501302 0.3943196643
925400000.0 0.3498197452 0.2425293808
935350000.0 0.4535311148 -0.0836184589
945300000.0 0.2843829029 -0.3858379516
955250000.0 -0.0619340686 -0.462100133
965200000.0 -0.3551960263 -0.2362015246
975150000.0 -0.3561470093 0.160045108
985100000.0 -0.0017019627 0.4109504634
995050000.0 0.4420160389 0.2316543743
1005000000.0 0.5269828141 -0.2920978822
1014950000.0 0.0879328135 -0.6749571806
1024900000.0 -0.5250754283 -0.4999254241
1034850000.0 -0.7433273331 0.1635636888
1044800000.0 -0.2810967376 0.7587580177
1054750000.0 0.4979166735 0.6896844922
1064700000.0 0.8117454273 0.0664446943
1074650000.0 0.6747880013 -0.5526228541
1084600000.0 0.058316974 -0.8637741553
1094550000.0 -0.5574962501 -0.6057223372
1104500000.0 -0.7769484644 0.0140171819
1114450000.0 -0.4506385514 0.5821889686
1124400000.0 0.1829809484 0.6785355624
1134350000.0 0.6184090707 0.2595133499
1144300000.0 0.5651840364 -0.2911341013
1154250000.0 0.1506026871 -0.5773300629
1164200000.0 -0.3021272611 -0.4664756634
1174150000.0 -0.5180956664 -0.0792412326
1184100000.0 -0.3768311041 0.3401423906
1194050000.0 0.0366746746 0.5030474333
1204000000.0 0.4211621357 0.2959010963
1213950000.0 0.5217397495 -0.1133775531
1223900000.0 0.3118524594 -0.4606674133
1233850000.0 -0.0673002006 -0.572896635
1243800000.0 -0.4262650229 -0.410088903
1253750000.0 -0.5965554336 -0.0459220778
1263700000.0 -0.48208167 0.3518245528
1273650000.0 -0.1217829989 0.577934638
1283600000.0 0.3007564207 0.5047577168
1293550000.0 0.5685545657 0.1764387255
1303500000.0 0.5684043813 -0.2365752374
1313450000.0 0.323641935 -0.5552982721
1323400000.0 -0.0562477056 -0.666163864
1333350000.0 -0.4304896703 -0.5322937901
1343300000.0 -0.6577957557 -0.1942169959
1353250000.0 -0.6305187289 0.2261586675
1363200000.0 -0.3362628455 0.5459354439
1373150000.0 0.0998999703 0.6059172772
1383100000.0 0.4713920988 0.3781578349
1393050000.0 0.6179654318 -0.0186512521
1403000000.0 0.5021453919 -0.4089108231
1412950000.0 0.1893739892 -0.6488378313
1422900000.0 -0.1979821429 -0.6627944851
1432850000.0 -0.5192041863 -0.4484854651
1442800000.0 -0.6506916352 -0.0811153917
1452750000.0 -0.5289029253 0.2958638431
1462700000.0 -0.1949072604 0.5190450086
1472650000.0 0.2060254756 0.4822059652
1482600000.0 0.4887672029 0.2031866002
1492550000.0 0.5310850688 -0.1793249138
1502500000.0 0.3343682646 -0.492736501
1512450000.0 -0.0021369312 -0.6135032117
1522400000.0 -0.334486796 -0.5029820268
1532350000.0 -0.5229917645 -0.2116295078
1542300000.0 -0.4822193639 0.1336764366
1552250000.0 -0.2255377383 0.3692324423
1562200000.0 0.1203169623 0.3740440549
1572150000.0 0.3723122779 0.1496090891
1582100000.0 0.4045192057 -0.1756663799
1592050000.0 0.214272535 -0.4272231374
1602000000.0 -0.0870014451 -0.4846155745
1611950000.0 -0.3475307335 -0.3262206538
1621900000.0 -0.4375090376 -0.0313246176
1631850000.0 -0.302373257 0.2554103425
1641800000.0 1.73029e-05 0.376829361
1651750000.0 0.3102560037 0.2527173561
1661700000.0 0.4495331427 -0.0547153547
1671650000.0 0.3415478544 -0.3743447984
1681600000.0 0.0484978299 -0.5389376238
1691550000.0 -0.2821095399 -0.4741209207
1701500000.0 -0.5017824025 -0.2122294125
1711450000.0 -0.5110889884 0.1380773475
1721400000.0 -0.2901957852 0.4289620421
1731350000.0 0.079709422 0.5164145648
1741300000.0 0.4269726174 0.3375420296
1751250000.0 0.5750797799 -0.0282567775
1761200000.0 0.4538363658 -0.3988672741
1771150000.0 0.1362240185 -0.6068094888
1781100000.0 -0.2324126728 -0.5837597267
1791050000.0 -0.5143194754 -0.3535701033
1801000000.0 -0.6120814398 -0.001371924
1810950000.0 -0.4826508513 0.3482403054
1820900000.0 -0.1594080751 0.5488734203
1830850000.0 0.2106604263 0.4872912599
1840800000.0 0.4496355367 0.2404673887
1850750000.0 0.5235926786 -0.0776228344
1860700000.0 0.3722487896 -0.4060210121
1870650000.0 0.0626858852 -0.566141474
1880600000.0 -0.2640735991 -0.5157437129
1890550000.0 -0.4952539676 -0.2987599003
1900500000.0 -0.5630147868 0.003130415
1910450000.0 -0.4471720335 0.2868460842
1920400000.0 -0.1860517884 0.4436508404
1930350000.0 0.1098894927 0.404591009
1940300000.0 0.3029089471 0.1951604978
1950250000.0 0.31676687 -0.0669121297
1960200000.0 0.1820623532 -0.2555508726
1970150000.0 -0.0074928257 -0.3117157695
1980100000.0 -0.1572433797 -0.2537233429
1990050000.0 -0.2165418189 -0.1520795175
2000000000.0 -0.2005717231 -0.0850999877
