!Created with skrf (http://scikit-rf.org).
# GHz S RI R 50.0 
!freq ReS11 ImS11
10000000.0 -1.001430514 0.1580229108
19950000.0 -0.9484269571 0.3023525335
29900000.0 -0.8741470747 0.4413031625
39850000.0 -0.778102108 0.580009761
49800000.0 -0.6615610174 0.713281971
59750000.0 -0.5188397019 0.8345006845
69700000.0 -0.3416232599 0.9322639019
79650000.0 -0.1243616137 0.9865809125
89600000.0 0.1319462527 0.9775545378
99550000.0 0.4133657817 0.8824123728
109500000.0 0.6918371175 0.6839895483
119450000.0 0.9162220536 0.3686485637
129400000.0 1.01060703 -0.0429701211
139350000.0 0.9138424105 -0.4632525948
149300000.0 0.6381891372 -0.7907677949
159250000.0 0.27428735 -0.9567510627
169200000.0 -0.0851974299 -0.9773731983
179150000.0 -0.3909396797 -0.8984462144
189100000.0 -0.6269227004 -0.7609786425
199050000.0 -0.7914411331 -0.5928275927
209000000.0 -0.8884890155 -0.4111980402
218950000.0 -0.9352607256 -0.2303503632
228900000.0 -0.943882097 -0.0566186411
238850000.0 -0.92659312 0.1083490771
248800000.0 -0.8904979039 0.2560362644
258750000.0 -0.8418929612 0.4067590635
268700000.0 -0.771749384 0.5376890597
278650000.0 -0.677708495 0.6494945402
288600000.0 -0.5576185804 0.7376248915
298550000.0 -0.4140019791 0.7990991066
308500000.0 -0.2508207094 0.8347155776
318450000.0 -0.0723224594 0.8394089829
328400000.0 0.1141016475 0.8054591599
338350000.0 0.2901005741 0.7198677807
348300000.0 0.4300290766 0.5765522965
358250000.0 0.5035754546 0.3858856744
368200000.0 0.4949380432 0.1811684734
378150000.0 0.4139369917 0.0035561745
388100000.0 0.2905964647 -0.1201156988
398050000.0 0.1579850501 -0.1802466165
408000000.0 0.0425295352 -0.1842544148
417950000.0 -0.0432133404 -0.1474555297
427900000.0 -0.0978918686 -0.0888724269
437850000.0 -0.1271118563 -0.0239207355
447800000.0 -0.1375642285 0.0357098081
457750000.0 -0.1336695059 0.0822497969
467700000.0 -0.1189504671 0.1117715964
477650000.0 -0.0957380201 0.122913262
487600000.0 -0.0666288916 0.1189181482
497550000.0 -0.0370590422 0.1059497258
507500000.0 -0.0062173239 0.0871286731
517450000.0 0.0165536245 0.0655577406
527400000.0 0.0280334641 0.0446251889
537350000.0 0.0250287727 0.0255851857
547300000.0 0.0114987079 0.0082458271
557250000.0 -0.0137673545 -0.0107245447
567200000.0 -0.0444042147 -0.0272474031
577150000.0 -0.0755484165 -0.0400577002
587100000.0 -0.1027335257 -0.0463676854
597050000.0 -0.1235829313 -0.043076169
607000000.0 -0.138131438 -0.0290558447
616950000.0 -0.1478888158 -0.0049885102
626900000.0 -0.1539861393 0.0271508024
636850000.0 -0.1568385051 0.0627594496
646800000.0 -0.1493837533 0.0943039793
656750000.0 -0.1458154899 0.1183639246
666700000.0 -0.1321568535 0.136590007
676650000.0 -0.108092171 0.1458033084
686600000.0 -0.0746806054 0.1468523329
696550000.0 -0.0347252556 0.1425752441
706500000.0 0.0076444915 0.1327250804
716450000.0 0.0476135684 0.1179216185
726400000.0 0.0797115376 0.0951074827
736350000.0 0.0999335923 0.0633170793
746300000.0 0.1064906965 0.0207724778
756250000.0 0.0996198268 -0.0307332578
766200000.0 0.0804545456 -0.0882805689
776150000.0 0.0518294539 -0.1453948994
786100000.0 0.0135739269 -0.195378037
796050000.0 -0.0329309692 -0.2314960437
806000000.0 -0.0871826537 -0.2487426378
815950000.0 -0.1492016373 -0.2440410958
825900000.0 -0.2160640689 -0.2193092289
835850000.0 -0.2844692008 -0.1765805971
845800000.0 -0.3470187394 -0.1192627637
855750000.0 -0.3961209206 -0.0475776584
865700000.0 -0.4095828272 0.0413868166
875650000.0 -0.3494354875 0.0849184288
885600000.0 -0.361328764 0.0906081928
895550000.0 -0.3619944646 0.1627482511
905500000.0 -0.3234535398 0.2472152317
915450000.0 -0.2589576158 0.3281200616
925400000.0 -0.1739594775 0.3966419779
935350000.0 -0.0703662845 0.4413976038
945300000.0 0.0491564488 0.4508826341
955250000.0 0.1806289245 0.4132329712
965200000.0 0.3135291108 0.3190259069
975150000.0 0.4303288134 0.1649651056
985100000.0 0.5014344766 -0.0451499445
995050000.0 0.4908682263 -0.2915330426
1005000000.0 0.3681344614 -0.5292611718
1014950000.0 0.1310770915 -0.6954766355
1024900000.0 -0.174415621 -0.7385852258
1034850000.0 -0.4812396998 -0.6471949438
1044800000.0 -0.7277148994 -0.4435660512
1054750000.0 -0.8656078814 -0.1664818248
1064700000.0 -0.8833157912 0.1019984047
1074650000.0 -0.8089676233 0.3690572353
1084600000.0 -0.6407937041 0.5891218381
1094550000.0 -0.4026842059 0.7383051944
1104500000.0 -0.1338330872 0.8067819891
1114450000.0 0.1382217022 0.7882518576
1124400000.0 0.3804719861 0.6799160992
1134350000.0 0.5573970507 0.4963650682
1144300000.0 0.6516068172 0.2688231259
1154250000.0 0.6661709071 0.0359883249
1164200000.0 0.6211891181 -0.1728531631
1174150000.0 0.5422546778 -0.3490781154
1184100000.0 0.4329271469 -0.4901807993
1194050000.0 0.3025780089 -0.5855496679
1204000000.0 0.1635200227 -0.634647826
1213950000.0 0.0259784455 -0.6453719916
1223900000.0 -0.1033482988 -0.6306743303
1233850000.0 -0.2210672651 -0.6022506099
1243800000.0 -0.3255360048 -0.5653705212
1253750000.0 -0.415479218 -0.5225228701
1263700000.0 -0.4883585218 -0.4720370609
1273650000.0 -0.5454126556 -0.4139695798
1283600000.0 -0.5851819397 -0.3470597279
1293550000.0 -0.6129719338 -0.2735362466
1303500000.0 -0.6338441512 -0.1962366079
1313450000.0 -0.6509392184 -0.1195864175
1323400000.0 -0.6668922057 -0.0462619431
1333350000.0 -0.6793112736 0.0226359251
1343300000.0 -0.6844036418 0.0877614281
1353250000.0 -0.6790237415 0.1472762453
1363200000.0 -0.6596552998 0.2039234041
1373150000.0 -0.6258097303 0.2595830634
1383100000.0 -0.5827798205 0.314964255
1393050000.0 -0.5343792138 0.3712023335
1403000000.0 -0.4850558267 0.4262864346
1412950000.0 -0.4354728505 0.4776375557
1422900000.0 -0.3848325525 0.5219078586
1432850000.0 -0.3314763952 0.5547801371
1442800000.0 -0.2714095729 0.5760434823
1452750000.0 -0.2036711652 0.5847541325
1462700000.0 -0.1270587042 0.5836272885
1472650000.0 -0.0437977788 0.5754522708
1482600000.0 0.0422065568 0.5624754267
1492550000.0 0.1269478979 0.5429834741
1502500000.0 0.2068682747 0.513517588
1512450000.0 0.2776804708 0.469804858
1522400000.0 0.336713164 0.4090002646
1532350000.0 0.3826955856 0.33021974
1542300000.0 0.4174826867 0.2366690735
1552250000.0 0.4416806056 0.1331854309
1562200000.0 0.4553039572 0.0272643003
1572150000.0 0.4559672012 -0.0772909061
1582100000.0 0.4391513374 -0.1760755891
1592050000.0 0.4022352944 -0.2644021921
1602000000.0 0.3445510199 -0.3409263771
1611950000.0 0.269481235 -0.4043178038
1621900000.0 0.1832992865 -0.4570571963
1631850000.0 0.0919276333 -0.4995540178
1641800000.0 9.96449e-05 -0.5332562437
1651750000.0 -0.0884276444 -0.554732774
1661700000.0 -0.1713413355 -0.5610617878
1671650000.0 -0.2469145284 -0.54976637
1681600000.0 -0.3156892651 -0.5215438737
1691550000.0 -0.3793680116 -0.4809231116
1701500000.0 -0.4406693665 -0.4296437759
1711450000.0 -0.4972942641 -0.3698562682
1721400000.0 -0.5367603669 -0.289156026
1731350000.0 -0.5041113934 -0.3424025819
1741300000.0 -0.6131685697 -0.2920843746
1751250000.0 -0.6536009651 -0.2357494062
1761200000.0 -0.6709276326 -0.1801282527
1771150000.0 -0.6749842923 -0.1222482016
1781100000.0 -0.6729124998 -0.0623373618
1791050000.0 -0.6699182342 -0.002630138
1801000000.0 -0.6689685466 0.0540885723
1810950000.0 -0.6706295326 0.1071867263
1820900000.0 -0.6716971128 0.1556686765
1830850000.0 -0.6665337117 0.1976011966
1840800000.0 -0.6505827116 0.2363397771
1850750000.0 -0.6223249086 0.2706338701
1860700000.0 -0.5827808628 0.3024246977
1870650000.0 -0.5382042217 0.3334609357
1880600000.0 -0.4934821412 0.3623085402
1890550000.0 -0.4531562944 0.3892651021
1900500000.0 -0.4183447227 0.4104531442
1910450000.0 -0.387876687 0.4244133739
1920400000.0 -0.3567488609 0.4280447233
1930350000.0 -0.3224102144 0.4214556105
1940300000.0 -0.2831107177 0.4030744031
1950250000.0 -0.2398873732 0.3759596971
1960200000.0 -0.1960122276 0.3445271059
1970150000.0 -0.1583694006 0.3096268598
1980100000.0 -0.1319357363 0.2722113384
1990050000.0 -0.1216418758 0.2302823184
2000000000.0 -0.1316511936 0.1809458355
