!Created with skrf (http://scikit-rf.org).
# GHz S RI R 50.0 
!freq ReS11 ImS11
10000000.0 -1.017925737 0.0845129665
19950000.0 -0.9955306833 0.1606520223
29900000.0 -0.9648377635 0.2409754071
39850000.0 -0.9303565735 0.3299968314
49800000.0 -0.8910350741 0.4274382083
59750000.0 -0.8415591972 0.5314106488
69700000.0 -0.7707999865 0.6391180704
79650000.0 -0.6656340226 0.7453897368
89600000.0 -0.5148202085 0.8446917953
99550000.0 -0.3115137407 0.9272307679
109500000.0 -0.053896159 0.9757918844
119450000.0 0.249715496 0.9593309172
129400000.0 0.5664027291 0.8402408797
139350000.0 0.8208210682 0.6164946022
149300000.0 0.9747998777 0.3097225155
159250000.0 1.011353401 -0.0079391029
169200000.0 0.9625442469 -0.2890777733
179150000.0 0.867407936 -0.5132776602
189100000.0 0.7526736353 -0.6798066508
199050000.0 0.633560474 -0.7926606879
209000000.0 0.5168308479 -0.8610618679
218950000.0 0.4079373888 -0.8985889716
228900000.0 0.3083994148 -0.9198599217
238850000.0 0.2163569013 -0.9342180594
248800000.0 0.1516474047 -0.9269607395
258750000.0 0.0610674758 -0.9562018509
268700000.0 -0.0108530971 -0.9597633155
278650000.0 -0.0798437491 -0.9505579937
288600000.0 -0.1495431215 -0.9257207105
298550000.0 -0.222361692 -0.8858959043
308500000.0 -0.3003748565 -0.833841832
318450000.0 -0.3832722527 -0.7692216257
328400000.0 -0.4660661855 -0.6883386582
338350000.0 -0.5369707764 -0.5847828269
348300000.0 -0.57949315 -0.4542248919
358250000.0 -0.5767458142 -0.3030679343
368200000.0 -0.5249774652 -0.1488993398
378150000.0 -0.4326220354 -0.015001042
388100000.0 -0.3173079896 0.0841473695
398050000.0 -0.1999746479 0.1380234273
408000000.0 -0.0940529488 0.1517927365
417950000.0 -0.0087197712 0.1320692932
427900000.0 0.0583556672 0.0950047744
437850000.0 0.1083103379 0.0533736149
447800000.0 0.1442398216 0.0148547392
457750000.0 0.1641901423 -0.0140711661
467700000.0 0.1706003865 -0.0348568436
477650000.0 0.1628344792 -0.0490684202
487600000.0 0.1435105352 -0.0599030282
497550000.0 0.1186302002 -0.0639682401
507500000.0 0.0948954927 -0.0726754847
517450000.0 0.0715824539 -0.0762218862
527400000.0 0.0547102083 -0.0731089666
537350000.0 0.0413290479 -0.0589650535
547300000.0 0.0282471085 -0.0372664245
557250000.0 0.0101473666 -0.0090654856
567200000.0 -0.008437231 0.0211535903
577150000.0 -0.0260759984 0.0483641879
587100000.0 -0.0392699702 0.0704532518
597050000.0 -0.0443790214 0.0884613884
607000000.0 -0.0406476324 0.1041829697
616950000.0 -0.0291735951 0.120495713
626900000.0 -0.0145712306 0.139660996
636850000.0 0.0007528382 0.160494105
646800000.0 0.0124625382 0.1788906886
656750000.0 0.0205980157 0.1889598713
666700000.0 0.0275819596 0.1915945023
676650000.0 0.0377206354 0.1845689755
686600000.0 0.052723648 0.1701153504
696550000.0 0.0713858097 0.1513076774
706500000.0 0.0938009335 0.1318688254
716450000.0 0.1135161901 0.1136772888
726400000.0 0.1270748001 0.0939236262
736350000.0 0.1309603319 0.0692104225
746300000.0 0.1275932314 0.0375917075
756250000.0 0.1172735122 -0.0023255367
766200000.0 0.10439146 -0.0492188391
776150000.0 0.0898356933 -0.0980238334
786100000.0 0.0734201689 -0.1454790636
796050000.0 0.0515182936 -0.1846018107
806000000.0 0.0213435091 -0.2157237876
815950000.0 -0.0176913159 -0.2380016955
825900000.0 -0.0669305146 -0.2561145493
835850000.0 -0.1207379448 -0.2701045025
845800000.0 -0.1758494525 -0.2811683777
855750000.0 -0.2276109001 -0.2879641131
865700000.0 -0.2747980759 -0.2854105705
875650000.0 -0.3155067971 -0.2701401251
885600000.0 -0.3532782194 -0.2420874942
895550000.0 -0.3896694818 -0.2022717876
905500000.0 -0.4261786159 -0.1542014571
915450000.0 -0.4614472632 -0.0995887278
925400000.0 -0.490307944 -0.039579588
935350000.0 -0.5063696596 0.0275753007
945300000.0 -0.5040470337 0.1037009804
955250000.0 -0.4778594458 0.191128319
965200000.0 -0.4278173175 0.2896929785
975150000.0 -0.3507223006 0.3966493354
985100000.0 -0.2410674754 0.5008397656
995050000.0 -0.0927557916 0.5856279576
1005000000.0 0.0979005911 0.6240460011
1014950000.0 0.3194917718 0.5877063893
1024900000.0 0.5415996764 0.4590150917
1034850000.0 0.7199495046 0.2424133263
1044800000.0 0.8069863735 -0.0341837472
1054750000.0 0.7509944506 -0.3077724639
1064700000.0 0.6679130099 -0.4492027048
1074650000.0 0.5413179899 -0.6236359725
1084600000.0 0.3731100451 -0.7535362495
1094550000.0 0.151668393 -0.8420860627
1104500000.0 -0.0830009477 -0.8541353719
1114450000.0 -0.293825553 -0.7996806579
1124400000.0 -0.4631384276 -0.6905835093
1134350000.0 -0.5829430397 -0.5411189867
1144300000.0 -0.6544255228 -0.3684249492
1154250000.0 -0.6860095548 -0.1914695599
1164200000.0 -0.6843804046 -0.0283791704
1174150000.0 -0.6662186481 0.1081543902
1184100000.0 -0.6341999577 0.2282260373
1194050000.0 -0.5814394403 0.3255250192
1204000000.0 -0.5131028697 0.3995751329
1213950000.0 -0.4396933025 0.4567962211
1223900000.0 -0.3665322044 0.5049862648
1233850000.0 -0.3006406158 0.5482056418
1243800000.0 -0.2431419281 0.5849682889
1253750000.0 -0.1951668184 0.6143663284
1263700000.0 -0.1540715919 0.6321541302
1273650000.0 -0.1168709955 0.637557028
1283600000.0 -0.0814876929 0.6352415337
1293550000.0 -0.0459144918 0.6316848938
1303500000.0 -0.0114594731 0.6313583679
1313450000.0 0.0195962444 0.6369765869
1323400000.0 0.0469973603 0.6462921612
1333350000.0 0.0676097734 0.655809991
1343300000.0 0.0842842236 0.6602512001
1353250000.0 0.0985493511 0.6576409894
1363200000.0 0.1146941713 0.6472031829
1373150000.0 0.1328792617 0.6331223021
1383100000.0 0.1552111661 0.6197289364
1393050000.0 0.1786349958 0.6117937333
1403000000.0 0.2001161972 0.6074183926
1412950000.0 0.218095892 0.6043325626
1422900000.0 0.2316936826 0.5973387679
1432850000.0 0.2403106257 0.5859392742
1442800000.0 0.2495321638 0.5679907609
1452750000.0 0.2630041351 0.5459491709
1462700000.0 0.2846874413 0.5250774689
1472650000.0 0.3118815987 0.5039174648
1482600000.0 0.3416467537 0.4857667071
1492550000.0 0.3681164664 0.4651678622
1502500000.0 0.3908986459 0.4407817176
1512450000.0 0.40809187 0.4081679637
1522400000.0 0.4216331499 0.3630654437
1532350000.0 0.4349619911 0.3097431703
1542300000.0 0.4484161155 0.2503884327
1552250000.0 0.4606083337 0.1939375547
1562200000.0 0.4720143654 0.1513406348
1572150000.0 0.4914883844 0.1159359121
1582100000.0 0.5091417721 0.0763649102
1592050000.0 0.5137265397 0.0296827593
1602000000.0 0.5107640534 -0.0209197822
1611950000.0 0.5011935615 -0.0769257835
1621900000.0 0.4928198598 -0.1351006032
1631850000.0 0.4876085363 -0.1908521089
1641800000.0 0.4848541823 -0.2434923272
1651750000.0 0.4812969416 -0.2874335621
1661700000.0 0.4722189656 -0.3230491409
1671650000.0 0.4577165498 -0.353268223
1681600000.0 0.4377393366 -0.3808651326
1691550000.0 0.4183995568 -0.4100699929
1701500000.0 0.4021355578 -0.4416117389
1711450000.0 0.3933962483 -0.4724236646
1721400000.0 0.3898537946 -0.5002991548
1731350000.0 0.3911642806 -0.5211543593
1741300000.0 0.3920583483 -0.5325499849
1751250000.0 0.3887303718 -0.5363300064
1761200000.0 0.3806523949 -0.535763928
1771150000.0 0.3701390014 -0.5359873242
1781100000.0 0.3626794267 -0.5397028868
1791050000.0 0.3603112526 -0.5479961825
1801000000.0 0.3651956102 -0.5570522557
1810950000.0 0.3741201195 -0.5629878847
1820900000.0 0.3835653473 -0.5629598135
1830850000.0 0.3877705052 -0.5549962011
1840800000.0 0.3852661205 -0.5414711615
1850750000.0 0.3750065163 -0.5262673554
1860700000.0 0.3613661695 -0.513176541
1870650000.0 0.3501399292 -0.5018709815
1880600000.0 0.3483765078 -0.4911680813
1890550000.0 0.3539345127 -0.4847035401
1900500000.0 0.359283679 -0.4721492355
1910450000.0 0.3628397069 -0.4517097852
1920400000.0 0.358778117 -0.4231697756
1930350000.0 0.3446417521 -0.3901193029
1940300000.0 0.3222451414 -0.3569042978
1950250000.0 0.295923708 -0.3255387308
1960200000.0 0.270812008 -0.2963210399
1970150000.0 0.2508875012 -0.265422562
1980100000.0 0.2356279073 -0.226931604
1990050000.0 0.2222636904 -0.1774260975
2000000000.0 0.2071588152 -0.1144402247
