!Created with skrf (http://scikit-rf.org).
# GHz S RI R 50.0 
!freq ReS11 ImS11
10000000.0 -0.8104068147 0.6072161879
19950000.0 -0.2949622424 0.9492946721
29900000.0 0.3188370412 0.9285344757
39850000.0 0.8107166868 0.5523517502
49800000.0 0.9899057157 -0.0525052442
59750000.0 0.7614467043 -0.6586229816
69700000.0 0.1881859731 -0.9985028578
79650000.0 -0.4874214179 -0.8850408218
89600000.0 -0.9312815273 -0.3398498768
99550000.0 -0.8934221857 0.3816079087
109500000.0 -0.353437796 0.8971193541
119450000.0 0.4246552467 0.8781307493
129400000.0 0.9585069996 0.2546683912
139350000.0 0.8341137925 -0.553253664
149300000.0 0.1130388605 -0.9771428683
159250000.0 -0.65466987 -0.6985164355
169200000.0 -0.9435565999 0.03264899
179150000.0 -0.6252075045 0.7171558711
189100000.0 0.0581150202 0.9670362975
199050000.0 0.7011580984 0.6841108461
209000000.0 0.9717089415 0.0593301025
218950000.0 0.7709526705 -0.5625410761
228900000.0 0.2343885478 -0.9042362877
238850000.0 -0.3873242074 -0.8377933363
248800000.0 -0.6813860612 -0.2850425461
258750000.0 -0.9233658213 0.1580041144
268700000.0 -0.6408428827 0.6975699767
278650000.0 -0.0883469984 0.9392990072
288600000.0 0.4893046211 0.781658222
298550000.0 0.8365464657 0.3005531119
308500000.0 0.8039459246 -0.2868669839
318450000.0 0.4098638592 -0.7142798035
328400000.0 -0.1589301016 -0.7831024333
338350000.0 -0.6157178623 -0.4609569681
348300000.0 -0.7163132001 0.0641802593
358250000.0 -0.4342336247 0.4748794703
368200000.0 0.0120273174 0.5478669336
378150000.0 0.3314549263 0.3072458909
388100000.0 0.3697709336 -0.0367120428
398050000.0 0.1783794964 -0.258215658
408000000.0 -0.0650242366 -0.2634806355
417950000.0 -0.2023103952 -0.1150269168
427900000.0 -0.1862101871 0.0543991813
437850000.0 -0.0698911048 0.1419505782
447800000.0 0.0538849869 0.1227068769
457750000.0 0.1170743451 0.0365838015
467700000.0 0.1026387875 -0.0521489825
477650000.0 0.0434333312 -0.0942147928
487600000.0 -0.0105863789 -0.082281138
497550000.0 -0.042828477 -0.1115260648
507500000.0 -0.0495712283 -0.0030628614
517450000.0 -0.0167291959 0.0073474916
527400000.0 -0.0016490062 -0.0085767844
537350000.0 -0.0166926505 -0.0272334505
547300000.0 -0.0508879564 -0.0212013861
557250000.0 -0.0767118292 0.0183408739
567200000.0 -0.0669343281 0.0758970912
577150000.0 -0.013167309 0.1202073485
587100000.0 0.0660895905 0.1191756093
597050000.0 0.1354663571 0.0618161985
607000000.0 0.1564992084 -0.0357648683
616950000.0 0.1115054222 -0.1330507608
626900000.0 0.0136096617 -0.1870607771
636850000.0 -0.1001017524 -0.172370104
646800000.0 -0.1823311694 -0.0914129671
656750000.0 -0.1974435109 0.0226341109
666700000.0 -0.1379222705 0.1203991013
676650000.0 -0.0306922025 0.1592808127
686600000.0 0.0754500625 0.1225627729
696550000.0 0.1331758211 0.030243371
706500000.0 0.1187547967 -0.069872788
716450000.0 0.047422142 -0.1295770825
726400000.0 -0.038464896 -0.1204945818
736350000.0 -0.08571806 -0.0519543089
746300000.0 -0.0645110873 0.0313285775
756250000.0 0.0191526381 0.0751549915
766200000.0 0.1162600812 0.0433979891
776150000.0 0.1663851398 -0.0563670455
786100000.0 0.1287033812 -0.173339439
796050000.0 0.0070542831 -0.2380161773
806000000.0 -0.1449025911 -0.198492709
815950000.0 -0.2466163461 -0.0518658182
825900000.0 -0.2321795958 0.1449739782
835850000.0 -0.0886714267 0.3028149444
845800000.0 0.131510369 0.3417173087
855750000.0 0.3371403144 0.2330269781
865700000.0 0.4351526398 0.0130074517
875650000.0 0.3726689018 -0.2299034667
885600000.0 0.1623892066 -0.3889574498
895550000.0 -0.1142139067 -0.3817706477
905500000.0 -0.3339838146 -0.1976746904
915450000.0 -0.3893186411 0.0912021764
925400000.0 -0.2437842077 0.3487326855
935350000.0 0.0372737473 0.4434502616
945300000.0 0.3095757567 0.315797492
955250000.0 0.4137717588 0.0199894164
965200000.0 0.2552310499 -0.2779775224
975150000.0 -0.1036556399 -0.3575744237
985100000.0 -0.4138710324 -0.1054595613
995050000.0 -0.4043578481 0.3285404507
1005000000.0 -0.0184668942 0.6082272298
1014950000.0 0.4855542428 0.4620597643
1024900000.0 0.7121326869 -0.0694241062
1034850000.0 0.4271618421 -0.6325935563
1044800000.0 -0.2239407174 -0.7847657728
1054750000.0 -0.7676417104 -0.3818099737
1064700000.0 -0.8161803776 0.2515597398
1074650000.0 -0.4561233683 0.7203830953
1084600000.0 0.111380876 0.8294632259
1094550000.0 0.6206573119 0.5143050232
1104500000.0 0.762322944 -0.0680376321
1114450000.0 0.4455366067 -0.5737748639
1124400000.0 -0.1196868726 -0.6804455063
1134350000.0 -0.5471559211 -0.3599457205
1144300000.0 -0.6044815241 0.125470757
1154250000.0 -0.3249079575 0.478191234
1164200000.0 0.0939704169 0.5307273038
1174150000.0 0.4219903948 0.2888693167
1184100000.0 0.4866639554 -0.1138863528
1194050000.0 0.2485897199 -0.4389317353
1204000000.0 -0.1351906424 -0.5040962559
1213950000.0 -0.4497578148 -0.3090796676
1223900000.0 -0.568601786 0.0260954669
1233850000.0 -0.4644250606 0.3584271693
1243800000.0 -0.1810844404 0.5664867911
1253750000.0 0.1798694625 0.5663455422
1263700000.0 0.4776244135 0.3431994303
1273650000.0 0.5837913753 -0.0200040401
1283600000.0 0.4565705547 -0.37408709
1293550000.0 0.1606770504 -0.5871624182
1303500000.0 -0.190500898 -0.6051569223
1313450000.0 -0.4896737312 -0.4406940638
1323400000.0 -0.6586972647 -0.1478404855
1333350000.0 -0.6491281094 0.1947441489
1343300000.0 -0.4494730402 0.4898263453
1353250000.0 -0.1061515209 0.6302783055
1363200000.0 0.2677213701 0.550841534
1373150000.0 0.5339432392 0.2739229776
1383100000.0 0.6013520252 -0.0945807394
1393050000.0 0.4677787155 -0.4267747682
1403000000.0 0.1930089786 -0.630775652
1412950000.0 -0.136120419 -0.6612122554
1422900000.0 -0.4298552999 -0.5174987107
1432850000.0 -0.6037988025 -0.2355962335
1442800000.0 -0.597005939 0.1053080125
1452750000.0 -0.3979165677 0.3938712018
1462700000.0 -0.0662479875 0.5248439366
1472650000.0 0.2767989234 0.4486748897
1482600000.0 0.5096772323 0.2032099648
1492550000.0 0.5629516431 -0.1117925879
1502500000.0 0.4404847399 -0.3819110978
1512450000.0 0.20088456 -0.5378382734
1522400000.0 -0.0890313317 -0.5335462649
1532350000.0 -0.3277038418 -0.3554870354
1542300000.0 -0.4162372124 -0.0633252019
1552250000.0 -0.3116096028 0.2249087859
1562200000.0 -0.0595822837 0.3863640412
1572150000.0 0.2239481001 0.3627214379
1582100000.0 0.4235204377 0.1803003366
1592050000.0 0.4665655322 -0.0762244216
1602000000.0 0.3435404133 -0.3034678143
1611950000.0 0.1006230274 -0.4109968262
1621900000.0 -0.1695369898 -0.3463178029
1631850000.0 -0.3513577644 -0.1203702025
1641800000.0 -0.3558109064 0.1772422512
1651750000.0 -0.1750555899 0.4146014088
1661700000.0 0.1092933704 0.489419196
1671650000.0 0.3767431925 0.379942461
1681600000.0 0.5297378627 0.13617252
1691550000.0 0.5186604954 -0.1571384136
1701500000.0 0.339953826 -0.4038170899
1711450000.0 0.0411752489 -0.5154948842
1721400000.0 -0.2846179467 -0.4346807839
1731350000.0 -0.5103974286 -0.1743955402
1741300000.0 -0.5436733032 0.1691577468
1751250000.0 -0.3785104264 0.4634046777
1761200000.0 -0.0888999364 0.6122210231
1771150000.0 0.2251837118 0.5864740385
1781100000.0 0.4785816314 0.4073211753
1791050000.0 0.608449249 0.1233170921
1801000000.0 0.5747060207 -0.1965998799
1810950000.0 0.3696844715 -0.4614066689
1820900000.0 0.0421364533 -0.5747674997
1830850000.0 -0.2964494833 -0.4839472516
1840800000.0 -0.5214389184 -0.2239263042
1850750000.0 -0.5657622342 0.1011812943
1860700000.0 -0.4414145542 0.3817363984
1870650000.0 -0.2081403539 0.5511738155
1880600000.0 0.0646592723 0.5812100316
1890550000.0 0.3102395852 0.4735546692
1900500000.0 0.4654584445 0.2543909246
1910450000.0 0.4778143363 -0.0164467554
1920400000.0 0.3372190768 -0.2469547217
1930350000.0 0.10063547 -0.3536361312
1940300000.0 -0.1361892608 -0.3128381478
1950250000.0 -0.2911050284 -0.1715054769
1960200000.0 -0.3378997107 0.0001336691
1970150000.0 -0.2946521099 0.1381243367
1980100000.0 -0.2053560548 0.2048290644
1990050000.0 -0.1267833611 0.1976696007
2000000000.0 -0.1062861324 0.1546468491
