!Created with skrf (http://scikit-rf.org).
# GHz S RI R 50.0 
!freq ReS11 ImS11
10000000.0 -0.9769323062 0.0689555167
19950000.0 -0.967531945 0.134272444
29900000.0 -0.9528059891 0.2023675588
39850000.0 -0.9314695694 0.274303832
49800000.0 -0.9007315296 0.3524599639
59750000.0 -0.8584232507 0.4379438029
69700000.0 -0.8007824657 0.5314169497
79650000.0 -0.7227879937 0.6335905047
89600000.0 -0.6152077757 0.7412195241
99550000.0 -0.4684160832 0.846182351
109500000.0 -0.2730497168 0.9326344616
119450000.0 -0.0258207398 0.9745301355
129400000.0 0.2362390968 0.9299154286
139350000.0 0.534839448 0.8193952896
149300000.0 0.7674800446 0.6084772678
159250000.0 0.9164454393 0.3447368981
169200000.0 0.9731205957 0.072447028
179150000.0 0.9534273054 -0.1717513476
189100000.0 0.8849418526 -0.3711636514
199050000.0 0.7933795551 -0.5252560169
209000000.0 0.6937219496 -0.6400762956
218950000.0 0.5955662917 -0.726216414
228900000.0 0.5013497674 -0.7900185892
238850000.0 0.4075178895 -0.8371411677
248800000.0 0.2520218461 -0.7368014588
258750000.0 0.2522314577 -0.8820645953
268700000.0 0.1626884085 -0.8955847351
278650000.0 0.0745079154 -0.8987652076
288600000.0 -0.0151636935 -0.892506699
298550000.0 -0.1071129445 -0.874144928
308500000.0 -0.2022661305 -0.8405111048
318450000.0 -0.2986585236 -0.7860757728
328400000.0 -0.3914734571 -0.7062291533
338350000.0 -0.4730995998 -0.598953769
348300000.0 -0.5319778599 -0.4657875333
358250000.0 -0.5556830506 -0.315527803
368200000.0 -0.5366772467 -0.1637471705
378150000.0 -0.4776960112 -0.0300532835
388100000.0 -0.389849173 0.0729274998
398050000.0 -0.2900226187 0.1396484231
408000000.0 -0.1916703671 0.1741442571
417950000.0 -0.1052547308 0.183158029
427900000.0 -0.0348905332 0.1747343784
437850000.0 0.0175866252 0.1548811496
447800000.0 0.0534852309 0.1289926184
457750000.0 0.0747006303 0.1007087868
467700000.0 0.0840193557 0.0733697552
477650000.0 0.0831271227 0.0489957515
487600000.0 0.0716332479 0.0294281559
497550000.0 0.0499554469 0.067153293
507500000.0 0.0606665651 0.0043532956
517450000.0 0.0339205286 -0.0015933954
527400000.0 0.0085730353 -0.0023089344
537350000.0 -0.0160594497 0.0007737955
547300000.0 -0.0399569329 0.0079634502
557250000.0 -0.0613529338 0.0185720599
567200000.0 -0.0796900064 0.0319723749
577150000.0 -0.0948501533 0.0479713114
587100000.0 -0.1070993489 0.0657992402
597050000.0 -0.1163529846 0.0839386996
607000000.0 -0.1225667908 0.1020114446
616950000.0 -0.1260643506 0.1184143561
626900000.0 -0.1257373519 0.1333943336
636850000.0 -0.121483872 0.1463463621
646800000.0 -0.1125713261 0.1570573536
656750000.0 -0.1001536555 0.1658739107
666700000.0 -0.0843586527 0.1724242047
676650000.0 -0.0672717566 0.1761214861
686600000.0 -0.0483258918 0.1762992548
696550000.0 -0.028064628 0.1721891788
706500000.0 -0.006308495 0.1624162083
716450000.0 0.017003336 0.1476648134
726400000.0 0.0421378386 0.1280109936
736350000.0 0.0680308329 0.1034452187
746300000.0 0.0933144873 0.0749401393
756250000.0 0.1162449747 0.041706402
766200000.0 0.134635109 0.0044434234
776150000.0 0.1473853931 -0.0370074666
786100000.0 0.1537973573 -0.0816758762
796050000.0 0.1539361819 -0.1285697854
806000000.0 0.1487790699 -0.1771319633
815950000.0 0.1388831372 -0.2244595988
825900000.0 0.1239308733 -0.2682949172
835850000.0 0.1037232268 -0.3071654741
845800000.0 0.0780493153 -0.3396259328
855750000.0 0.0465157972 -0.3658375336
865700000.0 0.0097117904 -0.3864196102
875650000.0 -0.0309346966 -0.4002526849
885600000.0 -0.0724228732 -0.4079411245
895550000.0 -0.114581151 -0.4111979001
905500000.0 -0.1592295163 -0.4077153948
915450000.0 -0.2060777808 -0.3941277234
925400000.0 -0.2547546309 -0.3677951875
935350000.0 -0.3047731971 -0.3261546169
945300000.0 -0.3549316874 -0.2676429601
955250000.0 -0.4018597824 -0.1885364278
965200000.0 -0.4383222236 -0.0858073505
975150000.0 -0.454960526 0.0431245268
985100000.0 -0.4356836851 0.1964313833
995050000.0 -0.3632284063 0.3632558011
1005000000.0 -0.2258124539 0.5208418418
1014950000.0 -0.0236408364 0.6362727715
1024900000.0 0.2219368169 0.6745164135
1034850000.0 0.4676350232 0.6183026364
1044800000.0 0.6703875933 0.4777590995
1054750000.0 0.8013327477 0.2803887248
1064700000.0 0.8312048235 0.073548236
1074650000.0 0.8414592976 -0.0942724473
1084600000.0 0.7696394195 -0.250700026
1094550000.0 0.7473036727 -0.3898906591
1104500000.0 0.6312624391 -0.5351897502
1114450000.0 0.4831048169 -0.6343780591
1124400000.0 0.316472779 -0.6924474953
1134350000.0 0.1436217059 -0.7085679199
1144300000.0 -0.0230203144 -0.6842548667
1154250000.0 -0.1725417433 -0.6236123637
1164200000.0 -0.2956144186 -0.5352210995
1174150000.0 -0.3891091363 -0.4330063569
1184100000.0 -0.461396693 -0.3255999141
1194050000.0 -0.5126951798 -0.2144871984
1204000000.0 -0.5426763341 -0.1093453768
1213950000.0 -0.5559141539 -0.0152291797
1223900000.0 -0.5575022057 0.0653589767
1233850000.0 -0.5517193522 0.1334373597
1243800000.0 -0.5405448674 0.1912304236
1253750000.0 -0.5267756462 0.2415676668
1263700000.0 -0.5115239386 0.2865820739
1273650000.0 -0.497725772 0.3253307542
1283600000.0 -0.4858524892 0.3589287682
1293550000.0 -0.4763953841 0.3860616723
1303500000.0 -0.4694280814 0.406741217
1313450000.0 -0.4639096109 0.4219238437
1323400000.0 -0.4595329793 0.4329865801
1333350000.0 -0.4543456728 0.4418713041
1343300000.0 -0.449070671 0.4514669495
1353250000.0 -0.4441622733 0.4614996909
1363200000.0 -0.4396850441 0.4721187808
1373150000.0 -0.4346402216 0.481475537
1383100000.0 -0.4295896619 0.4890617179
1393050000.0 -0.4246698869 0.493578148
1403000000.0 -0.4187725948 0.4953177917
1412950000.0 -0.4116920297 0.4943336792
1422900000.0 -0.4035100981 0.4929707521
1432850000.0 -0.3942659594 0.4925763567
1442800000.0 -0.3837453223 0.4946033192
1452750000.0 -0.3721079157 0.4993360956
1462700000.0 -0.3552942782 0.5060989393
1472650000.0 -0.3289052944 0.5059019354
1482600000.0 -0.3196669675 0.4863221964
1492550000.0 -0.3171576533 0.4939895087
1502500000.0 -0.2966660762 0.5026392992
1512450000.0 -0.2705488073 0.5071071171
1522400000.0 -0.2413934825 0.5099818202
1532350000.0 -0.2104281727 0.5119074072
1542300000.0 -0.1767659071 0.5133149614
1552250000.0 -0.1403575332 0.513321027
1562200000.0 -0.1017069248 0.5113281334
1572150000.0 -0.0623395669 0.5067429149
1582100000.0 -0.0207980338 0.5011038432
1592050000.0 0.022515891 0.4940050035
1602000000.0 0.0659381604 0.4855357488
1611950000.0 0.1095496203 0.4763300299
1621900000.0 0.152816679 0.4650883947
1631850000.0 0.1949697877 0.4506763006
1641800000.0 0.2355976471 0.4328886392
1651750000.0 0.2747969611 0.4115074244
1661700000.0 0.3127016834 0.3883935894
1671650000.0 0.3487320283 0.3655512063
1681600000.0 0.3822034694 0.3440504387
1691550000.0 0.4125422828 0.3246456575
1701500000.0 0.4394675838 0.3073672003
1711450000.0 0.4625735643 0.2912337876
1721400000.0 0.4817170094 0.2759529511
1731350000.0 0.498027768 0.2600683719
1741300000.0 0.5128825249 0.2441274875
1751250000.0 0.5262454655 0.22949213
1761200000.0 0.5377696983 0.2162596616
1771150000.0 0.5469488415 0.20638392
1781100000.0 0.5539323582 0.1993279326
1791050000.0 0.5581943207 0.1957873329
1801000000.0 0.5605431989 0.1937856506
1810950000.0 0.5608490604 0.191847768
1820900000.0 0.5602112484 0.1890897995
1830850000.0 0.5598857751 0.1847890885
1840800000.0 0.5586202127 0.1804275072
1850750000.0 0.5557584025 0.1760499366
1860700000.0 0.5501059962 0.1720955105
1870650000.0 0.5409063124 0.1690367379
1880600000.0 0.5273557554 0.1668065096
1890550000.0 0.5096515399 0.1650462469
1900500000.0 0.4895271913 0.1624067268
1910450000.0 0.4679828462 0.1576724998
1920400000.0 0.4456836797 0.1505519515
1930350000.0 0.4226744445 0.1420055557
1940300000.0 0.3970864789 0.1317464178
1950250000.0 0.3675224926 0.1205707605
1960200000.0 0.3325973007 0.1087424388
1970150000.0 0.2911826462 0.095878494
1980100000.0 0.2425525241 0.0828767467
1990050000.0 0.1866946691 0.069151129
2000000000.0 0.1230714864 0.0554919868
