!Created with skrf (http://scikit-rf.org).
# GHz S RI R 50.0 
!freq ReS11 ImS11
10000000.0 -0.8115798677 0.6037313382
19950000.0 -0.2983505315 0.9490264206
29900000.0 0.3172535583 0.9313205513
39850000.0 0.8124734468 0.5535433439
49800000.0 0.9905851932 -0.057471349
59750000.0 0.7522772947 -0.667866477
69700000.0 0.1632082574 -1.000810276
79650000.0 -0.5219475472 -0.8627539111
89600000.0 -0.9500642142 -0.2811847171
99550000.0 -0.8564318806 0.4613239955
109500000.0 -0.237943675 0.9372677326
119450000.0 0.5672696914 0.7969246025
129400000.0 0.9924789832 0.061821848
139350000.0 0.6740911816 -0.7332041226
149300000.0 -0.1357618327 -0.9678048679
159250000.0 -0.8050448737 -0.5155531665
169200000.0 -0.9166241727 0.244931326
179150000.0 -0.4756244576 0.8316304062
189100000.0 0.2191452494 0.9484512224
199050000.0 0.7899204132 0.5826342421
209000000.0 0.9740534299 -0.0460422328
218950000.0 0.7274503014 -0.6238757892
228900000.0 0.1929555989 -0.9212683025
238850000.0 -0.4015600996 -0.8411401781
248800000.0 -0.8256803962 -0.4292561347
258750000.0 -0.9320929159 0.1532960827
268700000.0 -0.6667779643 0.6820298579
278650000.0 -0.1371587347 0.9416913262
288600000.0 0.4376485585 0.825599478
298550000.0 0.8187525855 0.3866646166
308500000.0 0.8511486965 -0.1902319692
318450000.0 0.5195260022 -0.6592917873
328400000.0 -0.0299833337 -0.807591167
338350000.0 -0.5286056939 -0.5602814636
348300000.0 -0.7111981542 -0.0621041751
358250000.0 -0.5021595316 0.3813010832
368200000.0 -0.087330114 0.517022228
378150000.0 0.2401807531 0.3328206166
388100000.0 0.3058233885 0.0266384206
398050000.0 0.1510537292 -0.1741416972
408000000.0 -0.0505787028 -0.1761051663
417950000.0 -0.1489362605 -0.0465688972
427900000.0 -0.1080754038 0.0861928147
437850000.0 0.0094622081 0.1303535515
447800000.0 0.1125976427 0.0727382758
457750000.0 0.1394598994 -0.0357400586
467700000.0 0.0850320976 -0.1256859402
477650000.0 -0.0101357828 -0.150751384
487600000.0 -0.0903676401 -0.1082964816
497550000.0 -0.1235385444 -0.0271941287
507500000.0 -0.0900166609 0.0384199358
517450000.0 -0.0346318194 0.0636965683
527400000.0 0.0113527311 0.0467649208
537350000.0 0.0232189576 0.010679585
547300000.0 0.0020735207 -0.0106551052
557250000.0 -0.0258059081 -0.001353424
567200000.0 -0.0329259536 0.0337178865
577150000.0 -0.0033848237 0.0685938053
587100000.0 0.0525205648 0.0717415447
597050000.0 0.1047163432 0.0292464659
607000000.0 0.1190119107 -0.0477578835
616950000.0 0.0777057475 -0.1249944115
626900000.0 -0.0083070065 -0.164146845
636850000.0 -0.1057475066 -0.1416779444
646800000.0 -0.1709427692 -0.0617778853
656750000.0 -0.1729068104 0.0434178018
666700000.0 -0.1075124491 0.1281674647
676650000.0 -0.0028335747 0.1534431505
686600000.0 0.0937466902 0.1076950931
696550000.0 0.1396005613 0.0137844044
706500000.0 0.1153735998 -0.0818076619
716450000.0 0.0386638906 -0.1336462987
726400000.0 -0.0470197821 -0.1171191967
736350000.0 -0.091341947 -0.0451244179
746300000.0 -0.0666860119 0.037823985
756250000.0 0.0162225983 0.0782009806
766200000.0 0.1090726748 0.0438123938
776150000.0 0.1525518076 -0.0554374708
786100000.0 0.1087338818 -0.166547857
796050000.0 -0.0142115168 -0.2209921181
806000000.0 -0.1588063844 -0.1703896097
815950000.0 -0.2447265069 -0.0190928654
825900000.0 -0.211305701 0.1711153093
835850000.0 -0.0539809333 0.3096503535
845800000.0 0.1683755125 0.3213006134
855750000.0 0.3593395195 0.1859750083
865700000.0 0.4272206149 -0.0495891208
875650000.0 0.3276310656 -0.2861298085
885600000.0 0.0888704329 -0.4141488127
895550000.0 -0.1889265523 -0.3608649206
905500000.0 -0.3743982728 -0.1393740456
915450000.0 -0.3844961796 0.1497019443
925400000.0 -0.2091568116 0.3884668757
935350000.0 0.0883535295 0.4564602233
945300000.0 0.3609502249 0.3007226031
955250000.0 0.4529103299 -0.0136052249
965200000.0 0.2835176366 -0.3188787392
975150000.0 -0.0835875801 -0.411548154
985100000.0 -0.4224265658 -0.175774267
995050000.0 -0.4572818256 0.2713727828
1005000000.0 -0.0998142528 0.6000486598
1014950000.0 0.4201904427 0.5161035198
1024900000.0 0.7058543318 0.0145946538
1034850000.0 0.4724694943 -0.5731397513
1044800000.0 -0.1755448878 -0.7540709876
1054750000.0 -0.6847299013 -0.3583362391
1064700000.0 -0.7699538525 0.1781658451
1074650000.0 -0.4755667951 0.7065016505
1084600000.0 0.1470981828 0.8039527314
1094550000.0 0.6398567194 0.5120637084
1104500000.0 0.7847235999 -0.1204876019
1114450000.0 0.3994478921 -0.6463436864
1124400000.0 -0.2285424431 -0.6925725592
1134350000.0 -0.6411907351 -0.2819269023
1144300000.0 -0.622931632 0.2466309
1154250000.0 -0.2663500095 0.5780030797
1164200000.0 0.1941342657 0.5694228667
1174150000.0 0.5174542821 0.2539098408
1184100000.0 0.5294923913 -0.1997700423
1194050000.0 0.225515024 -0.5252776601
1204000000.0 -0.1983483924 -0.5549483162
1213950000.0 -0.5213522006 -0.3181340257
1223900000.0 -0.6267210049 0.0484503322
1233850000.0 -0.4993284175 0.3984276664
1243800000.0 -0.1895652286 0.6111610423
1253750000.0 0.1967449726 0.6024247016
1263700000.0 0.5112533859 0.3591912701
1273650000.0 0.6194954881 -0.0275471488
1283600000.0 0.4821592108 -0.3994710438
1293550000.0 0.1709132425 -0.6197702159
1303500000.0 -0.1938568364 -0.6356919357
1313450000.0 -0.5024254639 -0.4634694581
1323400000.0 -0.6760212717 -0.1591001605
1333350000.0 -0.6635535256 0.1968963035
1343300000.0 -0.4544785755 0.5011451139
1353250000.0 -0.0981711551 0.643500409
1363200000.0 0.2850533589 0.5579943262
1373150000.0 0.5527114834 0.2720351053
1383100000.0 0.615249677 -0.1024734715
1393050000.0 0.4732699515 -0.4359828777
1403000000.0 0.1900065244 -0.6357186898
1412950000.0 -0.1460233074 -0.6570588352
1422900000.0 -0.4409398586 -0.499277568
1432850000.0 -0.6065250973 -0.2026971646
1442800000.0 -0.5791519039 0.1442085169
1452750000.0 -0.3572406958 0.4206767876
1462700000.0 -0.0174903397 0.5219003914
1472650000.0 0.3107510402 0.4157432482
1482600000.0 0.5120158591 0.1548136398
1492550000.0 0.5293335239 -0.1572756486
1502500000.0 0.3724976826 -0.4112695863
1512450000.0 0.1036550507 -0.5235468406
1522400000.0 -0.1782699869 -0.4523558478
1532350000.0 -0.3596012118 -0.2211160685
1542300000.0 -0.357366347 0.0748447865
1552250000.0 -0.171645097 0.2989023888
1562200000.0 0.1011064786 0.3518748184
1572150000.0 0.334831261 0.2314052494
1582100000.0 0.4401882631 -0.003155212
1592050000.0 0.373145862 -0.2515197953
1602000000.0 0.1576475137 -0.4077635783
1611950000.0 -0.1217791248 -0.3957653278
1621900000.0 -0.347066187 -0.2037303078
1631850000.0 -0.4093929601 0.0998809267
1641800000.0 -0.2680749847 0.3853705912
1651750000.0 0.0184593506 0.5263858404
1661700000.0 0.3300723667 0.4684895121
1671650000.0 0.5490394296 0.2429228692
1681600000.0 0.6046909646 -0.0677510575
1691550000.0 0.479375431 -0.3666315465
1701500000.0 0.2017460339 -0.5585046962
1711450000.0 -0.1515465543 -0.569331366
1721400000.0 -0.4655260417 -0.3732786946
1731350000.0 -0.6176212 -0.0276226759
1741300000.0 -0.5482490526 0.3411967245
1751250000.0 -0.2942474819 0.6023730404
1761200000.0 0.0459224562 0.6846918598
1771150000.0 0.3697093221 0.5858178962
1781100000.0 0.5986919744 0.3434946125
1791050000.0 0.680418287 0.016500561
1801000000.0 0.5847391653 -0.3191173973
1810950000.0 0.317678833 -0.5683012364
1820900000.0 -0.0556670021 -0.6364177677
1830850000.0 -0.4074974593 -0.4854490456
1840800000.0 -0.6126541152 -0.1740498558
1850750000.0 -0.6199433228 0.1786116108
1860700000.0 -0.4583628947 0.4650757193
1870650000.0 -0.1948467936 0.6263563242
1880600000.0 0.1010044613 0.6409214564
1890550000.0 0.3633556771 0.5130481844
1900500000.0 0.5294275917 0.2677433163
1910450000.0 0.5435261356 -0.0332025313
1920400000.0 0.3923835023 -0.2946810579
1930350000.0 0.1315455401 -0.426706743
1940300000.0 -0.1370972355 -0.399992048
1950250000.0 -0.3288832787 -0.2590464982
1960200000.0 -0.4172564877 -0.0718922796
1970150000.0 -0.4070421943 0.1077538905
1980100000.0 -0.3253951055 0.2367519741
1990050000.0 -0.2148448951 0.2969981545
2000000000.0 -0.1158678787 0.2977489684
