!Created with skrf (http://scikit-rf.org).
# GHz S RI R 50.0 
!freq ReS11 ImS11
10000000.0 -1.001267401 0.1632651542
19950000.0 -0.9450625363 0.3122857065
29900000.0 -0.866291135 0.4552046311
39850000.0 -0.7642048575 0.5970703785
49800000.0 -0.6399415963 0.7322728676
59750000.0 -0.4877167767 0.8539300449
69700000.0 -0.2985816041 0.9478861166
79650000.0 -0.0684189167 0.9926247592
89600000.0 0.1998644253 0.9659543918
99550000.0 0.4869994665 0.844226507
109500000.0 0.7590192115 0.6116642672
119450000.0 0.9565818433 0.2620627244
129400000.0 0.9979181524 -0.1753495813
139350000.0 0.8520090637 -0.5720473439
149300000.0 0.5416073123 -0.8573219903
159250000.0 0.1719238638 -0.9769581882
169200000.0 -0.1739645097 -0.9624900132
179150000.0 -0.4589492161 -0.8631109942
189100000.0 -0.6746455573 -0.7165517277
199050000.0 -0.8215696995 -0.5466393275
209000000.0 -0.9046794899 -0.3675550433
218950000.0 -0.9412588552 -0.1910578211
228900000.0 -0.9422986391 -0.0226367767
238850000.0 -0.9202771289 0.1372481723
248800000.0 -0.8837925768 0.281976301
258750000.0 -0.8312869297 0.4247637042
268700000.0 -0.7610856044 0.5510924694
278650000.0 -0.668402913 0.6582472679
288600000.0 -0.5509397108 0.7417436585
298550000.0 -0.4113207986 0.799606559
308500000.0 -0.2537755966 0.8336249122
318450000.0 -0.080550063 0.8395196028
328400000.0 0.1013644042 0.8089953787
338350000.0 0.2745294471 0.7295521854
348300000.0 0.4149693125 0.5927974576
358250000.0 0.4920113629 0.4074950905
368200000.0 0.4879604389 0.2044151296
378150000.0 0.4107196629 0.0252732708
388100000.0 0.2879561479 -0.1008650388
398050000.0 0.1542216474 -0.1619147169
408000000.0 0.0374427656 -0.1644403752
417950000.0 -0.0488185005 -0.1245558434
427900000.0 -0.1028642378 -0.0622230309
437850000.0 -0.1296220501 0.0059424336
447800000.0 -0.1367189485 0.0673391684
457750000.0 -0.129386919 0.1146033899
467700000.0 -0.1110156368 0.1433464747
477650000.0 -0.0847287385 0.152932566
487600000.0 -0.0537196184 0.1465523132
497550000.0 -0.0218886235 0.1328443156
507500000.0 0.0081743121 0.1131630582
517450000.0 0.0306521627 0.0920934946
527400000.0 0.0423640542 0.0725371265
537350000.0 0.0403203457 0.0549231103
547300000.0 0.0295481277 0.0371908613
557250000.0 0.0060723202 0.0172067794
567200000.0 -0.0228762709 -0.0008891736
577150000.0 -0.0525909378 -0.0164401023
587100000.0 -0.0792427366 -0.0254449397
597050000.0 -0.1017515645 -0.0245393654
607000000.0 -0.1232390661 -0.0040744233
616950000.0 -0.0970511588 0.0239669238
626900000.0 -0.1144217703 0.0366798157
636850000.0 -0.1239251721 0.0688318373
646800000.0 -0.1264049097 0.1004613852
656750000.0 -0.1222836063 0.1270162008
666700000.0 -0.1086120522 0.1452415937
676650000.0 -0.0835912834 0.1546351651
686600000.0 -0.0445486441 0.1567444258
696550000.0 0.0020182757 0.1301096042
706500000.0 0.017416152 0.121085278
716450000.0 0.0559477787 0.1162949428
726400000.0 0.0884238811 0.0982847066
736350000.0 0.1090189117 0.0693470832
746300000.0 0.1153295083 0.0296248548
756250000.0 0.1093584962 -0.0199901134
766200000.0 0.0913162602 -0.0757274276
776150000.0 0.0639213449 -0.1319829758
786100000.0 0.0275407805 -0.1820170301
796050000.0 -0.0169747796 -0.2184140888
806000000.0 -0.0690042851 -0.2369153255
815950000.0 -0.1288470447 -0.2346928664
825900000.0 -0.193975487 -0.213469514
835850000.0 -0.2615380472 -0.1767351368
845800000.0 -0.3252506058 -0.1286562409
855750000.0 -0.3791502247 -0.0724332106
865700000.0 -0.4167869922 -0.009691782
875650000.0 -0.4327220828 0.0590328024
885600000.0 -0.4247257506 0.132861676
895550000.0 -0.3942726132 0.2111265464
905500000.0 -0.3433251071 0.2920167412
915450000.0 -0.2759666749 0.370005405
925400000.0 -0.1930045627 0.4376637023
935350000.0 -0.0950596795 0.4860969946
945300000.0 0.0176733475 0.5042026724
955250000.0 0.1428955475 0.4826962279
965200000.0 0.2748163122 0.4136178559
975150000.0 0.4025377317 0.2928243147
985100000.0 0.5060463451 0.1185827433
995050000.0 0.5533346352 -0.1042150397
1005000000.0 0.5083021178 -0.3522869528
1014950000.0 0.3403243799 -0.578625558
1024900000.0 0.0576851754 -0.7153263437
1034850000.0 -0.2842016501 -0.7121530844
1044800000.0 -0.6026506928 -0.55501684
1054750000.0 -0.8097775409 -0.2786577273
1064700000.0 -0.8904299123 0.0287172317
1074650000.0 -0.8230529093 0.3463505734
1084600000.0 -0.6372708706 0.5779999682
1094550000.0 -0.3966044947 0.7437168045
1104500000.0 -0.1199818942 0.817157908
1114450000.0 0.1536060488 0.7994683206
1124400000.0 0.3919111219 0.6940536246
1134350000.0 0.565264621 0.518889577
1144300000.0 0.6601308127 0.3029453611
1154250000.0 0.681427633 0.0822453449
1164200000.0 0.6527014427 -0.1184538202
1174150000.0 0.5895751071 -0.2985217686
1184100000.0 0.4913708692 -0.446754807
1194050000.0 0.3694494076 -0.5519796516
1204000000.0 0.2345908509 -0.6129234692
1213950000.0 0.0963056445 -0.634925678
1223900000.0 -0.0368794475 -0.6296082039
1233850000.0 -0.1601781904 -0.6083576963
1243800000.0 -0.2702057238 -0.5769554978
1253750000.0 -0.3659877154 -0.5381677278
1263700000.0 -0.4451526269 -0.4901685352
1273650000.0 -0.5077732906 -0.4328920811
1283600000.0 -0.5529700238 -0.3651064854
1293550000.0 -0.5852677325 -0.2885820236
1303500000.0 -0.6099064074 -0.2072053836
1313450000.0 -0.6299435361 -0.1259682654
1323400000.0 -0.6475294528 -0.0475600895
1333350000.0 -0.6611347558 0.0261822021
1343300000.0 -0.6666284499 0.0954372451
1353250000.0 -0.6602148328 0.1588756656
1363200000.0 -0.6388541139 0.2186278764
1373150000.0 -0.6019651125 0.2762004714
1383100000.0 -0.5550958255 0.3328721189
1393050000.0 -0.5029747708 0.3892900575
1403000000.0 -0.4505540566 0.4440194232
1412950000.0 -0.3984755133 0.4943810149
1422900000.0 -0.3467030841 0.5370127209
1432850000.0 -0.2930518653 0.5690843463
1442800000.0 -0.2344088592 0.5890653476
1452750000.0 -0.1687720605 0.5969537203
1462700000.0 -0.0948806358 0.5955229874
1472650000.0 -0.0141674146 0.5873008794
1482600000.0 0.0688139375 0.5746791922
1492550000.0 0.1507556827 0.5564485008
1502500000.0 0.2280793223 0.5295488213
1512450000.0 0.2981674026 0.4895755917
1522400000.0 0.3572875616 0.4330883434
1532350000.0 0.4049081769 0.3585909537
1542300000.0 0.4415341877 0.2689685012
1552250000.0 0.4667510183 0.1704075108
1562200000.0 0.4849589501 0.0725114033
1572150000.0 0.495070686 -0.024271583
1582100000.0 0.4896105266 -0.1179152471
1592050000.0 0.4646125811 -0.2042123851
1602000000.0 0.4185684291 -0.2809261623
1611950000.0 0.3543725549 -0.3471438081
1621900000.0 0.2779573477 -0.4055106682
1631850000.0 0.1950781631 -0.4569335872
1641800000.0 0.1104244183 -0.5004986019
1651750000.0 0.0268395167 -0.5283184791
1661700000.0 -0.0212788945 -0.5307997967
1671650000.0 -0.1006550131 -0.5831745047
1681600000.0 -0.1863016923 -0.5672921888
1691550000.0 -0.2610605092 -0.5362892571
1701500000.0 -0.3323235291 -0.4954884149
1711450000.0 -0.4005630722 -0.4504415921
1721400000.0 -0.4653598502 -0.4043623792
1731350000.0 -0.5239522872 -0.3600182388
1741300000.0 -0.5715791665 -0.315259529
1751250000.0 -0.6058787932 -0.2660959996
1761200000.0 -0.6247251929 -0.2127450997
1771150000.0 -0.6312278755 -0.1547280082
1781100000.0 -0.6311853602 -0.0931145887
1791050000.0 -0.6296134799 -0.0315009232
1801000000.0 -0.6297784945 0.0276833035
1810950000.0 -0.6321472456 0.0825771655
1820900000.0 -0.6344279818 0.1329438316
1830850000.0 -0.6295723266 0.1766619442
1840800000.0 -0.6133026784 0.2160120402
1850750000.0 -0.5840614003 0.2517831999
1860700000.0 -0.5430924127 0.2847829221
1870650000.0 -0.4964425421 0.31712243
1880600000.0 -0.449512358 0.3474105522
1890550000.0 -0.4068957068 0.3751451126
1900500000.0 -0.3692170023 0.3963593424
1910450000.0 -0.335125244 0.4082625558
1920400000.0 -0.30219497 0.4085874496
1930350000.0 -0.2661698089 0.3955456982
1940300000.0 -0.2271172563 0.3710226293
1950250000.0 -0.1854456967 0.3377964995
1960200000.0 -0.1442594376 0.3012782075
1970150000.0 -0.1109604033 0.2617884998
1980100000.0 -0.0899400566 0.2202716487
1990050000.0 -0.087015452 0.1746577588
2000000000.0 -0.1088019716 0.1200367492
