!Created with skrf (http://scikit-rf.org).
# GHz S RI R 50.0 
!freq ReS11 ImS11
10000000.0 -0.8025672916 0.6056869682
19950000.0 -0.2884288917 0.9481865317
29900000.0 0.3251781728 0.9276514182
39850000.0 0.8156150329 0.5497383456
49800000.0 0.9899548264 -0.0563213646
59750000.0 0.7551098628 -0.6588251415
69700000.0 0.1796314691 -0.9909079222
79650000.0 -0.4921834645 -0.8713062313
89600000.0 -0.9304971234 -0.3250955621
99550000.0 -0.887744734 0.3939343203
109500000.0 -0.3441427393 0.9034573205
119450000.0 0.4315310966 0.8747374415
129400000.0 0.9544515964 0.2530922763
139350000.0 0.8208416645 -0.5559830075
149300000.0 0.1015592832 -0.9713893216
159250000.0 -0.6609221619 -0.6912201144
169200000.0 -0.9456729569 0.0383268021
179150000.0 -0.6235187696 0.7186015304
189100000.0 0.0592327076 0.9615316956
199050000.0 0.6968297895 0.6749149247
209000000.0 0.9627404425 0.0524248884
218950000.0 0.7613331457 -0.5662168079
228900000.0 0.2259030906 -0.9054113408
238850000.0 -0.3936511776 -0.8361471563
248800000.0 -0.7587654825 -0.2667319288
258750000.0 -0.9183265974 0.1589108778
268700000.0 -0.6318253496 0.6934109531
278650000.0 -0.0804699306 0.9293674925
288600000.0 0.4931271552 0.7695440997
298550000.0 0.8365799936 0.2895397695
308500000.0 0.8010124428 -0.2948297553
318450000.0 0.4055117703 -0.7168751512
328400000.0 -0.1606125902 -0.7791928094
338350000.0 -0.6105468728 -0.4543902416
348300000.0 -0.7060600051 0.0673616548
358250000.0 -0.4244593804 0.4733584155
368200000.0 0.0180267186 0.5446959862
378150000.0 0.3335644402 0.3054718827
388100000.0 0.3696078149 -0.0347299878
398050000.0 0.1786590224 -0.2524695652
408000000.0 -0.062336736 -0.2561709058
417950000.0 -0.1978294634 -0.1088671569
427900000.0 -0.1818796593 0.0584703594
437850000.0 -0.0673340225 0.1448382087
447800000.0 0.0548310512 0.124939005
457750000.0 0.1164744975 0.0383735045
467700000.0 0.1000658415 -0.0506953043
477650000.0 0.0384864414 -0.0924135645
487600000.0 -0.0184616757 -0.0773148619
497550000.0 0.0099230779 -0.0770222943
507500000.0 -0.0623821308 -0.0127453079
517450000.0 -0.0318095493 0.0067141912
527400000.0 -0.0146926049 -0.0029178446
537350000.0 -0.0240080512 -0.018566567
547300000.0 -0.0539843423 -0.0139664735
557250000.0 -0.0736240986 0.02493907
567200000.0 -0.0583383539 0.0764895948
577150000.0 -0.0032906074 0.1128715663
587100000.0 0.0725691291 0.1046024058
597050000.0 0.1355058765 0.0437058427
607000000.0 0.1492639315 -0.0527848963
616950000.0 0.0991260436 -0.1446057859
626900000.0 -0.000320092 -0.1905075959
636850000.0 -0.1106463796 -0.1677982451
646800000.0 -0.1850880299 -0.0807813909
656750000.0 -0.1916041819 0.0341493288
666700000.0 -0.1243704705 0.1286307328
676650000.0 -0.0124924488 0.1612298499
686600000.0 0.0937583651 0.1173834564
696550000.0 0.1474191099 0.0191309035
706500000.0 0.1260890753 -0.0832454494
716450000.0 0.0473479549 -0.1410912292
726400000.0 -0.043860552 -0.1268227123
736350000.0 -0.0937902143 -0.0518045734
746300000.0 -0.071252335 0.0378533634
756250000.0 0.0156761196 0.0859536106
766200000.0 0.1170862779 0.0554572241
776150000.0 0.1701325104 -0.0458507252
786100000.0 0.1327241458 -0.1654269426
796050000.0 0.0101489819 -0.2313038322
806000000.0 -0.1417415033 -0.1924198477
815950000.0 -0.2431200967 -0.0477779109
825900000.0 -0.2287519756 0.1464892036
835850000.0 -0.0862326445 0.3013424159
845800000.0 0.1321462958 0.3363032161
855750000.0 0.3332209656 0.2243670762
865700000.0 0.425056599 0.0036609824
875650000.0 0.3562139663 -0.2362407232
885600000.0 0.1424393061 -0.3884433598
895550000.0 -0.1328569231 -0.3722110908
905500000.0 -0.3444823467 -0.1796824299
915450000.0 -0.3846743826 0.1112642434
925400000.0 -0.2231035337 0.3599919469
935350000.0 0.06603859 0.43547647
945300000.0 0.3320803209 0.2847951141
955250000.0 0.4126736713 -0.0269293498
965200000.0 0.2176988156 -0.3190705924
975150000.0 -0.1698659189 -0.3592450477
985100000.0 -0.4663663522 -0.0404131515
995050000.0 -0.3704171521 0.4324033692
1005000000.0 0.1121904549 0.6475763239
1014950000.0 0.6142369686 0.3679905542
1024900000.0 0.7136233868 -0.2429611589
1034850000.0 0.2798828747 -0.7370296473
1044800000.0 -0.394449373 -0.7227205204
1054750000.0 -0.8101504083 -0.2045765989
1064700000.0 -0.6864852969 0.3457171931
1074650000.0 -0.3817642146 0.7289429579
1084600000.0 0.1968656498 0.8033894554
1094550000.0 0.6568015122 0.44486667
1104500000.0 0.7401988441 -0.1288176318
1114450000.0 0.3975965639 -0.588981403
1124400000.0 -0.1484348952 -0.6592591106
1134350000.0 -0.547981444 -0.3406013027
1144300000.0 -0.6023012629 0.1253556183
1154250000.0 -0.3398374224 0.471260363
1164200000.0 0.0648490682 0.5386786926
1174150000.0 0.3959651025 0.3181917742
1184100000.0 0.4822768089 -0.0696901187
1194050000.0 0.2729310792 -0.4024599984
1204000000.0 -0.0962051839 -0.494630629
1213950000.0 -0.4170681556 -0.3273646337
1223900000.0 -0.5549186024 -0.0083261885
1233850000.0 -0.4718827037 0.32107886
1243800000.0 -0.2063047062 0.5368555848
1253750000.0 0.1445297188 0.5520624178
1263700000.0 0.4431239934 0.3467052652
1273650000.0 0.5602796454 -0.002852141
1283600000.0 0.4489047076 -0.3532960732
1293550000.0 0.1655875632 -0.5712073573
1303500000.0 -0.1787122056 -0.597155336
1313450000.0 -0.474976419 -0.440411689
1323400000.0 -0.6436277389 -0.1543557389
1333350000.0 -0.6360173865 0.1823201201
1343300000.0 -0.4409641541 0.4731755403
1353250000.0 -0.1039905887 0.6130524109
1363200000.0 0.2642870324 0.537510967
1373150000.0 0.5281688693 0.2663369878
1383100000.0 0.5960238625 -0.096698184
1393050000.0 0.4640163241 -0.424544919
1403000000.0 0.1919412843 -0.624949881
1412950000.0 -0.1335945645 -0.6530201908
1422900000.0 -0.4232088526 -0.5097423693
1432850000.0 -0.59472096 -0.2307542188
1442800000.0 -0.5888861235 0.105728967
1452750000.0 -0.3945979451 0.3916757019
1462700000.0 -0.0695565179 0.525349685
1472650000.0 0.2709052249 0.4570694379
1482600000.0 0.5086254134 0.2198735
1492550000.0 0.5722755048 -0.0930257143
1502500000.0 0.4595952813 -0.3753116163
1512450000.0 0.2173077269 -0.5435505145
1522400000.0 -0.0767888171 -0.5479028251
1532350000.0 -0.3253116593 -0.3797890237
1542300000.0 -0.431810442 -0.0919518776
1552250000.0 -0.3465725248 0.2053796715
1562200000.0 -0.1045635776 0.3885313811
1572150000.0 0.1859670262 0.3881519261
1582100000.0 0.4044968816 0.2215873155
1592050000.0 0.4738367748 -0.0319615603
1602000000.0 0.3770986103 -0.2715830305
1611950000.0 0.1508474958 -0.405372372
1621900000.0 -0.1197619914 -0.374093649
1631850000.0 -0.3222440118 -0.1760774408
1641800000.0 -0.3605485948 0.1121283096
1651750000.0 -0.21072021 0.3627477995
1661700000.0 0.057793712 0.4649009096
1671650000.0 0.3270513243 0.3847120853
1681600000.0 0.4951720199 0.163131204
1691550000.0 0.5049914684 -0.1190349495
1701500000.0 0.3467413784 -0.3634377924
1711450000.0 0.0658052744 -0.476964644
1721400000.0 -0.2369828262 -0.4037057382
1731350000.0 -0.4381965797 -0.180267283
1741300000.0 -0.4934922868 0.1182439674
1751250000.0 -0.3693106504 0.4081315891
1761200000.0 -0.1049778813 0.5730955224
1771150000.0 0.197708527 0.566719908
1781100000.0 0.4478671376 0.4054094408
1791050000.0 0.5814239815 0.1364374712
1801000000.0 0.555554495 -0.172158028
1810950000.0 0.36128795 -0.4302172323
1820900000.0 0.0458066225 -0.5410096401
1830850000.0 -0.2812215513 -0.4538601923
1840800000.0 -0.497840579 -0.2031494062
1850750000.0 -0.539346583 0.1098739182
1860700000.0 -0.4173084304 0.3787466762
1870650000.0 -0.1898591386 0.5377288159
1880600000.0 0.0736009052 0.5591670304
1890550000.0 0.3059161817 0.4462045494
1900500000.0 0.4447574049 0.2278480042
1910450000.0 0.4425245358 -0.0325415125
1920400000.0 0.2950040494 -0.2449897265
1930350000.0 0.0630053054 -0.3318785602
1940300000.0 -0.1566067541 -0.2774471656
1950250000.0 -0.2895172252 -0.131816614
1960200000.0 -0.3135513812 0.0307092768
1970150000.0 -0.2534595055 0.1474519948
1980100000.0 -0.1614005407 0.1834047676
1990050000.0 -0.1025920011 0.1460168825
2000000000.0 -0.1232656098 0.0930579393
