!Created with skrf (http://scikit-rf.org).
# GHz S RI R 50.0 
!freq ReS11 ImS11
10000000.0 -0.7956204824 0.5926867873
19950000.0 -0.2944268063 0.9274017807
29900000.0 0.3058526966 0.9055826411
39850000.0 0.7886217639 0.5320681481
49800000.0 0.9626810976 -0.0695098959
59750000.0 0.7293036815 -0.672775679
69700000.0 0.1500679972 -1.003554319
79650000.0 -0.5227647165 -0.8673444825
89600000.0 -0.941172503 -0.2934927053
99550000.0 -0.8529077757 0.4388487535
109500000.0 -0.2548330126 0.9212650036
119450000.0 0.5442679561 0.8145414598
129400000.0 1.004513007 0.1067818003
139350000.0 0.7321702817 -0.706918237
149300000.0 -0.0673816263 -0.9849046866
159250000.0 -0.7593480758 -0.5616439073
169200000.0 -0.9056566211 0.1938025458
179150000.0 -0.496646007 0.7969787634
189100000.0 0.1817389417 0.9437004243
199050000.0 0.7570151333 0.604371228
209000000.0 0.9579469681 -0.0126115897
218950000.0 0.7281607994 -0.5889289578
228900000.0 0.2065944746 -0.8894415138
238850000.0 -0.3786571875 -0.8151305684
248800000.0 -0.7773265754 -0.3940098105
258750000.0 -0.9048101782 0.1563507541
268700000.0 -0.6493618478 0.6781389223
278650000.0 -0.1342508012 0.9350577934
288600000.0 0.4250069236 0.820870187
298550000.0 0.795094815 0.3883055891
308500000.0 0.8252686597 -0.1802207979
318450000.0 0.5018050647 -0.6451001952
328400000.0 -0.0370068392 -0.800444943
338350000.0 -0.5346099491 -0.5675644419
348300000.0 -0.7278105724 -0.0766149125
358250000.0 -0.5297281882 0.3715558934
368200000.0 -0.1175526334 0.5212309339
378150000.0 0.219643093 0.350138486
388100000.0 0.3059973594 0.0458268519
398050000.0 0.1683904036 -0.1659895316
408000000.0 -0.0285302366 -0.1854492862
417950000.0 -0.1304274332 -0.0678303443
427900000.0 -0.0989411814 0.0577914805
437850000.0 0.0085667276 0.1000958166
447800000.0 0.1039558728 0.0466141568
457750000.0 0.1260187697 -0.054910325
467700000.0 0.0720052535 -0.1384368372
477650000.0 -0.019961346 -0.1568979059
487600000.0 -0.0958832899 -0.1070140719
497550000.0 -0.1169649578 -0.0286077657
507500000.0 -0.0858590699 0.0510217488
517450000.0 -0.0200151043 0.0840721915
527400000.0 0.0366955171 0.0693630146
537350000.0 0.0575023789 0.0288530581
547300000.0 0.0408860664 -0.0043676368
557250000.0 0.0075200324 -0.0081798304
567200000.0 -0.0129375817 0.0167643554
577150000.0 -0.0016195329 0.0488120985
587100000.0 0.0377713303 0.0568200524
597050000.0 0.0777550166 0.0245211933
607000000.0 0.0860426213 -0.0389333565
616950000.0 0.0467666991 -0.1027140513
626900000.0 -0.0298722593 -0.1318243863
636850000.0 -0.1153132433 -0.1054379996
646800000.0 -0.1671408161 -0.0283345888
656750000.0 -0.1584134647 0.0687242478
666700000.0 -0.0895877201 0.1411248607
676650000.0 0.0133663793 0.1543374668
686600000.0 0.1051869303 0.0967181303
696550000.0 0.1419985899 -0.0081518785
706500000.0 0.1079131295 -0.1127029812
716450000.0 0.0184224381 -0.1687188842
726400000.0 -0.0807750539 -0.150576455
736350000.0 -0.1361143291 -0.0677473357
746300000.0 -0.1148420757 0.0318329387
756250000.0 -0.0237369188 0.0922339701
766200000.0 0.089006829 0.0739217615
776150000.0 0.1598840432 -0.0195702159
786100000.0 0.1458792188 -0.1388137153
796050000.0 0.0425664878 -0.2151945328
806000000.0 -0.0980228335 -0.1932195109
815950000.0 -0.1970866041 -0.0664040131
825900000.0 -0.1908484331 0.1125185294
835850000.0 -0.062010422 0.2565615873
845800000.0 0.1395943978 0.2884452161
855750000.0 0.3237836892 0.1793907669
865700000.0 0.4006887737 -0.0325935593
875650000.0 0.3194457083 -0.2575284782
885600000.0 0.0990848586 -0.3842209152
895550000.0 -0.1679592172 -0.3380787189
905500000.0 -0.3554485308 -0.1218420603
915450000.0 -0.3650489193 0.1762956807
925400000.0 -0.1764927958 0.4157309243
935350000.0 0.1264738814 0.4701161195
945300000.0 0.3911271013 0.2979398577
955250000.0 0.4670886411 -0.0276088057
965200000.0 0.2802679776 -0.3352965419
975150000.0 -0.0965429886 -0.4234606334
985100000.0 -0.4429729468 -0.191954168
995050000.0 -0.5005272874 0.2552604276
1005000000.0 -0.1655230045 0.6080268956
1014950000.0 0.3611481095 0.5650160979
1024900000.0 0.6897388002 0.085446966
1034850000.0 0.5119711117 -0.5258096547
1044800000.0 -0.1165940303 -0.7839325817
1054750000.0 -0.7235609041 -0.4342621191
1064700000.0 -0.828514183 0.2364292309
1074650000.0 -0.4282026287 0.7453765258
1084600000.0 0.1595446043 0.7860440644
1094550000.0 0.6520591632 0.4562415751
1104500000.0 0.756434677 -0.1533864482
1114450000.0 0.3921129475 -0.6514885924
1124400000.0 -0.1987410919 -0.7222320593
1134350000.0 -0.6256828218 -0.3627020855
1144300000.0 -0.6709470535 0.1519147982
1154250000.0 -0.3779428707 0.5323408735
1164200000.0 0.0701681558 0.6198173186
1174150000.0 0.4561403179 0.3968762292
1184100000.0 0.5935010713 -0.0308102685
1194050000.0 0.398459231 -0.4296027362
1204000000.0 -0.0007580222 -0.5802298604
1213950000.0 -0.3787325762 -0.4396314559
1223900000.0 -0.5777635576 -0.1130149
1233850000.0 -0.5464194532 0.2523461963
1243800000.0 -0.3098588793 0.5277199349
1253750000.0 0.0487309886 0.6100426377
1263700000.0 0.3941854215 0.4545173159
1273650000.0 0.575508858 0.1134415926
1283600000.0 0.5151622856 -0.2655484654
1293550000.0 0.2537014354 -0.5275901991
1303500000.0 -0.0928591821 -0.5953557737
1313450000.0 -0.4071492827 -0.4722461319
1323400000.0 -0.607440802 -0.2075743125
1333350000.0 -0.6408324032 0.1274729189
1343300000.0 -0.4832664548 0.4370454312
1353250000.0 -0.1641479797 0.608007806
1363200000.0 0.2078587692 0.5594048016
1373150000.0 0.4856800464 0.3020227068
1383100000.0 0.5694696775 -0.058596598
1393050000.0 0.4510279135 -0.391646557
1403000000.0 0.1879938319 -0.6013812096
1412950000.0 -0.1303516489 -0.639078218
1422900000.0 -0.415882701 -0.5031096049
1432850000.0 -0.5849786849 -0.2274545103
1442800000.0 -0.5749306088 0.108729717
1452750000.0 -0.3704303075 0.3915969049
1462700000.0 -0.0377200383 0.5076990406
1472650000.0 0.2976127205 0.4168854169
1482600000.0 0.5146978324 0.1635466706
1492550000.0 0.5515947666 -0.1532412857
1502500000.0 0.409859305 -0.4247964931
1512450000.0 0.1454560015 -0.5630537859
1522400000.0 -0.1499971671 -0.5213730921
1532350000.0 -0.3669477833 -0.308347434
1542300000.0 -0.4179470157 -0.0002814712
1552250000.0 -0.2761679368 0.2813119386
1562200000.0 -6.52304e-05 0.4188173416
1572150000.0 0.2925804323 0.3639483642
1582100000.0 0.4802406393 0.1509445522
1592050000.0 0.4983442886 -0.1252781883
1602000000.0 0.3416652866 -0.3555412198
1611950000.0 0.069187946 -0.4473590515
1621900000.0 -0.2157828464 -0.3555149924
1631850000.0 -0.3969081977 -0.1020221527
1641800000.0 -0.3887457008 0.2149155127
1651750000.0 -0.188752523 0.461353163
1661700000.0 0.1162734466 0.5331616871
1671650000.0 0.3986615273 0.4075544657
1681600000.0 0.5553148283 0.142976366
1691550000.0 0.5351552457 -0.1668450965
1701500000.0 0.3451028539 -0.4202668356
1711450000.0 0.0383847742 -0.5328047806
1721400000.0 -0.2928804722 -0.4519007372
1731350000.0 -0.5273591016 -0.189425456
1741300000.0 -0.5689564298 0.162359836
1751250000.0 -0.4043439615 0.4673940521
1761200000.0 -0.1069626573 0.6216793845
1771150000.0 0.2163293112 0.5927064037
1781100000.0 0.4730720245 0.4055798271
1791050000.0 0.6017235573 0.1161018303
1801000000.0 0.5680899663 -0.2047705606
1810950000.0 0.3687054298 -0.4711931495
1820900000.0 0.0470146285 -0.5895629083
1830850000.0 -0.2929211752 -0.501829283
1840800000.0 -0.5215474325 -0.2352819585
1850750000.0 -0.5576452198 0.1015610054
1860700000.0 -0.4088480709 0.3739141635
1870650000.0 -0.2064904393 0.5036293426
1880600000.0 0.0468890513 0.5731831039
1890550000.0 0.301299047 0.4818729134
1900500000.0 0.4661744109 0.2705524492
1910450000.0 0.4944010757 0.0006365174
1920400000.0 0.3710765448 -0.2423272782
1930350000.0 0.13830421 -0.3699599713
1940300000.0 -0.110713404 -0.347888447
1950250000.0 -0.2896646887 -0.2100916294
1960200000.0 -0.3610067726 -0.0263974203
1970150000.0 -0.332819743 0.1380910782
1980100000.0 -0.2401682847 0.2402390038
1990050000.0 -0.1343269292 0.2630114453
2000000000.0 -0.0660812844 0.224019228
