!Created with skrf (http://scikit-rf.org).
# GHz S RI R 50.0 
!freq ReS11 ImS11
10000000.0 -1.002144974 0.1589234026
19950000.0 -0.9483739665 0.3043199156
29900000.0 -0.8726565122 0.4441231442
39850000.0 -0.7751431905 0.5835758031
49800000.0 -0.6575195892 0.7172068646
59750000.0 -0.5138566749 0.8386557478
69700000.0 -0.3359516604 0.9357583503
79650000.0 -0.1184465038 0.9885510774
89600000.0 0.1370246957 0.9777800488
99550000.0 0.4164356447 0.881410121
109500000.0 0.6922870486 0.6838173317
119450000.0 0.9155265373 0.3719632805
129400000.0 1.007876447 -0.0432291649
139350000.0 0.9217939719 -0.4522020299
149300000.0 0.6526296366 -0.7812551622
159250000.0 0.2918751633 -0.952733666
169200000.0 -0.0682623633 -0.9791470842
179150000.0 -0.3770349256 -0.9046147397
189100000.0 -0.6172720219 -0.7698132454
199050000.0 -0.7852829307 -0.6026389952
209000000.0 -0.8852106364 -0.4203114549
218950000.0 -0.9334814052 -0.2382396795
228900000.0 -0.9427322818 -0.063113039
238850000.0 -0.9259480458 0.103705308
248800000.0 -0.8723457483 0.2319543115
258750000.0 -0.843894193 0.4010914811
268700000.0 -0.774835735 0.5334524054
278650000.0 -0.6819531532 0.6459177872
288600000.0 -0.5631721145 0.733842812
298550000.0 -0.4215755952 0.795700828
308500000.0 -0.260632064 0.8322675323
318450000.0 -0.0848012696 0.8393509668
328400000.0 0.0990025268 0.8100997134
338350000.0 0.273886185 0.7322454986
348300000.0 0.415903972 0.5976284432
358250000.0 0.495590454 0.4148619665
368200000.0 0.4963001913 0.2144629014
378150000.0 0.4257534967 0.0349393532
388100000.0 0.3107304973 -0.0955874805
398050000.0 0.1826276406 -0.1647289841
408000000.0 0.0675762042 -0.1761125815
417950000.0 -0.0201029767 -0.1444470278
427900000.0 -0.0777848868 -0.0883612251
437850000.0 -0.1101684657 -0.0243585303
447800000.0 -0.1234973956 0.0348966754
457750000.0 -0.122669984 0.0812314916
467700000.0 -0.1105698075 0.1107077455
477650000.0 -0.0893800212 0.1222883195
487600000.0 -0.0615067416 0.1193828053
497550000.0 -0.034837635 0.110602525
507500000.0 0.0020303392 0.0911541829
517450000.0 0.0263693104 0.070496516
527400000.0 0.04001132 0.0506071915
537350000.0 0.0396945961 0.0313141869
547300000.0 0.0260406644 0.0121413885
557250000.0 0.0016742869 -0.0074147876
567200000.0 -0.0287045808 -0.0262811763
577150000.0 -0.0603856586 -0.0416786358
587100000.0 -0.0884647468 -0.0508173794
597050000.0 -0.1100446541 -0.0499358067
607000000.0 -0.1260036384 -0.0377006728
616950000.0 -0.1369879941 -0.0146598902
626900000.0 -0.1445072181 0.016925505
636850000.0 -0.1493038105 0.0519475286
646800000.0 -0.1504605748 0.0855530036
656750000.0 -0.146546754 0.1138520245
666700000.0 -0.1341279053 0.1340480879
676650000.0 -0.1112511166 0.1454283604
686600000.0 -0.0776924795 0.1495264618
696550000.0 -0.0356752387 0.147873007
706500000.0 0.0119611014 0.1390520707
716450000.0 0.0603849808 0.1142958792
726400000.0 0.0601299389 0.0814121885
736350000.0 0.0815638707 0.0796841093
746300000.0 0.0989547244 0.0468867151
756250000.0 0.1014933883 -0.0006293443
766200000.0 0.091403083 -0.0570065785
776150000.0 0.071384985 -0.1156034157
786100000.0 0.0420103419 -0.1697475183
796050000.0 0.0036513283 -0.2119529023
806000000.0 -0.0437480659 -0.2372954602
815950000.0 -0.1006058145 -0.2427459633
825900000.0 -0.1647034776 -0.2296220302
835850000.0 -0.2326887697 -0.201116353
845800000.0 -0.298921422 -0.1608116991
855750000.0 -0.3573878217 -0.111539549
865700000.0 -0.4002598851 -0.0547546458
875650000.0 -0.4238682104 0.0101879933
885600000.0 -0.4235776652 0.0824074527
895550000.0 -0.4003741222 0.1612205702
905500000.0 -0.3553645053 0.2440711769
915450000.0 -0.2929976716 0.3228860708
925400000.0 -0.2175363564 0.3950540356
935350000.0 -0.1237143044 0.4508851935
945300000.0 -0.013017676 0.4771262976
955250000.0 0.1130844851 0.4634225275
965200000.0 0.2484157641 0.4010279479
975150000.0 0.3809987612 0.286021848
985100000.0 0.4900412266 0.1160327979
995050000.0 0.5457124117 -0.1025935815
1005000000.0 0.5113344572 -0.3465275513
1014950000.0 0.362557325 -0.5696020243
1024900000.0 0.1098397811 -0.7155678163
1034850000.0 -0.2009053654 -0.7448937005
1044800000.0 -0.5063141407 -0.6481534075
1054750000.0 -0.7487086212 -0.441712947
1064700000.0 -0.8765330438 -0.1637381099
1074650000.0 -0.8854097574 0.1251284214
1084600000.0 -0.7420421222 0.399566787
1094550000.0 -0.6348317148 0.5032512859
1104500000.0 -0.4222245689 0.7176656255
1114450000.0 -0.1497406375 0.8086884346
1124400000.0 0.1261715404 0.7962849512
1134350000.0 0.3671540064 0.6850068368
1144300000.0 0.5410104255 0.4946488509
1154250000.0 0.6312190101 0.2659669885
1164200000.0 0.65009551 0.0417588421
1174150000.0 0.6223578274 -0.1654544769
1184100000.0 0.5474628467 -0.3464725173
1194050000.0 0.4363196933 -0.4835114853
1204000000.0 0.3030171203 -0.5716623072
1213950000.0 0.1610059244 -0.6154811374
1223900000.0 0.021268325 -0.6261895125
1233850000.0 -0.1089602687 -0.6166765017
1243800000.0 -0.2260866785 -0.5942619892
1253750000.0 -0.3284838702 -0.5627973946
1263700000.0 -0.413919536 -0.5206603135
1273650000.0 -0.4825635516 -0.4689437269
1283600000.0 -0.5336608783 -0.4054631569
1293550000.0 -0.571606115 -0.3330122329
1303500000.0 -0.6018539516 -0.2557601515
1313450000.0 -0.6272822359 -0.1777251999
1323400000.0 -0.651174149 -0.1030200941
1333350000.0 -0.6712448547 -0.032962724
1343300000.0 -0.6840780933 0.0329748956
1353250000.0 -0.6853509772 0.0935923587
1363200000.0 -0.6726708321 0.1513466465
1373150000.0 -0.6449745484 0.2079898268
1383100000.0 -0.6080170541 0.2656912388
1393050000.0 -0.5653389041 0.3251048292
1403000000.0 -0.5220353354 0.383567808
1412950000.0 -0.4783794926 0.4397028808
1422900000.0 -0.43449093 0.4892786556
1432850000.0 -0.3875602902 0.5286427991
1442800000.0 -0.3346004258 0.5574904604
1452750000.0 -0.2735185795 0.5744023467
1462700000.0 -0.2027855635 0.5823724866
1472650000.0 -0.1243413754 0.584201731
1482600000.0 -0.0421190305 0.5824271348
1492550000.0 0.0410153281 0.5758891073
1502500000.0 0.1215866692 0.5610047487
1512450000.0 0.1966292549 0.5340361415
1522400000.0 0.2642936051 0.4905957031
1532350000.0 0.3225210558 0.4281403038
1542300000.0 0.3717600441 0.3492527355
1552250000.0 0.4128529581 0.2577825923
1562200000.0 0.4464886913 0.1608559117
1572150000.0 0.4685028486 0.0617157482
1582100000.0 0.4746236741 -0.0357278437
1592050000.0 0.4617058361 -0.1286802353
1602000000.0 0.4265835788 -0.2159642019
1611950000.0 0.3708512507 -0.2945565939
1621900000.0 0.2996840517 -0.3658411906
1631850000.0 0.2191460148 -0.4297407783
1641800000.0 0.1344614065 -0.4851754326
1651750000.0 0.0485659683 -0.5291759251
1661700000.0 -0.0354065293 -0.556818955
1671650000.0 -0.1166185463 -0.5648971308
1681600000.0 -0.1940150429 -0.5527513245
1691550000.0 -0.2682183503 -0.5253602729
1701500000.0 -0.3405753436 -0.4875037231
1711450000.0 -0.4096502066 -0.4456454914
1721400000.0 -0.4751683724 -0.4028937345
1731350000.0 -0.5340957393 -0.3619055228
1741300000.0 -0.5827939698 -0.3202582904
1751250000.0 -0.6173082266 -0.274656748
1761200000.0 -0.6378198871 -0.2241364513
1771150000.0 -0.6464743609 -0.1682469903
1781100000.0 -0.649102734 -0.1079732094
1791050000.0 -0.650734251 -0.0470482368
1801000000.0 -0.654145772 0.0117456859
1810950000.0 -0.6606924133 0.0670125126
1820900000.0 -0.6669564207 0.1179738376
1830850000.0 -0.6666642794 0.1621456036
1840800000.0 -0.6558444811 0.2031897443
1850750000.0 -0.6315999206 0.2407804563
1860700000.0 -0.5953379466 0.276562288
1870650000.0 -0.5529519637 0.3122863706
1880600000.0 -0.5100236611 0.3460868257
1890550000.0 -0.471237831 0.3781381864
1900500000.0 -0.4373714619 0.4056605398
1910450000.0 -0.4066850249 0.4251022012
1920400000.0 -0.3766354415 0.4349815114
1930350000.0 -0.3420135036 0.433450709
1940300000.0 -0.3026435732 0.4209923433
1950250000.0 -0.2593827297 0.4015298182
1960200000.0 -0.2121462818 0.3807112806
1970150000.0 -0.1671461744 0.3573566317
1980100000.0 -0.1288837733 0.3316973958
1990050000.0 -0.1029057948 0.3009233468
2000000000.0 -0.0913649218 0.2586362567
