!Created with skrf (http://scikit-rf.org).
# GHz S RI R 50.0 
!freq ReS11 ImS11
10000000.0 -1.000811437 0.1631365911
19950000.0 -0.9454954619 0.311113078
29900000.0 -0.8679802375 0.4530577811
39850000.0 -0.7685517476 0.5930284965
49800000.0 -0.6489174855 0.725540452
59750000.0 -0.5045651884 0.8443203679
69700000.0 -0.3286101662 0.9377954355
79650000.0 -0.1174615538 0.987974975
89600000.0 0.1267664645 0.9787918163
99550000.0 0.391517892 0.8928786672
109500000.0 0.6554915504 0.7186767332
119450000.0 0.8810544523 0.4433722428
129400000.0 1.005857769 0.0808461065
139350000.0 0.9710565695 -0.3289828583
149300000.0 0.7578433748 -0.6826229113
159250000.0 0.4250445702 -0.9050573005
169200000.0 0.0603721928 -0.9822270406
179150000.0 -0.2737227838 -0.9420167008
189100000.0 -0.5459373463 -0.8217960471
199050000.0 -0.7440176253 -0.6528571993
209000000.0 -0.8664222242 -0.4581726291
218950000.0 -0.9279023862 -0.257633228
228900000.0 -0.9418731433 -0.0618528499
238850000.0 -0.9207035383 0.1283848034
248800000.0 -0.8577501484 0.1882516601
258750000.0 -0.8224368869 0.4359238477
268700000.0 -0.7345312504 0.5802005123
278650000.0 -0.6203378166 0.6960655463
288600000.0 -0.4801324199 0.7810035063
298550000.0 -0.3178147671 0.8327533325
308500000.0 -0.1387545737 0.8524550168
318450000.0 0.0505379855 0.8358560607
328400000.0 0.2401378197 0.7759739269
338350000.0 0.4085741169 0.6649186177
348300000.0 0.531496505 0.5019220741
358250000.0 0.5831858422 0.3018885744
368200000.0 0.5554977163 0.0976590549
378150000.0 0.4623074956 -0.0751130335
388100000.0 0.3327227274 -0.1944440555
398050000.0 0.1958913333 -0.2530529409
408000000.0 0.0758071434 -0.2566011387
417950000.0 -0.0152232976 -0.2192244006
427900000.0 -0.0755148013 -0.1593122353
437850000.0 -0.1103558418 -0.0923262106
447800000.0 -0.1249018989 -0.0305661934
457750000.0 -0.1237738847 0.0177924449
467700000.0 -0.1113680053 0.0483874573
477650000.0 -0.0902223479 0.0589173631
487600000.0 -0.0637059504 0.0474593349
497550000.0 -0.0658533403 0.0764048419
507500000.0 -0.0139086594 0.0423307299
517450000.0 0.0072938999 0.0196172919
527400000.0 0.016345215 3.02153e-05
537350000.0 0.0109192294 -0.017348739
547300000.0 -0.0069438614 -0.0336921714
557250000.0 -0.0349036073 -0.0471846997
567200000.0 -0.0664084584 -0.0592536621
577150000.0 -0.0978460409 -0.0672350376
587100000.0 -0.124870974 -0.0694106569
597050000.0 -0.1446163695 -0.062915981
607000000.0 -0.1576302658 -0.0457285865
616950000.0 -0.1655151714 -0.0188090551
626900000.0 -0.1694948824 0.0149299197
636850000.0 -0.1704461156 0.0507757364
646800000.0 -0.1678520115 0.0841479088
656750000.0 -0.1600560661 0.1121171369
666700000.0 -0.1440324028 0.1315851419
676650000.0 -0.1184638328 0.1418196353
686600000.0 -0.083296629 0.1442357462
696550000.0 -0.0410773888 0.1406293969
706500000.0 0.003792139 0.1311184147
716450000.0 0.046017297 0.1162955086
726400000.0 0.0797677489 0.0937004516
736350000.0 0.101652526 0.0615854317
746300000.0 0.1097993348 0.0190522622
756250000.0 0.104527536 -0.0336523937
766200000.0 0.0870884473 -0.09193142
776150000.0 0.0598670099 -0.1507429745
786100000.0 0.0235082137 -0.2024144179
796050000.0 -0.0212927925 -0.2404686302
806000000.0 -0.0736316456 -0.2606874053
815950000.0 -0.1336379428 -0.2600361896
825900000.0 -0.1987513528 -0.2408428479
835850000.0 -0.2655999395 -0.2062529784
845800000.0 -0.3293114216 -0.1608575236
855750000.0 -0.3837504144 -0.1076679501
865700000.0 -0.4222624334 -0.0477185974
875650000.0 -0.4403023973 0.0186759407
885600000.0 -0.4351868225 0.0910809772
895550000.0 -0.4074597709 0.1686339973
905500000.0 -0.35883515 0.2492003201
915450000.0 -0.2928425843 0.3275675016
925400000.0 -0.2099669941 0.3952299103
935350000.0 -0.1098601278 0.4431538428
945300000.0 0.0066525401 0.4583933609
955250000.0 0.1371318872 0.4293732312
965200000.0 0.2729771241 0.3453820293
975150000.0 0.3976888722 0.2006857377
985100000.0 0.4807417191 -0.004073993
995050000.0 0.4853383115 -0.250151708
1005000000.0 0.3762658506 -0.4986440485
1014950000.0 0.1416678389 -0.6794688709
1024900000.0 -0.170059431 -0.7318546751
1034850000.0 -0.4835265199 -0.6420563431
1044800000.0 -0.7313281448 -0.4372287828
1054750000.0 -0.8696461998 -0.1630698979
1064700000.0 -0.8834464077 0.105122758
1074650000.0 -0.8082642979 0.3595527906
1084600000.0 -0.6508772556 0.5586039831
1094550000.0 -0.4368961079 0.7027772443
1104500000.0 -0.1938895226 0.7770119777
1114450000.0 0.05420889 0.7774405864
1124400000.0 0.2836933286 0.6989160904
1134350000.0 0.4637847513 0.5469537234
1144300000.0 0.5730956956 0.3441993723
1154250000.0 0.6088680683 0.1263346825
1164200000.0 0.5863161602 -0.0773909286
1174150000.0 0.5265703911 -0.2583628889
1184100000.0 0.4297026077 -0.406993133
1194050000.0 0.3063930252 -0.5106744214
1204000000.0 0.1701985618 -0.567163681
1213950000.0 0.0321236378 -0.5833237763
1223900000.0 -0.0991309229 -0.5720779439
1233850000.0 -0.2186738051 -0.5443636901
1243800000.0 -0.3244391758 -0.5068047661
1253750000.0 -0.4147323029 -0.4623315324
1263700000.0 -0.4867825262 -0.4102140817
1273650000.0 -0.5415707577 -0.3500650942
1283600000.0 -0.5786236677 -0.2811570513
1293550000.0 -0.6034449818 -0.2054475511
1303500000.0 -0.6210071487 -0.1268815615
1313450000.0 -0.6346086023 -0.0487408413
1323400000.0 -0.6466803394 0.0255164228
1333350000.0 -0.6556628045 0.094872284
1343300000.0 -0.6568605166 0.1591083336
1353250000.0 -0.6471890062 0.2171494192
1363200000.0 -0.6239432096 0.2716137795
1373150000.0 -0.5866802281 0.3237265625
1383100000.0 -0.5408286496 0.3757318636
1393050000.0 -0.4907360853 0.4277341984
1403000000.0 -0.4400564275 0.4788003621
1412950000.0 -0.3905761843 0.5262009702
1422900000.0 -0.3413306135 0.5661711339
1432850000.0 -0.2905631673 0.594469247
1442800000.0 -0.2357771806 0.6112578773
1452750000.0 -0.1753584494 0.6181746484
1462700000.0 -0.1071446733 0.6173362846
1472650000.0 -0.032365989 0.6119034288
1482600000.0 0.0461966915 0.6038822195
1492550000.0 0.1238297778 0.5916243501
1502500000.0 0.197803935 0.5724035823
1512450000.0 0.2654037519 0.5420790169
1522400000.0 0.3240540753 0.4968882222
1532350000.0 0.3735144204 0.4349138579
1542300000.0 0.4144387499 0.357688252
1552250000.0 0.4470079444 0.270421144
1562200000.0 0.4742105046 0.1809141278
1572150000.0 0.496467614 0.0924631958
1582100000.0 0.5076682944 0.0031415178
1592050000.0 0.5011742715 -0.0844807525
1602000000.0 0.4731239589 -0.1679479125
1611950000.0 0.4243931772 -0.2440330924
1621900000.0 0.3600269117 -0.3139768478
1631850000.0 0.285352334 -0.3786410362
1641800000.0 0.2063585634 -0.4372283942
1651750000.0 0.1252966593 -0.4862000482
1661700000.0 0.0444902581 -0.5202327765
1671650000.0 -0.0348553782 -0.5353889711
1681600000.0 -0.1128671282 -0.5306158473
1691550000.0 -0.1895046695 -0.5094696625
1701500000.0 -0.2652713126 -0.4763840108
1711450000.0 -0.3384655142 -0.4365620715
1721400000.0 -0.4080408669 -0.3945925329
1731350000.0 -0.470751177 -0.3522588358
1741300000.0 -0.5228564882 -0.3077474069
1751250000.0 -0.56066943 -0.2580210566
1761200000.0 -0.583286024 -0.202409329
1771150000.0 -0.5930945427 -0.1411070212
1781100000.0 -0.5954765792 -0.0756357139
1791050000.0 -0.5950876991 -0.009357814
1801000000.0 -0.5953620205 0.0548392911
1810950000.0 -0.596911747 0.1149736914
1820900000.0 -0.595470892 0.1692475174
1830850000.0 -0.586557923 0.2168345615
1840800000.0 -0.565911166 0.2583272669
1850750000.0 -0.5321877291 0.2953084977
1860700000.0 -0.4861480544 0.3278711184
1870650000.0 -0.435414668 0.3591478435
1880600000.0 -0.3846022483 0.3880460992
1890550000.0 -0.3381042705 0.4140296889
1900500000.0 -0.2965834083 0.4340431816
1910450000.0 -0.2580020626 0.4449015971
1920400000.0 -0.2198585443 0.4432996533
1930350000.0 -0.1790115533 0.4277854805
1940300000.0 -0.1343142605 0.3985577644
1950250000.0 -0.0873862406 0.3589628012
1960200000.0 -0.0424829409 0.3127604491
1970150000.0 -0.007451415 0.262077858
1980100000.0 0.0122070703 0.2079419692
1990050000.0 0.0086982681 0.1475343983
2000000000.0 -0.0247749739 0.0795048722
