!Created with skrf (http://scikit-rf.org).
# GHz S RI R 50.0 
!freq ReS11 ImS11
10000000.0 -0.7973484936 0.5977869041
19950000.0 -0.2925099629 0.9358700906
29900000.0 0.3117989541 0.9162585307
39850000.0 0.798063096 0.5432970482
49800000.0 0.9743556967 -0.0588946755
59750000.0 0.7423884465 -0.663035632
69700000.0 0.164324151 -0.9965808485
79650000.0 -0.5110396287 -0.8668766675
89600000.0 -0.9381104552 -0.298513126
99550000.0 -0.859968246 0.4345157713
109500000.0 -0.2681545622 0.9222593378
119450000.0 0.5287003701 0.8225105463
129400000.0 0.9920566282 0.1231512812
139350000.0 0.7311890472 -0.6878141123
149300000.0 -0.0623544034 -0.9774679215
159250000.0 -0.7607610484 -0.5641285786
169200000.0 -0.9143688722 0.1911633694
179150000.0 -0.5061677422 0.7977793474
189100000.0 0.1754563638 0.9457235525
199050000.0 0.7542196212 0.6060207033
209000000.0 0.9584072951 -0.0123382505
218950000.0 0.7301504895 -0.5929926767
228900000.0 0.2065941148 -0.8982901595
238850000.0 -0.3823293888 -0.8263420368
248800000.0 -0.7971800526 -0.4094055445
258750000.0 -0.9127863484 0.1469172574
268700000.0 -0.6582732068 0.6693486336
278650000.0 -0.1431390789 0.9300941208
288600000.0 0.4205734882 0.8215159502
298550000.0 0.7983523036 0.3913889485
308500000.0 0.8345872805 -0.1794908783
318450000.0 0.5118214702 -0.6467805865
328400000.0 -0.0265294265 -0.8019823361
338350000.0 -0.5224131381 -0.5707437642
348300000.0 -0.7172443745 -0.0840653032
358250000.0 -0.5270639157 0.3641180167
368200000.0 -0.1181365862 0.5188391338
378150000.0 0.2206241082 0.3529478968
388100000.0 0.3085133699 0.0503532117
398050000.0 0.1721300728 -0.1623262162
408000000.0 -0.0247038793 -0.1825506069
417950000.0 -0.131246395 -0.0669042272
427900000.0 -0.1033663589 0.062432259
437850000.0 0.0045981574 0.1101338676
447800000.0 0.1022123469 0.0589832285
457750000.0 0.1303792615 -0.0423427579
467700000.0 0.0786146852 -0.1290001974
477650000.0 -0.0130959332 -0.1530878054
487600000.0 -0.0918024575 -0.1095612282
497550000.0 -0.1195530702 -0.0297855093
507500000.0 -0.0927984271 0.0452103593
517450000.0 -0.033019635 0.0771853871
527400000.0 0.0213385252 0.0644653803
537350000.0 0.0419598879 0.0268616417
547300000.0 0.0279297235 -0.0017828303
557250000.0 -0.0012847483 -0.0036114358
567200000.0 -0.0171833424 0.0221867424
577150000.0 -0.0007565075 0.052528718
587100000.0 0.0422694559 0.05812005
597050000.0 0.0854818832 0.0222557058
607000000.0 0.0977641706 -0.0464176374
616950000.0 0.0574425794 -0.1160838094
626900000.0 -0.0247110464 -0.1498034585
636850000.0 -0.1155475657 -0.123704214
646800000.0 -0.1742177713 -0.043293516
656750000.0 -0.1711094471 0.0605776335
666700000.0 -0.1002380536 0.1426505215
676650000.0 0.0095146823 0.1623370601
686600000.0 0.1085211122 0.1079340919
696550000.0 0.1558174009 0.006279169
706500000.0 0.1305575345 -0.101264978
716450000.0 0.0460468242 -0.1670591659
726400000.0 -0.0558025283 -0.1587771598
736350000.0 -0.1203940299 -0.0839534466
746300000.0 -0.1117037585 0.0157289297
756250000.0 -0.0318983943 0.0834288736
766200000.0 0.0748520781 0.0763834044
776150000.0 0.1489152292 -0.0050144955
786100000.0 0.1415965028 -0.118250235
796050000.0 0.0477250872 -0.1963815403
806000000.0 -0.0871054562 -0.1815558836
815950000.0 -0.1880024228 -0.0641888747
825900000.0 -0.1870805898 0.1082011049
835850000.0 -0.0657374943 0.2520970829
845800000.0 0.1297061608 0.2877595
855750000.0 0.3125344671 0.1852395659
865700000.0 0.3917807779 -0.0215940009
875650000.0 0.3160074722 -0.2434282843
885600000.0 0.1019369504 -0.3739428832
895550000.0 -0.1632964587 -0.3342932294
905500000.0 -0.3526792284 -0.1246118889
915450000.0 -0.3649608548 0.1695465439
925400000.0 -0.1803023542 0.4061737781
935350000.0 0.1197966182 0.4605972319
945300000.0 0.3846233873 0.288702407
955250000.0 0.4597083557 -0.037536782
965200000.0 0.2675910486 -0.3465316191
975150000.0 -0.1228760807 -0.4273356808
985100000.0 -0.4721405013 -0.1641155607
995050000.0 -0.4928623521 0.3106490119
1005000000.0 -0.1048118552 0.6461546311
1014950000.0 0.4413526616 0.5414050969
1024900000.0 0.7264759906 0.0040616376
1034850000.0 0.4683381074 -0.6035806267
1044800000.0 -0.2004628344 -0.787415826
1054750000.0 -0.7655033077 -0.375858067
1064700000.0 -0.8170524705 0.2952270052
1074650000.0 -0.3914339681 0.7670618917
1084600000.0 0.2111194063 0.7974557474
1094550000.0 0.6718705793 0.4228070301
1104500000.0 0.7418879117 -0.1746075468
1114450000.0 0.3693773814 -0.6424646554
1124400000.0 -0.2025835029 -0.6947388489
1134350000.0 -0.6093748533 -0.3442650878
1144300000.0 -0.6538104981 0.1497983805
1154250000.0 -0.3748183897 0.5194544814
1164200000.0 0.0571105453 0.6073554539
1174150000.0 0.4314992701 0.395976924
1184100000.0 0.5709131966 -0.0134703214
1194050000.0 0.3928156747 -0.4044903353
1204000000.0 0.0084440936 -0.5644968561
1213950000.0 -0.3645643378 -0.4400479554
1223900000.0 -0.5700557238 -0.1271715589
1233850000.0 -0.5497187708 0.2321032368
1243800000.0 -0.3238950996 0.5088757765
1253750000.0 0.0267486617 0.6002189784
1263700000.0 0.3710632214 0.4574478181
1273650000.0 0.5620719856 0.1282798362
1283600000.0 0.5171245996 -0.2480133977
1293550000.0 0.2694679154 -0.5196234501
1303500000.0 -0.0715991706 -0.6027201695
1313450000.0 -0.3914432362 -0.4933801629
1323400000.0 -0.6020733265 -0.237119069
1333350000.0 -0.646225089 0.0944403145
1343300000.0 -0.5003424891 0.407792238
1353250000.0 -0.1923268119 0.5915496948
1363200000.0 0.1792347223 0.5636734615
1373150000.0 0.4696278987 0.3253115716
1383100000.0 0.5744908918 -0.0289894849
1393050000.0 0.4737748586 -0.3676592449
1403000000.0 0.2218615837 -0.589755999
1412950000.0 -0.0961649532 -0.6434930926
1422900000.0 -0.3886997022 -0.5214094347
1432850000.0 -0.5715912544 -0.2570399002
1442800000.0 -0.5800456215 0.0773868722
1452750000.0 -0.392397365 0.3676494609
1462700000.0 -0.0687769876 0.5020988866
1472650000.0 0.2693085063 0.429868412
1482600000.0 0.4976841981 0.1891414312
1492550000.0 0.5494292823 -0.1210645055
1502500000.0 0.423934855 -0.3948023881
1512450000.0 0.1724449605 -0.5446109881
1522400000.0 -0.1184510964 -0.5204871944
1532350000.0 -0.3448166193 -0.3261944523
1542300000.0 -0.4142287616 -0.0262646427
1552250000.0 -0.2881091465 0.2584497609
1562200000.0 -0.0194169497 0.4062953904
1572150000.0 0.2706128411 0.360594909
1582100000.0 0.4633969098 0.1572266551
1592050000.0 0.4887900298 -0.1136335793
1602000000.0 0.3444030288 -0.3441292279
1611950000.0 0.0818209392 -0.4443321028
1621900000.0 -0.201751962 -0.3638139664
1631850000.0 -0.3882633149 -0.120067863
1641800000.0 -0.3888067637 0.1957959219
1651750000.0 -0.1974424922 0.4454782825
1661700000.0 0.1013432739 0.5270388994
1671650000.0 0.3843131434 0.416791437
1681600000.0 0.5509687649 0.1657853567
1691550000.0 0.550686898 -0.1402874004
1701500000.0 0.3774539109 -0.4035439629
1711450000.0 0.0768925023 -0.5353092069
1721400000.0 -0.2614746711 -0.4726800037
1731350000.0 -0.5103661532 -0.2208360048
1741300000.0 -0.5702698361 0.1294858015
1751250000.0 -0.4230855596 0.4441542269
1761200000.0 -0.1376301169 0.6171184117
1771150000.0 0.1842050489 0.6117749191
1781100000.0 0.4520564948 0.4467912897
1791050000.0 0.6019819266 0.1697640005
1801000000.0 0.5916118822 -0.1516115822
1810950000.0 0.4131794186 -0.4312793309
1820900000.0 0.1034930626 -0.5768871284
1830850000.0 -0.2427477441 -0.523439901
1840800000.0 -0.4977970544 -0.2849625459
1850750000.0 -0.5767637578 0.0412772049
1860700000.0 -0.4784414565 0.3408364788
1870650000.0 -0.2579246995 0.5369512716
1880600000.0 0.015330618 0.5953595167
1890550000.0 0.2731397587 0.5132589923
1900500000.0 0.4522323398 0.3108145254
1910450000.0 0.4986009437 0.0410661383
1920400000.0 0.3904267734 -0.2119772043
1930350000.0 0.1653977246 -0.3577577066
1940300000.0 -0.0868960361 -0.3545527817
1950250000.0 -0.2765565862 -0.2288220776
1960200000.0 -0.3601699148 -0.0497419057
1970150000.0 -0.3415651196 0.1164188519
1980100000.0 -0.2543256863 0.2219056741
1990050000.0 -0.1503418745 0.2480900774
2000000000.0 -0.0844371282 0.2098784739
