!Created with skrf (http://scikit-rf.org).
# GHz S RI R 50.0 
!freq ReS11 ImS11
10000000.0 -0.9921048132 0.0665892342
14975000.0 -0.9898267723 0.1000230808
19950000.0 -0.9865183069 0.1340295896
24925000.0 -0.9816733997 0.169163668
29900000.0 -0.9759229339 0.2044396616
34875000.0 -0.9674001207 0.2416933209
39850000.0 -0.9562051057 0.2804938505
44825000.0 -0.9421053196 0.3217265662
49800000.0 -0.924908267 0.3653314326
54775000.0 -0.9040503482 0.411451118
59750000.0 -0.8791520837 0.460768925
64725000.0 -0.8491859709 0.512713035
69700000.0 -0.8130173982 0.5675837792
74675000.0 -0.7695825556 0.6250507301
79650000.0 -0.7175558332 0.6845171715
84625000.0 -0.6555684932 0.7450115764
89600000.0 -0.5817173133 0.8051385378
94575000.0 -0.4951233662 0.8625146934
99550000.0 -0.3943852071 0.9143794859
104525000.0 -0.2787608209 0.9569182245
109500000.0 -0.148503821 0.9855064038
114475000.0 -0.0052735194 0.9951732092
119450000.0 0.1470183452 0.982385639
124425000.0 0.3028715418 0.9436247362
129400000.0 0.4566950728 0.8768378234
134375000.0 0.5929931956 0.7891245482
139350000.0 0.7194549565 0.6745116872
144325000.0 0.8223362099 0.5435876407
149300000.0 0.8998014986 0.4025452216
154275000.0 0.9518162267 0.2583677273
159250000.0 0.9800656062 0.1165314436
164225000.0 0.9868442947 -0.0175142614
169200000.0 0.9762064238 -0.1416402155
174175000.0 0.9517061194 -0.2536687827
179150000.0 0.9177313241 -0.3531102033
184125000.0 0.8769987464 -0.4405399784
189100000.0 0.8324768418 -0.5168566036
194075000.0 0.7860173547 -0.5830443304
199050000.0 0.739341543 -0.6404664992
204025000.0 0.6926063109 -0.6905132126
209000000.0 0.6475537045 -0.7335732235
213975000.0 0.6034362267 -0.7710729897
218950000.0 0.56075181 -0.8033193997
223925000.0 0.5195769112 -0.8315415395
228900000.0 0.4798068396 -0.855586087
233875000.0 0.4411715541 -0.8762777558
238850000.0 0.4031990222 -0.8939977443
243825000.0 0.3653211935 -0.908791331
248800000.0 0.3320197194 -0.8991834965
253775000.0 0.2970465557 -0.9294845667
258750000.0 0.2596788421 -0.9381317797
263725000.0 0.2228717331 -0.9449167097
268700000.0 0.1855116247 -0.9498073439
273675000.0 0.147623496 -0.9532028906
278650000.0 0.1086959427 -0.9546032083
283625000.0 0.0688779825 -0.9544033234
288600000.0 0.0276640474 -0.9519544043
293575000.0 -0.0146407155 -0.9468041479
298550000.0 -0.0583006824 -0.9386703364
303525000.0 -0.1032225937 -0.9269973686
308500000.0 -0.1491585757 -0.9107578617
313475000.0 -0.195911347 -0.8890631815
318450000.0 -0.2429033273 -0.8610488258
323425000.0 -0.2899218523 -0.8261442173
328400000.0 -0.3356018237 -0.7840400392
333375000.0 -0.3789830711 -0.7346581933
338350000.0 -0.4186319897 -0.6773408287
343325000.0 -0.4530286424 -0.612868672
348300000.0 -0.4800677339 -0.5419048593
353275000.0 -0.4981369061 -0.4660078665
358250000.0 -0.5058621548 -0.3865747659
363225000.0 -0.5022472819 -0.3063923353
368200000.0 -0.4867490883 -0.228145349
373175000.0 -0.4605440888 -0.1541762361
378150000.0 -0.4248123507 -0.0871714518
383125000.0 -0.3808167979 -0.0285714678
388100000.0 -0.3310754624 0.0206427987
393075000.0 -0.2780424306 0.059781863
398050000.0 -0.2237401488 0.0895625892
403025000.0 -0.1701883772 0.1108452601
408000000.0 -0.1194070472 0.1243590105
412975000.0 -0.0729104182 0.131119266
417950000.0 -0.0302032982 0.1324709665
422925000.0 0.0082641188 0.129340271
427900000.0 0.0414204752 0.1230630031
432875000.0 0.0699896113 0.1142684457
437850000.0 0.0936037243 0.1039525183
442825000.0 0.1126270277 0.0925890383
447800000.0 0.1277693024 0.0804630699
452775000.0 0.1395385921 0.0678773798
457750000.0 0.1482742426 0.0551903275
462725000.0 0.1546928246 0.042677741
467700000.0 0.158143192 0.030356704
472675000.0 0.159057089 0.0188760698
477650000.0 0.1577775709 0.0081566106
482625000.0 0.1548809192 -0.0012069297
487600000.0 0.1502842696 -0.0088906547
492575000.0 0.1443490905 -0.0141776795
497550000.0 0.1409414759 -0.020660613
502525000.0 0.1302296027 -0.0250901822
507500000.0 0.1200753485 -0.0271957212
512475000.0 0.1088791052 -0.0280432372
517450000.0 0.0971162417 -0.0275774547
522425000.0 0.0847186875 -0.0262311555
527400000.0 0.0720093116 -0.0238559878
532375000.0 0.0589213755 -0.0204843337
537350000.0 0.0463690778 -0.0161382906
542325000.0 0.0338462077 -0.0113674468
547300000.0 0.0220898678 -0.0063063835
552275000.0 0.0102988287 -0.0002844361
557250000.0 -0.0007558939 0.0064323719
562225000.0 -0.0112358689 0.0137461427
567200000.0 -0.020613714 0.021938543
572175000.0 -0.0291721234 0.031108216
577150000.0 -0.0369506643 0.0410233934
582125000.0 -0.0439320621 0.0517313835
587100000.0 -0.0500679606 0.0630194199
592075000.0 -0.0557461632 0.0742161906
597050000.0 -0.061077741 0.0860316645
602025000.0 -0.0656190309 0.0970745118
607000000.0 -0.0694260904 0.1079573129
611975000.0 -0.0720978394 0.1184739285
616950000.0 -0.0742505972 0.1283524897
621925000.0 -0.07548523 0.1374827539
626900000.0 -0.0757696176 0.1454442755
631875000.0 -0.0753143931 0.1527912618
636850000.0 -0.0730993379 0.159407057
641825000.0 -0.0700984018 0.1654268579
646800000.0 -0.0658867254 0.17070722
651775000.0 -0.0606126495 0.1750459888
656750000.0 -0.0538677 0.1791653104
661725000.0 -0.046449634 0.1824593882
666700000.0 -0.0387869706 0.1851118566
671675000.0 -0.030396338 0.186580765
676650000.0 -0.0214806295 0.187391271
681625000.0 -0.0123425932 0.1872130335
686600000.0 -0.0031732828 0.1862123704
691575000.0 0.0062414768 0.184204936
696550000.0 0.0149628688 0.1806153473
701525000.0 0.0241035965 0.1753567079
706500000.0 0.0333783429 0.1684778709
711475000.0 0.0429531734 0.1602986789
716450000.0 0.0524152638 0.1504485728
721425000.0 0.0621894443 0.1394155282
726400000.0 0.0718596257 0.1268457514
731375000.0 0.0814562503 0.1127525298
736350000.0 0.0905058262 0.0977074136
741325000.0 0.0997704116 0.0815686397
746300000.0 0.1087925423 0.0646539011
751275000.0 0.1164298722 0.0462231095
756250000.0 0.1239119074 0.0271939293
761225000.0 0.1296656091 0.0075170722
766200000.0 0.1343843596 -0.0126627967
771175000.0 0.136546868 -0.0340887951
776150000.0 0.1376524632 -0.0557415473
781125000.0 0.1369563367 -0.0785257095
786100000.0 0.1342799072 -0.1015192271
791075000.0 0.1303933956 -0.1250726457
796050000.0 0.1247691355 -0.1487560404
801025000.0 0.117678598 -0.1728534583
806000000.0 0.1092519847 -0.1966710264
810975000.0 0.0988954578 -0.2197943899
815950000.0 0.0867893739 -0.2422227713
820925000.0 0.0735222568 -0.2642396732
825900000.0 0.0594559542 -0.2851373427
830875000.0 0.0442309268 -0.3043098863
835850000.0 0.0274315627 -0.321645807
840825000.0 0.0093734554 -0.3377800174
845800000.0 -0.009841056 -0.3515281049
850775000.0 -0.0304350996 -0.3635115669
855750000.0 -0.0522829114 -0.3740621833
860725000.0 -0.0752132053 -0.3829651652
865700000.0 -0.0990291197 -0.3898272484
870675000.0 -0.1236746154 -0.3952243566
875650000.0 -0.1486982622 -0.3985918739
880625000.0 -0.1745021725 -0.3996930255
885600000.0 -0.200537815 -0.3986896373
890575000.0 -0.2271060808 -0.3950396497
895550000.0 -0.2536920251 -0.3892862137
900525000.0 -0.2796631757 -0.3805655146
905500000.0 -0.3056142927 -0.3680369347
910475000.0 -0.3314511991 -0.3519950377
915450000.0 -0.3566412819 -0.3321640884
920425000.0 -0.3809677385 -0.3083482068
925400000.0 -0.4050355922 -0.2802626462
930375000.0 -0.427510136 -0.2474516895
935350000.0 -0.4486192973 -0.2101375174
940325000.0 -0.4680199504 -0.1680673058
945300000.0 -0.4844174647 -0.1205670188
950275000.0 -0.4975212664 -0.0675971219
955250000.0 -0.5059960354 -0.0093269766
960225000.0 -0.5076993032 0.0542019911
965200000.0 -0.5016901518 0.1231019375
970175000.0 -0.4860072828 0.1962838232
975150000.0 -0.459447761 0.2724908177
980125000.0 -0.4185635524 0.3502328584
985100000.0 -0.362256048 0.4268917816
990075000.0 -0.2899909813 0.4990681108
995050000.0 -0.2009563167 0.5627048539
1000025000.0 -0.0961911906 0.6143608733
1005000000.0 0.0228050369 0.6490292173
1009975000.0 0.151572602 0.6598605998
1014950000.0 0.2833286348 0.6410042193
1019925000.0 0.4055546102 0.5914815755
1024900000.0 0.5008719667 0.5197096893
1029875000.0 0.5636449038 0.4518993538
1034850000.0 0.624355327 0.4055662235
1039825000.0 0.7074373085 0.351742737
1044800000.0 0.7927728373 0.266347291
1049775000.0 0.8590188199 0.1540254139
1054750000.0 0.8985074433 0.0280391332
1059725000.0 0.9114515565 -0.1013843849
1064700000.0 0.9013446925 -0.2256167221
1069675000.0 0.8726277358 -0.345863669
1074650000.0 0.8228438842 -0.4575180568
1079625000.0 0.753578488 -0.5506648987
1084600000.0 0.6874760496 -0.6252453216
1089575000.0 0.6106651136 -0.6987474672
1094550000.0 0.5219354056 -0.7575349449
1099525000.0 0.4277864425 -0.8007222006
1104500000.0 0.3309768026 -0.828493832
1109475000.0 0.2329999346 -0.8428272286
1114450000.0 0.1355309473 -0.843815848
1119425000.0 0.0412964253 -0.8340206836
1124400000.0 -0.0483157499 -0.8134838937
1129375000.0 -0.1324801663 -0.7837576079
1134350000.0 -0.2112057067 -0.7467515415
1139325000.0 -0.2830397564 -0.7029309132
1144300000.0 -0.3466252494 -0.6534161207
1149275000.0 -0.4025874408 -0.6001428765
1154250000.0 -0.451145336 -0.5442728345
1159225000.0 -0.4901320054 -0.486504937
1164200000.0 -0.5222438203 -0.4298813105
1169175000.0 -0.549733533 -0.3742180038
1174150000.0 -0.5728877839 -0.319102903
1179125000.0 -0.5919824567 -0.2630724566
1184100000.0 -0.6065662154 -0.2073006626
1189075000.0 -0.6165973005 -0.1530549872
1194050000.0 -0.6230067342 -0.1007886549
1199025000.0 -0.625647803 -0.050401517
1204000000.0 -0.6254837018 -0.0030313606
1208975000.0 -0.6234456932 0.0411947572
1213950000.0 -0.6188406701 0.0837983039
1218925000.0 -0.6132107707 0.1235174603
1223900000.0 -0.6064630242 0.1597252377
1228875000.0 -0.5982012839 0.1931717686
1233850000.0 -0.5889511087 0.2252099845
1238825000.0 -0.5791092457 0.253712461
1243800000.0 -0.5676748155 0.2803568555
1248775000.0 -0.5564309049 0.3058414228
1253750000.0 -0.545546439 0.3292644437
1258725000.0 -0.5343348373 0.3503844255
1263700000.0 -0.522977564 0.3710460073
1268675000.0 -0.5131407777 0.3903740889
1273650000.0 -0.5037039994 0.4079369072
1278625000.0 -0.4946178577 0.4242339684
1283600000.0 -0.4866637795 0.4388677803
1288575000.0 -0.4795074467 0.4522039866
1293550000.0 -0.4725434115 0.4646165365
1298525000.0 -0.4665589728 0.4746783733
1303500000.0 -0.4604954698 0.4839183213
1308475000.0 -0.4550213946 0.4927609546
1313450000.0 -0.4506792178 0.5002971283
1318425000.0 -0.4455864719 0.5066247115
1323400000.0 -0.4410143019 0.512924593
1328375000.0 -0.4360542661 0.5188290788
1333350000.0 -0.4297905258 0.5250022932
1338325000.0 -0.4235505694 0.5310223669
1343300000.0 -0.4177441011 0.5375441764
1348275000.0 -0.4111731896 0.5438774399
1353250000.0 -0.40450016 0.5505365414
1358225000.0 -0.3979631874 0.5572076731
1363200000.0 -0.3917383455 0.5640733796
1368175000.0 -0.3858017295 0.5704340426
1373150000.0 -0.3799215676 0.5762064107
1378125000.0 -0.3739924224 0.5818243483
1383100000.0 -0.3680110005 0.5867986424
1388075000.0 -0.3625609004 0.5910896415
1393050000.0 -0.356492613 0.5941681492
1398025000.0 -0.3507876616 0.5964673515
1403000000.0 -0.3444627829 0.5983313997
1407975000.0 -0.3380872993 0.5997671889
1412950000.0 -0.3306368166 0.600477044
1417925000.0 -0.3229637478 0.6007521834
1422900000.0 -0.31469173 0.6013109024
1427875000.0 -0.3059451499 0.6021373123
1432850000.0 -0.2968536115 0.6020450156
1437825000.0 -0.2876103624 0.6023463747
1442800000.0 -0.278391365 0.6033619448
1447775000.0 -0.2682404857 0.604385206
1452750000.0 -0.2574679886 0.6046656552
1457725000.0 -0.2466797407 0.6046127955
1462700000.0 -0.2349765407 0.6054249588
1467675000.0 -0.2226215268 0.6057040414
1472650000.0 -0.2097802853 0.6049123685
1477625000.0 -0.1960171187 0.6039993309
1482600000.0 -0.1817690625 0.6026837993
1487575000.0 -0.1668262929 0.5999827814
1492550000.0 -0.1503824735 0.5961535797
1497525000.0 -0.133355733 0.5926488128
1502500000.0 -0.1159130998 0.5888685498
1507475000.0 -0.097344881 0.5849232873
1512450000.0 -0.0782491139 0.5811379347
1517425000.0 -0.0594086411 0.5768350956
1522400000.0 -0.0401716276 0.573012143
1527375000.0 -0.0199427932 0.568462087
1532350000.0 -0.0004279516 0.5631057801
1537325000.0 0.0194496539 0.5575860483
1542300000.0 0.0393709651 0.5508947592
1547275000.0 0.0602675902 0.5427229678
1552250000.0 0.0802521673 0.5343838019
1557225000.0 0.1002718128 0.5248692056
1562200000.0 0.1209150887 0.513506545
1567175000.0 0.1413946365 0.501796781
1572150000.0 0.162061984 0.4887000306
1577125000.0 0.1833846111 0.4743300231
1582100000.0 0.2049179303 0.4598065532
1587075000.0 0.227003358 0.4445035656
1592050000.0 0.2494248471 0.4284243566
1597025000.0 0.2717650159 0.4128759895
1602000000.0 0.2940831456 0.3968456906
1606975000.0 0.3162601554 0.3805156942
1611950000.0 0.3379368106 0.3644258557
1616925000.0 0.3585354125 0.3482683739
1621900000.0 0.3786806589 0.3327862469
1626875000.0 0.398053531 0.3168471827
1631850000.0 0.4161706778 0.3007452135
1636825000.0 0.4326908184 0.2854053008
1641800000.0 0.4492055352 0.2697046198
1646775000.0 0.4645541707 0.2536022443
1651750000.0 0.4792342718 0.2385118224
1656725000.0 0.4928098689 0.2231888787
1661700000.0 0.5071214156 0.2079748926
1666675000.0 0.5196550956 0.1936219441
1671650000.0 0.5316721968 0.1792908857
1676625000.0 0.5438370015 0.1658704523
1681600000.0 0.5545785184 0.1529384463
1686575000.0 0.5648345128 0.1402517821
1691550000.0 0.5746993401 0.1283476788
1696525000.0 0.5834769121 0.1172273625
1701500000.0 0.591853481 0.1066815242
1706475000.0 0.5989474694 0.0959622383
1711450000.0 0.6056170595 0.0856268122
1716425000.0 0.6114166301 0.0757894731
1721400000.0 0.6163381265 0.0657280446
1726375000.0 0.6210946072 0.0556170642
1731350000.0 0.6254053747 0.0461613426
1736325000.0 0.629419161 0.0354525841
1741300000.0 0.6336202142 0.0262337184
1746275000.0 0.6380143599 0.0173299478
1751250000.0 0.6420059477 0.0085370494
1756225000.0 0.6462146761 0.0010146629
1761200000.0 0.650143437 -0.0056231392
1766175000.0 0.6531004252 -0.011515995
1771150000.0 0.6549830586 -0.0166496422
1776125000.0 0.6547889531 -0.0197930427
1781100000.0 0.651866722 -0.0201169808
1786075000.0 0.6478641843 -0.0125718696
1791050000.0 0.6520160037 -0.0004489025
1796025000.0 0.6618877156 0.0049689989
1801000000.0 0.6691134211 0.005321667
1805975000.0 0.6718953705 0.0046865383
1810950000.0 0.6729685295 0.0038817109
1815925000.0 0.6724348437 0.0036496773
1820900000.0 0.6713090078 0.0027780452
1825875000.0 0.6694259477 0.0017148859
1830850000.0 0.6665178765 0.0018126593
1835825000.0 0.6648081315 0.0020224487
1840800000.0 0.6625222615 0.0022394831
1845775000.0 0.6596484784 0.0033170651
1850750000.0 0.6565348083 0.0050045225
1855725000.0 0.6535026682 0.0069569005
1860700000.0 0.6494907141 0.0095383018
1865675000.0 0.6446823631 0.0125602684
1870650000.0 0.6396399662 0.0159858805
1875625000.0 0.6334082667 0.0195904824
1880600000.0 0.6257700521 0.0229043641
1885575000.0 0.6169801875 0.0261757935
1890550000.0 0.6070879527 0.029131933
1895525000.0 0.5969512471 0.0313908172
1900500000.0 0.5848201688 0.0329455702
1905475000.0 0.5726201799 0.0341853518
1910450000.0 0.5597406898 0.0348067279
1915425000.0 0.5459026946 0.0350795093
1920400000.0 0.5314530669 0.0353635795
1925375000.0 0.5174306595 0.0360411027
1930350000.0 0.501981708 0.0375153285
1935325000.0 0.4869796883 0.0385413058
1940300000.0 0.4705720395 0.0398099812
1945275000.0 0.4528870259 0.0421563177
1950250000.0 0.4350307435 0.0447777906
1955225000.0 0.4152711034 0.047639961
1960200000.0 0.3938870663 0.0504465827
1965175000.0 0.3707090814 0.0545742882
1970150000.0 0.3449142931 0.0583700663
1975125000.0 0.3168686597 0.0615954995
1980100000.0 0.2870086482 0.065509297
1985075000.0 0.2530126097 0.0692136057
1990050000.0 0.217804356 0.0715957409
1995025000.0 0.1786981594 0.0749846995
2000000000.0 0.1363025773 0.0786243013
