!Created with skrf (http://scikit-rf.org).
# GHz S RI R 50.0 
!freq ReS11 ImS11
10000000.0 -0.7675815907 0.6749303432
19950000.0 -0.1382258362 0.9881536123
29900000.0 0.5375087611 0.8184604891
39850000.0 0.9440217881 0.2455728088
49800000.0 0.8716899594 -0.4666273935
59750000.0 0.3221069016 -0.9584017899
69700000.0 -0.4402971478 -0.9274888259
79650000.0 -0.964328448 -0.338351381
89600000.0 -0.8807234732 0.4679703036
99550000.0 -0.2005735156 0.9482931524
109500000.0 0.6289527332 0.7236641481
119450000.0 0.9703457937 -0.1014770357
129400000.0 0.4723251299 -0.8839070065
139350000.0 -0.4578898764 -0.8989874922
149300000.0 -0.9751651206 -0.1361290967
159250000.0 -0.6598051104 0.688158051
169200000.0 0.1446050891 0.9311125442
179150000.0 0.8199195658 0.492910684
189100000.0 0.9423477464 -0.2759078255
199050000.0 0.4800381929 -0.8743149114
209000000.0 -0.2502019611 -0.9592529216
218950000.0 -0.8132313955 -0.5250846244
228900000.0 -0.9289923716 0.1570648899
238850000.0 -0.5696874837 0.732191693
248800000.0 0.0588236035 0.9253121299
258750000.0 0.6788736763 0.6622595215
268700000.0 0.9643857346 0.0591659834
278650000.0 0.7762790857 -0.5805399448
288600000.0 0.2110500283 -0.9269249893
298550000.0 -0.4332562815 -0.8056139407
308500000.0 -0.8236045468 -0.2875475315
318450000.0 -0.7578498414 0.350075321
328400000.0 -0.2744476588 0.7574891084
338350000.0 0.3393237455 0.6976915951
348300000.0 0.6900920792 0.2264873466
358250000.0 0.5688577155 -0.3001023979
368200000.0 0.141110058 -0.5093271123
378150000.0 -0.2222210383 -0.3339815349
388100000.0 -0.287273396 -0.0103517187
398050000.0 -0.1082359218 0.1786397722
408000000.0 0.0908148379 0.1389281794
417950000.0 0.1416387071 -0.0137604385
427900000.0 0.0474364513 -0.1127372464
437850000.0 -0.0779356027 -0.0847810804
447800000.0 -0.1266816791 0.0302362051
457750000.0 -0.0655854103 0.1376516882
467700000.0 0.0550030713 0.1608628927
477650000.0 0.1500023089 0.0904487964
487600000.0 0.1622466619 -0.0223480337
497550000.0 0.0994725209 -0.1040418862
507500000.0 0.0039576624 -0.1208124391
517450000.0 -0.0637037817 -0.0739803395
527400000.0 -0.0758644265 -0.0074311832
537350000.0 -0.0466540781 0.0327588096
547300000.0 -0.0141279071 0.0328114006
557250000.0 -0.0073536996 0.0112674994
567200000.0 -0.0269828996 0.0045574817
577150000.0 -0.0443122739 0.0301601855
587100000.0 -0.0278400592 0.0724680017
597050000.0 0.0284450605 0.0927556847
607000000.0 0.0967351145 0.059751251
616950000.0 0.1302226143 -0.0245506184
626900000.0 0.096449396 -0.120426921
636850000.0 0.000225943 -0.1744754518
646800000.0 -0.1140558581 -0.1502427766
656750000.0 -0.186309771 -0.0519388815
666700000.0 -0.1721149708 0.0716024544
676650000.0 -0.0747821355 0.1534980698
686600000.0 0.0542887766 0.1465904229
696550000.0 0.144519381 0.0534775206
706500000.0 0.1457074281 -0.0736278739
716450000.0 0.0608782337 -0.1625152645
726400000.0 -0.057196807 -0.1632200895
736350000.0 -0.1327403295 -0.0796622465
746300000.0 -0.1163378468 0.0299975882
756250000.0 -0.0189933932 0.0867160871
766200000.0 0.0907740333 0.0442389306
776150000.0 0.1292466927 -0.0745340137
786100000.0 0.0575019904 -0.1897198926
796050000.0 -0.090361297 -0.2111823431
806000000.0 -0.215984441 -0.1026243653
815950000.0 -0.2201337882 0.0843857184
825900000.0 -0.0713102405 0.2321517702
835850000.0 0.158238897 0.2288964133
845800000.0 0.3274595125 0.0511321924
855750000.0 0.3244979889 -0.2035863609
865700000.0 0.152440843 -0.3913284044
875650000.0 -0.1166247479 -0.4195919216
885600000.0 -0.3500718748 -0.2489576449
895550000.0 -0.4058047861 0.0526070029
905500000.0 -0.2276132202 0.323196109
915450000.0 0.1019374864 0.3958386438
925400000.0 0.3940393 0.2096342648
935350000.0 0.4684165946 -0.13585258
945300000.0 0.2660267993 -0.4345055909
955250000.0 -0.1023107501 -0.4897207682
965200000.0 -0.4012334529 -0.239124823
975150000.0 -0.398136625 0.1777128053
985100000.0 -0.0346526342 0.4480102708
995050000.0 0.4338447454 0.2892446813
1005000000.0 0.5641576514 -0.234494884
1014950000.0 0.1580702831 -0.6595228555
1024900000.0 -0.4733740349 -0.540569662
1034850000.0 -0.7447166543 0.1118745626
1044800000.0 -0.304978495 0.744395284
1054750000.0 0.5001008118 0.7020121972
1064700000.0 0.8943228792 0.025675589
1074650000.0 0.6026417973 -0.6658401789
1084600000.0 -0.0801473522 -0.8637080058
1094550000.0 -0.6573217038 -0.4983291902
1104500000.0 -0.7666328519 0.1672901631
1114450000.0 -0.3309249383 0.6781458111
1124400000.0 0.3244626136 0.6564301515
1134350000.0 0.691853337 0.1600672766
1144300000.0 0.5576559829 -0.3919644584
1154250000.0 0.0990991141 -0.6407641283
1164200000.0 -0.3657116079 -0.4948262518
1174150000.0 -0.5890565076 -0.0767381853
1184100000.0 -0.4402013344 0.3778996942
1194050000.0 -0.0003172504 0.5724041206
1204000000.0 0.4308739824 0.3799716021
1213950000.0 0.5801566668 -0.047952246
1223900000.0 0.3975892158 -0.4412790153
1233850000.0 0.0147185796 -0.6076036246
1243800000.0 -0.3788757136 -0.4890721986
1253750000.0 -0.6063889209 -0.1418814642
1263700000.0 -0.5520135326 0.2807449172
1273650000.0 -0.2229829707 0.5677506452
1283600000.0 0.2177386887 0.5597636371
1293550000.0 0.5392256673 0.2648443818
1303500000.0 0.5952137577 -0.1547925176
1313450000.0 0.3868045637 -0.5080167255
1323400000.0 0.0174942455 -0.6626310544
1333350000.0 -0.3711150537 -0.5688580992
1343300000.0 -0.6317276937 -0.2562704053
1353250000.0 -0.6466978471 0.1628216133
1363200000.0 -0.3863966074 0.5070375304
1373150000.0 0.0408320196 0.6046793297
1383100000.0 0.4281608081 0.4081741373
1393050000.0 0.6017917097 0.024695152
1403000000.0 0.5091177822 -0.3688347177
1412950000.0 0.2109232774 -0.6220101589
1422900000.0 -0.1710005179 -0.6515794792
1432850000.0 -0.4946053937 -0.4506847696
1442800000.0 -0.6327261705 -0.0912004873
1452750000.0 -0.5162474523 0.2832361301
1462700000.0 -0.1846168138 0.5030558704
1472650000.0 0.209898135 0.4577278517
1482600000.0 0.4763359718 0.1731861899
1492550000.0 0.498956851 -0.2019071884
1502500000.0 0.2892981211 -0.4935332304
1512450000.0 -0.0457382873 -0.5851832602
1522400000.0 -0.3581728371 -0.4479827742
1532350000.0 -0.5097303994 -0.1449152952
1542300000.0 -0.4260621874 0.1842885907
1552250000.0 -0.1426506054 0.3734757856
1562200000.0 0.1909761553 0.3209568609
1572150000.0 0.3942140305 0.0612210136
1582100000.0 0.3645424959 -0.2587741553
1592050000.0 0.1289858168 -0.4678184727
1602000000.0 -0.181723535 -0.4638304235
1611950000.0 -0.4106410336 -0.251184049
1621900000.0 -0.4404370056 0.0671915478
1631850000.0 -0.2431255362 0.3347473352
1641800000.0 0.0942706161 0.4015002765
1651750000.0 0.3942755594 0.2146519667
1661700000.0 0.4872458306 -0.1326423703
1671650000.0 0.323488938 -0.4521493959
1681600000.0 -0.0071016644 -0.5854202341
1691550000.0 -0.3482399392 -0.4780606107
1701500000.0 -0.5536566608 -0.1797083796
1711450000.0 -0.5353866478 0.1901642036
1721400000.0 -0.2826793103 0.4815182026
1731350000.0 0.1120591658 0.5520525315
1741300000.0 0.4696533201 0.3487577284
1751250000.0 0.6117805384 -0.0399927541
1761200000.0 0.4753901741 -0.4231001533
1771150000.0 0.1409368082 -0.6334837807
1781100000.0 -0.2409099546 -0.6053241197
1791050000.0 -0.5306409129 -0.366007769
1801000000.0 -0.6265418298 -0.0025761196
1810950000.0 -0.4761818482 0.3416163125
1820900000.0 -0.2147370721 0.4902346222
1830850000.0 0.1343115273 0.5648124954
1840800000.0 0.4816466171 0.3354696344
1850750000.0 0.5827943626 -0.0623460107
1860700000.0 0.4171147853 -0.416065638
1870650000.0 0.0934769298 -0.5867581016
1880600000.0 -0.2475041299 -0.5437668848
1890550000.0 -0.4941268389 -0.3294598436
1900500000.0 -0.5775128288 -0.0243943391
1910450000.0 -0.4745074176 0.2674925693
1920400000.0 -0.2220909256 0.439579584
1930350000.0 0.0737498916 0.4211151707
1940300000.0 0.2792862065 0.2319938744
1950250000.0 0.3174384793 -0.0195717088
1960200000.0 0.2083524346 -0.2144942517
1970150000.0 0.0364120821 -0.2904646498
1980100000.0 -0.1090188078 -0.2576858987
1990050000.0 -0.175804261 -0.1768152331
2000000000.0 -0.1718436459 -0.1271795648
