!Created with skrf (http://scikit-rf.org).
# GHz S RI R 50.0 
!freq ReS11 ImS11
10000000.0 -0.7665685979 0.6775113374
19950000.0 -0.1338991594 0.9884416754
29900000.0 0.5411953845 0.8148928651
39850000.0 0.9445496199 0.2398104812
49800000.0 0.8686792874 -0.4708161857
59750000.0 0.3196065426 -0.9591521241
69700000.0 -0.4377712576 -0.9290172324
79650000.0 -0.9597270191 -0.3506229239
89600000.0 -0.892506823 0.4440206256
99550000.0 -0.2447500595 0.9376101068
109500000.0 0.5740206389 0.7669725148
119450000.0 0.9741834297 -0.0033150074
129400000.0 0.584858436 -0.8135826859
139350000.0 -0.3261768345 -0.9581706413
149300000.0 -0.9470981495 -0.2851415568
159250000.0 -0.7572822356 0.5814819207
169200000.0 0.0131242985 0.9399358329
179150000.0 0.7513417327 0.5849251056
189100000.0 0.9616645304 -0.1822814854
199050000.0 0.5439664405 -0.8351746357
209000000.0 -0.1976432931 -0.9715426485
218950000.0 -0.7932311658 -0.5511461026
228900000.0 -0.9260199975 0.1451957452
238850000.0 -0.5562677702 0.7349723922
248800000.0 0.034300662 0.9047850252
258750000.0 0.6970644466 0.6372624493
268700000.0 0.9626263546 0.0092220237
278650000.0 0.7304618963 -0.6283918209
288600000.0 0.1296478463 -0.9317990439
298550000.0 -0.5072504245 -0.7443703187
308500000.0 -0.8371900075 -0.1783511659
318450000.0 -0.6858676368 0.4506739372
328400000.0 -0.144026265 0.7847965967
338350000.0 0.4558731797 0.6254348972
348300000.0 0.7229791065 0.0962461503
358250000.0 0.5080259258 -0.4087926522
368200000.0 0.0345972742 -0.5461109355
378150000.0 -0.3163248582 -0.2989671367
388100000.0 -0.3352349443 0.0656414667
398050000.0 -0.1047661997 0.2618886836
408000000.0 0.1357832042 0.2039419691
417950000.0 0.2104482672 0.016457326
427900000.0 0.1179181516 -0.1238688924
437850000.0 -0.0255865951 -0.129642662
447800000.0 -0.1052788356 -0.0329100223
457750000.0 -0.0810504894 0.0745698028
467700000.0 0.0054728887 0.1164433937
477650000.0 0.0789546664 0.0803678427
487600000.0 0.0882880851 0.0199290535
497550000.0 0.0852453471 -0.06176958
507500000.0 0.0111978742 -0.0566685132
517450000.0 -0.017856442 -0.0210095086
527400000.0 -0.0067363158 0.0086580135
537350000.0 0.0192056215 0.0043746055
547300000.0 0.0216401896 -0.0294434502
557250000.0 -0.0161993226 -0.0565671479
567200000.0 -0.074265164 -0.0411713843
577150000.0 -0.1084075787 0.0243988028
587100000.0 -0.0775075225 0.1085957161
597050000.0 0.0314472265 0.1452315685
607000000.0 0.0748616775 0.0694805648
616950000.0 0.1387718149 0.0250995385
626900000.0 0.1374915605 -0.0887085908
636850000.0 0.0505742855 -0.1745497696
646800000.0 -0.074105281 -0.1786122143
656750000.0 -0.1691771798 -0.096748123
666700000.0 -0.1820166514 0.0264998428
676650000.0 -0.1069949405 0.1228593861
686600000.0 0.0120045861 0.1390189239
696550000.0 0.1057789718 0.068865813
706500000.0 0.1213425916 -0.0410590023
716450000.0 0.0574541564 -0.1222883806
726400000.0 -0.0381997902 -0.126761303
736350000.0 -0.0957317917 -0.0582061214
746300000.0 -0.0718915575 0.0273814987
756250000.0 0.0177424458 0.0589897341
766200000.0 0.1054856051 -0.0003076865
776150000.0 0.1164131786 -0.1198905662
786100000.0 0.0220437249 -0.217970159
796050000.0 -0.1323324226 -0.2133018974
806000000.0 -0.2481230851 -0.0814247892
815950000.0 -0.2333508237 0.1165829915
825900000.0 -0.0676754691 0.2627213674
835850000.0 0.1732720702 0.2542852429
845800000.0 0.3571007443 0.0723877264
855750000.0 0.371377252 -0.2000031029
865700000.0 0.1914451902 -0.4218504346
875650000.0 -0.102084174 -0.4663259147
885600000.0 -0.35962182 -0.2944261427
895550000.0 -0.4361858935 0.0183797702
905500000.0 -0.2743384176 0.3102557256
915450000.0 0.0517031043 0.4146289732
925400000.0 0.3636285821 0.2601361806
935350000.0 0.4759459789 -0.0716585424
945300000.0 0.3194334377 -0.3848202745
955250000.0 -0.0206891137 -0.487611655
965200000.0 -0.3331340196 -0.296616189
975150000.0 -0.3897076084 0.0838897358
985100000.0 -0.1030817506 0.3782900936
995050000.0 0.3334880737 0.3039638108
1005000000.0 0.5218104947 -0.1390239117
1014950000.0 0.224696781 -0.5728166057
1024900000.0 -0.3551577792 -0.5585116772
1034850000.0 -0.6995932787 -0.014000958
1044800000.0 -0.4103813586 0.6365845785
1054750000.0 0.341896385 0.7586754441
1064700000.0 0.8655738784 0.1838959545
1074650000.0 0.7043255917 -0.5524666463
1084600000.0 0.0907289628 -0.8225060348
1094550000.0 -0.5447070049 -0.6354884312
1104500000.0 -0.7938418446 0.0106424179
1114450000.0 -0.4481696684 0.6073388769
1124400000.0 0.2189889011 0.6881827839
1134350000.0 0.6499205081 0.226259002
1144300000.0 0.5530773301 -0.3411131943
1154250000.0 0.0998264651 -0.598965032
1164200000.0 -0.3539613218 -0.4404328719
1174150000.0 -0.5357206275 -0.0178251356
1184100000.0 -0.3376262792 0.3984356246
1194050000.0 0.1065586159 0.5115435906
1204000000.0 0.4705229716 0.2510555769
1213950000.0 0.5228053363 -0.1763073658
1223900000.0 0.271056316 -0.5045805531
1233850000.0 -0.1249206166 -0.5782814204
1243800000.0 -0.4734518917 -0.3765145548
1253750000.0 -0.6104379058 0.0109714601
1263700000.0 -0.4540947543 0.4046133383
1273650000.0 -0.066491418 0.597989618
1283600000.0 0.3528596344 0.482248235
1293550000.0 0.5916241837 0.1265712762
1303500000.0 0.5548639666 -0.2886253016
1313450000.0 0.2827325435 -0.5882290245
1323400000.0 -0.1088108116 -0.668642577
1333350000.0 -0.4753186284 -0.5033598284
1343300000.0 -0.6764979302 -0.1424307644
1353250000.0 -0.6118260267 0.2794273709
1363200000.0 -0.2868413149 0.5748612678
1373150000.0 0.1554874431 0.5948530754
1383100000.0 0.5055237836 0.3340134508
1393050000.0 0.6172415867 -0.0736289586
1403000000.0 0.4690901744 -0.4522806185
1412950000.0 0.1381964113 -0.6657043937
1422900000.0 -0.2495693506 -0.6478225725
1432850000.0 -0.5533388899 -0.4056240747
1442800000.0 -0.6523651707 -0.0240098056
1452750000.0 -0.4927268826 0.3448904868
1462700000.0 -0.1316432867 0.5335516439
1472650000.0 0.2648606876 0.4494003763
1482600000.0 0.511965251 0.1391631496
1492550000.0 0.5087538599 -0.2437496284
1502500000.0 0.2780975885 -0.5300920881
1512450000.0 -0.0690009006 -0.6088957335
1522400000.0 -0.3843420167 -0.4572268328
1532350000.0 -0.5316133319 -0.1418994894
1542300000.0 -0.4402674003 0.1949088837
1552250000.0 -0.1495875125 0.3869764568
1562200000.0 0.1886426229 0.3352983653
1572150000.0 0.3983106687 0.0749824603
1582100000.0 0.3763922116 -0.2488261841
1592050000.0 0.1485681186 -0.4645802764
1602000000.0 -0.1591643394 -0.4713455505
1611950000.0 -0.3933134996 -0.2695474373
1621900000.0 -0.4341095446 0.0431913
1631850000.0 -0.2482941556 0.3099095388
1641800000.0 0.0786565907 0.3804552265
1651750000.0 0.3709442443 0.2022300509
1661700000.0 0.4614445669 -0.1309740982
1671650000.0 0.3019994139 -0.4371022245
1681600000.0 -0.0181425645 -0.5606029605
1691550000.0 -0.344221755 -0.4499954387
1701500000.0 -0.5332654883 -0.1558831014
1711450000.0 -0.5001044062 0.2022088162
1721400000.0 -0.2405520339 0.4723371317
1731350000.0 0.1447933096 0.5177802526
1741300000.0 0.4755456094 0.2978984986
1751250000.0 0.5852334585 -0.0865595087
1761200000.0 0.4276941555 -0.4466789219
1771150000.0 0.0908337837 -0.6268789101
1781100000.0 -0.2775831489 -0.5732053816
1791050000.0 -0.5446228987 -0.3213711385
1801000000.0 -0.6207491578 0.0396512806
1810950000.0 -0.4700772656 0.3855046931
1820900000.0 -0.1315991885 0.578464193
1830850000.0 0.2616905705 0.5167405168
1840800000.0 0.5270736656 0.2185218986
1850750000.0 0.5426935653 -0.1707830915
1860700000.0 0.3263399542 -0.471620622
1870650000.0 -0.0055442078 -0.579737223
1880600000.0 -0.3217993202 -0.485768424
1890550000.0 -0.523616291 -0.2425931955
1900500000.0 -0.5532463823 0.0645659376
1910450000.0 -0.4013015262 0.328570562
1920400000.0 -0.1248820211 0.4455965108
1930350000.0 0.1543191817 0.3653823056
1940300000.0 0.3081795916 0.139510322
1950250000.0 0.2864417102 -0.1076250361
1960200000.0 0.1365765662 -0.2637517903
1970150000.0 -0.0402366469 -0.2868544264
1980100000.0 -0.1586186383 -0.2290974221
1990050000.0 -0.2107796588 -0.1424963025
2000000000.0 -0.2030430206 -0.0833182229
