!Created with skrf (http://scikit-rf.org).
# GHz S RI R 50.0 
!freq ReS11 ImS11
10000000.0 -0.7400542582 0.6716557617
19950000.0 -0.1078987119 0.9801857816
29900000.0 0.5705799705 0.7957664133
39850000.0 0.9601183481 0.1986130702
49800000.0 0.8424502395 -0.5162521794
59750000.0 0.2567015928 -0.96387623
69700000.0 -0.486069285 -0.8748906108
79650000.0 -0.9540965787 -0.2771412748
89600000.0 -0.8479012381 0.4886210067
99550000.0 -0.1989355379 0.9441492907
109500000.0 0.5995226912 0.7508257472
119450000.0 0.9685285509 -0.021783505
129400000.0 0.5575056676 -0.806550074
139350000.0 -0.3351472885 -0.9225811803
149300000.0 -0.9322813476 -0.2552681818
159250000.0 -0.7345062081 0.5988826774
169200000.0 0.0525027595 0.9379548956
179150000.0 0.7832132998 0.5279529934
189100000.0 0.9145188836 -0.278400212
199050000.0 0.3953871868 -0.8762784922
209000000.0 -0.3684372951 -0.8804388131
218950000.0 -0.8730201954 -0.3465560301
228900000.0 -0.8499905033 0.3660697773
238850000.0 -0.3433741417 0.8518648683
248800000.0 0.4008965129 0.7623753608
258750000.0 0.83503049 0.4024012974
268700000.0 0.8858853361 -0.2866802219
278650000.0 0.4475360298 -0.8076365178
288600000.0 -0.2203801151 -0.8760388107
298550000.0 -0.7403814936 -0.4701505234
308500000.0 -0.8301786724 0.1748784754
318450000.0 -0.4438532909 0.6898824047
328400000.0 0.1858518961 0.7701288726
338350000.0 0.6581544245 0.3693735751
348300000.0 0.6661864705 -0.2228681441
358250000.0 0.2484360327 -0.5789559037
368200000.0 -0.2405036473 -0.4899638787
378150000.0 -0.4476238604 -0.1064388711
388100000.0 -0.2955995947 0.2366619758
398050000.0 0.0148464082 0.3112089936
408000000.0 0.2155436965 0.1423516024
417950000.0 0.1950612748 -0.0761945539
427900000.0 0.0378094669 -0.172053103
437850000.0 -0.1027956263 -0.1119858237
447800000.0 -0.1329092532 0.016595657
457750000.0 -0.0611068302 0.106482715
467700000.0 0.0377515686 0.1045194953
477650000.0 0.088330739 0.0392974199
487600000.0 0.0704980686 -0.0286514363
497550000.0 0.0290857015 -0.0194673919
507500000.0 -0.009504365 -0.0650552619
517450000.0 -0.0265551147 -0.0281119012
527400000.0 -0.0146509991 -0.0144138629
537350000.0 -0.0084803164 -0.0263976434
547300000.0 -0.0280559927 -0.0451079833
557250000.0 -0.0703830396 -0.03138255
567200000.0 -0.0951390098 0.0215800446
577150000.0 -0.0726491589 0.0861572082
587100000.0 0.0059844013 0.1223479328
597050000.0 0.0990042901 0.0976334938
607000000.0 0.1540263952 0.0018981712
616950000.0 0.1320882394 -0.1168948242
626900000.0 0.0310947951 -0.1940457365
636850000.0 -0.1019651256 -0.181576962
646800000.0 -0.1973944463 -0.081554699
656750000.0 -0.1967037866 0.0575878822
666700000.0 -0.101485527 0.1622520234
676650000.0 0.037925994 0.1727949437
686600000.0 0.1454312231 0.0846943143
696550000.0 0.1631663731 -0.0494683288
706500000.0 0.0861125165 -0.1506651178
716450000.0 -0.0326481764 -0.162647469
726400000.0 -0.1161558344 -0.0895267902
736350000.0 -0.1104985265 0.0146297107
746300000.0 -0.0268961034 0.0709528669
756250000.0 0.0686060487 0.0372622975
766200000.0 0.096125695 -0.063676637
776150000.0 0.0257144655 -0.1550214916
786100000.0 -0.1015343215 -0.1540821581
796050000.0 -0.1945675313 -0.042341194
806000000.0 -0.1678557646 0.123072854
815950000.0 -0.0135075574 0.2285281987
825900000.0 0.1927985046 0.1850254139
835850000.0 0.3176838973 -0.0066699517
845800000.0 0.2635376783 -0.2482625422
855750000.0 0.0432358105 -0.3749657801
865700000.0 -0.1934432561 -0.329517854
875650000.0 -0.3610727822 -0.127360932
885600000.0 -0.3405926568 0.1564992768
895550000.0 -0.1183476627 0.3548617936
905500000.0 0.1909846083 0.3385068437
915450000.0 0.4014556273 0.1019353663
925400000.0 0.3782022016 -0.2198055332
935350000.0 0.1233994239 -0.4251295923
945300000.0 -0.2098556458 -0.3714778335
955250000.0 -0.3882599144 -0.070289084
965200000.0 -0.252142484 0.2751585412
975150000.0 0.1393591368 0.3636016134
985100000.0 0.449795853 0.0530611639
995050000.0 0.3280888409 -0.4195343267
1005000000.0 -0.1955945052 -0.5701618393
1014950000.0 -0.64188812 -0.1567632927
1024900000.0 -0.5181132815 0.4988119254
1034850000.0 0.142820608 0.7658913308
1044800000.0 0.7480283347 0.3570936556
1054750000.0 0.7728904356 -0.3639297826
1064700000.0 0.2435041435 -0.7961910071
1074650000.0 -0.3895670485 -0.7287523154
1084600000.0 -0.7724836144 -0.2159007108
1094550000.0 -0.6559641492 0.4235648801
1104500000.0 -0.0945179121 0.7455999452
1114450000.0 0.4944904908 0.525807496
1124400000.0 0.6894475172 -0.0368916207
1134350000.0 0.4050663407 -0.5144626556
1144300000.0 -0.1052036875 -0.6060258569
1154250000.0 -0.4868337457 -0.300699682
1164200000.0 -0.5036973695 0.1656635128
1174150000.0 -0.1661606209 0.4660348379
1184100000.0 0.2635786599 0.3964254063
1194050000.0 0.4760393782 0.0338230616
1204000000.0 0.3453696507 -0.3474767587
1213950000.0 -0.0105800973 -0.5093739895
1223900000.0 -0.3693720183 -0.3704236064
1233850000.0 -0.5297688667 -0.0222668695
1243800000.0 -0.4022757489 0.3451691438
1253750000.0 -0.0526168609 0.5273323179
1263700000.0 0.3293437712 0.4200678275
1273650000.0 0.5413644878 0.0853361598
1283600000.0 0.4833464138 -0.3025938331
1293550000.0 0.1980819599 -0.5625873658
1303500000.0 -0.1864367567 -0.5868970985
1313450000.0 -0.5045433392 -0.368511
1323400000.0 -0.6226109648 0.0078903053
1333350000.0 -0.4735836248 0.3822234093
1343300000.0 -0.1137137838 0.5806407992
1353250000.0 0.2942592285 0.5012377317
1363200000.0 0.5585180175 0.1832972902
1373150000.0 0.5645864066 -0.2218964761
1383100000.0 0.3267768666 -0.5379976673
1393050000.0 -0.0472325121 -0.6439956913
1403000000.0 -0.4065583963 -0.5043913347
1412950000.0 -0.6079114715 -0.1763475788
1422900000.0 -0.564995729 0.2089305001
1432850000.0 -0.2884464827 0.4847924754
1442800000.0 0.0978093603 0.5278792516
1452750000.0 0.4211954886 0.323558102
1462700000.0 0.546373748 -0.0313764762
1472650000.0 0.4276183852 -0.3815217267
1482600000.0 0.1239022707 -0.5782223559
1492550000.0 -0.2301128577 -0.5452267474
1502500000.0 -0.4859037202 -0.2996168395
1512450000.0 -0.5284226857 0.0532227982
1522400000.0 -0.3327569506 0.3533329394
1532350000.0 0.0128222363 0.4504094926
1542300000.0 0.3314095039 0.2953420025
1552250000.0 0.4622635482 -0.0228388351
1562200000.0 0.3526439873 -0.337798512
1572150000.0 0.0710129863 -0.4955948392
1582100000.0 -0.237590434 -0.4306594811
1592050000.0 -0.4243577564 -0.1800432292
1602000000.0 -0.3950888374 0.1343128959
1611950000.0 -0.1590217214 0.3455191686
1621900000.0 0.1600117412 0.3346881177
1631850000.0 0.3798133112 0.1048096742
1641800000.0 0.379190203 -0.2089629679
1651750000.0 0.1666658578 -0.4324301971
1661700000.0 -0.1406909828 -0.4557915286
1671650000.0 -0.3891049291 -0.2688178982
1681600000.0 -0.4539043173 0.0410139447
1691550000.0 -0.2936202158 0.3249372433
1701500000.0 0.026009342 0.4319550795
1711450000.0 0.3359520889 0.2929609312
1721400000.0 0.4657343236 -0.014100864
1731350000.0 0.3761248338 -0.3135283124
1741300000.0 0.127756393 -0.5148203202
1751250000.0 -0.2111028694 -0.512245547
1761200000.0 -0.4760623681 -0.2922548814
1771150000.0 -0.5507188518 0.0514824338
1781100000.0 -0.3928591545 0.3743262011
1791050000.0 -0.0605464155 0.5289361243
1801000000.0 0.3002981554 0.4329554197
1810950000.0 0.5142034028 0.1265709013
1820900000.0 0.4844002043 -0.2386428405
1830850000.0 0.2389761953 -0.4962412217
1840800000.0 -0.1022265436 -0.549144307
1850750000.0 -0.3991622786 -0.3924144399
1860700000.0 -0.5436418009 -0.0958044481
1870650000.0 -0.4829879739 0.2240672256
1880600000.0 -0.2402346748 0.4391144168
1890550000.0 0.0807351786 0.4593570954
1900500000.0 0.3365675136 0.2774851605
1910450000.0 0.4162481419 -0.0126841598
1920400000.0 0.304789737 -0.2768589979
1930350000.0 0.0713839029 -0.4085706025
1940300000.0 -0.1740848212 -0.3750535121
1950250000.0 -0.3359134886 -0.2126267397
1960200000.0 -0.3607445865 -0.0042070984
1970150000.0 -0.2603778388 0.1547014231
1980100000.0 -0.1054933026 0.200758289
1990050000.0 0.0130400207 0.1380851626
2000000000.0 0.0339452447 0.043243986
