!Created with skrf (http://scikit-rf.org).
# GHz S RI R 50.0 
!freq ReS11 ImS11
10000000.0 -0.7866393333 0.6011687491
19950000.0 -0.2768581616 0.9428208883
29900000.0 0.3346198688 0.921463999
39850000.0 0.8213494671 0.5392984908
49800000.0 0.9849583327 -0.0707853491
59750000.0 0.7340735407 -0.66833817
69700000.0 0.1476550138 -0.982466308
79650000.0 -0.5199885686 -0.8387033302
89600000.0 -0.9365472306 -0.2730763919
99550000.0 -0.8578755085 0.4479146481
109500000.0 -0.2783311774 0.9272631058
119450000.0 0.4995856534 0.8367643237
129400000.0 0.9634410023 0.1626944099
139350000.0 0.751845284 -0.6246997939
149300000.0 0.0031425745 -0.9646874174
159250000.0 -0.7195700421 -0.6213029818
169200000.0 -0.938079699 0.1166925316
179150000.0 -0.5713404256 0.7573882769
189100000.0 0.1111106764 0.9475726596
199050000.0 0.7161083582 0.6310304017
209000000.0 0.9480428469 0.0103315562
218950000.0 0.7301063546 -0.5894561736
228900000.0 0.194464405 -0.9086159037
238850000.0 -0.4156831038 -0.8237590731
248800000.0 -0.7073327319 -0.464928824
258750000.0 -0.9072964313 0.1721748978
268700000.0 -0.6121579486 0.6937658236
278650000.0 -0.0628382152 0.9171562526
288600000.0 0.5026209055 0.7503864908
298550000.0 0.8365736186 0.2687076962
308500000.0 0.7913381729 -0.3126469795
318450000.0 0.3872598296 -0.7242219385
328400000.0 -0.1782445888 -0.7689803363
338350000.0 -0.6137677186 -0.4294005222
348300000.0 -0.6877651368 0.0930240801
358250000.0 -0.3899887629 0.4842294793
368200000.0 0.0521924687 0.5338375253
378150000.0 0.3505330755 0.2792090258
388100000.0 0.3639910041 -0.0587790236
398050000.0 0.1599998034 -0.259994188
408000000.0 -0.0794896244 -0.2463518345
417950000.0 -0.2046043758 -0.0906599358
427900000.0 -0.1795410994 0.076433563
437850000.0 -0.0608225776 0.1578690844
447800000.0 0.061311474 0.1311208327
457750000.0 0.1177647825 0.0402520333
467700000.0 0.0967701244 -0.047942042
477650000.0 0.0344635857 -0.0874315459
487600000.0 -0.0171134798 -0.0687838889
497550000.0 -0.0685545051 -0.0781037521
507500000.0 -0.0578706025 -0.0109296725
517450000.0 -0.0309683458 0.0030137636
527400000.0 -0.0178726558 -0.0094387915
537350000.0 -0.0304844526 -0.0256972695
547300000.0 -0.0640974362 -0.01917349
557250000.0 -0.0831139304 0.0227731877
567200000.0 -0.0657771786 0.0763964707
577150000.0 -0.0086567481 0.1124739094
587100000.0 0.0699129145 0.103419238
597050000.0 0.1339487634 0.0411248219
607000000.0 0.149137493 -0.0553529344
616950000.0 0.1004582126 -0.14656879
626900000.0 0.0044967127 -0.1919552937
636850000.0 -0.1015444158 -0.1686128268
646800000.0 -0.1717426975 -0.084619716
656750000.0 -0.1760156087 0.0251746559
666700000.0 -0.1111139878 0.1144747859
676650000.0 -0.0064414981 0.1429499646
686600000.0 0.0892374327 0.1000451195
696550000.0 0.1326965235 0.0105521031
706500000.0 0.1080019981 -0.0781540691
716450000.0 0.0334862563 -0.1204878215
726400000.0 -0.0446742766 -0.0959696823
736350000.0 -0.0769760605 -0.019558091
746300000.0 -0.0378071031 0.0607949416
756250000.0 0.0552577718 0.0885637552
766200000.0 0.1489619551 0.0365915692
776150000.0 0.1822642353 -0.0774611511
786100000.0 0.1211884672 -0.19523023
796050000.0 -0.0193231436 -0.2473403597
806000000.0 -0.1798468898 -0.1869212612
815950000.0 -0.2748249162 -0.0206694497
825900000.0 -0.2421085177 0.1857139929
835850000.0 -0.0792808896 0.3374876124
845800000.0 0.1530608365 0.3580213565
855750000.0 0.3570727803 0.2271122277
865700000.0 0.4403116394 -0.0117951692
875650000.0 0.3527702285 -0.2562226413
885600000.0 0.1328145867 -0.3958193055
895550000.0 -0.1357766289 -0.3789299034
905500000.0 -0.3472662545 -0.1921885974
915450000.0 -0.3915052623 0.0931959923
925400000.0 -0.2402135039 0.3403361046
935350000.0 0.0332507894 0.4281458741
945300000.0 0.2974221787 0.3024646681
955250000.0 0.3994042182 0.0158757592
965200000.0 0.2481642248 -0.2722877436
975150000.0 -0.0995011538 -0.3501885385
985100000.0 -0.4006248988 -0.0977772521
995050000.0 -0.3732838326 0.3319981362
1005000000.0 0.0234197279 0.5916423477
1014950000.0 0.5195925991 0.4146538833
1024900000.0 0.7054267203 -0.1401007913
1034850000.0 0.3583010541 -0.676530695
1044800000.0 -0.3086494277 -0.7434998115
1054750000.0 -0.7726718427 -0.2689433236
1064700000.0 -0.7651180134 0.3101340763
1074650000.0 -0.3670535894 0.7567381073
1084600000.0 0.2109515194 0.7998359363
1094550000.0 0.6681143102 0.4249395269
1104500000.0 0.721976495 -0.1666556059
1114450000.0 0.332858146 -0.6054696777
1124400000.0 -0.2245532266 -0.6131621053
1134350000.0 -0.5769652781 -0.2396519776
1144300000.0 -0.5548110237 0.2289423639
1154250000.0 -0.23112188 0.5198193572
1164200000.0 0.1799739591 0.4980770389
1174150000.0 0.4526072278 0.2041357479
1184100000.0 0.4404727519 -0.1974077402
1194050000.0 0.1554113147 -0.469540843
1204000000.0 -0.2225783448 -0.475078581
1213950000.0 -0.5003914964 -0.2459058221
1223900000.0 -0.5753440116 0.0930316891
1233850000.0 -0.434836187 0.4057571499
1243800000.0 -0.1326262457 0.5766457159
1253750000.0 0.2224433004 0.5364159245
1263700000.0 0.4930136615 0.2863908655
1273650000.0 0.5651006755 -0.0798716744
1283600000.0 0.4138439117 -0.4170186595
1293550000.0 0.1095038251 -0.6047178318
1303500000.0 -0.2342758775 -0.5972042888
1313450000.0 -0.5137207578 -0.4140522013
1323400000.0 -0.6557043953 -0.1145099648
1333350000.0 -0.6199079258 0.2203430216
1343300000.0 -0.4037949081 0.4947878913
1353250000.0 -0.0588649653 0.6107258595
1363200000.0 0.3010466704 0.5111274635
1373150000.0 0.5446289922 0.2272951819
1383100000.0 0.5892203665 -0.134026653
1393050000.0 0.4394171785 -0.4469519237
1403000000.0 0.1613987355 -0.6247195076
1412950000.0 -0.1567664432 -0.6309263926
1422900000.0 -0.4276894541 -0.4727317941
1432850000.0 -0.5754161355 -0.192353254
1442800000.0 -0.5500530304 0.1313091498
1452750000.0 -0.3479468627 0.3954356675
1462700000.0 -0.0294846199 0.505179838
1472650000.0 0.2932543406 0.4185716688
1482600000.0 0.5021455216 0.1727844134
1492550000.0 0.5342702439 -0.1319973161
1502500000.0 0.3963672645 -0.3884153065
1512450000.0 0.1472555603 -0.5183106539
1522400000.0 -0.1301837543 -0.4828344216
1532350000.0 -0.3378982427 -0.2887102221
1542300000.0 -0.3890273374 -0.0018248972
1552250000.0 -0.2527558138 0.2561166964
1562200000.0 0.0066526467 0.3699447635
1572150000.0 0.2668005165 0.3009871299
1582100000.0 0.4197025758 0.0971657059
1592050000.0 0.4156519825 -0.1497451348
1602000000.0 0.259027713 -0.3433425422
1611950000.0 0.0074473542 -0.4012234489
1621900000.0 -0.2373627821 -0.2854519733
1631850000.0 -0.3624204724 -0.0325832272
1641800000.0 -0.3031427413 0.2494041911
1651750000.0 -0.0837734794 0.4358009383
1661700000.0 0.2006292743 0.4517508873
1671650000.0 0.4365489211 0.2980250892
1681600000.0 0.54169271 0.0374574962
1691550000.0 0.4825547039 -0.2434121488
1701500000.0 0.2693924459 -0.4528452607
1711450000.0 -0.039404127 -0.5102719057
1721400000.0 -0.3392654918 -0.3749739861
1731350000.0 -0.5099046438 -0.0872342557
1741300000.0 -0.48703416 0.2414073488
1751250000.0 -0.2947239147 0.4930987789
1761200000.0 -0.0099477469 0.6009004538
1771150000.0 0.2825072859 0.5484934411
1781100000.0 0.5062193637 0.3562133698
1791050000.0 0.6029114392 0.0717936173
1801000000.0 0.5360585043 -0.2322154219
1810950000.0 0.3095374574 -0.4635281323
1820900000.0 -0.0145064201 -0.5353381914
1830850000.0 -0.3229882581 -0.4149924486
1840800000.0 -0.5090757409 -0.1529242615
1850750000.0 -0.5260405622 0.1503876406
1860700000.0 -0.3937167536 0.4009557395
1870650000.0 -0.1680312216 0.5408807886
1880600000.0 0.0849079923 0.5470973071
1890550000.0 0.2999546324 0.4267167154
1900500000.0 0.4199225579 0.2149548951
1910450000.0 0.4092782291 -0.0274339472
1920400000.0 0.2717109234 -0.2207285634
1930350000.0 0.0622847603 -0.3004978099
1940300000.0 -0.1341352181 -0.2571835035
1950250000.0 -0.2520117595 -0.1360840217
1960200000.0 -0.2786322668 -0.006190356
1970150000.0 -0.2430619741 0.0810632131
1980100000.0 -0.1950782385 0.1064677743
1990050000.0 -0.1873177513 0.0950271773
2000000000.0 -0.2356506233 0.1095963988
