!Created with skrf (http://scikit-rf.org).
# GHz S RI R 50.0 
!freq ReS11 ImS11
10000000.0 -0.797249964 0.5984758713
19950000.0 -0.2897317697 0.9349404252
29900000.0 0.3158149329 0.909455844
39850000.0 0.7989378023 0.5294026176
49800000.0 0.9677815613 -0.0766827222
59750000.0 0.7279524831 -0.6782580522
69700000.0 0.1477989064 -1.003760505
79650000.0 -0.520050556 -0.8679595554
89600000.0 -0.93857373 -0.305168472
99550000.0 -0.8674637708 0.4159485628
109500000.0 -0.3012835178 0.9090256403
119450000.0 0.4809943727 0.8509775039
129400000.0 0.9741842588 0.2215049534
139350000.0 0.8074793948 -0.6151404675
149300000.0 0.0587459549 -0.9896253486
159250000.0 -0.6849283266 -0.6615267887
169200000.0 -0.9286040312 0.0793623826
179150000.0 -0.5826226637 0.7397236952
189100000.0 0.0976623448 0.9573963783
199050000.0 0.7167525058 0.6547161479
209000000.0 0.9608117755 0.0303596681
218950000.0 0.7450500679 -0.574591357
228900000.0 0.209095583 -0.8941516995
238850000.0 -0.4013206308 -0.8094842949
248800000.0 -0.634055836 -0.4564200346
258750000.0 -0.9019001586 0.1825057033
268700000.0 -0.6112938542 0.7122859891
278650000.0 -0.062078631 0.9386878033
288600000.0 0.5001056793 0.7687661133
298550000.0 0.8289963202 0.2866660232
308500000.0 0.7863007285 -0.2935998914
318450000.0 0.3907260459 -0.7148543944
328400000.0 -0.1767049635 -0.7800658103
338350000.0 -0.6319048573 -0.4540864013
348300000.0 -0.7270567106 0.0748664294
358250000.0 -0.4370763868 0.4848704668
368200000.0 0.0124092895 0.55304958
378150000.0 0.3311051587 0.3081997921
388100000.0 0.3682990973 -0.0361647656
398050000.0 0.1793709424 -0.2561143363
408000000.0 -0.0591696799 -0.2607107191
417950000.0 -0.1908462411 -0.1148268046
427900000.0 -0.1720252227 0.0466799208
437850000.0 -0.0592548868 0.1252835477
447800000.0 0.0546839231 0.0990205028
457750000.0 0.1059516349 0.013053402
467700000.0 0.0823169988 -0.067487772
477650000.0 0.0197668641 -0.0956592663
487600000.0 -0.0288443032 -0.0632308294
497550000.0 -0.037461809 -0.0953756129
507500000.0 -0.0406450961 0.0032298018
517450000.0 -0.0018096456 0.0177566208
527400000.0 0.0192653792 -0.0005933547
537350000.0 0.0088818762 -0.0240495909
547300000.0 -0.0317826011 -0.0284303223
557250000.0 -0.0641021176 0.01192865
567200000.0 -0.0604361127 0.0692800573
577150000.0 -0.0142644035 0.1137049492
587100000.0 0.0604484976 0.1159047007
597050000.0 0.1246744539 0.0610333189
607000000.0 0.1416753208 -0.0299601893
616950000.0 0.0969330403 -0.1209316756
626900000.0 0.0045857444 -0.1684522372
636850000.0 -0.1019073662 -0.149908171
646800000.0 -0.1731466513 -0.0704658139
656750000.0 -0.1811759443 0.0368093089
666700000.0 -0.1207745735 0.1240746644
676650000.0 -0.0197120422 0.1518098075
686600000.0 0.0759274364 0.1099062444
696550000.0 0.1209096842 0.0158434734
706500000.0 0.0972476875 -0.0808207969
716450000.0 0.0213553034 -0.1314471352
726400000.0 -0.0623554754 -0.114245605
736350000.0 -0.1009986003 -0.0405591059
746300000.0 -0.0676036911 0.0419610615
756250000.0 0.0243335351 0.0780357504
766200000.0 0.1240606461 0.0364324041
776150000.0 0.1703027424 -0.0709817784
786100000.0 0.1245876029 -0.1889050863
796050000.0 -0.0032846325 -0.2469843534
806000000.0 -0.155138097 -0.1954680759
815950000.0 -0.2482634272 -0.0391356136
825900000.0 -0.220147601 0.1592865361
835850000.0 -0.0658322678 0.3088058642
845800000.0 0.1585234828 0.3327442331
855750000.0 0.3568989236 0.2083340713
865700000.0 0.4400793866 -0.0220755641
875650000.0 0.3603052387 -0.262349896
885600000.0 0.1361448142 -0.408357503
895550000.0 -0.1420410136 -0.3804641557
905500000.0 -0.348741514 -0.1761254802
915450000.0 -0.3852130148 0.1103427385
925400000.0 -0.24126894 0.3619228554
935350000.0 0.0340531878 0.464077639
945300000.0 0.3105349724 0.3535066504
955250000.0 0.4370186337 0.0674836576
965200000.0 0.3204828882 -0.243081906
975150000.0 -0.0087337492 -0.3841723966
985100000.0 -0.3615177939 -0.2169798859
995050000.0 -0.4583704212 0.1956379504
1005000000.0 -0.1670677205 0.5525576376
1014950000.0 0.3385287772 0.5324241343
1024900000.0 0.6634612051 0.0749926709
1034850000.0 0.4919118399 -0.5209308319
1044800000.0 -0.1294370755 -0.766966248
1054750000.0 -0.7050958118 -0.3923558903
1064700000.0 -0.774101929 0.1765297392
1074650000.0 -0.4193688692 0.6906869417
1084600000.0 -0.0109215796 0.7145159465
1094550000.0 0.555762375 0.5621652606
1104500000.0 0.7663150489 -0.0288655866
1114450000.0 0.4682719434 -0.577643465
1124400000.0 -0.1188461862 -0.7098044184
1134350000.0 -0.5689418763 -0.3757215528
1144300000.0 -0.6211853102 0.1347449437
1154250000.0 -0.320203684 0.4966536676
1164200000.0 0.1152790633 0.5393516697
1174150000.0 0.4472936427 0.2813256628
1184100000.0 0.5022631892 -0.1352611097
1194050000.0 0.2452722642 -0.4590351088
1204000000.0 -0.1478696695 -0.5051457899
1213950000.0 -0.4556525086 -0.2898593484
1223900000.0 -0.555669301 0.056272301
1233850000.0 -0.4305824034 0.3839725609
1243800000.0 -0.1341144129 0.572603452
1253750000.0 0.2256651305 0.5437202668
1263700000.0 0.502426243 0.2943915534
1273650000.0 0.5727151038 -0.0772901566
1283600000.0 0.4110986947 -0.4131331956
1293550000.0 0.0987209836 -0.5907656547
1303500000.0 -0.2449563317 -0.5703717286
1313450000.0 -0.5175367686 -0.3778429375
1323400000.0 -0.6512993012 -0.0729945917
1333350000.0 -0.6067964689 0.2644700302
1343300000.0 -0.3774598177 0.533675964
1353250000.0 -0.0215487237 0.6290341986
1363200000.0 0.3355643837 0.4976991659
1373150000.0 0.5552304815 0.1865964835
1383100000.0 0.5668683111 -0.1826877723
1393050000.0 0.3894766142 -0.4864405101
1403000000.0 0.0957439104 -0.645439811
1412950000.0 -0.2247437469 -0.6276919371
1422900000.0 -0.4836400752 -0.4454689895
1432850000.0 -0.6073213348 -0.1486570951
1442800000.0 -0.5526087757 0.1775280816
1452750000.0 -0.3251269823 0.4294329953
1462700000.0 0.0091289417 0.5173966996
1472650000.0 0.334606842 0.4072932682
1482600000.0 0.5384470831 0.1430318562
1492550000.0 0.5609449274 -0.1769242552
1502500000.0 0.4080355997 -0.4453790347
1512450000.0 0.1369756888 -0.5786693137
1522400000.0 -0.1613568491 -0.5316152728
1532350000.0 -0.3797580809 -0.3142051399
1542300000.0 -0.4315575353 -0.002781395
1552250000.0 -0.2895585261 0.2808805847
1562200000.0 -0.013417547 0.4205248827
1572150000.0 0.2770727823 0.3687670482
1582100000.0 0.4669601894 0.1615034638
1592050000.0 0.4882438325 -0.1102461733
1602000000.0 0.3384346539 -0.3363900234
1611950000.0 0.0752011813 -0.426615164
1621900000.0 -0.1984218946 -0.3370371936
1631850000.0 -0.367156119 -0.0925923384
1641800000.0 -0.3517758622 0.2085861694
1651750000.0 -0.1535209015 0.4340896045
1661700000.0 0.1367664222 0.4866221112
1671650000.0 0.3950982125 0.3530391979
1681600000.0 0.5234345421 0.0934316913
1691550000.0 0.4776628784 -0.1960842494
1701500000.0 0.2713653668 -0.4078869039
1711450000.0 -0.0053641196 -0.4648411414
1721400000.0 -0.2866337964 -0.3910527302
1731350000.0 -0.5017473359 -0.1388022726
1741300000.0 -0.5205582957 0.2013088158
1751250000.0 -0.3394920955 0.4809795173
1761200000.0 -0.0409149219 0.6037519342
1771150000.0 0.2688168706 0.5449948771
1781100000.0 0.4987080431 0.3364016775
1791050000.0 0.5908458129 0.038876015
1801000000.0 0.5162230193 -0.270713404
1810950000.0 0.2833986339 -0.5015902673
1820900000.0 -0.045906178 -0.5666428241
1830850000.0 -0.3585154784 -0.4302477436
1840800000.0 -0.5375014376 -0.145268657
1850750000.0 -0.5323881048 0.1756380897
1860700000.0 -0.3712364935 0.4290103847
1870650000.0 -0.1212592104 0.5583844707
1880600000.0 0.1454327634 0.5463745918
1890550000.0 0.362450213 0.4052603523
1900500000.0 0.4744035603 0.1708472986
1910450000.0 0.4447566073 -0.0889748894
1920400000.0 0.2787264501 -0.2887593255
1930350000.0 0.0388688487 -0.3581303277
1940300000.0 -0.1833789715 -0.2873246845
1950250000.0 -0.3183073827 -0.128745487
1960200000.0 -0.3441925817 0.0486741957
1970150000.0 -0.2839753684 0.1851358371
1980100000.0 -0.1833133493 0.2476135423
1990050000.0 -0.0978944577 0.2376884693
2000000000.0 -0.0691764396 0.1955771666
