!Created with skrf (http://scikit-rf.org).
# GHz S RI R 50.0 
!freq ReS11 ImS11
10000000.0 -0.7930538352 0.6008067086
19950000.0 -0.2826985583 0.9407192148
29900000.0 0.3275352477 0.918253436
39850000.0 0.8139693908 0.5378998909
49800000.0 0.9813607838 -0.0695001697
59750000.0 0.7375636271 -0.6686480764
69700000.0 0.1555364119 -0.9898670622
79650000.0 -0.5133900898 -0.8540723562
89600000.0 -0.9360767786 -0.2936900489
99550000.0 -0.8680871618 0.4267709833
109500000.0 -0.3005676022 0.9168575651
119450000.0 0.4780924773 0.8502554931
129400000.0 0.9679139036 0.2009220838
139350000.0 0.7836291765 -0.60685074
149300000.0 0.0406234675 -0.9736973136
159250000.0 -0.6978028809 -0.6479371557
169200000.0 -0.9372097626 0.0900160247
179150000.0 -0.5840518659 0.7444454917
189100000.0 0.0989056774 0.9519625505
199050000.0 0.7140702489 0.6442513973
209000000.0 0.9547603404 0.0218444982
218950000.0 0.7380670273 -0.5827748623
228900000.0 0.1988022688 -0.9039124662
238850000.0 -0.4173142022 -0.815176636
248800000.0 -0.6625936434 -0.4937713587
258750000.0 -0.9079596084 0.1694834341
268700000.0 -0.6163752663 0.6973992838
278650000.0 -0.0671979411 0.9243199007
288600000.0 0.4982827363 0.7594810552
298550000.0 0.8340640048 0.2804471056
308500000.0 0.7946060516 -0.3001991563
318450000.0 0.3978020878 -0.7183122568
328400000.0 -0.1677500189 -0.776250515
338350000.0 -0.6137738711 -0.4493028771
348300000.0 -0.7060655565 0.0710544824
358250000.0 -0.4242716607 0.475155385
368200000.0 0.01745833 0.5465901401
378150000.0 0.3333079867 0.3078979759
388100000.0 0.3699834115 -0.0313709285
398050000.0 0.1812763852 -0.2478500927
408000000.0 -0.0561370115 -0.2525312762
417950000.0 -0.1891422587 -0.1088783771
427900000.0 -0.17390337 0.0532791268
437850000.0 -0.0637100555 0.1348894742
447800000.0 0.0518024871 0.1134100529
457750000.0 0.1065177789 0.028540237
467700000.0 0.0842242099 -0.0549254903
477650000.0 0.0205681594 -0.0867784114
487600000.0 -0.0303348944 -0.054579352
497550000.0 -0.0482763031 -0.0977879071
507500000.0 -0.0571614422 -0.0041957087
517450000.0 -0.0236283696 0.0155325812
527400000.0 -0.0017407911 0.0030623827
537350000.0 -0.0070923121 -0.0198222542
547300000.0 -0.0438108436 -0.0237717725
557250000.0 -0.0683503344 0.0129331819
567200000.0 -0.0598868028 0.0633848204
577150000.0 -0.0124398202 0.1017946892
587100000.0 0.0578510894 0.0992264786
597050000.0 0.1187851342 0.0463893514
607000000.0 0.1350992655 -0.0415157732
616950000.0 0.0918389038 -0.1270957395
626900000.0 0.0022394419 -0.1709268138
636850000.0 -0.0973301668 -0.1508463638
646800000.0 -0.1639205095 -0.0722443979
656750000.0 -0.1679490343 0.0308412964
666700000.0 -0.1055179073 0.1133378117
676650000.0 -0.0048717141 0.1384396712
686600000.0 0.087353633 0.0932329899
696550000.0 0.1280767534 0.0016487561
706500000.0 0.0991495159 -0.0888919
716450000.0 0.0201044616 -0.1321667171
726400000.0 -0.0629872557 -0.105036354
736350000.0 -0.097985646 -0.0239707971
746300000.0 -0.0600131861 0.0626561619
756250000.0 0.037892032 0.0999446308
766200000.0 0.1423022595 0.0546462529
776150000.0 0.1906626182 -0.0599312689
786100000.0 0.1430866051 -0.1877983694
796050000.0 0.0076690913 -0.2550748998
806000000.0 -0.1558602774 -0.2106342776
815950000.0 -0.2637596117 -0.0553298888
825900000.0 -0.2492292097 0.1505883387
835850000.0 -0.1016928767 0.3147647016
845800000.0 0.1249113106 0.3547060185
855750000.0 0.3357848043 0.2437991786
865700000.0 0.4380594925 0.0194236832
875650000.0 0.3775442783 -0.230914861
885600000.0 0.1652906978 -0.3959148228
895550000.0 -0.1156237666 -0.3932102262
905500000.0 -0.3416970178 -0.209843755
915450000.0 -0.4020482434 0.0831308648
925400000.0 -0.2572795811 0.3479111557
935350000.0 0.0270854151 0.4502258464
945300000.0 0.3087532463 0.3288899292
955250000.0 0.4279470423 0.0311240349
965200000.0 0.28054755 -0.2829542058
975150000.0 -0.0872154077 -0.3844585233
985100000.0 -0.4229772709 -0.1285291291
995050000.0 -0.4044816472 0.3287288203
1005000000.0 0.0047708443 0.5800265117
1014950000.0 0.4443328179 0.4040053875
1024900000.0 0.6399537904 -0.0397918289
1034850000.0 0.4245009377 -0.5744970054
1044800000.0 -0.2086836191 -0.7538000494
1054750000.0 -0.7408636146 -0.3290499537
1064700000.0 -0.7461128785 0.2385767972
1074650000.0 -0.3910790149 0.6759221098
1084600000.0 0.116245229 0.7922546184
1094550000.0 0.6164495842 0.4764657939
1104500000.0 0.7287928754 -0.1074611333
1114450000.0 0.3808789735 -0.5808240989
1124400000.0 -0.1752914091 -0.6364803559
1134350000.0 -0.5584813197 -0.2927492923
1144300000.0 -0.57460392 0.1760298199
1154250000.0 -0.2803534854 0.4928040966
1164200000.0 0.1236896397 0.5140987249
1174150000.0 0.426186385 0.2648321664
1184100000.0 0.4732346364 -0.1311308351
1194050000.0 0.2273556906 -0.4419592476
1204000000.0 -0.1502294869 -0.4966292391
1213950000.0 -0.4562589028 -0.3001752517
1223900000.0 -0.5694446204 0.029866153
1233850000.0 -0.4652935351 0.354935734
1243800000.0 -0.1879495085 0.5585204727
1253750000.0 0.1664212237 0.5600257062
1263700000.0 0.4617320143 0.3426221628
1273650000.0 0.5710782414 -0.0136856977
1283600000.0 0.4521771713 -0.3646970787
1293550000.0 0.1633152482 -0.5797157117
1303500000.0 -0.1820681056 -0.6009773361
1313450000.0 -0.4764342574 -0.441552437
1323400000.0 -0.643088061 -0.1560773384
1333350000.0 -0.6369120927 0.179112715
1343300000.0 -0.4459958713 0.4703195448
1353250000.0 -0.11260361 0.6132695986
1363200000.0 0.2545166709 0.5422358511
1373150000.0 0.5202292981 0.2756667557
1383100000.0 0.5914699659 -0.085072492
1393050000.0 0.463269118 -0.4116179231
1403000000.0 0.1957878643 -0.6111855743
1412950000.0 -0.123051221 -0.6401993953
1422900000.0 -0.4035962558 -0.5012130898
1432850000.0 -0.568814509 -0.234524996
1442800000.0 -0.5664409512 0.0835742539
1452750000.0 -0.3928433521 0.3580212475
1462700000.0 -0.0921208538 0.4992664306
1472650000.0 0.2381232914 0.4520264095
1482600000.0 0.4810874076 0.234454181
1492550000.0 0.5585428934 -0.0692322636
1502500000.0 0.4591462882 -0.3519466604
1512450000.0 0.226034442 -0.5260691407
1522400000.0 -0.0629330686 -0.5374449908
1532350000.0 -0.3083974649 -0.3781782881
1542300000.0 -0.4172402704 -0.0993223829
1552250000.0 -0.3383155275 0.1925339493
1562200000.0 -0.1038657729 0.3733547093
1572150000.0 0.1781775905 0.376220103
1582100000.0 0.393463819 0.2159158088
1592050000.0 0.4619022075 -0.0324631115
1602000000.0 0.3658058797 -0.2660483681
1611950000.0 0.1439279855 -0.3944907637
1621900000.0 -0.1198954508 -0.361658774
1631850000.0 -0.3169147519 -0.1664718231
1641800000.0 -0.3516869207 0.1175539112
1651750000.0 -0.2012818396 0.3621327474
1661700000.0 0.0636775882 0.4592318852
1671650000.0 0.3276121757 0.3784814413
1681600000.0 0.4929015313 0.1600436001
1691550000.0 0.5040453378 -0.1187292868
1701500000.0 0.350659575 -0.3634284966
1711450000.0 0.0730062916 -0.484811416
1721400000.0 -0.2393628446 -0.4220763598
1731350000.0 -0.4632552219 -0.1826471062
1741300000.0 -0.5068824699 0.1428937639
1751250000.0 -0.3593876003 0.4284461948
1761200000.0 -0.0872753734 0.5782742775
1771150000.0 0.2131036167 0.5584450886
1781100000.0 0.4552792876 0.3873115885
1791050000.0 0.5743736024 0.114173062
1801000000.0 0.5309567145 -0.1893615727
1810950000.0 0.3210030744 -0.4241541941
1820900000.0 0.0234181065 -0.4876495784
1830850000.0 -0.2349761864 -0.4187916466
1840800000.0 -0.4614516557 -0.2179493802
1850750000.0 -0.5240734047 0.0851785198
1860700000.0 -0.413741042 0.3548187682
1870650000.0 -0.1976847397 0.5084174105
1880600000.0 0.0437744216 0.5411038686
1890550000.0 0.2697991924 0.4470985088
1900500000.0 0.4118154363 0.2487774236
1910450000.0 0.4262189789 0.0064613226
1920400000.0 0.3080778813 -0.2028730695
1930350000.0 0.1018272908 -0.3083062069
1940300000.0 -0.1098134609 -0.2835220648
1950250000.0 -0.2547815108 -0.1661867476
1960200000.0 -0.3044385887 -0.0206070555
1970150000.0 -0.2770989842 0.0954772304
1980100000.0 -0.2181310911 0.1513824198
1990050000.0 -0.181855577 0.1565106106
2000000000.0 -0.1972837693 0.1718733286
