!Created with skrf (http://scikit-rf.org).
# GHz S RI R 50.0 
!freq ReS11 ImS11
10000000.0 -0.7982376182 0.602800404
19950000.0 -0.2879604501 0.9462570025
29900000.0 0.3239589125 0.9291368376
39850000.0 0.8148845489 0.5544787197
49800000.0 0.9906461094 -0.0492611755
59750000.0 0.7586345078 -0.6500318078
69700000.0 0.188254181 -0.9835107229
79650000.0 -0.4802197395 -0.8712366542
89600000.0 -0.9235475581 -0.3351964214
99550000.0 -0.8941721368 0.3801391922
109500000.0 -0.3639525319 0.8977675649
119450000.0 0.4079774048 0.8858412961
129400000.0 0.9404436696 0.2768467234
139350000.0 0.8314811779 -0.5287073191
149300000.0 0.1283219315 -0.9643413174
159250000.0 -0.6419157399 -0.7094105567
169200000.0 -0.9490280613 0.0123762691
179150000.0 -0.6431442127 0.702447486
189100000.0 0.0359847278 0.9599209744
199050000.0 0.6795750972 0.6850742184
209000000.0 0.9571301211 0.0673366004
218950000.0 0.7673096045 -0.5550527094
228900000.0 0.2379041104 -0.9038305418
238850000.0 -0.3823314837 -0.8445276961
248800000.0 -0.738853957 -0.2907466479
258750000.0 -0.9191623662 0.146260173
268700000.0 -0.6388449968 0.6813053736
278650000.0 -0.0927181864 0.9234776254
288600000.0 0.4812020721 0.7740757982
298550000.0 0.8332543946 0.3029510157
308500000.0 0.8109627586 -0.2800354595
318450000.0 0.4271434061 -0.7100929512
328400000.0 -0.1352047973 -0.7873263434
338350000.0 -0.5937941388 -0.4779678318
348300000.0 -0.709500285 0.0382950235
358250000.0 -0.447982572 0.457214573
368200000.0 -0.0094949799 0.5530316048
378150000.0 0.32064347 0.3325995316
388100000.0 0.37797611 -0.0056200891
398050000.0 0.201093661 -0.2350892548
408000000.0 -0.0383985652 -0.2543088858
417950000.0 -0.1812417224 -0.1178287571
427900000.0 -0.1758385811 0.0458522208
437850000.0 -0.0702422925 0.133993097
447800000.0 0.0464578048 0.1187258578
457750000.0 0.1055643782 0.0370632062
467700000.0 0.0888571597 -0.0474701102
477650000.0 0.0282398486 -0.0861443802
487600000.0 -0.027941185 -0.0687765532
497550000.0 -0.0152354945 -0.0266185485
507500000.0 -0.0640079989 -0.0046135175
517450000.0 -0.0267871737 0.0144839704
527400000.0 -0.0059638764 -0.0008604046
537350000.0 -0.0145888824 -0.0234706877
547300000.0 -0.0481469905 -0.0278645501
557250000.0 -0.0767388329 0.0088809738
567200000.0 -0.0690640739 0.0626649271
577150000.0 -0.0188408818 0.1056263815
587100000.0 0.0574901069 0.105790524
597050000.0 0.1259193638 0.0517304176
607000000.0 0.1485728499 -0.0418410658
616950000.0 0.1073744341 -0.1367364451
626900000.0 0.0130781944 -0.1900232411
636850000.0 -0.0984815413 -0.1743162234
646800000.0 -0.1772107459 -0.0939604591
656750000.0 -0.1914254794 0.0202276139
666700000.0 -0.1307603078 0.119537575
676650000.0 -0.0207204112 0.1604484835
686600000.0 0.0891703562 0.1243883797
696550000.0 0.1507291554 0.0302669298
706500000.0 0.1378250538 -0.0747899705
716450000.0 0.0632269791 -0.1401062089
726400000.0 -0.0305089832 -0.1349267844
736350000.0 -0.0887676717 -0.06528059
746300000.0 -0.0784349544 0.0268614616
756250000.0 0.0008167218 0.0846392058
766200000.0 0.1021889319 0.0670903687
776150000.0 0.1644479185 -0.0244025808
786100000.0 0.1412731989 -0.1429529562
796050000.0 0.0303191438 -0.2190261702
806000000.0 -0.1207881825 -0.1961031914
815950000.0 -0.2322614815 -0.0637995634
825900000.0 -0.2329892097 0.1281608835
835850000.0 -0.1014576104 0.2897007842
845800000.0 0.1125136169 0.3333082202
855750000.0 0.3109290132 0.2319071206
865700000.0 0.4106129304 0.026075928
875650000.0 0.362166037 -0.2095562849
885600000.0 0.1676439529 -0.3752171332
895550000.0 -0.1021172604 -0.3843254669
905500000.0 -0.3290559512 -0.2167672707
915450000.0 -0.4008173286 0.0653091369
925400000.0 -0.2733464779 0.330909923
935350000.0 -0.0018057263 0.4495092924
945300000.0 0.2833848001 0.3545629605
955250000.0 0.4313661112 0.0809433868
965200000.0 0.3372183204 -0.235640113
975150000.0 0.0187653712 -0.3968466343
985100000.0 -0.3408407874 -0.2484596039
995050000.0 -0.4626809548 0.1542174034
1005000000.0 -0.2055336992 0.5299910043
1014950000.0 0.2928826044 0.5659552052
1024900000.0 0.6698004174 0.1634136187
1034850000.0 0.5892685038 -0.4417916387
1044800000.0 0.0245484007 -0.7847197704
1054750000.0 -0.6188373785 -0.5530010797
1064700000.0 -0.839574448 0.0753070249
1074650000.0 -0.5902197115 0.6118552556
1084600000.0 -0.0293859936 0.8348715425
1094550000.0 0.5133644715 0.6435103288
1104500000.0 0.7838662649 0.1000243153
1114450000.0 0.5779373362 -0.4730026468
1124400000.0 0.0337868531 -0.7049588653
1134350000.0 -0.4703220511 -0.4798214431
1144300000.0 -0.6416146551 -0.0052988835
1154250000.0 -0.4461875564 0.4135075663
1164200000.0 -0.0431110469 0.5658292914
1174150000.0 0.3380775116 0.4047875886
1184100000.0 0.4960514942 0.0236246089
1194050000.0 0.3373727602 -0.3507253356
1204000000.0 -0.0256341031 -0.5000848957
1213950000.0 -0.3741537845 -0.3727874857
1223900000.0 -0.551153298 -0.0664171084
1233850000.0 -0.5025688853 0.273607505
1243800000.0 -0.2573739159 0.5152483328
1253750000.0 0.0914625081 0.5619679712
1263700000.0 0.4070951102 0.3837810223
1273650000.0 0.5546402388 0.0446166936
1283600000.0 0.4717462098 -0.3156876639
1293550000.0 0.2045486646 -0.5558156726
1303500000.0 -0.138942075 -0.6061073881
1313450000.0 -0.4456230119 -0.4678713819
1323400000.0 -0.6307789829 -0.1922184562
1333350000.0 -0.64236892 0.1431787344
1343300000.0 -0.4655338286 0.4430871042
1353250000.0 -0.1398615855 0.6022378665
1363200000.0 0.2308826111 0.5499763079
1373150000.0 0.5106307164 0.295880483
1383100000.0 0.5992712428 -0.0634021995
1393050000.0 0.4841128809 -0.3986816314
1403000000.0 0.2208151501 -0.611954473
1412950000.0 -0.1033553385 -0.6543191843
1422900000.0 -0.3983890966 -0.5240570627
1432850000.0 -0.5813898 -0.2541984058
1442800000.0 -0.5913121451 0.0798085857
1452750000.0 -0.4129346882 0.3726825254
1462700000.0 -0.0972993255 0.522089777
1472650000.0 0.2457980424 0.4715030234
1482600000.0 0.4952503566 0.2450435351
1492550000.0 0.573303883 -0.0668612339
1502500000.0 0.4715362618 -0.355473229
1512450000.0 0.2348994956 -0.5346302716
1522400000.0 -0.0601605198 -0.5517065325
1532350000.0 -0.3168270884 -0.3945610998
1542300000.0 -0.4371736201 -0.1108323671
1552250000.0 -0.3653558541 0.1922516166
1562200000.0 -0.1287887932 0.3880387437
1572150000.0 0.1660096784 0.3999402685
1582100000.0 0.3952316759 0.2401840319
1592050000.0 0.4776511464 -0.01418144
1602000000.0 0.3922667268 -0.2619319342
1611950000.0 0.1715536522 -0.4101226727
1621900000.0 -0.1039525402 -0.3950524917
1631850000.0 -0.3212269509 -0.2070085297
1641800000.0 -0.3774844992 0.0835252213
1651750000.0 -0.2404652076 0.3476483604
1661700000.0 0.026460202 0.4689561419
1671650000.0 0.305195895 0.4053227216
1681600000.0 0.4896445569 0.1931765983
1691550000.0 0.5181002855 -0.0873446994
1701500000.0 0.3809926764 -0.3355490657
1711450000.0 0.130048411 -0.4758837524
1721400000.0 -0.1835602271 -0.4587457205
1731350000.0 -0.4434890236 -0.2463308727
1741300000.0 -0.5276499534 0.0837801284
1751250000.0 -0.4074817127 0.3952558587
1761200000.0 -0.1432235157 0.5799156029
1771150000.0 0.1679213898 0.5932825761
1781100000.0 0.43536559 0.4460364705
1791050000.0 0.5905299509 0.1819414942
1801000000.0 0.5865430315 -0.1332096397
1810950000.0 0.4097623122 -0.4098610617
1820900000.0 0.0985970445 -0.5493597968
1830850000.0 -0.2424793813 -0.4908441641
1840800000.0 -0.4884516416 -0.2558050783
1850750000.0 -0.562450221 0.0613976868
1860700000.0 -0.4642810632 0.3503602228
1870650000.0 -0.2466743667 0.5374000428
1880600000.0 0.0221655488 0.5877100791
1890550000.0 0.2742830453 0.4977344146
1900500000.0 0.4447004893 0.2908541844
1910450000.0 0.4797424914 0.0210010386
1920400000.0 0.3610872553 -0.225001383
1930350000.0 0.131745901 -0.3602243294
1940300000.0 -0.1181948499 -0.3476953633
1950250000.0 -0.3028646958 -0.21630247
1960200000.0 -0.3775846871 -0.0339344848
1970150000.0 -0.3490386647 0.1324745474
1980100000.0 -0.2519267923 0.2358560044
1990050000.0 -0.1366953421 0.2576632948
2000000000.0 -0.056486495 0.2133792982
