!Created with skrf (http://scikit-rf.org).
# GHz S RI R 50.0 
!freq ReS11 ImS11
10000000.0 0.0080955019 0.1345672498
14975000.0 0.0157859588 0.1948704088
19950000.0 0.0243095198 0.2524857136
24925000.0 0.0334361529 0.3072617879
29900000.0 0.043288432 0.3594516976
34875000.0 0.0535344364 0.4106395511
39850000.0 0.064633425 0.4599465371
44825000.0 0.0765172673 0.5079896398
49800000.0 0.0895126184 0.5543330288
54775000.0 0.1035854669 0.598882407
59750000.0 0.1191069773 0.6411101065
64725000.0 0.1358329114 0.6807220549
69700000.0 0.1538377482 0.7176253328
74675000.0 0.173095842 0.7513043714
79650000.0 0.1930380652 0.781722562
84625000.0 0.2139503283 0.8090857848
89600000.0 0.2351352954 0.8334440814
94575000.0 0.2569543896 0.8549113163
99550000.0 0.2794157025 0.8733332874
104525000.0 0.3028379815 0.8885233091
109500000.0 0.3274510465 0.899975753
114475000.0 0.3534542081 0.9072092004
119450000.0 0.3806340635 0.9096384595
124425000.0 0.4087241429 0.9063715087
129400000.0 0.4369519363 0.8965791531
134375000.0 0.4628648995 0.8805159643
139350000.0 0.4880124643 0.8566393444
144325000.0 0.509234066 0.8260516512
149300000.0 0.5258496495 0.7891916235
154275000.0 0.5372148541 0.7471052641
159250000.0 0.5427107128 0.7008438828
164225000.0 0.5422923836 0.6510476515
169200000.0 0.5356702733 0.5988586533
174175000.0 0.5225494179 0.544721239
179150000.0 0.5034247883 0.4895337717
184125000.0 0.4782176119 0.4343559021
189100000.0 0.4473170494 0.3801955921
194075000.0 0.4110147209 0.3274675465
199050000.0 0.3699013916 0.2776259139
204025000.0 0.3249350962 0.2311363615
209000000.0 0.277056355 0.1883987928
213975000.0 0.2271960183 0.1498808566
218950000.0 0.1768055719 0.1149801334
223925000.0 0.1264450392 0.0835621718
228900000.0 0.0763078607 0.0550731817
233875000.0 0.0271466266 0.0286527694
238850000.0 -0.0213368116 0.0041826497
243825000.0 -0.0693637071 -0.0187736375
248800000.0 -0.1107025973 -0.0273224222
253775000.0 -0.1578893157 -0.0593748957
258750000.0 -0.2032871215 -0.0784262594
263725000.0 -0.2469655947 -0.0961210752
268700000.0 -0.2895315895 -0.1125723179
273675000.0 -0.330773705 -0.1272685192
278650000.0 -0.3706622005 -0.1408565958
283625000.0 -0.4092857389 -0.153285227
288600000.0 -0.4464876082 -0.1644294724
293575000.0 -0.4818482214 -0.1748370043
298550000.0 -0.5158141883 -0.1846579727
303525000.0 -0.5488081352 -0.1933176241
308500000.0 -0.580206132 -0.200856025
313475000.0 -0.6105209683 -0.2071400591
318450000.0 -0.6394686299 -0.2117168757
323425000.0 -0.6669927213 -0.2143645993
328400000.0 -0.6929482583 -0.2148704439
333375000.0 -0.7166305796 -0.2127865349
338350000.0 -0.737472494 -0.2082569123
343325000.0 -0.7546313174 -0.2013039756
348300000.0 -0.7675819514 -0.1920879447
353275000.0 -0.7758051631 -0.1813689423
358250000.0 -0.7789065948 -0.169608949
363225000.0 -0.7766042983 -0.1576824244
368200000.0 -0.769331557 -0.146372237
373175000.0 -0.7571215116 -0.1363847474
378150000.0 -0.7402633448 -0.1284284089
383125000.0 -0.719170246 -0.1227615616
388100000.0 -0.694187606 -0.1199652769
393075000.0 -0.6659907672 -0.1204948731
398050000.0 -0.6354535237 -0.1247797132
403025000.0 -0.6031992551 -0.1328011468
408000000.0 -0.5704053642 -0.1445727751
412975000.0 -0.5374758633 -0.1599231864
417950000.0 -0.5050322469 -0.1780544795
422925000.0 -0.473600985 -0.198501974
427900000.0 -0.4434444977 -0.2204879036
432875000.0 -0.4147703871 -0.2433338639
437850000.0 -0.3878224811 -0.266971658
442825000.0 -0.3623180041 -0.2909100275
447800000.0 -0.3383312385 -0.3146189931
452775000.0 -0.3161304495 -0.3378750967
457750000.0 -0.2950043081 -0.3599863623
462725000.0 -0.2750652389 -0.3810554022
467700000.0 -0.2561227799 -0.4009343922
472675000.0 -0.2379190644 -0.41925902
477650000.0 -0.2202511895 -0.4360810513
482625000.0 -0.2030009062 -0.4514947691
487600000.0 -0.1861471386 -0.4653305393
492575000.0 -0.1693677773 -0.4774497321
497550000.0 -0.1510992472 -0.4878570942
502525000.0 -0.1343730092 -0.4981126596
507500000.0 -0.1172543077 -0.5066672493
512475000.0 -0.1000353525 -0.5136277853
517450000.0 -0.082684668 -0.5196153643
522425000.0 -0.0651405965 -0.5243608793
527400000.0 -0.0480427175 -0.5278878747
532375000.0 -0.0305193499 -0.5301603113
537350000.0 -0.013068675 -0.5310851877
542325000.0 0.0044061971 -0.5309624351
547300000.0 0.0214528478 -0.5300064354
552275000.0 0.0381258 -0.5273920864
557250000.0 0.0541852415 -0.5236674221
562225000.0 0.0704311056 -0.5185743952
567200000.0 0.0866505469 -0.5119268664
572175000.0 0.1026707996 -0.5038733983
577150000.0 0.1183236857 -0.4942489799
582125000.0 0.1340281338 -0.4832798772
587100000.0 0.1498330055 -0.4705906881
592075000.0 0.1656891761 -0.4571604449
597050000.0 0.1818307343 -0.4420869715
602025000.0 0.1980912499 -0.4259201271
607000000.0 0.2148998506 -0.4085957226
611975000.0 0.2317986426 -0.3905055891
616950000.0 0.2491603386 -0.371644104
621925000.0 0.2664992939 -0.3522976495
626900000.0 0.2838582653 -0.3321898407
631875000.0 0.3015937801 -0.3121316516
636850000.0 0.3192220531 -0.2919196998
641825000.0 0.336431504 -0.2716073319
646800000.0 0.3535779694 -0.2513262456
651775000.0 0.3706769048 -0.231248702
656750000.0 0.3872701475 -0.2113220054
661725000.0 0.4032368849 -0.1915876001
666700000.0 0.4187319794 -0.1722877544
671675000.0 0.4337054193 -0.1531883575
676650000.0 0.4475062275 -0.1341666045
681625000.0 0.4606387449 -0.1151975916
686600000.0 0.4729600276 -0.096280024
691575000.0 0.4843471796 -0.0775009181
696550000.0 0.4947466735 -0.0587452867
701525000.0 0.5041905143 -0.039771262
706500000.0 0.5128664627 -0.0209104296
711475000.0 0.520957502 -0.0019994452
716450000.0 0.5279828364 0.0165841524
721425000.0 0.5342238189 0.0350536817
726400000.0 0.539802684 0.0530722163
731375000.0 0.5442960672 0.0701836704
736350000.0 0.5483977624 0.0869809308
741325000.0 0.551265326 0.1031032208
746300000.0 0.5533912065 0.1181357432
751275000.0 0.5545932642 0.1323281345
756250000.0 0.5545363657 0.1453234598
761225000.0 0.553574993 0.1575205925
766200000.0 0.5511329664 0.1686400424
771175000.0 0.5476870003 0.1787688629
776150000.0 0.5428442727 0.1879156017
781125000.0 0.5364202195 0.1961281961
786100000.0 0.5287588807 0.2035005595
791075000.0 0.5191380388 0.2102219272
796050000.0 0.5082313625 0.2161182781
801025000.0 0.4955377987 0.2211654006
806000000.0 0.4808756788 0.2257330979
810975000.0 0.4646042309 0.2294958221
815950000.0 0.446351263 0.2328335316
820925000.0 0.4265847469 0.2358728516
825900000.0 0.4048587301 0.2385584398
830875000.0 0.3814684195 0.240930459
835850000.0 0.3565458897 0.2434115312
840825000.0 0.3306447826 0.2455070035
845800000.0 0.3032389894 0.247798002
850775000.0 0.2745663442 0.2502916909
855750000.0 0.2450943481 0.2528515492
860725000.0 0.2149927938 0.255628119
865700000.0 0.1840724353 0.2584999847
870675000.0 0.1523778727 0.2612187831
875650000.0 0.1199570105 0.2644186979
880625000.0 0.0871833237 0.2678593975
885600000.0 0.0535554294 0.2714821895
890575000.0 0.019513524 0.2755528701
895550000.0 -0.0149707039 0.2800827779
900525000.0 -0.0500571009 0.2852113795
905500000.0 -0.0852564244 0.2912200892
910475000.0 -0.1208202108 0.297865267
915450000.0 -0.1561107795 0.3051405954
920425000.0 -0.1914783422 0.313594506
925400000.0 -0.2263118666 0.3222651639
930375000.0 -0.2605646977 0.3321057895
935350000.0 -0.29413948 0.3428138613
940325000.0 -0.3265282898 0.3540733325
945300000.0 -0.3578822744 0.3660309663
950275000.0 -0.3879619019 0.379158307
955250000.0 -0.4168411456 0.3934611373
960225000.0 -0.4441100929 0.4093403292
965200000.0 -0.4692532816 0.4271577588
970175000.0 -0.4916572592 0.4473092717
975150000.0 -0.5107453496 0.4700684652
980125000.0 -0.5246823027 0.4957684964
985100000.0 -0.5321199234 0.5232816452
990075000.0 -0.5317447829 0.5516716474
995050000.0 -0.5233252041 0.579219369
1000025000.0 -0.5063868158 0.604642349
1005000000.0 -0.4806508903 0.6260193857
1009975000.0 -0.4465325398 0.6412295625
1014950000.0 -0.405560751 0.6483342859
1019925000.0 -0.359169393 0.6465913147
1024900000.0 -0.3086098014 0.6352524879
1029875000.0 -0.2547581685 0.613432335
1034850000.0 -0.199464668 0.5796996497
1039825000.0 -0.1450644413 0.5329775109
1044800000.0 -0.0948769035 0.4726400116
1049775000.0 -0.0529196798 0.3992530679
1054750000.0 -0.0230720214 0.3156818745
1059725000.0 -0.0083372652 0.2269887117
1064700000.0 -0.0076300396 0.1415480895
1069675000.0 -0.0139489043 0.0586629463
1074650000.0 -0.0297659568 -0.0208315258
1079625000.0 -0.0519751442 -0.0945048655
1084600000.0 -0.0784405995 -0.1622958496
1089575000.0 -0.1066766254 -0.2242938594
1094550000.0 -0.1363036426 -0.2834447843
1099525000.0 -0.1684709519 -0.3393484741
1104500000.0 -0.2040947555 -0.3918903752
1109475000.0 -0.2432263643 -0.4399295066
1114450000.0 -0.2860369356 -0.4822180616
1119425000.0 -0.3311737785 -0.5173880103
1124400000.0 -0.3772498081 -0.544779892
1129375000.0 -0.4225931537 -0.5636909376
1134350000.0 -0.4652370633 -0.5745663166
1139325000.0 -0.5036066162 -0.5782113236
1144300000.0 -0.5363215785 -0.57660857
1149275000.0 -0.5630231176 -0.5717261936
1154250000.0 -0.5843100328 -0.5650737475
1159225000.0 -0.6005207899 -0.5570946683
1164200000.0 -0.6123344352 -0.5488610392
1169175000.0 -0.6205638617 -0.5414096379
1174150000.0 -0.6267225406 -0.533579026
1179125000.0 -0.6309673878 -0.5241708038
1184100000.0 -0.6319942954 -0.5129086144
1189075000.0 -0.6291713561 -0.5004430462
1194050000.0 -0.6224223262 -0.4873983364
1199025000.0 -0.6113396392 -0.4741749999
1204000000.0 -0.5965041669 -0.4619456677
1208975000.0 -0.578664584 -0.4505161776
1213950000.0 -0.5585075461 -0.4409059911
1218925000.0 -0.5369415424 -0.4332667901
1223900000.0 -0.5150057303 -0.4274693032
1228875000.0 -0.4934717875 -0.4228921286
1233850000.0 -0.4730155491 -0.4191928018
1238825000.0 -0.4536407498 -0.4159429009
1243800000.0 -0.4353479817 -0.4126742289
1248775000.0 -0.4182872407 -0.4082476632
1253750000.0 -0.4019209866 -0.4021487762
1258725000.0 -0.386118172 -0.3941919471
1263700000.0 -0.370173745 -0.384025747
1268675000.0 -0.3527054629 -0.3721860437
1273650000.0 -0.3337261819 -0.3589288114
1278625000.0 -0.3129720968 -0.3447100301
1283600000.0 -0.2899633313 -0.3301831328
1288575000.0 -0.2652332706 -0.3163612648
1293550000.0 -0.2389352931 -0.3029344979
1298525000.0 -0.2116853075 -0.2908274666
1303500000.0 -0.1845088548 -0.2793066648
1308475000.0 -0.157558561 -0.2686687726
1313450000.0 -0.1316097848 -0.2583921461
1318425000.0 -0.1061475538 -0.2488530619
1323400000.0 -0.0822474568 -0.2388436303
1328375000.0 -0.0591728644 -0.2287550561
1333350000.0 -0.0372114771 -0.2181333018
1338325000.0 -0.0166616606 -0.2073048119
1343300000.0 0.0027351467 -0.1954951077
1348275000.0 0.021193826 -0.1835173333
1353250000.0 0.0392844029 -0.1702449429
1358225000.0 0.0560662736 -0.1565341713
1363200000.0 0.0725731079 -0.1424069567
1368175000.0 0.0881814142 -0.1276576154
1373150000.0 0.1029909452 -0.1123146871
1378125000.0 0.1169480994 -0.0962054766
1383100000.0 0.1301301261 -0.0792912746
1388075000.0 0.1429632467 -0.0613279107
1393050000.0 0.1551951024 -0.0428467253
1398025000.0 0.1665850344 -0.0238761618
1403000000.0 0.1771597193 -0.0038978891
1407975000.0 0.1870113563 0.0166668826
1412950000.0 0.1959421397 0.0379689582
1417925000.0 0.2038899625 0.0601279533
1422900000.0 0.2110997405 0.083018452
1427875000.0 0.2178076983 0.1066309611
1432850000.0 0.2243471447 0.1309155054
1437825000.0 0.2300139816 0.1558318679
1442800000.0 0.2362087585 0.1809503908
1447775000.0 0.2431017887 0.2063835977
1452750000.0 0.2499632306 0.2310598004
1457725000.0 0.2573801535 0.2552701844
1462700000.0 0.2652814517 0.2786764941
1467675000.0 0.2735092594 0.3006056405
1472650000.0 0.2813016583 0.320858117
1477625000.0 0.2885793927 0.3396227845
1482600000.0 0.2949158378 0.3569765454
1487575000.0 0.3000510987 0.3730062865
1492550000.0 0.303561278 0.3883133701
1497525000.0 0.30481834 0.4027599602
1502500000.0 0.304340419 0.4184520614
1507475000.0 0.3023820158 0.4345146101
1512450000.0 0.2991966985 0.4511187787
1517425000.0 0.2948654357 0.4683166519
1522400000.0 0.2900094332 0.4864679359
1527375000.0 0.2838514335 0.5051281327
1532350000.0 0.2770755888 0.5244787416
1537325000.0 0.2709531311 0.5444733552
1542300000.0 0.2656794852 0.5643904708
1547275000.0 0.2607896738 0.5836842916
1552250000.0 0.2567562554 0.6022967301
1557225000.0 0.2532240518 0.6194537689
1562200000.0 0.249943564 0.6347759344
1567175000.0 0.2469115775 0.6483127835
1572150000.0 0.2436963223 0.6599323136
1577125000.0 0.2406273384 0.6698020569
1582100000.0 0.2376269589 0.678130545
1587075000.0 0.2341872681 0.6844577096
1592050000.0 0.2300394342 0.6898514288
1597025000.0 0.2259154291 0.6944112066
1602000000.0 0.2215739097 0.6980469009
1606975000.0 0.2177818863 0.7004183673
1611950000.0 0.2138943173 0.7013760121
1616925000.0 0.2100285362 0.7013095383
1621900000.0 0.2059985867 0.6998379277
1626875000.0 0.201488121 0.6969795854
1631850000.0 0.1969400587 0.6923523565
1636825000.0 0.1912852233 0.6860819491
1641800000.0 0.1849082953 0.6774959398
1646775000.0 0.1768106571 0.6666520614
1651750000.0 0.1668236088 0.6548999913
1656725000.0 0.1545012637 0.6419780023
1661700000.0 0.1407793328 0.6285126637
1666675000.0 0.1252070017 0.614976024
1671650000.0 0.1082116108 0.6017901614
1676625000.0 0.090611053 0.5889858012
1681600000.0 0.0727882484 0.5768153738
1686575000.0 0.0551227975 0.5656817876
1691550000.0 0.0382945803 0.5548453149
1696525000.0 0.0225387048 0.5445152863
1701500000.0 0.0081379416 0.5349310396
1706475000.0 -0.0045969374 0.5254966266
1711450000.0 -0.0153458655 0.5160425812
1716425000.0 -0.0241740374 0.5059720482
1721400000.0 -0.0310866986 0.495047653
1726375000.0 -0.0367536114 0.4827766678
1731350000.0 -0.0412810715 0.4682602939
1736325000.0 -0.0450620152 0.4519993531
1741300000.0 -0.0489071121 0.4335423671
1746275000.0 -0.0529890303 0.4127031401
1751250000.0 -0.0584643216 0.3905216638
1756225000.0 -0.0651376458 0.3675949068
1761200000.0 -0.073134031 0.3438541063
1766175000.0 -0.0822261278 0.319932492
1771150000.0 -0.0924800852 0.2967785302
1776125000.0 -0.1027701165 0.2740023278
1781100000.0 -0.1132545861 0.2520663661
1786075000.0 -0.1234504449 0.2309731677
1791050000.0 -0.1331009111 0.211307242
1796025000.0 -0.1418433707 0.1924226947
1801000000.0 -0.1499711565 0.1740908848
1805975000.0 -0.1570190891 0.1570515519
1810950000.0 -0.163534066 0.1407602134
1815925000.0 -0.1681386972 0.1252639992
1820900000.0 -0.1718310712 0.1105676288
1825875000.0 -0.175332932 0.0957348985
1830850000.0 -0.1764286079 0.0815859671
1835825000.0 -0.1764385612 0.0675657683
1840800000.0 -0.1751204937 0.0527172491
1845775000.0 -0.1731250626 0.037867116
1850750000.0 -0.1699338105 0.0221818509
1855725000.0 -0.1658325687 0.0058532216
1860700000.0 -0.1612904898 -0.0111380471
1865675000.0 -0.1558177267 -0.0285852586
1870650000.0 -0.1494606928 -0.0464905603
1875625000.0 -0.1423132305 -0.0645761767
1880600000.0 -0.1343963841 -0.0828814856
1885575000.0 -0.1254905765 -0.1011301704
1890550000.0 -0.1158475259 -0.119621608
1895525000.0 -0.1054133112 -0.138120148
1900500000.0 -0.0944781723 -0.1566216323
1905475000.0 -0.0833167775 -0.1754020692
1910450000.0 -0.0722332865 -0.1942146909
1915425000.0 -0.0618536028 -0.2127881834
1920400000.0 -0.0517161742 -0.2316988073
1925375000.0 -0.0434060007 -0.2499934299
1930350000.0 -0.0365483036 -0.2673303662
1935325000.0 -0.0316535597 -0.2839348354
1940300000.0 -0.0285314914 -0.2987648839
1945275000.0 -0.0268883438 -0.3116226838
1950250000.0 -0.0258532316 -0.3219105241
1955225000.0 -0.0243640084 -0.3294791245
1960200000.0 -0.0227499028 -0.3356699856
1965175000.0 -0.019945955 -0.3396138188
1970150000.0 -0.0155698846 -0.3427682274
1975125000.0 -0.0101673419 -0.3454680961
1980100000.0 -0.0033152465 -0.3478266352
1985075000.0 0.0044322786 -0.3502882371
1990050000.0 0.0127408984 -0.3528175879
1995025000.0 0.0211858033 -0.3558336574
2000000000.0 0.029695535 -0.359559896
