!Created with skrf (http://scikit-rf.org).
# GHz S RI R 50.0 
!freq ReS11 ImS11
10000000.0 -1.001190564 0.163760306
19950000.0 -0.9453004185 0.3124668987
29900000.0 -0.8667862598 0.4547504819
39850000.0 -0.7661419523 0.5952568194
49800000.0 -0.6454583126 0.7280705507
59750000.0 -0.4999105767 0.8470095784
69700000.0 -0.3228105486 0.9400615001
79650000.0 -0.1108220514 0.9890504929
89600000.0 0.1339535585 0.9776726297
99550000.0 0.3982862039 0.889439746
109500000.0 0.6609123204 0.713227702
119450000.0 0.88426984 0.4367465589
129400000.0 1.003043959 0.0821286387
139350000.0 0.9709661387 -0.3317785611
149300000.0 0.7587412878 -0.682750852
159250000.0 0.4279892116 -0.9037672512
169200000.0 0.0658447206 -0.9815636584
179150000.0 -0.2670881379 -0.9432262213
189100000.0 -0.5397155785 -0.8252642785
199050000.0 -0.7385433486 -0.6585934077
209000000.0 -0.8624245316 -0.4646894531
218950000.0 -0.9254552628 -0.2647388676
228900000.0 -0.9405607387 -0.0686004054
238850000.0 -0.9204312591 0.1219065522
248800000.0 -0.7134177845 0.1698813905
258750000.0 -0.8240123916 0.4299331717
268700000.0 -0.7360163845 0.5762023663
278650000.0 -0.6220945496 0.6930000779
288600000.0 -0.481558362 0.7784538347
298550000.0 -0.3183100377 0.8305879981
308500000.0 -0.1382471763 0.850348477
318450000.0 0.051862031 0.8332865796
328400000.0 0.2422699106 0.7733572084
338350000.0 0.4112114305 0.6616908853
348300000.0 0.5335157882 0.4976872056
358250000.0 0.5839648556 0.2972774179
368200000.0 0.5551412582 0.0932432277
378150000.0 0.4613289694 -0.079063957
388100000.0 0.3314344119 -0.1977738366
398050000.0 0.1952079141 -0.2559168277
408000000.0 0.0764199787 -0.2594656062
417950000.0 -0.0141055436 -0.2224484474
427900000.0 -0.0742366921 -0.1631342492
437850000.0 -0.1097191595 -0.096380532
447800000.0 -0.1246523292 -0.0349482802
457750000.0 -0.1243098926 0.0137089579
467700000.0 -0.1120811268 0.045001598
477650000.0 -0.0904835109 0.0567174193
487600000.0 -0.0609508393 0.0492003172
497550000.0 -0.1096059707 0.0077087423
507500000.0 -0.0223038307 0.0410786418
517450000.0 0.0030257282 0.0190648788
527400000.0 0.013714106 0.0001130224
537350000.0 0.0100056252 -0.0171611628
547300000.0 -0.0073476699 -0.0349904633
557250000.0 -0.0360315006 -0.0479691816
567200000.0 -0.066997715 -0.0597878826
577150000.0 -0.0977181387 -0.0682691783
587100000.0 -0.1241218309 -0.0707259237
597050000.0 -0.1433742517 -0.0647250151
607000000.0 -0.1557195963 -0.0477187137
616950000.0 -0.1630165982 -0.021014274
626900000.0 -0.1663629025 0.0127883705
636850000.0 -0.1668661094 0.0482481304
646800000.0 -0.1633799096 0.0812954401
656750000.0 -0.155199787 0.1077093512
666700000.0 -0.1406946246 0.1251310957
676650000.0 -0.1168628681 0.1341576535
686600000.0 -0.0828877711 0.135953246
696550000.0 -0.0412007322 0.1320295586
706500000.0 0.003303769 0.1224390882
716450000.0 0.045395195 0.1077020973
726400000.0 0.0793517692 0.0855384037
736350000.0 0.1014194948 0.0540011215
746300000.0 0.1091608185 0.0118410542
756250000.0 0.1045034775 -0.040818786
766200000.0 0.0873259864 -0.099602613
776150000.0 0.0595748267 -0.1590540574
786100000.0 0.023066705 -0.2118052023
796050000.0 -0.0221767717 -0.2509156926
806000000.0 -0.0746277143 -0.2720216374
815950000.0 -0.1349567172 -0.272352157
825900000.0 -0.2007440426 -0.2543255657
835850000.0 -0.2690515588 -0.220683315
845800000.0 -0.334319608 -0.1761621719
855750000.0 -0.3907430319 -0.1234124868
865700000.0 -0.431713225 -0.0631197496
875650000.0 -0.4525410192 0.0042367189
885600000.0 -0.4495265199 0.0787435668
895550000.0 -0.4226902337 0.1597707516
905500000.0 -0.3702410796 0.2436144717
915450000.0 -0.2901229641 0.3142235943
925400000.0 -0.2048592167 0.3559694647
935350000.0 -0.1442054484 0.4014322589
945300000.0 -0.0515537445 0.434156445
955250000.0 0.0709566072 0.4267669178
965200000.0 0.208395647 0.3658844147
975150000.0 0.3439657741 0.2449230931
985100000.0 0.4505521942 0.0605549878
995050000.0 0.4873906147 -0.179166411
1005000000.0 0.4087986252 -0.4373912747
1014950000.0 0.1968790811 -0.6446374558
1024900000.0 -0.1089330756 -0.7300602001
1034850000.0 -0.4317726466 -0.6680596902
1044800000.0 -0.6975059731 -0.4790090262
1054750000.0 -0.8513471672 -0.2039781217
1064700000.0 -0.8229617391 0.0640276639
1074650000.0 -0.8210654414 0.2389412337
1084600000.0 -0.7176796756 0.4624168459
1094550000.0 -0.5305779371 0.6510188726
1104500000.0 -0.294623511 0.7587965965
1114450000.0 -0.0440266599 0.7908473007
1124400000.0 0.1967282228 0.7401810341
1134350000.0 0.3967895372 0.6105160966
1144300000.0 0.5326851901 0.4205595581
1154250000.0 0.5949421808 0.2023067939
1164200000.0 0.5917271899 -0.0119028305
1174150000.0 0.5436890877 -0.2021814559
1184100000.0 0.4559265315 -0.3644152081
1194050000.0 0.3363216812 -0.4822832168
1204000000.0 0.199720634 -0.5508159215
1213950000.0 0.0594513237 -0.5758792582
1223900000.0 -0.0744505643 -0.5706270342
1233850000.0 -0.1974333551 -0.5468451824
1243800000.0 -0.3061958015 -0.5118949401
1253750000.0 -0.3995656956 -0.4698799779
1263700000.0 -0.4742408252 -0.4196661021
1273650000.0 -0.5318535327 -0.3612912055
1283600000.0 -0.5715394961 -0.294230421
1293550000.0 -0.5987174281 -0.2200377867
1303500000.0 -0.6185503368 -0.1426114908
1313450000.0 -0.6343195388 -0.0653796225
1323400000.0 -0.6486054084 0.0082475997
1333350000.0 -0.6596697861 0.0771310688
1343300000.0 -0.6635892455 0.141197614
1353250000.0 -0.656392352 0.1988543911
1363200000.0 -0.6355352984 0.2531735867
1373150000.0 -0.6009098097 0.3054348898
1383100000.0 -0.5573331873 0.3577067384
1393050000.0 -0.50982905 0.4098499252
1403000000.0 -0.4624386978 0.4614527141
1412950000.0 -0.415951938 0.5093816803
1422900000.0 -0.3703282763 0.5503771215
1432850000.0 -0.3231351857 0.5797974372
1442800000.0 -0.2721902739 0.5977123752
1452750000.0 -0.2158250479 0.6060539105
1462700000.0 -0.152575967 0.6076389457
1472650000.0 -0.0817926692 0.6070566626
1482600000.0 -0.0063156909 0.6054525457
1492550000.0 0.0702102947 0.6009378658
1502500000.0 0.14440936 0.5889386088
1512450000.0 0.2129452034 0.5660587004
1522400000.0 0.2740375508 0.5288465909
1532350000.0 0.3268610898 0.4740333068
1542300000.0 0.3730661105 0.4037339228
1552250000.0 0.4137955956 0.3217915247
1562200000.0 0.4511671686 0.2339865438
1572150000.0 0.4805869261 0.1440749607
1582100000.0 0.4975591907 0.0539218892
1592050000.0 0.4972941343 -0.0340902729
1602000000.0 0.476003422 -0.1191086248
1611950000.0 0.4336499472 -0.1979245543
1621900000.0 0.3739472585 -0.2723459804
1631850000.0 0.3024095427 -0.3422027289
1641800000.0 0.2247229976 -0.4061171811
1651750000.0 0.1440660884 -0.4597980436
1661700000.0 0.0637607534 -0.4985195605
1671650000.0 -0.0165672575 -0.517679126
1681600000.0 -0.09555927 -0.5166430449
1691550000.0 -0.1737691804 -0.4990924766
1701500000.0 -0.251928207 -0.4682352523
1711450000.0 -0.3275045259 -0.4299441745
1721400000.0 -0.3989571034 -0.3885421683
1731350000.0 -0.463171194 -0.3469498235
1741300000.0 -0.5158124621 -0.3030507639
1751250000.0 -0.5543149 -0.2541974817
1761200000.0 -0.5777478075 -0.1999845115
1771150000.0 -0.5883361398 -0.1396299345
1781100000.0 -0.5914782673 -0.0746713225
1791050000.0 -0.5921004823 -0.0091975299
1801000000.0 -0.593283382 0.0543437347
1810950000.0 -0.5955081866 0.1136373582
1820900000.0 -0.5955159447 0.1675548409
1830850000.0 -0.5878566236 0.2148910756
1840800000.0 -0.5683063935 0.2558579107
1850750000.0 -0.5352723808 0.2921238062
1860700000.0 -0.4905492903 0.3244624178
1870650000.0 -0.4408013999 0.3559044603
1880600000.0 -0.3912583183 0.3848950218
1890550000.0 -0.34672522 0.4114396765
1900500000.0 -0.3068785613 0.4320257752
1910450000.0 -0.2700746308 0.4442685069
1920400000.0 -0.2345721651 0.4444224475
1930350000.0 -0.1946030169 0.4312472956
1940300000.0 -0.1505335593 0.4051224444
1950250000.0 -0.1030077523 0.3685988829
1960200000.0 -0.056608754 0.3253940673
1970150000.0 -0.0192089069 0.2772997481
1980100000.0 0.0035733609 0.2249645569
1990050000.0 0.0045866099 0.1675168418
2000000000.0 -0.0225783108 0.1015963339
