!Created with skrf (http://scikit-rf.org).
# GHz S RI R 50.0 
!freq ReS11 ImS11
10000000.0 -0.9958041117 0.0660608872
14975000.0 -0.9925045734 0.0993082222
19950000.0 -0.9882316008 0.1331435179
24925000.0 -0.9824673846 0.1681253644
29900000.0 -0.9754530637 0.2036857699
34875000.0 -0.966075403 0.2410918221
39850000.0 -0.9545553472 0.2805907057
44825000.0 -0.9404944975 0.3221032656
49800000.0 -0.924101863 0.3662387787
54775000.0 -0.9040716198 0.4129546368
59750000.0 -0.8799811128 0.4624011961
64725000.0 -0.8513052659 0.5147061979
69700000.0 -0.8162255656 0.5693879044
74675000.0 -0.7737681351 0.6264918945
79650000.0 -0.7222746243 0.6853809869
84625000.0 -0.660540533 0.7450431785
89600000.0 -0.5870016102 0.8040998966
94575000.0 -0.5005727936 0.8606215632
99550000.0 -0.4000541625 0.911768681
104525000.0 -0.2847960087 0.9540313038
109500000.0 -0.1553912464 0.9830286687
114475000.0 -0.0128856849 0.9942713024
119450000.0 0.1388085507 0.983759993
124425000.0 0.2943854246 0.9480432911
129400000.0 0.4492929431 0.8841264913
134375000.0 0.5854368968 0.8000985743
139350000.0 0.7128542834 0.6880335868
144325000.0 0.8168891899 0.5589287845
149300000.0 0.895499886 0.4188647993
154275000.0 0.9486636166 0.2746755101
159250000.0 0.9778434767 0.1324409313
164225000.0 0.9858384942 -0.0028008154
169200000.0 0.9765857608 -0.128394604
174175000.0 0.9534752147 -0.2422073414
179150000.0 0.9205544464 -0.3435478931
184125000.0 0.8813485143 -0.4327019791
189100000.0 0.8381354615 -0.5104635117
194075000.0 0.7930213682 -0.5782526735
199050000.0 0.7470609173 -0.6366399227
204025000.0 0.7013923673 -0.6868818921
209000000.0 0.655990384 -0.7303931173
213975000.0 0.6117717752 -0.7676782145
218950000.0 0.5686063019 -0.7996000407
223925000.0 0.5269888464 -0.8272180343
228900000.0 0.4863102361 -0.8509985102
233875000.0 0.4470444863 -0.8715168864
238850000.0 0.408399977 -0.8893805055
243825000.0 0.3693378073 -0.904935195
248800000.0 0.3416465829 -0.8934087299
253775000.0 0.3021684817 -0.9271567879
258750000.0 0.2647623993 -0.9372924583
263725000.0 0.2278066848 -0.9454843221
268700000.0 0.1907774066 -0.9516276518
273675000.0 0.153338902 -0.9558116184
278650000.0 0.1154919227 -0.957853727
283625000.0 0.076438182 -0.9576927963
288600000.0 0.0363075302 -0.9550761223
293575000.0 -0.0052538546 -0.9499083185
298550000.0 -0.0482366829 -0.9413055491
303525000.0 -0.0926763171 -0.9293489267
308500000.0 -0.1381224425 -0.9129363697
313475000.0 -0.1848023223 -0.8914711186
318450000.0 -0.2319664208 -0.8642918914
323425000.0 -0.2792583079 -0.8304933097
328400000.0 -0.3253228637 -0.7900477716
333375000.0 -0.3692146368 -0.7425503444
338350000.0 -0.4095826704 -0.6874405087
343325000.0 -0.4444995883 -0.6252861755
348300000.0 -0.4724567512 -0.5565681428
353275000.0 -0.491233032 -0.4824651782
358250000.0 -0.4997200276 -0.4044861327
363225000.0 -0.4968022564 -0.3251613072
368200000.0 -0.4824526633 -0.247165337
373175000.0 -0.4572084853 -0.1730351571
378150000.0 -0.4226765577 -0.1049209067
383125000.0 -0.3800796843 -0.044548538
388100000.0 -0.3313311798 0.00666296
393075000.0 -0.2792614969 0.0480861688
398050000.0 -0.2258227396 0.0797843053
403025000.0 -0.1727861678 0.1026299099
408000000.0 -0.1223505694 0.1172257248
412975000.0 -0.075676104 0.1246572481
417950000.0 -0.0328923513 0.1261887292
422925000.0 0.0056495616 0.1231518169
427900000.0 0.0393923768 0.1165452102
432875000.0 0.0686827148 0.1076938463
437850000.0 0.0935125307 0.0973213032
442825000.0 0.1140395602 0.08571156
447800000.0 0.1310661603 0.0736237589
452775000.0 0.144446722 0.0610006801
457750000.0 0.1547488265 0.0482297048
462725000.0 0.162173626 0.0359305106
467700000.0 0.1664230408 0.0240990457
472675000.0 0.1678415248 0.0131388516
477650000.0 0.1667535885 0.0028857529
482625000.0 0.1637302589 -0.0063157693
487600000.0 0.1583438326 -0.0141812289
492575000.0 0.149498707 -0.0194894412
497550000.0 0.1476119906 -0.0230997651
502525000.0 0.1378879497 -0.0290953981
507500000.0 0.127647535 -0.0323796878
512475000.0 0.1166858463 -0.0341624322
517450000.0 0.1052478006 -0.0348144933
522425000.0 0.0933408736 -0.0340842402
527400000.0 0.0812704267 -0.0322534734
532375000.0 0.0693036988 -0.0290018463
537350000.0 0.0575633239 -0.024807722
542325000.0 0.0462087315 -0.0198790734
547300000.0 0.0344743493 -0.0145997434
552275000.0 0.0225515912 -0.0076859144
557250000.0 0.0113528262 0.0002911203
562225000.0 0.0006592839 0.0086073597
567200000.0 -0.0094069356 0.017720017
572175000.0 -0.0184894787 0.0274551425
577150000.0 -0.0269066132 0.0375841511
582125000.0 -0.0346764606 0.0481185987
587100000.0 -0.0419047588 0.058974801
592075000.0 -0.0486318205 0.0697951777
597050000.0 -0.0543867318 0.0805259585
602025000.0 -0.0590818613 0.0912932143
607000000.0 -0.0628853513 0.1017971246
611975000.0 -0.0656505901 0.1121526687
616950000.0 -0.0672076363 0.1223812509
621925000.0 -0.0680408069 0.1323086179
626900000.0 -0.0677132937 0.1414858379
631875000.0 -0.0665111927 0.1500043535
636850000.0 -0.0643533171 0.1581231302
641825000.0 -0.0613344065 0.1656644625
646800000.0 -0.0571688505 0.1724104772
651775000.0 -0.0524491008 0.1783450028
656750000.0 -0.0465716691 0.1836414
661725000.0 -0.0402016391 0.1879033814
666700000.0 -0.033488928 0.1910864355
671675000.0 -0.0260613308 0.193145696
676650000.0 -0.0180353342 0.1941805541
681625000.0 -0.0094935653 0.1941515136
686600000.0 -0.0005128504 0.1932999382
691575000.0 0.008824513 0.1913302959
696550000.0 0.0181779742 0.1879605765
701525000.0 0.0275555983 0.1833535899
706500000.0 0.0374985341 0.1774153382
711475000.0 0.0476975355 0.1701352648
716450000.0 0.0578075164 0.1618556339
721425000.0 0.0681478909 0.152296355
726400000.0 0.0781533565 0.1414449308
731375000.0 0.0877602715 0.1292028327
736350000.0 0.0970613837 0.1159799766
741325000.0 0.1058753933 0.1012055481
746300000.0 0.1144325612 0.0850785369
751275000.0 0.1220373606 0.0682123545
756250000.0 0.1289421401 0.0499135179
761225000.0 0.1352548322 0.0309204297
766200000.0 0.1402211953 0.0108669963
771175000.0 0.1437010454 -0.0110080013
776150000.0 0.1460341794 -0.0331385853
781125000.0 0.1469830281 -0.0562943434
786100000.0 0.1463985456 -0.0797696455
791075000.0 0.1441666386 -0.1038017996
796050000.0 0.1404300888 -0.1279441803
801025000.0 0.134941129 -0.1524813388
806000000.0 0.1276177597 -0.1763450625
810975000.0 0.1182130265 -0.199649269
815950000.0 0.1068456653 -0.2222739507
820925000.0 0.0934791509 -0.2444611612
825900000.0 0.0791041829 -0.2657333148
830875000.0 0.0635726479 -0.2856099729
835850000.0 0.0464639498 -0.3038449429
840825000.0 0.0278892478 -0.3211395866
845800000.0 0.0084729384 -0.3364826583
850775000.0 -0.0123416763 -0.3500682665
855750000.0 -0.0341941254 -0.3625229916
860725000.0 -0.0568062562 -0.3733051962
865700000.0 -0.0799491348 -0.3823397681
870675000.0 -0.1038801048 -0.3896723533
875650000.0 -0.1282877319 -0.3950533329
880625000.0 -0.153487197 -0.3978090747
885600000.0 -0.1793041198 -0.3986984732
890575000.0 -0.2059021105 -0.3967326503
895550000.0 -0.2326136458 -0.3923238728
900525000.0 -0.2598206488 -0.3853447886
905500000.0 -0.2869480852 -0.3747884435
910475000.0 -0.3141512128 -0.360679463
915450000.0 -0.3412120254 -0.3433517114
920425000.0 -0.367637421 -0.3221225551
925400000.0 -0.3936064225 -0.2967531953
930375000.0 -0.4182854118 -0.2674251424
935350000.0 -0.4413933331 -0.2338466091
940325000.0 -0.4625363261 -0.1959009577
945300000.0 -0.4809950413 -0.1528440443
950275000.0 -0.4960043532 -0.1049431928
955250000.0 -0.507086124 -0.0519571973
960225000.0 -0.5127249347 0.0060782337
965200000.0 -0.5118819403 0.069374372
970175000.0 -0.5034529217 0.1374560642
975150000.0 -0.486300004 0.2091997871
980125000.0 -0.4581439411 0.284479064
985100000.0 -0.4168840308 0.3611721881
990075000.0 -0.3616223516 0.4372525296
995050000.0 -0.2910430539 0.5094769799
1000025000.0 -0.2043004414 0.5746203002
1005000000.0 -0.1019423171 0.6287845411
1009975000.0 0.0137266975 0.6669780868
1014950000.0 0.1401095607 0.6845931889
1019925000.0 0.2736461206 0.6792568603
1024900000.0 0.4081323739 0.6487607255
1029875000.0 0.53670351 0.592366004
1034850000.0 0.6539407588 0.5114375093
1039825000.0 0.7537900173 0.4093336658
1044800000.0 0.8315450284 0.2901578444
1049775000.0 0.8843688193 0.1595604224
1054750000.0 0.9091468725 0.0241808309
1059725000.0 0.9036435574 -0.1050642762
1064700000.0 0.8861852553 -0.2142792968
1069675000.0 0.8609549288 -0.3261714696
1074650000.0 0.8132454371 -0.4303825395
1079625000.0 0.7566323204 -0.515709271
1084600000.0 0.6975099171 -0.5993799453
1089575000.0 0.6231083798 -0.6745711497
1094550000.0 0.5389715875 -0.7365888477
1099525000.0 0.4485711966 -0.784853552
1104500000.0 0.3539308358 -0.8177145267
1109475000.0 0.2585154872 -0.8368899752
1114450000.0 0.1638018026 -0.8428218216
1119425000.0 0.0718752822 -0.837856174
1124400000.0 -0.0146140127 -0.8219539904
1129375000.0 -0.0952075282 -0.7970944103
1134350000.0 -0.1701982137 -0.765213275
1139325000.0 -0.238691852 -0.7275996708
1144300000.0 -0.300739122 -0.6854568158
1149275000.0 -0.3575118872 -0.6396337072
1154250000.0 -0.4086061154 -0.5903781187
1159225000.0 -0.4516600595 -0.5381827978
1164200000.0 -0.4881713619 -0.4859431258
1169175000.0 -0.5208400887 -0.4341984933
1174150000.0 -0.5492536982 -0.3821543099
1179125000.0 -0.5736150188 -0.3290783478
1184100000.0 -0.5933695815 -0.2757617851
1189075000.0 -0.6083310689 -0.2234158821
1194050000.0 -0.6192902095 -0.1728915167
1199025000.0 -0.6262315532 -0.1236079283
1204000000.0 -0.6294893434 -0.0767887788
1208975000.0 -0.6302767332 -0.0326305943
1213950000.0 -0.6281202384 0.0105020921
1218925000.0 -0.6243612265 0.0512397503
1223900000.0 -0.6193956353 0.0892367827
1228875000.0 -0.6126423809 0.1246396122
1233850000.0 -0.6050779646 0.1588375755
1238825000.0 -0.5964741596 0.1904960392
1243800000.0 -0.587011384 0.2197007412
1248775000.0 -0.5772335514 0.2476421653
1253750000.0 -0.5678410082 0.2738102794
1258725000.0 -0.5579330426 0.2972877373
1263700000.0 -0.548265768 0.3194961213
1268675000.0 -0.5397043984 0.3405348604
1273650000.0 -0.5311835685 0.3593603779
1278625000.0 -0.5233099234 0.3765688719
1283600000.0 -0.5159095053 0.3924069583
1288575000.0 -0.5088295655 0.4067334995
1293550000.0 -0.5019040532 0.4206953337
1298525000.0 -0.4954407513 0.4324819526
1303500000.0 -0.4888017649 0.444071384
1308475000.0 -0.4822204359 0.4557810308
1313450000.0 -0.4764139257 0.4660049191
1318425000.0 -0.4703404029 0.4755256978
1323400000.0 -0.4640986689 0.4848545476
1328375000.0 -0.4581862008 0.4935596159
1333350000.0 -0.4509923393 0.5020220194
1338325000.0 -0.4439637801 0.5101870521
1343300000.0 -0.4377033654 0.5182412526
1348275000.0 -0.4306065751 0.5258824452
1353250000.0 -0.423537687 0.5329054634
1358225000.0 -0.4166009074 0.5400289967
1363200000.0 -0.4098731285 0.5468253764
1368175000.0 -0.4032210092 0.5533834154
1373150000.0 -0.3967177895 0.5587725939
1378125000.0 -0.3898660214 0.5641333952
1383100000.0 -0.3826184754 0.5693916543
1388075000.0 -0.3763678749 0.574266648
1393050000.0 -0.3698047686 0.578096664
1398025000.0 -0.3628537169 0.5817344641
1403000000.0 -0.3562069875 0.585064539
1407975000.0 -0.349633231 0.587971956
1412950000.0 -0.3425196925 0.5907639228
1417925000.0 -0.3349598671 0.5928442619
1422900000.0 -0.3278674738 0.5950443336
1427875000.0 -0.3203036976 0.5971114127
1432850000.0 -0.3123989432 0.5985955926
1437825000.0 -0.3041799869 0.5994174204
1442800000.0 -0.2958209669 0.6005170447
1447775000.0 -0.2868172462 0.6020687894
1452750000.0 -0.2770572234 0.6026608797
1457725000.0 -0.2672336322 0.6024884626
1462700000.0 -0.2560522884 0.603478878
1467675000.0 -0.2438086972 0.6044159131
1472650000.0 -0.2314118761 0.603955256
1477625000.0 -0.2185272303 0.6040562799
1482600000.0 -0.2047484098 0.6043932636
1487575000.0 -0.1909247471 0.6035023085
1492550000.0 -0.1759651933 0.6017967701
1497525000.0 -0.1600852788 0.6007254376
1502500000.0 -0.1439795396 0.5991803351
1507475000.0 -0.1270443878 0.5973499134
1512450000.0 -0.1101312704 0.5957473692
1517425000.0 -0.0930102594 0.5933056322
1522400000.0 -0.0760303613 0.5906132614
1527375000.0 -0.0582486488 0.5873704982
1532350000.0 -0.0403669429 0.5833639422
1537325000.0 -0.0224975539 0.5785697195
1542300000.0 -0.0039306774 0.5729556129
1547275000.0 0.0151776456 0.5661981009
1552250000.0 0.0341476994 0.5594427724
1557225000.0 0.0532113554 0.5518541611
1562200000.0 0.0729632077 0.5431237158
1567175000.0 0.0924395672 0.5340773066
1572150000.0 0.1122038588 0.5244016928
1577125000.0 0.132663218 0.5134301015
1582100000.0 0.1531684281 0.502173888
1587075000.0 0.1739299191 0.4901670016
1592050000.0 0.1952728443 0.4776433385
1597025000.0 0.2161456661 0.4652750993
1602000000.0 0.2372655126 0.4519205926
1606975000.0 0.2584116575 0.4383879806
1611950000.0 0.2795442637 0.4249324499
1616925000.0 0.3001145283 0.4108072228
1621900000.0 0.3206270704 0.3971340216
1626875000.0 0.3408415902 0.3832853711
1631850000.0 0.360218786 0.3689125412
1636825000.0 0.3786033878 0.3550524265
1641800000.0 0.3971336162 0.3416221783
1646775000.0 0.4150227715 0.3271891659
1651750000.0 0.4314821879 0.3134774014
1656725000.0 0.447558137 0.3004002059
1661700000.0 0.4635502682 0.287032541
1666675000.0 0.4774132899 0.2738434892
1671650000.0 0.4904623963 0.2613461178
1676625000.0 0.5033951487 0.2491603135
1681600000.0 0.5149771062 0.2365194807
1686575000.0 0.5251823165 0.2240664408
1691550000.0 0.5352773192 0.2123413199
1696525000.0 0.544963124 0.2006593726
1701500000.0 0.5536443125 0.1887895215
1706475000.0 0.5618726737 0.1773428944
1711450000.0 0.5696971168 0.165694371
1716425000.0 0.5772810779 0.1544978234
1721400000.0 0.5841234762 0.1427902289
1726375000.0 0.590346511 0.1317306532
1731350000.0 0.5970382935 0.1210580572
1736325000.0 0.6032323188 0.1103186387
1741300000.0 0.6090744427 0.1001115147
1746275000.0 0.6151578267 0.0905758669
1751250000.0 0.6208801084 0.0820890749
1756225000.0 0.6262282837 0.0740778636
1761200000.0 0.6312079716 0.0673008286
1766175000.0 0.6357167247 0.0611614089
1771150000.0 0.6398474143 0.0555508589
1776125000.0 0.6438653341 0.0508087371
1781100000.0 0.6466773261 0.0464948096
1786075000.0 0.6495358388 0.0428435499
1791050000.0 0.6513100277 0.039789705
1796025000.0 0.652807501 0.0369592629
1801000000.0 0.6537223322 0.0342055604
1805975000.0 0.6531655077 0.0317710731
1810950000.0 0.6522293779 0.0288901318
1815925000.0 0.650369442 0.0260871975
1820900000.0 0.6461564435 0.0224862111
1825875000.0 0.6375006556 0.0195679367
1830850000.0 0.6251082749 0.0228526369
1835825000.0 0.6225433167 0.0366240024
1840800000.0 0.6303191946 0.0457829144
1845775000.0 0.6343915134 0.0467242003
1850750000.0 0.6348188342 0.045266285
1855725000.0 0.6332721105 0.0437997642
1860700000.0 0.6295899966 0.0427247407
1865675000.0 0.6251988888 0.0429676385
1870650000.0 0.6202139234 0.043445486
1875625000.0 0.6144905113 0.0435714064
1880600000.0 0.6074257527 0.0441211632
1885575000.0 0.5997338466 0.0451377855
1890550000.0 0.5914127745 0.0456186323
1895525000.0 0.5828540393 0.0457213418
1900500000.0 0.5724862042 0.0460879794
1905475000.0 0.5620880982 0.0460203972
1910450000.0 0.5511354232 0.0452544628
1915425000.0 0.5389331367 0.0449260978
1920400000.0 0.5260915095 0.0444666009
1925375000.0 0.5132790649 0.0439039706
1930350000.0 0.4991096522 0.0439125131
1935325000.0 0.4839884655 0.0435572049
1940300000.0 0.4680747142 0.0433200612
1945275000.0 0.4509826208 0.0436077592
1950250000.0 0.4332726864 0.0438764366
1955225000.0 0.4140179727 0.0444866547
1960200000.0 0.3935186104 0.0454422076
1965175000.0 0.3716900708 0.0473399529
1970150000.0 0.3479834748 0.0488586277
1975125000.0 0.3225403715 0.0501058035
1980100000.0 0.2952913564 0.0525145098
1985075000.0 0.2654121868 0.0551250487
1990050000.0 0.2339115974 0.0567359405
1995025000.0 0.1992190808 0.0592009537
2000000000.0 0.1612366312 0.0620190452
