!Created with skrf (http://scikit-rf.org).
# GHz S RI R 50.0 
!freq ReS11 ImS11
10000000.0 -1.001870114 0.160777
19950000.0 -0.946989498 0.3073028
29900000.0 -0.8701247317 0.4482271134
39850000.0 -0.7710729501 0.5883017905
49800000.0 -0.6515420316 0.7221126067
59750000.0 -0.5058521123 0.84339726
69700000.0 -0.3257667183 0.9391817851
79650000.0 -0.1064841321 0.989922572
89600000.0 0.1504452147 0.9756725781
99550000.0 0.4295394628 0.8753837639
109500000.0 0.7036017727 0.6732295176
119450000.0 0.9225033316 0.3575770754
129400000.0 1.01256479 -0.0505820601
139350000.0 0.9140498577 -0.4679971646
149300000.0 0.638604838 -0.7920053826
159250000.0 0.2750159348 -0.9569652641
169200000.0 -0.0853644117 -0.9772726559
179150000.0 -0.3929328458 -0.8977369305
189100000.0 -0.6305676027 -0.7588932764
199050000.0 -0.7956902609 -0.5887516434
209000000.0 -0.892091522 -0.4047797631
218950000.0 -0.9370921575 -0.2213371072
228900000.0 -0.943058654 -0.0455788447
238850000.0 -0.9232883866 0.1219159463
248800000.0 -0.8726211362 0.2526278309
258750000.0 -0.8364902944 0.4162010493
268700000.0 -0.7652461095 0.5469397421
278650000.0 -0.6709901538 0.6567606902
288600000.0 -0.5518408721 0.7424569926
298550000.0 -0.4102021727 0.801705511
308500000.0 -0.2503272672 0.8356929095
318450000.0 -0.0763936154 0.8411389065
328400000.0 0.1048322309 0.8107116737
338350000.0 0.2767828283 0.7328672421
348300000.0 0.4163024723 0.6000073794
358250000.0 0.4940422825 0.4196869012
368200000.0 0.4937986501 0.2213739191
378150000.0 0.4231921134 0.0431111242
388100000.0 0.308062854 -0.0867853338
398050000.0 0.1799274494 -0.1549711685
408000000.0 0.0654129575 -0.1650197395
417950000.0 -0.0213696992 -0.1325183841
427900000.0 -0.0784461491 -0.0755966688
437850000.0 -0.1104954323 -0.0106489114
447800000.0 -0.1231673676 0.0498438024
457750000.0 -0.1213990928 0.0976068907
467700000.0 -0.1078942678 0.1280911957
477650000.0 -0.0848300491 0.1397454454
487600000.0 -0.0549384151 0.136306781
497550000.0 -0.0255478179 0.1197202792
507500000.0 0.0036868308 0.1069857947
517450000.0 0.0293433145 0.0874689481
527400000.0 0.0431026727 0.0687706375
537350000.0 0.0424806845 0.0513496605
547300000.0 0.0307634005 0.0338961287
557250000.0 0.0068358418 0.0143656322
567200000.0 -0.0227086283 -0.003808126
577150000.0 -0.0529754401 -0.0186477202
587100000.0 -0.0793081865 -0.0274809569
597050000.0 -0.0996431959 -0.0266000003
607000000.0 -0.1139031826 -0.0138931381
616950000.0 -0.1235907226 0.0091888609
626900000.0 -0.1303423863 0.0409090837
636850000.0 -0.1342286351 0.0754909172
646800000.0 -0.1347201003 0.1085537183
656750000.0 -0.1297808116 0.1358771364
666700000.0 -0.1168054299 0.1543733439
676650000.0 -0.0938268193 0.1635605171
686600000.0 -0.061218277 0.166030099
696550000.0 -0.0212448585 0.1633314861
706500000.0 0.0217723253 0.1557476916
716450000.0 0.0630241269 0.1435958475
726400000.0 0.0966393741 0.1244687446
736350000.0 0.1196197935 0.096260971
746300000.0 0.1296110259 0.0571473769
756250000.0 0.1267292295 0.007034022
766200000.0 0.1128873202 -0.0502621002
776150000.0 0.0895599244 -0.1088846052
786100000.0 0.0573696034 -0.1624438183
796050000.0 0.0161793134 -0.2035979523
806000000.0 -0.0336637549 -0.2268778237
815950000.0 -0.0927120647 -0.2299102243
825900000.0 -0.1585221802 -0.213620066
835850000.0 -0.2272768623 -0.1813924016
845800000.0 -0.2934381282 -0.13714147
855750000.0 -0.3506392061 -0.0834416368
865700000.0 -0.3915670113 -0.0214574144
875650000.0 -0.4103349462 0.0472535906
885600000.0 -0.4044478039 0.1226355351
895550000.0 -0.3743296271 0.2030936676
905500000.0 -0.322360535 0.285806646
915450000.0 -0.2525118525 0.3653827035
925400000.0 -0.1652804406 0.4332434848
935350000.0 -0.0616913384 0.4797604529
945300000.0 0.0571072101 0.4929107692
955250000.0 0.1880424595 0.4626086765
965200000.0 0.3236002094 0.3806611945
975150000.0 0.4494391754 0.2436674072
985100000.0 0.541114766 0.0505826168
995050000.0 0.5641365939 -0.1894190459
1005000000.0 0.4800682139 -0.43984141
1014950000.0 0.2653243754 -0.654342958
1024900000.0 -0.0533256477 -0.7571443027
1034850000.0 -0.4003501118 -0.7085836438
1044800000.0 -0.6876934308 -0.5133756905
1054750000.0 -0.8367797221 -0.213237464
1064700000.0 -0.7951068618 0.0711302249
1074650000.0 -0.7503440371 0.3264215966
1084600000.0 -0.6006855453 0.5513711658
1094550000.0 -0.444251443 0.7162981028
1104500000.0 -0.1959739368 0.8036503901
1114450000.0 0.0686411802 0.8055208075
1124400000.0 0.3115093641 0.7269998155
1134350000.0 0.5003832021 0.5790197491
1144300000.0 0.6191738083 0.3837940043
1154250000.0 0.6671711267 0.1721792852
1164200000.0 0.663486426 -0.0287454815
1174150000.0 0.6277449204 -0.2063433059
1184100000.0 0.553211074 -0.3620799583
1194050000.0 0.4485760359 -0.4858830063
1204000000.0 0.3231922537 -0.5681421079
1213950000.0 0.1876235338 -0.6104417635
1223900000.0 0.0520444439 -0.6220170868
1233850000.0 -0.0766799244 -0.613997605
1243800000.0 -0.1939350784 -0.5930115666
1253750000.0 -0.2971352724 -0.5622140886
1263700000.0 -0.3844560232 -0.5206040504
1273650000.0 -0.4550202541 -0.4687085725
1283600000.0 -0.508495534 -0.4041726772
1293550000.0 -0.5481447136 -0.3300709564
1303500000.0 -0.5799082839 -0.2504010588
1313450000.0 -0.6061361618 -0.1695437346
1323400000.0 -0.629841636 -0.0912492987
1333350000.0 -0.6491775397 -0.0174433476
1343300000.0 -0.659802827 0.0525226566
1353250000.0 -0.6586914427 0.1169176947
1363200000.0 -0.6422016446 0.1783913018
1373150000.0 -0.6099315914 0.2387867451
1383100000.0 -0.5674234553 0.2988953643
1393050000.0 -0.5192193398 0.3592939196
1403000000.0 -0.4700262437 0.417939978
1412950000.0 -0.4214480077 0.4727681431
1422900000.0 -0.3723636648 0.5200063256
1432850000.0 -0.3200769675 0.5557301575
1442800000.0 -0.2620063965 0.5792090661
1452750000.0 -0.1963854508 0.5902259682
1462700000.0 -0.1221336539 0.5914512732
1472650000.0 -0.0414939581 0.5867951049
1482600000.0 0.0419521456 0.5793841095
1492550000.0 0.1247035274 0.5668983907
1502500000.0 0.2035424221 0.5467814012
1512450000.0 0.2746590535 0.5142806842
1522400000.0 0.3364882024 0.4659978366
1532350000.0 0.387350321 0.399529501
1542300000.0 0.4291218954 0.3177343681
1552250000.0 0.4634967681 0.2250047689
1562200000.0 0.4911877857 0.1282033648
1572150000.0 0.5089854279 0.0320145609
1582100000.0 0.5140232267 -0.0612067647
1592050000.0 0.5016671394 -0.1487001959
1602000000.0 0.4677338797 -0.2296237554
1611950000.0 0.4143648246 -0.303876153
1621900000.0 0.3459776786 -0.3724494017
1631850000.0 0.2680954099 -0.4358983226
1641800000.0 0.1861066694 -0.4923679417
1651750000.0 0.1027060805 -0.5382189565
1661700000.0 0.0206894597 -0.569784896
1671650000.0 -0.0591903259 -0.5818349333
1681600000.0 -0.1363060956 -0.5735113158
1691550000.0 -0.2112137122 -0.5489894475
1701500000.0 -0.2859061789 -0.5135977161
1711450000.0 -0.3579285834 -0.4729639692
1721400000.0 -0.4264509541 -0.4306307367
1731350000.0 -0.4887493974 -0.3894630003
1741300000.0 -0.5408183147 -0.3467441004
1751250000.0 -0.5791900606 -0.2981796986
1761200000.0 -0.6034802969 -0.2434113371
1771150000.0 -0.6154838995 -0.1812764182
1781100000.0 -0.6206271672 -0.1129006889
1791050000.0 -0.6231220873 -0.0402137472
1801000000.0 -0.6271274207 0.0445712391
1810950000.0 -0.6330129746 0.0875104568
1820900000.0 -0.636501813 0.0106095031
1830850000.0 -0.6331036981 0.0924833243
1840800000.0 -0.6172173137 0.1570449594
1850750000.0 -0.5871188285 0.2077960257
1860700000.0 -0.5434472298 0.2513889577
1870650000.0 -0.4917939608 0.2921418896
1880600000.0 -0.4362510009 0.3291603127
1890550000.0 -0.3768068082 0.3633235599
1900500000.0 -0.3038256082 0.3915263766
1910450000.0 -0.2637170307 0.4101795751
1920400000.0 -0.3217178203 0.4184245503
1930350000.0 -0.3003141518 0.41304725
1940300000.0 -0.2585142579 0.3965423566
1950250000.0 -0.2101991328 0.3705023276
1960200000.0 -0.160667439 0.3395403612
1970150000.0 -0.1165325226 0.304628058
1980100000.0 -0.0822085116 0.2665315548
1990050000.0 -0.0642658495 0.2227704894
2000000000.0 -0.0658801062 0.1699413615
