!Created with skrf (http://scikit-rf.org).
# GHz S RI R 50.0 
!freq ReS11 ImS11
10000000.0 -0.9774896809 0.0692080747
19950000.0 -0.9675113565 0.1341737912
29900000.0 -0.9522249898 0.2019568249
39850000.0 -0.9307845478 0.2738282239
49800000.0 -0.9000619553 0.3519196456
59750000.0 -0.858176806 0.4373940483
69700000.0 -0.8008859481 0.5307933966
79650000.0 -0.7226241713 0.6326190532
89600000.0 -0.614374332 0.7398561138
99550000.0 -0.4662555131 0.8442028504
109500000.0 -0.2693324608 0.9301010126
119450000.0 -0.020647225 0.9711024901
129400000.0 0.2614074048 0.9299019639
139350000.0 0.5393101775 0.8124967529
149300000.0 0.7697009696 0.5997415207
159250000.0 0.9154525137 0.3353979834
169200000.0 0.9691847533 0.0641000465
179150000.0 0.9486041107 -0.1778771075
189100000.0 0.8803816946 -0.3754396913
199050000.0 0.7897762311 -0.5277227695
209000000.0 0.69083476 -0.6411199588
218950000.0 0.5931036625 -0.7260102228
228900000.0 0.4986063848 -0.7891860398
238850000.0 0.4029207673 -0.8365753143
248800000.0 0.1764375662 -0.7773298555
258750000.0 0.2580260782 -0.8785764683
268700000.0 0.165468996 -0.8939264473
278650000.0 0.0760681403 -0.8973823052
288600000.0 -0.0146968031 -0.8906562169
298550000.0 -0.1078923489 -0.871095929
308500000.0 -0.2043092975 -0.8358482514
318450000.0 -0.3019285756 -0.77971559
328400000.0 -0.3958784082 -0.6980345855
338350000.0 -0.477894089 -0.5884075758
348300000.0 -0.5355928935 -0.4526387664
358250000.0 -0.5567056282 -0.3005265995
368200000.0 -0.5343832367 -0.1483990369
378150000.0 -0.4730610772 -0.015651287
388100000.0 -0.3842058982 0.0857592358
398050000.0 -0.2846176329 0.1506521328
408000000.0 -0.1871689209 0.1834767924
417950000.0 -0.1019304519 0.1909550386
427900000.0 -0.032844533 0.1812094723
437850000.0 0.0186567874 0.1601523056
447800000.0 0.0534514339 0.1336537508
457750000.0 0.0737079703 0.1046440299
467700000.0 0.0814215056 0.0767717683
477650000.0 0.0783556752 0.0507843708
487600000.0 0.0632544433 0.0271935109
497550000.0 0.0031819276 0.0778107963
507500000.0 0.0524795375 0.0179751818
517450000.0 0.0260684936 0.0065088104
527400000.0 0.0006679493 0.003151685
537350000.0 -0.0242764309 0.0041053789
547300000.0 -0.0520197515 0.0104468645
557250000.0 -0.0735207977 0.0236161703
567200000.0 -0.0917279167 0.0373185258
577150000.0 -0.1070547583 0.052564916
587100000.0 -0.1197027827 0.0692093253
597050000.0 -0.1290844779 0.085865377
607000000.0 -0.1350482861 0.1023355875
616950000.0 -0.1380903274 0.1175385329
626900000.0 -0.1373155879 0.1313942719
636850000.0 -0.1326864756 0.143727116
646800000.0 -0.1237944272 0.1536202251
656750000.0 -0.111654322 0.1616767942
666700000.0 -0.0964359561 0.1671805679
676650000.0 -0.0795325901 0.1696766166
686600000.0 -0.0606191303 0.1687705493
696550000.0 -0.039518722 0.1638537582
706500000.0 -0.0165948132 0.1536077672
716450000.0 0.0081622975 0.1380594265
726400000.0 0.0344489276 0.1174966432
736350000.0 0.060849902 0.0916354952
746300000.0 0.0855993944 0.0621030423
756250000.0 0.1081718237 0.0279890306
766200000.0 0.1261348003 -0.0101347444
776150000.0 0.1387776278 -0.0518009571
786100000.0 0.1454590232 -0.0959161394
796050000.0 0.1458385033 -0.141985319
806000000.0 0.141107344 -0.1890318386
815950000.0 0.1312112779 -0.2341998597
825900000.0 0.1165634618 -0.2755398554
835850000.0 0.0971053866 -0.3119663538
845800000.0 0.0725309003 -0.3418546101
855750000.0 0.0430238301 -0.3656631243
865700000.0 0.009004555 -0.3844408657
875650000.0 -0.0292189754 -0.3975577038
885600000.0 -0.0713219145 -0.404610945
895550000.0 -0.1164787274 -0.4042620267
905500000.0 -0.1636313943 -0.3946440301
915450000.0 -0.2125979307 -0.3731685597
925400000.0 -0.262184632 -0.3371099835
935350000.0 -0.3112505999 -0.282140325
945300000.0 -0.3545416045 -0.2061776429
955250000.0 -0.3835730412 -0.1103480883
965200000.0 -0.3986229505 0.0007232106
975150000.0 -0.3942594563 0.1390836622
985100000.0 -0.3422884965 0.3001197182
995050000.0 -0.2266470468 0.4591225694
1005000000.0 -0.0449868557 0.5842189373
1014950000.0 0.1834748723 0.6397798545
1024900000.0 0.4207172725 0.607865908
1034850000.0 0.6247318699 0.4945689701
1044800000.0 0.7675968126 0.3220740037
1054750000.0 0.8274880995 0.1130892659
1064700000.0 0.7512979114 -0.0318939097
1074650000.0 0.8061377952 -0.1162414962
1084600000.0 0.7904920965 -0.2660269721
1094550000.0 0.7196179402 -0.4356549773
1104500000.0 0.5948598838 -0.5592406213
1114450000.0 0.4433030793 -0.6451200419
1124400000.0 0.2734772624 -0.6909991936
1134350000.0 0.0984912655 -0.6934079248
1144300000.0 -0.0676893561 -0.6536619479
1154250000.0 -0.2119683775 -0.5777661222
1164200000.0 -0.3254234944 -0.4799495244
1174150000.0 -0.4141993064 -0.3741021899
1184100000.0 -0.4806880804 -0.2597065924
1194050000.0 -0.5227915598 -0.1458061873
1204000000.0 -0.5441372256 -0.0414887896
1213950000.0 -0.5503261016 0.0493269071
1223900000.0 -0.5466263173 0.1258034141
1233850000.0 -0.5375954902 0.1891726695
1243800000.0 -0.5251334549 0.2420832474
1253750000.0 -0.5116696249 0.2874074419
1263700000.0 -0.4976704993 0.3271347236
1273650000.0 -0.4854611977 0.3608681523
1283600000.0 -0.4751928378 0.3895631345
1293550000.0 -0.4671900382 0.4122703709
1303500000.0 -0.4617964244 0.4293679001
1313450000.0 -0.4584160872 0.4414490555
1323400000.0 -0.455923296 0.4497550463
1333350000.0 -0.4530623701 0.4561336449
1343300000.0 -0.4504272002 0.46295988
1353250000.0 -0.4479081064 0.4698569829
1363200000.0 -0.4451934114 0.4771473736
1373150000.0 -0.4413811788 0.4832786458
1383100000.0 -0.4371206063 0.4878637676
1393050000.0 -0.4323945473 0.4899823802
1403000000.0 -0.4262457117 0.4893656953
1412950000.0 -0.4189429373 0.485825069
1422900000.0 -0.4106888021 0.4809349385
1432850000.0 -0.4016988292 0.475332898
1442800000.0 -0.3930292758 0.4704573833
1452750000.0 -0.3863732651 0.4681194141
1462700000.0 -0.378845156 0.4693932091
1472650000.0 -0.3680202742 0.4742529559
1482600000.0 -0.3524241753 0.4801837956
1492550000.0 -0.3320814788 0.4848422823
1502500000.0 -0.306955587 0.4882879208
1512450000.0 -0.2776638647 0.4900119601
1522400000.0 -0.2451449655 0.4910962021
1532350000.0 -0.2098097587 0.4911987104
1542300000.0 -0.1707187005 0.490075838
1552250000.0 -0.128722757 0.4871387683
1562200000.0 -0.0847479503 0.4818687212
1572150000.0 -0.040012069 0.4745883764
1582100000.0 0.0063592048 0.4653674404
1592050000.0 0.0538616394 0.4547617897
1602000000.0 0.1012550014 0.4418070189
1611950000.0 0.1483162728 0.4273963579
1621900000.0 0.1940239893 0.4108377079
1631850000.0 0.237940407 0.3917067726
1641800000.0 0.2798169755 0.3702179272
1651750000.0 0.3197672241 0.345909298
1661700000.0 0.3572222328 0.3204128258
1671650000.0 0.3919198814 0.2959499148
1681600000.0 0.4235984977 0.272940079
1691550000.0 0.4521305223 0.2519651422
1701500000.0 0.4773317566 0.2335059469
1711450000.0 0.4991567774 0.2166126219
1721400000.0 0.5178927937 0.2008948229
1731350000.0 0.5334323429 0.1853926944
1741300000.0 0.5470474736 0.1703158782
1751250000.0 0.5582977679 0.1562435453
1761200000.0 0.5662331678 0.1421156148
1771150000.0 0.568427513 0.1270984699
1781100000.0 0.5521389263 0.1100075726
1791050000.0 0.5083387306 0.1509050101
1801000000.0 0.5532864915 0.187144195
1810950000.0 0.5726510933 0.1807519941
1820900000.0 0.5785707199 0.1761049137
1830850000.0 0.5808674053 0.1730197459
1840800000.0 0.581014902 0.171363114
1850750000.0 0.5781350391 0.170058684
1860700000.0 0.5713634741 0.1692571937
1870650000.0 0.5605495941 0.1692668488
1880600000.0 0.545723088 0.1699709732
1890550000.0 0.5268709886 0.1714843608
1900500000.0 0.5059351144 0.1720387736
1910450000.0 0.4840114956 0.1711972097
1920400000.0 0.4620504727 0.1681637777
1930350000.0 0.4390959198 0.1629696181
1940300000.0 0.4137908187 0.155410142
1950250000.0 0.3841163473 0.1457605856
1960200000.0 0.3483914738 0.1343204246
1970150000.0 0.305997102 0.1213310177
1980100000.0 0.2552092281 0.1079903922
1990050000.0 0.1965183503 0.0945836047
2000000000.0 0.1287180818 0.0823154489
