!Created with skrf (http://scikit-rf.org).
# GHz S RI R 50.0 
!freq ReS11 ImS11
10000000.0 -0.8914989022 0.4476440277
19950000.0 -0.6011826208 0.7866535694
29900000.0 -0.191673356 0.9669630426
39850000.0 0.2624716232 0.9494327096
49800000.0 0.6699327587 0.7245723579
59750000.0 0.9356053966 0.3246641471
69700000.0 0.979469583 -0.1702466915
79650000.0 0.7646610199 -0.6386987235
89600000.0 0.3226695748 -0.9410493191
99550000.0 -0.2347680796 -0.9606752964
109500000.0 -0.7303582761 -0.6540155486
119450000.0 -0.9683142166 -0.0928540778
129400000.0 -0.8156958742 0.5176579648
139350000.0 -0.2932859233 0.924978186
149300000.0 0.3745985596 0.8986429835
159250000.0 0.862533424 0.4551832559
169200000.0 0.9560678392 -0.1718209225
179150000.0 0.6661380338 -0.6958108145
189100000.0 0.1587817187 -0.9405409879
199050000.0 -0.3687124427 -0.8717948284
209000000.0 -0.7653213098 -0.5514253077
218950000.0 -0.9380394156 -0.0945342813
228900000.0 -0.8654200163 0.3786009598
238850000.0 -0.5729341018 0.7529300821
248800000.0 -0.2164827934 0.7241429332
258750000.0 0.2713195441 0.9017703884
268700000.0 0.657289944 0.6628181333
278650000.0 0.8778236234 0.2779385708
288600000.0 0.8905857166 -0.1604282256
298550000.0 0.6956106022 -0.5502424723
308500000.0 0.3373614235 -0.7971283602
318450000.0 -0.0960895952 -0.8341275865
328400000.0 -0.4854248185 -0.6444952981
338350000.0 -0.7099123874 -0.2812178844
348300000.0 -0.6946383376 0.1319044499
358250000.0 -0.4579915557 0.442514043
368200000.0 -0.1151167279 0.5441435132
378150000.0 0.1829771507 0.4348795491
388100000.0 0.3327145385 0.2041569984
398050000.0 0.3164515317 -0.0301659477
408000000.0 0.1860049382 -0.1773701635
417950000.0 0.0252955874 -0.2096043736
427900000.0 -0.0972718611 -0.1490044811
437850000.0 -0.1479351317 -0.0469512941
447800000.0 -0.1300515239 0.0474778918
457750000.0 -0.069728241 0.1017041199
467700000.0 -0.0020082418 0.1073194122
477650000.0 0.045504145 0.0758223441
487600000.0 0.0559447621 0.0295509961
497550000.0 0.0453758718 0.0795203191
507500000.0 0.0476859628 -0.0224288679
517450000.0 0.0132958626 -0.023559735
527400000.0 -0.0025469242 -0.0053327524
537350000.0 0.002652442 0.0153749387
547300000.0 0.0300541536 0.0273151507
557250000.0 0.0621961078 0.0085330612
567200000.0 0.0798884414 -0.0302080798
577150000.0 0.0744221412 -0.080008828
587100000.0 0.0406858451 -0.126868609
597050000.0 -0.0171797934 -0.1539952227
607000000.0 -0.0860724686 -0.1500484053
616950000.0 -0.1487486747 -0.1113432798
626900000.0 -0.1865770229 -0.0444342552
636850000.0 -0.1885588362 0.0356638176
646800000.0 -0.1508456647 0.1092985005
656750000.0 -0.0813579731 0.1575896328
666700000.0 0.0041150017 0.1675206583
676650000.0 0.0840046065 0.1358926668
686600000.0 0.1380946482 0.0711680192
696550000.0 0.1531561518 -0.0091366556
706500000.0 0.1261818563 -0.0820924727
716450000.0 0.0670786348 -0.1267521054
726400000.0 -0.0050081056 -0.1299511893
736350000.0 -0.0645180641 -0.0903743935
746300000.0 -0.0898714738 -0.0202461748
756250000.0 -0.0674300025 0.0564430237
766200000.0 -0.0002324328 0.1104057746
776150000.0 0.0933119192 0.1180607562
786100000.0 0.1824721943 0.069415942
796050000.0 0.2354371153 -0.0270490266
806000000.0 0.2292484959 -0.1456921677
815950000.0 0.1550426946 -0.2528578805
825900000.0 0.0262078014 -0.3128600074
835850000.0 -0.1280208207 -0.3002191918
845800000.0 -0.2670933766 -0.2076783377
855750000.0 -0.3505402581 -0.0502716316
865700000.0 -0.3495389357 0.1366921653
875650000.0 -0.2574261261 0.3075540175
885600000.0 -0.0917167048 0.4168777981
895550000.0 0.1106265101 0.4344935245
905500000.0 0.2994904215 0.3506940752
915450000.0 0.4259088499 0.1807319524
925400000.0 0.4507593756 -0.0367161432
935350000.0 0.355665655 -0.24499582
945300000.0 0.1533246273 -0.3777374917
955250000.0 -0.1047448619 -0.3747491818
965200000.0 -0.3275888746 -0.2103610137
975150000.0 -0.4080794032 0.0784414083
985100000.0 -0.2727214702 0.3756657016
995050000.0 0.0525463768 0.5219169934
1005000000.0 0.4291345503 0.4036121772
1014950000.0 0.6523034542 0.0245279658
1024900000.0 0.5545179388 -0.450773627
1034850000.0 0.1327808257 -0.7606169558
1044800000.0 -0.4092512805 -0.7089570216
1054750000.0 -0.7807871917 -0.3105343132
1064700000.0 -0.7943555276 0.1583390263
1074650000.0 -0.6097687739 0.5853030605
1084600000.0 -0.2276032335 0.7452137546
1094550000.0 0.1866379271 0.8005635242
1104500000.0 0.5782074932 0.5522417041
1114450000.0 0.7457240316 0.1248072244
1124400000.0 0.6305160293 -0.3122199566
1134350000.0 0.2879567677 -0.5845410342
1144300000.0 -0.1260668583 -0.5949790893
1154250000.0 -0.4383100983 -0.3737389844
1164200000.0 -0.5514692765 -0.0455175879
1174150000.0 -0.4752843961 0.2610893786
1184100000.0 -0.2572408726 0.4709889913
1194050000.0 0.0331055585 0.5268196885
1204000000.0 0.3037268387 0.4195317482
1213950000.0 0.4755652996 0.1873259153
1223900000.0 0.5025952161 -0.0977702121
1233850000.0 0.3852859461 -0.3540616723
1243800000.0 0.1652601183 -0.5182038997
1253750000.0 -0.097044192 -0.5617251715
1263700000.0 -0.342560453 -0.4884994271
1273650000.0 -0.52840978 -0.3246550846
1283600000.0 -0.6287147701 -0.1048429829
1293550000.0 -0.6326239962 0.1348950864
1303500000.0 -0.5406280777 0.3577152268
1313450000.0 -0.3649440315 0.5287752464
1323400000.0 -0.129321945 0.6180955027
1333350000.0 0.1284849187 0.6049731404
1343300000.0 0.36420276 0.4870888417
1353250000.0 0.5340353554 0.2831843472
1363200000.0 0.6090059045 0.0310632664
1373150000.0 0.5806574546 -0.2246646378
1383100000.0 0.4598900495 -0.4428343413
1393050000.0 0.2731505812 -0.5936153566
1403000000.0 0.0509709296 -0.66188943
1412950000.0 -0.175111355 -0.6428425794
1422900000.0 -0.3752791269 -0.5427350658
1432850000.0 -0.5227065626 -0.3740997231
1442800000.0 -0.5961881017 -0.1603501814
1452750000.0 -0.5837860332 0.0690919992
1462700000.0 -0.4819566402 0.2827045
1472650000.0 -0.2990843985 0.4436638504
1482600000.0 -0.0636336744 0.5178618102
1492550000.0 0.1795512346 0.4881801434
1502500000.0 0.3828590965 0.3632760655
1512450000.0 0.510142169 0.1722209857
1522400000.0 0.5445721373 -0.0449122028
1532350000.0 0.4862759512 -0.2480485124
1542300000.0 0.3506393245 -0.4030080521
1552250000.0 0.1627289716 -0.483309354
1562200000.0 -0.042253373 -0.4734805923
1572150000.0 -0.2247315771 -0.3717530464
1582100000.0 -0.3437190174 -0.1950278513
1592050000.0 -0.368453797 0.0182256287
1602000000.0 -0.2932194716 0.2182769917
1611950000.0 -0.1333618173 0.3572393109
1621900000.0 0.067708566 0.4038846422
1631850000.0 0.262485045 0.3527237691
1641800000.0 0.4090927766 0.2194409852
1651750000.0 0.4783803717 0.034741679
1661700000.0 0.4575920416 -0.1639313848
1671650000.0 0.3487720849 -0.3378084022
1681600000.0 0.1686483405 -0.450422192
1691550000.0 -0.0513654892 -0.4746505845
1701500000.0 -0.26704304 -0.3970703955
1711450000.0 -0.4296974518 -0.2283226905
1721400000.0 -0.5012321787 -0.0035891152
1731350000.0 -0.4644318405 0.2222675136
1741300000.0 -0.3464413614 0.3926724071
1751250000.0 -0.2012034465 0.513647565
1761200000.0 -0.00449555 0.5874074068
1771150000.0 0.212496745 0.5705847474
1781100000.0 0.4031448403 0.4693135635
1791050000.0 0.5410609904 0.304221893
1801000000.0 0.607294151 0.0976648026
1810950000.0 0.5912502835 -0.1223807503
1820900000.0 0.4902720757 -0.3238581347
1830850000.0 0.3158727549 -0.473156319
1840800000.0 0.0946558899 -0.5426524147
1850750000.0 -0.1358639702 -0.5191010144
1860700000.0 -0.3339900735 -0.4087057605
1870650000.0 -0.4690204801 -0.2362612983
1880600000.0 -0.5255182484 -0.0361179774
1890550000.0 -0.5051733325 0.1585480056
1900500000.0 -0.4206213191 0.3208445066
1910450000.0 -0.2913190897 0.4336170311
1920400000.0 -0.1390610216 0.4872757072
1930350000.0 0.0137730699 0.4784930625
1940300000.0 0.1437329698 0.4132082144
1950250000.0 0.2297380248 0.30559003
1960200000.0 0.2580564521 0.1800992424
1970150000.0 0.2288150048 0.0673371013
1980100000.0 0.159686027 -0.0050809671
1990050000.0 0.0816159175 -0.0227882717
2000000000.0 0.0323248477 0.0103248129
