!Created with skrf (http://scikit-rf.org).
# GHz S RI R 50.0 
!freq ReS11 ImS11
10000000.0 -0.9742782057 0.1790855162
19950000.0 -0.9394113797 0.3460327204
29900000.0 -0.879289091 0.5020901285
39850000.0 -0.7806089087 0.6425277066
49800000.0 -0.6462168743 0.7607219671
59750000.0 -0.4774636865 0.8544274507
69700000.0 -0.2779075941 0.9224465494
79650000.0 -0.0523988448 0.9590173442
89600000.0 0.1953304173 0.9499258003
99550000.0 0.4536172902 0.8733311451
109500000.0 0.6956613057 0.7036030991
119450000.0 0.8811316685 0.4308854103
129400000.0 0.9657310823 0.0743998414
139350000.0 0.915234721 -0.3157041737
149300000.0 0.7223195799 -0.6712264418
159250000.0 0.414677616 -0.9202887728
169200000.0 0.0558164159 -1.016902032
179150000.0 -0.2841727766 -0.9648364312
189100000.0 -0.5603440559 -0.8098991452
199050000.0 -0.761088868 -0.6012620445
209000000.0 -0.8919677695 -0.3729991534
218950000.0 -0.9650465945 -0.146621627
228900000.0 -0.9800349254 0.0673081193
238850000.0 -0.939455827 0.2633285763
248800000.0 -0.7173537557 0.457974667
258750000.0 -0.7560459131 0.54858691
268700000.0 -0.6156923833 0.6768180554
278650000.0 -0.4600575055 0.7796374984
288600000.0 -0.2910276738 0.8546234476
298550000.0 -0.1123585195 0.8927114469
308500000.0 0.0700702015 0.8819785751
318450000.0 0.2466580029 0.8145681493
328400000.0 0.406007589 0.6919392369
338350000.0 0.5327631309 0.5226380159
348300000.0 0.6104301999 0.3210953515
358250000.0 0.6233278452 0.1079221458
368200000.0 0.5643898918 -0.0826654158
378150000.0 0.4425378731 -0.218063887
388100000.0 0.2878021269 -0.2879639458
398050000.0 0.1342726276 -0.295825408
408000000.0 0.0036461066 -0.2601920035
417950000.0 -0.0925291118 -0.2028398659
427900000.0 -0.1492557265 -0.1406588662
437850000.0 -0.1670611935 -0.0795200161
447800000.0 -0.1568827624 -0.02631361
457750000.0 -0.1285963264 0.0185645146
467700000.0 -0.0947312719 0.051308715
477650000.0 -0.063032311 0.0692684856
487600000.0 -0.0354945055 0.0684479413
497550000.0 -0.0870309619 0.0507731462
507500000.0 -0.0206965377 0.068878339
517450000.0 -0.0180079728 0.0330274299
527400000.0 -0.0224497265 0.0001410804
537350000.0 -0.0296748209 -0.027526674
547300000.0 -0.0423276267 -0.0447774885
557250000.0 -0.0586145827 -0.0500443702
567200000.0 -0.0786388101 -0.0415869007
577150000.0 -0.1030083693 -0.0233777106
587100000.0 -0.1320986454 6.76027e-05
597050000.0 -0.1581421548 0.023910073
607000000.0 -0.1764345288 0.0453040494
616950000.0 -0.1821563166 0.0675369523
626900000.0 -0.1757626333 0.08772947
636850000.0 -0.1553265793 0.1095173088
646800000.0 -0.1246826391 0.1318908423
656750000.0 -0.0903965565 0.1580658755
666700000.0 -0.058348225 0.1785219959
676650000.0 -0.0258925776 0.1886112693
686600000.0 0.002086349 0.1872526622
696550000.0 0.0267475555 0.1707213505
706500000.0 0.0499861961 0.1425586121
716450000.0 0.0741730562 0.0998582933
726400000.0 0.0960409403 0.0504021479
736350000.0 0.1105754334 0.0002572646
746300000.0 0.1146265366 -0.0483044904
756250000.0 0.1006796518 -0.0900375761
766200000.0 0.0689692671 -0.1240188909
776150000.0 0.0173307523 -0.1505255663
786100000.0 -0.048317427 -0.1692260655
796050000.0 -0.1194171865 -0.1790084092
806000000.0 -0.1920444072 -0.1786464967
815950000.0 -0.2539537684 -0.1631402966
825900000.0 -0.3028141685 -0.1286851814
835850000.0 -0.336549097 -0.0754128937
845800000.0 -0.3562348055 -0.0041018922
855750000.0 -0.3628209636 0.0793629566
865700000.0 -0.356330435 0.1691607519
875650000.0 -0.3302170301 0.2559269173
885600000.0 -0.2828400936 0.3177804995
895550000.0 -0.2330439794 0.3558411624
905500000.0 -0.1671356421 0.3880120479
915450000.0 -0.0762671328 0.4068265983
925400000.0 0.0335175534 0.4006360246
935350000.0 0.1562826896 0.3686635833
945300000.0 0.2777052379 0.3005120139
955250000.0 0.3790561331 0.1851158363
965200000.0 0.4336313145 0.0182261687
975150000.0 0.4085055246 -0.1918529687
985100000.0 0.27859338 -0.4117724917
995050000.0 0.0402521911 -0.5804845948
1005000000.0 -0.2766217079 -0.628154684
1014950000.0 -0.5820950556 -0.5108897351
1024900000.0 -0.7847960921 -0.2582020871
1034850000.0 -0.8463091917 0.0470458029
1044800000.0 -0.7900028176 0.3359248142
1054750000.0 -0.6431475499 0.569074702
1064700000.0 -0.4708359462 0.6806902777
1074650000.0 -0.3032836142 0.8137323135
1084600000.0 -0.0759411049 0.8541891748
1094550000.0 0.1498900467 0.8106714899
1104500000.0 0.3506352243 0.7024880432
1114450000.0 0.5134598897 0.5504820501
1124400000.0 0.6279829033 0.3662316671
1134350000.0 0.6830401861 0.1649046529
1144300000.0 0.6671656928 -0.0396846325
1154250000.0 0.5821858793 -0.2227237725
1164200000.0 0.4458096893 -0.3703001214
1174150000.0 0.2820205322 -0.473442875
1184100000.0 0.1120175251 -0.5302903733
1194050000.0 -0.0465600528 -0.5473271266
1204000000.0 -0.1887320093 -0.5234384369
1213950000.0 -0.3048855832 -0.4663158611
1223900000.0 -0.399141588 -0.3808594349
1233850000.0 -0.4711647119 -0.2796811552
1243800000.0 -0.5255081376 -0.1705171596
1253750000.0 -0.5655705183 -0.0686183855
1263700000.0 -0.5919587937 0.0268980791
1273650000.0 -0.6014164194 0.1093413452
1283600000.0 -0.5960343066 0.1806985674
1293550000.0 -0.5726486309 0.2467464525
1303500000.0 -0.5335198346 0.3088446434
1313450000.0 -0.485029172 0.3732331823
1323400000.0 -0.4317075799 0.4374399934
1333350000.0 -0.3790669137 0.4999063927
1343300000.0 -0.3277428793 0.5564327499
1353250000.0 -0.2787184033 0.5997265083
1363200000.0 -0.2275991234 0.6287860223
1373150000.0 -0.1745911582 0.6422753504
1383100000.0 -0.1145401732 0.6421119782
1393050000.0 -0.0468391796 0.6364509757
1403000000.0 0.0265114026 0.6279278091
1412950000.0 0.1014494462 0.6200104436
1422900000.0 0.1732515104 0.6117711498
1432850000.0 0.2376523409 0.5998963736
1442800000.0 0.2913549383 0.5792444944
1452750000.0 0.3340575066 0.5495419282
1462700000.0 0.3715831898 0.5060502278
1472650000.0 0.408356681 0.4511131442
1482600000.0 0.4477175013 0.3864774093
1492550000.0 0.4874983031 0.3154829439
1502500000.0 0.5249428584 0.2436281995
1512450000.0 0.55593347 0.1703391432
1522400000.0 0.5704479308 0.0965284617
1532350000.0 0.5690042091 0.0243705697
1542300000.0 0.545789977 -0.049749346
1552250000.0 0.5055848074 -0.121665312
1562200000.0 0.4557879733 -0.1960643097
1572150000.0 0.3967056899 -0.2683929758
1582100000.0 0.333464681 -0.3340637633
1592050000.0 0.2629891811 -0.3898313864
1602000000.0 0.1856792173 -0.428127287
1611950000.0 0.1018293012 -0.4453909044
1621900000.0 0.0127906316 -0.4433486121
1631850000.0 -0.0793257288 -0.4255500964
1641800000.0 -0.1676909173 -0.3971919976
1651750000.0 -0.2509724644 -0.3634877601
1661700000.0 -0.3258559736 -0.321005778
1671650000.0 -0.3886574005 -0.2705288762
1681600000.0 -0.4367334232 -0.207147322
1691550000.0 -0.4678277608 -0.1300665445
1701500000.0 -0.4862351729 -0.0469997973
1711450000.0 -0.4950138095 0.0393682907
1721400000.0 -0.4979057051 0.1215452751
1731350000.0 -0.4971771833 0.1965890707
1741300000.0 -0.4897286673 0.2630666792
1751250000.0 -0.4723322161 0.3201608266
1761200000.0 -0.4402820042 0.3696695031
1771150000.0 -0.3933872576 0.414616275
1781100000.0 -0.3352409844 0.4557733814
1791050000.0 -0.2714087416 0.4945187754
1801000000.0 -0.2114669893 0.5310174573
1810950000.0 -0.156830841 0.5620180361
1820900000.0 -0.1114018532 0.5846120792
1830850000.0 -0.0702582043 0.5948242509
1840800000.0 -0.02892369 0.5911342066
1850750000.0 0.0158700122 0.573539563
1860700000.0 0.0680209346 0.5464553917
1870650000.0 0.1252172329 0.5145676765
1880600000.0 0.184545763 0.4844729246
1890550000.0 0.2367697048 0.4570384219
1900500000.0 0.2789737959 0.431726822
1910450000.0 0.305514097 0.4052375435
1920400000.0 0.3157766017 0.370323516
1930350000.0 0.3116655196 0.3240940449
1940300000.0 0.2957680428 0.2646303221
1950250000.0 0.2766007527 0.1972452783
1960200000.0 0.2513153358 0.1281814911
1970150000.0 0.2170932421 0.0706175603
1980100000.0 0.1785038113 0.0345418009
1990050000.0 0.1268924317 0.0191506448
2000000000.0 0.0485757642 0.0299668154
