!Created with skrf (http://scikit-rf.org).
# GHz S RI R 50.0 
!freq ReS11 ImS11
10000000.0 -0.7654324348 0.6746535182
19950000.0 -0.1371738188 0.9874532281
29900000.0 0.5369403147 0.8190641868
39850000.0 0.9434703163 0.2495586953
49800000.0 0.8760051902 -0.4583534766
59750000.0 0.3378483448 -0.9516029546
69700000.0 -0.4135248346 -0.9375871952
79650000.0 -0.9470022966 -0.3801788985
89600000.0 -0.9108436306 0.4075040873
99550000.0 -0.2951804024 0.9252803451
109500000.0 0.5211113237 0.8055465566
119450000.0 0.9690417694 0.0774504542
129400000.0 0.6464985594 -0.7558349713
139350000.0 -0.2247725978 -0.9845170996
149300000.0 -0.9135614166 -0.3855423726
159250000.0 -0.8185746099 0.5004825272
169200000.0 -0.0803480277 0.9389809244
179150000.0 0.696076424 0.6482302791
189100000.0 0.9692251288 -0.1088831121
199050000.0 0.5934082761 -0.7964817101
209000000.0 -0.1465723514 -0.9790891203
218950000.0 -0.7698675109 -0.5859035184
228900000.0 -0.9339464583 0.112030704
238850000.0 -0.5795047163 0.720523587
248800000.0 0.1235670167 0.7209459694
258750000.0 0.6772606284 0.6553522908
268700000.0 0.9587936431 0.0271290055
278650000.0 0.735147614 -0.6166920524
288600000.0 0.1365485613 -0.9280884721
298550000.0 -0.5035618252 -0.7463628998
308500000.0 -0.8390241131 -0.1816452324
318450000.0 -0.6905178456 0.449467945
328400000.0 -0.148179433 0.78544644
338350000.0 0.4530692543 0.6271562071
348300000.0 0.7229803228 0.0992301475
358250000.0 0.5127690646 -0.4087887414
368200000.0 0.0389463268 -0.5552114442
378150000.0 -0.3226966802 -0.3140351143
388100000.0 -0.3544274701 0.0569801733
398050000.0 -0.1258959881 0.2693145708
408000000.0 0.1267942774 0.2233388684
417950000.0 0.2185566963 0.0338753179
427900000.0 0.1353672096 -0.1198928084
437850000.0 -0.0110722537 -0.1405951685
447800000.0 -0.1020811923 -0.0513286203
457750000.0 -0.0896300254 0.0584744146
467700000.0 -0.0085075385 0.1083785447
477650000.0 0.0670615188 0.0803577509
487600000.0 0.0849059867 0.0155731628
497550000.0 0.0571931111 0.0241189141
507500000.0 0.0242748052 -0.0529394229
517450000.0 -0.0086218651 -0.0236383564
527400000.0 -0.0012625067 0.0019061875
537350000.0 0.0204822871 -0.0031193501
547300000.0 0.0225974301 -0.0364683243
557250000.0 -0.019020834 -0.0645837503
567200000.0 -0.0800081497 -0.0472517954
577150000.0 -0.1160684414 0.0213483192
587100000.0 -0.0871459967 0.1099459345
597050000.0 0.016985822 0.1574494933
607000000.0 0.1103113367 0.0597288091
616950000.0 0.1393985912 0.0275655062
626900000.0 0.1455670064 -0.0883051442
636850000.0 0.0594276795 -0.1806727213
646800000.0 -0.0709180618 -0.1899773442
656750000.0 -0.175010578 -0.1084218958
666700000.0 -0.1953041174 0.0217008076
676650000.0 -0.1210547805 0.1296154834
686600000.0 0.0058938342 0.1552215948
696550000.0 0.1128039696 0.0870722371
706500000.0 0.140233314 -0.0308718756
716450000.0 0.079867545 -0.1272521069
726400000.0 -0.0241411715 -0.146359255
736350000.0 -0.0995888188 -0.0832857222
746300000.0 -0.0942808028 0.0119822952
756250000.0 -0.0116636449 0.0636629365
766200000.0 0.0858847244 0.0250860469
776150000.0 0.1185213962 -0.085460115
786100000.0 0.0471844732 -0.1926061858
796050000.0 -0.0970575677 -0.2111032052
806000000.0 -0.2217183596 -0.104279593
815950000.0 -0.2314964792 0.081786893
825900000.0 -0.0914764935 0.2363003789
835850000.0 0.1369267924 0.2513367727
845800000.0 0.3273404958 0.094344606
855750000.0 0.362361021 -0.1649000156
865700000.0 0.2048324079 -0.3900275145
875650000.0 -0.0747940946 -0.4519953149
885600000.0 -0.3336564653 -0.3010756164
895550000.0 -0.4244536329 -0.0018211057
905500000.0 -0.2796187529 0.2891597075
915450000.0 0.0356451059 0.4011827783
925400000.0 0.3398609485 0.2576519284
935350000.0 0.4590238252 -0.0591541072
945300000.0 0.3111876264 -0.371384395
955250000.0 -0.027443376 -0.4740285725
965200000.0 -0.3381073605 -0.2778121812
975150000.0 -0.3826204962 0.1097728816
985100000.0 -0.0710450972 0.3954727372
995050000.0 0.3766532708 0.2832670358
1005000000.0 0.533194244 -0.1968204573
1014950000.0 0.177678289 -0.6242793588
1024900000.0 -0.4315271057 -0.5501311029
1034850000.0 -0.7382674202 0.0540813233
1044800000.0 -0.3757250854 0.6973782325
1054750000.0 0.4006594295 0.7448673591
1064700000.0 0.8306194371 0.1440434514
1074650000.0 0.7174537083 -0.5140543045
1084600000.0 0.1142817633 -0.8604684106
1094550000.0 -0.5186920061 -0.6538168214
1104500000.0 -0.792262979 -0.049068072
1114450000.0 -0.5136349554 0.5530274915
1124400000.0 0.1196493124 0.7111389469
1134350000.0 0.606181852 0.3276958809
1144300000.0 0.607364252 -0.2408278115
1154250000.0 0.2126399524 -0.5758684151
1164200000.0 -0.2619833354 -0.5094317021
1174150000.0 -0.5205315114 -0.1347509749
1184100000.0 -0.4165116283 0.3030218602
1194050000.0 -0.0155966904 0.5053740336
1204000000.0 0.3892432615 0.3312651358
1213950000.0 0.5226970253 -0.0717741262
1223900000.0 0.3357473188 -0.4339935113
1233850000.0 -0.0361561235 -0.5679238232
1243800000.0 -0.4016023029 -0.4242042026
1253750000.0 -0.5867181696 -0.0706425037
1263700000.0 -0.4901672589 0.3284237793
1273650000.0 -0.1415235511 0.5664576105
1283600000.0 0.2808421839 0.5083276549
1293550000.0 0.5574653033 0.1892855209
1303500000.0 0.5671277352 -0.2226123226
1313450000.0 0.3296140719 -0.5448769788
1323400000.0 -0.047642936 -0.6606514658
1333350000.0 -0.4218993731 -0.532381672
1343300000.0 -0.6513267013 -0.1982997473
1353250000.0 -0.6282526296 0.2197557955
1363200000.0 -0.3385548353 0.5410023007
1373150000.0 0.0958107386 0.6044483922
1383100000.0 0.4681653354 0.3796064297
1393050000.0 0.6163832512 -0.0158904731
1403000000.0 0.5011370571 -0.4057439502
1412950000.0 0.1893946581 -0.6451506062
1422900000.0 -0.1962648403 -0.6590197312
1432850000.0 -0.5157145524 -0.4464765932
1442800000.0 -0.6475660244 -0.0824036894
1452750000.0 -0.530572173 0.2929699015
1462700000.0 -0.2006423235 0.5196011593
1472650000.0 0.2012877802 0.4888356918
1482600000.0 0.4902040529 0.2137197285
1492550000.0 0.5395443936 -0.1713687286
1502500000.0 0.3452054832 -0.4917166491
1512450000.0 0.0069811581 -0.6192323333
1522400000.0 -0.3304429435 -0.5146242468
1532350000.0 -0.5289664993 -0.2252080536
1542300000.0 -0.4993019163 0.1261512922
1552250000.0 -0.2474973435 0.3759840352
1562200000.0 0.1052428504 0.3962476242
1572150000.0 0.3746296402 0.1782398265
1582100000.0 0.4243756321 -0.1536170701
1592050000.0 0.2439125904 -0.422136936
1602000000.0 -0.0606995092 -0.4993400002
1611950000.0 -0.3361880483 -0.3550822828
1621900000.0 -0.4478516055 -0.0625428796
1631850000.0 -0.3337576937 0.2362006421
1641800000.0 -0.0401277768 0.3821778559
1651750000.0 0.2818688107 0.2843099584
1661700000.0 0.4477711537 -0.0115038306
1671650000.0 0.3657579458 -0.340856025
1681600000.0 0.0843138202 -0.5282491888
1691550000.0 -0.251109629 -0.4856265217
1701500000.0 -0.4836906538 -0.2347227708
1711450000.0 -0.4963298873 0.1168417944
1721400000.0 -0.3212536054 0.3295366111
1731350000.0 0.0100123217 0.5172893751
1741300000.0 0.3839298959 0.3776919368
1751250000.0 0.568201522 0.0246639238
1761200000.0 0.4792952146 -0.3571023318
1771150000.0 0.1779877271 -0.5906672527
1781100000.0 -0.1924304589 -0.5949534476
1791050000.0 -0.4900947951 -0.3863457258
1801000000.0 -0.6139214385 -0.0446274081
1810950000.0 -0.5150137793 0.3126935152
1820900000.0 -0.2124545202 0.5478668727
1830850000.0 0.1807411225 0.5443280233
1840800000.0 0.4851008715 0.2887596098
1850750000.0 0.5548238322 -0.0957307361
1860700000.0 0.3779277183 -0.4245314902
1870650000.0 0.0582202553 -0.5735906991
1880600000.0 -0.269767878 -0.5156884728
1890550000.0 -0.4991156479 -0.2950997241
1900500000.0 -0.563429394 0.0081671133
1910450000.0 -0.4437755313 0.2901466622
1920400000.0 -0.1809827831 0.4445163254
1930350000.0 0.1143174566 0.4018231419
1940300000.0 0.3054160498 0.1907150054
1950250000.0 0.3173830865 -0.0712938642
1960200000.0 0.1801092965 -0.2600471597
1970150000.0 -0.0131530481 -0.3155925945
1980100000.0 -0.1677672647 -0.2536312203
1990050000.0 -0.2296545645 -0.141502077
2000000000.0 -0.2066098953 -0.0607712905
