!Created with skrf (http://scikit-rf.org).
# GHz S RI R 50.0 
!freq ReS11 ImS11
10000000.0 -0.7789924047 0.0551236972
14975000.0 -0.7833640739 0.0853205746
19950000.0 -0.7881277836 0.118337033
24925000.0 -0.7917156206 0.1546976134
29900000.0 -0.7933235854 0.1937275008
34875000.0 -0.790865628 0.2357077655
39850000.0 -0.784249766 0.2802061122
44825000.0 -0.7728875223 0.3269192818
49800000.0 -0.7571195625 0.3753846212
54775000.0 -0.7364987625 0.4251441075
59750000.0 -0.7109766141 0.4760568311
64725000.0 -0.68086291 0.5277392892
69700000.0 -0.6455544345 0.5797871772
74675000.0 -0.6048869778 0.6325397983
79650000.0 -0.5581844806 0.6859344981
84625000.0 -0.5047104551 0.7395964582
89600000.0 -0.4428975501 0.7933126406
94575000.0 -0.3708822048 0.8459016382
99550000.0 -0.2863148017 0.894918972
104525000.0 -0.1876786535 0.936699146
109500000.0 -0.0747554589 0.9665140348
114475000.0 0.0511635933 0.9789042657
119450000.0 0.1856141559 0.9698933885
124425000.0 0.3232870979 0.936371293
129400000.0 0.4579439045 0.875903474
134375000.0 0.5768103513 0.7976900764
139350000.0 0.6872070049 0.69293764
144325000.0 0.7764065884 0.5725885772
149300000.0 0.8427794332 0.4417875287
154275000.0 0.8856336607 0.3067940216
159250000.0 0.9057726144 0.1733501076
164225000.0 0.9050958474 0.0467172316
169200000.0 0.8872178688 -0.069756868
174175000.0 0.8559119169 -0.1736646813
179150000.0 0.8163399064 -0.2639739057
184125000.0 0.7724699247 -0.3411882076
189100000.0 0.7279921342 -0.4070152266
194075000.0 0.6842787433 -0.4631764054
199050000.0 0.6436638961 -0.5130067314
204025000.0 0.6046516733 -0.5573264628
209000000.0 0.5665667622 -0.5978077865
213975000.0 0.5282644153 -0.6347169244
218950000.0 0.4892440879 -0.6683950155
223925000.0 0.4492295498 -0.6989734796
228900000.0 0.407885965 -0.7264966959
233875000.0 0.3653572305 -0.7505955255
238850000.0 0.3211655491 -0.7713934503
243825000.0 0.2731427234 -0.7889504571
248800000.0 0.2612155876 -0.775907026
253775000.0 0.2030925204 -0.8085179193
258750000.0 0.1596075674 -0.8171924216
263725000.0 0.1196069294 -0.8225268928
268700000.0 0.081722482 -0.8256486574
273675000.0 0.0456966137 -0.826960232
278650000.0 0.0113809413 -0.826959663
283625000.0 -0.0221902863 -0.8263364667
288600000.0 -0.0560554333 -0.8250142463
293575000.0 -0.0912407704 -0.8230892073
298550000.0 -0.1285240064 -0.8193246678
303525000.0 -0.1683933564 -0.8131577305
308500000.0 -0.2107818125 -0.8035000732
313475000.0 -0.2554121093 -0.788569656
318450000.0 -0.3013967788 -0.7677462499
323425000.0 -0.3474827998 -0.7400511411
328400000.0 -0.3924459387 -0.7051168725
333375000.0 -0.4347288907 -0.6629814624
338350000.0 -0.4729367248 -0.6139314774
343325000.0 -0.5056200801 -0.5586847302
348300000.0 -0.5306765173 -0.4967127155
353275000.0 -0.5474979428 -0.4309087601
358250000.0 -0.5541303828 -0.3613211512
363225000.0 -0.5505015768 -0.2911805933
368200000.0 -0.5364229299 -0.2222995667
373175000.0 -0.5126850607 -0.157582667
378150000.0 -0.4802003457 -0.0982231899
383125000.0 -0.4407866266 -0.0462684499
388100000.0 -0.3964265447 -0.0028464522
393075000.0 -0.3489560793 0.0321224522
398050000.0 -0.3003777054 0.0585270479
403025000.0 -0.252080599 0.0766097321
408000000.0 -0.2054791026 0.0871326644
412975000.0 -0.1610670827 0.0913766784
417950000.0 -0.1199838909 0.0902405397
422925000.0 -0.082729398 0.0849534416
427900000.0 -0.0494754972 0.0764919369
432875000.0 -0.0201588924 0.0649381619
437850000.0 0.0046067409 0.0514777931
442825000.0 0.0254175299 0.0364986925
447800000.0 0.0422251678 0.0213053867
452775000.0 0.0555201032 0.0059999894
457750000.0 0.0652238798 -0.0085480658
462725000.0 0.0726478187 -0.0224301864
467700000.0 0.0778025545 -0.0351811179
472675000.0 0.0809970441 -0.0468850767
477650000.0 0.0822131938 -0.0578152248
482625000.0 0.0819103687 -0.0679731646
487600000.0 0.0790328543 -0.0774249106
492575000.0 0.06653541 -0.0800770219
497550000.0 0.0807263603 -0.082011813
502525000.0 0.0762510173 -0.0910782877
507500000.0 0.0713913823 -0.0965285782
512475000.0 0.0656260855 -0.0998454105
517450000.0 0.0597267002 -0.1017918196
522425000.0 0.0532812675 -0.1025242194
527400000.0 0.0466290776 -0.1023686624
532375000.0 0.0395912972 -0.1006306016
537350000.0 0.0328009535 -0.0978493732
542325000.0 0.025703737 -0.0944513221
547300000.0 0.0180074146 -0.0898782013
552275000.0 0.010779694 -0.0836739471
557250000.0 0.0046632591 -0.0763687213
562225000.0 -0.0015106828 -0.0682273426
567200000.0 -0.0072027826 -0.0591872214
572175000.0 -0.0121611719 -0.049418378
577150000.0 -0.0166373374 -0.0391600248
582125000.0 -0.0204356373 -0.0283202869
587100000.0 -0.0230546502 -0.0168997717
592075000.0 -0.0246869855 -0.0052533982
597050000.0 -0.0251983751 0.0066747651
602025000.0 -0.0246960484 0.0185275135
607000000.0 -0.0230287243 0.0301999943
611975000.0 -0.0205067453 0.0416504419
616950000.0 -0.0171011225 0.0527586264
621925000.0 -0.0127700188 0.0632923538
626900000.0 -0.0074206419 0.0732163877
631875000.0 -0.0016059759 0.0822956249
636850000.0 0.0047508665 0.0905391619
641825000.0 0.0118455504 0.098287341
646800000.0 0.0188517619 0.1054164533
651775000.0 0.0257060548 0.1117885043
656750000.0 0.0329143778 0.1176728174
661725000.0 0.0400888208 0.1230298854
666700000.0 0.0473329414 0.1281105135
671675000.0 0.0547237874 0.1324111574
676650000.0 0.062458557 0.1361876713
681625000.0 0.0708107841 0.1393416671
686600000.0 0.0797581462 0.1420588092
691575000.0 0.0891441901 0.1437491543
696550000.0 0.0987470191 0.1446897855
701525000.0 0.1087341005 0.1444427605
706500000.0 0.1189652971 0.1429377239
711475000.0 0.1294652816 0.1399639853
716450000.0 0.1399972953 0.1356091363
721425000.0 0.1506468867 0.1298604337
726400000.0 0.161133896 0.1229013675
731375000.0 0.171233092 0.1148584491
736350000.0 0.1806640933 0.1052331462
741325000.0 0.1893423357 0.0941348708
746300000.0 0.1970374284 0.0817219024
751275000.0 0.2039541767 0.0682085326
756250000.0 0.2096905786 0.0531422579
761225000.0 0.214202036 0.0371144392
766200000.0 0.2171898206 0.0205857592
771175000.0 0.218634296 0.0030439591
776150000.0 0.2184972924 -0.0148206621
781125000.0 0.216567544 -0.0334559476
786100000.0 0.2127857755 -0.0523923578
791075000.0 0.2073028421 -0.0718401444
796050000.0 0.2003371727 -0.0912420662
801025000.0 0.1916067315 -0.110517626
806000000.0 0.1806360716 -0.1291855534
810975000.0 0.1682907703 -0.1469636494
815950000.0 0.154331933 -0.1642805565
820925000.0 0.1386120557 -0.180941835
825900000.0 0.1218097911 -0.1963168498
830875000.0 0.1042044773 -0.210490237
835850000.0 0.0857571167 -0.2233093293
840825000.0 0.0670062474 -0.2350131198
845800000.0 0.0479319371 -0.2456567628
850775000.0 0.0282915358 -0.2552769633
855750000.0 0.0078989698 -0.2640528644
860725000.0 -0.013263713 -0.2723012654
865700000.0 -0.035614967 -0.2796467827
870675000.0 -0.0594983738 -0.2856450722
875650000.0 -0.0847553533 -0.2901134796
880625000.0 -0.1115595343 -0.2927040136
885600000.0 -0.1395751276 -0.2926618994
890575000.0 -0.1688416486 -0.2901400194
895550000.0 -0.1989122955 -0.2844664735
900525000.0 -0.2291357243 -0.2758541627
905500000.0 -0.2590940734 -0.2639965922
910475000.0 -0.288690544 -0.2487045819
915450000.0 -0.3168985186 -0.2303053608
920425000.0 -0.3438575854 -0.2082434584
925400000.0 -0.3694174943 -0.1831610464
930375000.0 -0.3930635261 -0.1546726029
935350000.0 -0.4143663486 -0.1235164907
940325000.0 -0.4343683868 -0.0893318452
945300000.0 -0.4520749447 -0.0518324932
950275000.0 -0.4671181725 -0.011034977
955250000.0 -0.4795029909 0.0336530058
960225000.0 -0.4882181887 0.0829502423
965200000.0 -0.4922069826 0.1364208475
970175000.0 -0.490526284 0.1941805115
975150000.0 -0.4810158394 0.2561628301
980125000.0 -0.4623440083 0.3206133463
985100000.0 -0.433304701 0.3866995788
990075000.0 -0.3923166483 0.4523747622
995050000.0 -0.3386825544 0.5153102133
1000025000.0 -0.2721420961 0.5729349481
1005000000.0 -0.1925865325 0.6222308266
1009975000.0 -0.1009323091 0.6598782648
1014950000.0 0.0015502037 0.6815988792
1019925000.0 0.1114789475 0.6845123185
1024900000.0 0.2251187303 0.6667149686
1029875000.0 0.3368174216 0.6265329678
1034850000.0 0.441427607 0.5638942429
1039825000.0 0.5341114682 0.48037604
1044800000.0 0.6111180303 0.3793520115
1049775000.0 0.6685218494 0.2648359894
1054750000.0 0.7019687957 0.1426432201
1059725000.0 0.7153409438 0.026623418
1064700000.0 0.7244038512 -0.0905530798
1069675000.0 0.7129680797 -0.2139938158
1074650000.0 0.6783065305 -0.3335631463
1079625000.0 0.6212565763 -0.4402136998
1084600000.0 0.5582955483 -0.5287427348
1089575000.0 0.4828233994 -0.61161259
1094550000.0 0.3957727393 -0.6781310854
1099525000.0 0.3039142299 -0.728164231
1104500000.0 0.20977047 -0.7613976169
1109475000.0 0.1168926417 -0.7804833152
1114450000.0 0.0269399156 -0.7863933713
1119425000.0 -0.058893388 -0.7817076839
1124400000.0 -0.1395014273 -0.7675445054
1129375000.0 -0.214561905 -0.7450299919
1134350000.0 -0.2840775004 -0.7151096191
1139325000.0 -0.3471380535 -0.6786363845
1144300000.0 -0.4039783253 -0.6368230473
1149275000.0 -0.4534436827 -0.5906955881
1154250000.0 -0.496056163 -0.5415196247
1159225000.0 -0.5301237208 -0.4909073066
1164200000.0 -0.5579261378 -0.4418430444
1169175000.0 -0.5807839807 -0.3951809702
1174150000.0 -0.6011164093 -0.3487154506
1179125000.0 -0.6181648108 -0.3013123871
1184100000.0 -0.6309233185 -0.253491678
1189075000.0 -0.6393776538 -0.20634495
1194050000.0 -0.6435386398 -0.1611223888
1199025000.0 -0.6437048308 -0.1180892322
1204000000.0 -0.6403824128 -0.0765408775
1208975000.0 -0.6343139719 -0.0380713679
1213950000.0 -0.6259726046 -0.0022162302
1218925000.0 -0.6160688381 0.0306894515
1223900000.0 -0.6055213274 0.0607577352
1228875000.0 -0.5945237065 0.0882829925
1233850000.0 -0.5837561387 0.1143039644
1238825000.0 -0.5731593998 0.1385439979
1243800000.0 -0.5631832194 0.1618712842
1248775000.0 -0.5528879514 0.1848973241
1253750000.0 -0.5417009925 0.2070766081
1258725000.0 -0.5305047834 0.2289770616
1263700000.0 -0.5180889658 0.2507160822
1268675000.0 -0.5045584485 0.2710170727
1273650000.0 -0.4905127855 0.2899693374
1278625000.0 -0.4755705094 0.3079072633
1283600000.0 -0.4604679702 0.3241442575
1288575000.0 -0.4447058047 0.3384022928
1293550000.0 -0.4279344426 0.3514634052
1298525000.0 -0.4110473663 0.3622183725
1303500000.0 -0.3954135056 0.3707147594
1308475000.0 -0.3796863097 0.3772071657
1313450000.0 -0.3650354768 0.3814657735
1318425000.0 -0.352095314 0.3836603775
1323400000.0 -0.3426643716 0.3846478599
1328375000.0 -0.3365628784 0.3853624389
1333350000.0 -0.3332474963 0.3868876368
1338325000.0 -0.3323888918 0.3908967193
1343300000.0 -0.3323210664 0.3974170074
1348275000.0 -0.3313628255 0.4067666796
1353250000.0 -0.3287222113 0.4182545679
1358225000.0 -0.3238143329 0.4308464039
1363200000.0 -0.3159961104 0.4442322382
1368175000.0 -0.3054461658 0.457675377
1373150000.0 -0.2928980251 0.4705271861
1378125000.0 -0.2780904899 0.4825003335
1383100000.0 -0.2615274386 0.493091774
1388075000.0 -0.2444690068 0.5026706914
1393050000.0 -0.225622096 0.5106419753
1398025000.0 -0.20715713 0.5163187141
1403000000.0 -0.1893517804 0.5201057362
1407975000.0 -0.1713644908 0.5218631543
1412950000.0 -0.1550309124 0.5213295292
1417925000.0 -0.1411449615 0.5193003172
1422900000.0 -0.1304625326 0.5156499403
1427875000.0 -0.123431 0.5119552114
1432850000.0 -0.1195897021 0.5092336256
1437825000.0 -0.1188930239 0.5084619058
1442800000.0 -0.1185357805 0.5105319168
1447775000.0 -0.1172537961 0.5156260624
1452750000.0 -0.1130786682 0.5226873495
1457725000.0 -0.1058871369 0.5303470886
1462700000.0 -0.0956022342 0.5386197069
1467675000.0 -0.0822171669 0.5466039615
1472650000.0 -0.0663811984 0.5534959058
1477625000.0 -0.0490155532 0.5591526457
1482600000.0 -0.0304773244 0.5638072612
1487575000.0 -0.0109681935 0.566754889
1492550000.0 0.0088997424 0.5679485603
1497525000.0 0.0287869969 0.5682963725
1502500000.0 0.0488215293 0.5679293169
1507475000.0 0.068911915 0.5665275409
1512450000.0 0.0879143241 0.5637265568
1517425000.0 0.1059639033 0.5599661659
1522400000.0 0.1227575461 0.5554258094
1527375000.0 0.1382194329 0.549616829
1532350000.0 0.1524830601 0.5435036273
1537325000.0 0.1662349923 0.5369541409
1542300000.0 0.1789933752 0.5300678418
1547275000.0 0.1917038535 0.5233120027
1552250000.0 0.2050080844 0.5169553491
1557225000.0 0.2182924114 0.5101538574
1562200000.0 0.2320780149 0.5033005992
1567175000.0 0.2468414335 0.4963324088
1572150000.0 0.2625886386 0.4886222344
1577125000.0 0.2784286756 0.4795337895
1582100000.0 0.2948405023 0.4699205867
1587075000.0 0.311431858 0.4593238801
1592050000.0 0.3277137146 0.4476879108
1597025000.0 0.3432559854 0.4351927705
1602000000.0 0.360599453 0.4232344382
1606975000.0 0.3741152553 0.4104786129
1611950000.0 0.3866944436 0.3976651808
1616925000.0 0.3981273835 0.3852183094
1621900000.0 0.4092085907 0.3729805974
1626875000.0 0.4196328286 0.361326372
1631850000.0 0.4296524607 0.3493901302
1636825000.0 0.4387766446 0.3378552353
1641800000.0 0.4482296527 0.326041847
1646775000.0 0.457515234 0.3141831111
1651750000.0 0.4662502012 0.3021349134
1656725000.0 0.474791643 0.2898897965
1661700000.0 0.4826698277 0.2776925917
1666675000.0 0.4899642414 0.2647229264
1671650000.0 0.4962163919 0.2519174082
1676625000.0 0.5017682788 0.2395507664
1681600000.0 0.5073438483 0.2237039277
1686575000.0 0.5114714346 0.2094888318
1691550000.0 0.5144987937 0.1971403872
1696525000.0 0.5154270101 0.1849786823
1701500000.0 0.5146456231 0.1723626017
1706475000.0 0.5131019992 0.1622295759
1711450000.0 0.510906151 0.1531594607
1716425000.0 0.5080481467 0.1454996743
1721400000.0 0.5049517032 0.1386347686
1726375000.0 0.5031963734 0.1334836497
1731350000.0 0.5027338134 0.1289904168
1736325000.0 0.50432536 0.1244606392
1741300000.0 0.5066832187 0.11991687
1746275000.0 0.5108436372 0.1145578168
1751250000.0 0.5150764413 0.1082744076
1756225000.0 0.5190861411 0.1014316546
1761200000.0 0.5227335065 0.0940497248
1766175000.0 0.525263889 0.0861662632
1771150000.0 0.5267453168 0.0779538762
1776125000.0 0.5270302246 0.0698808573
1781100000.0 0.5254187242 0.0622680183
1786075000.0 0.5229552022 0.055001656
1791050000.0 0.5184922684 0.0484191427
1796025000.0 0.5130122913 0.0432417651
1801000000.0 0.5064096509 0.0395896454
1805975000.0 0.4991920819 0.037840074
1810950000.0 0.4922051352 0.0378362942
1815925000.0 0.4864439909 0.0398533809
1820900000.0 0.4825533727 0.0429440651
1825875000.0 0.4815617 0.046428141
1830850000.0 0.4820394319 0.0495807466
1835825000.0 0.4845634644 0.0515130906
1840800000.0 0.4878081192 0.0521231541
1845775000.0 0.4904372595 0.051203449
1850750000.0 0.4919876951 0.0489201547
1855725000.0 0.4917520128 0.0461138085
1860700000.0 0.4898696286 0.0432855705
1865675000.0 0.4868800868 0.0400819657
1870650000.0 0.4829607287 0.0358967318
1875625000.0 0.4773047031 0.030862943
1880600000.0 0.4691053687 0.0255235525
1885575000.0 0.4591506092 0.0203576244
1890550000.0 0.4467249094 0.0159025048
1895525000.0 0.4326849423 0.0121376652
1900500000.0 0.4175277989 0.0106774001
1905475000.0 0.4013498766 0.0102516528
1910450000.0 0.3854727063 0.0120426952
1915425000.0 0.3719360569 0.016052238
1920400000.0 0.3606049992 0.0209694508
1925375000.0 0.3522951111 0.0259260188
1930350000.0 0.3454585572 0.0301106538
1935325000.0 0.3397413865 0.032476321
1940300000.0 0.3339422369 0.0334188724
1945275000.0 0.3268788102 0.0331066389
1950250000.0 0.3182144013 0.0315604923
1955225000.0 0.3080796814 0.0295091343
1960200000.0 0.2953744643 0.0263196732
1965175000.0 0.2802265461 0.023157199
1970150000.0 0.2629550906 0.0198327901
1975125000.0 0.2425452382 0.0168175588
1980100000.0 0.2207010447 0.0135579558
1985075000.0 0.1961986261 0.010818579
1990050000.0 0.1684988638 0.0090848487
1995025000.0 0.1385802449 0.0081426503
2000000000.0 0.1053277303 0.0079054159
