!Created with skrf (http://scikit-rf.org).
# GHz S RI R 50.0 
!freq ReS11 ImS11
10000000.0 -0.740481494 0.6748665686
19950000.0 -0.1036627596 0.9818054591
29900000.0 0.576571849 0.7908952237
39850000.0 0.9616041109 0.1869632604
49800000.0 0.8340238186 -0.5302778997
59750000.0 0.237410304 -0.9707658463
69700000.0 -0.508851335 -0.8651101076
79650000.0 -0.9642379734 -0.2494309824
89600000.0 -0.8305532261 0.5193001193
99550000.0 -0.1561695112 0.9516867929
109500000.0 0.6400470278 0.7158016627
119450000.0 0.9661896527 -0.0852193913
129400000.0 0.4997130322 -0.8470996255
139350000.0 -0.4034548624 -0.8977451947
149300000.0 -0.9487433115 -0.187529983
159250000.0 -0.6908069995 0.6472509045
169200000.0 0.1108699089 0.9313855851
179150000.0 0.8109075332 0.4849199306
189100000.0 0.902868658 -0.3196591691
199050000.0 0.3651248126 -0.8918877005
209000000.0 -0.3924198061 -0.8718205906
218950000.0 -0.8799808716 -0.3293389981
228900000.0 -0.8433762931 0.3787284619
238850000.0 -0.3315069864 0.8553531599
248800000.0 0.4013268764 0.7042224305
258750000.0 0.8394032777 0.3972442515
268700000.0 0.8869419221 -0.2924188441
278650000.0 0.4450013054 -0.81212503
288600000.0 -0.2235643583 -0.8767276089
298550000.0 -0.7409734144 -0.4666321794
308500000.0 -0.8269542476 0.17967853
318450000.0 -0.4368003767 0.6924687258
328400000.0 0.1962465863 0.766807775
338350000.0 0.6656823383 0.3571610993
348300000.0 0.659740496 -0.235784563
358250000.0 0.2316357793 -0.5824468648
368200000.0 -0.2508870518 -0.4784646174
378150000.0 -0.4435912361 -0.0888695561
388100000.0 -0.2826171999 0.2462253838
398050000.0 0.0243624092 0.309700768
408000000.0 0.2210422127 0.1347053368
417950000.0 0.2002832246 -0.083389145
427900000.0 0.0426226418 -0.176341556
437850000.0 -0.1038494516 -0.1159375004
447800000.0 -0.1393511853 0.0127436741
457750000.0 -0.070666509 0.106135849
467700000.0 0.0290557101 0.1110034245
477650000.0 0.0869811199 0.0499227523
487600000.0 0.0763164691 -0.0147523027
497550000.0 0.0731036303 -0.0121514501
507500000.0 -0.0098739414 -0.0644050622
517450000.0 -0.0231094572 -0.0284253088
527400000.0 -0.0111698337 -0.0166013734
537350000.0 -0.0053423937 -0.0320264844
547300000.0 -0.0333795368 -0.0493897872
557250000.0 -0.0761359831 -0.0348720029
567200000.0 -0.1035435309 0.0208952274
577150000.0 -0.0788515814 0.0921554766
587100000.0 0.00016312 0.1321888724
597050000.0 0.0995624796 0.1028385514
607000000.0 0.1585279093 0.0059314736
616950000.0 0.1346737532 -0.114895035
626900000.0 0.0319496614 -0.1938296597
636850000.0 -0.1011255562 -0.1840732696
646800000.0 -0.1941370659 -0.0854982585
656750000.0 -0.1976751659 0.0530872235
666700000.0 -0.1050698002 0.1548940359
676650000.0 0.0308450113 0.1655880317
686600000.0 0.1362169671 0.0813177185
696550000.0 0.1524355254 -0.046460769
706500000.0 0.0765481864 -0.1416183576
716450000.0 -0.0347554404 -0.149876354
726400000.0 -0.1097883048 -0.0778022981
736350000.0 -0.0978523306 0.0214377519
746300000.0 -0.0121141162 0.0664892636
756250000.0 0.0774099115 0.0217843441
766200000.0 0.0899127707 -0.0866302255
776150000.0 0.0129050336 -0.1721394779
786100000.0 -0.1214717146 -0.1624863732
796050000.0 -0.2131345316 -0.0381346901
806000000.0 -0.1819071035 0.1359290784
815950000.0 -0.0169681198 0.2449190799
825900000.0 0.1974712909 0.2027797758
835850000.0 0.3313044925 0.0077317077
845800000.0 0.2913121672 -0.2399727544
855750000.0 0.0815723889 -0.4015643912
865700000.0 -0.1969943543 -0.3736489558
875650000.0 -0.386394139 -0.1545264707
885600000.0 -0.3722405776 0.1477931324
895550000.0 -0.1471078079 0.3655227736
905500000.0 0.1749779836 0.3642499677
915450000.0 0.4063908475 0.1316375442
925400000.0 0.4007477242 -0.2013876477
935350000.0 0.1523171452 -0.425537956
945300000.0 -0.1865889305 -0.3884940209
955250000.0 -0.3813700083 -0.0940634072
965200000.0 -0.2537306053 0.2524104059
975150000.0 0.1280388405 0.3272855633
985100000.0 0.3738521869 0.041218849
995050000.0 0.292916508 -0.3248819376
1005000000.0 -0.1167012908 -0.5106034966
1014950000.0 -0.5600454902 -0.2044688094
1024900000.0 -0.5253032646 0.4139849014
1034850000.0 0.0734627367 0.7380149564
1044800000.0 0.7001801214 0.3926456303
1054750000.0 0.7686312896 -0.3228357383
1064700000.0 0.2416225557 -0.7608693918
1074650000.0 -0.3437556167 -0.6622063714
1084600000.0 -0.6247993466 -0.3054970443
1094550000.0 -0.7055021625 0.3340367966
1104500000.0 -0.1581252181 0.7413204979
1114450000.0 0.4669964306 0.5560369033
1124400000.0 0.6899823807 -0.0145578364
1134350000.0 0.4080632631 -0.5065315022
1144300000.0 -0.1096199808 -0.5986287792
1154250000.0 -0.4895204597 -0.2844917979
1164200000.0 -0.49240281 0.1877249555
1174150000.0 -0.1390595136 0.4771583951
1184100000.0 0.2938430167 0.3821127776
1194050000.0 0.4840536631 0.0010578561
1204000000.0 0.3276728818 -0.376689292
1213950000.0 -0.0407329056 -0.5172317067
1223900000.0 -0.3959977749 -0.3598651807
1233850000.0 -0.5452629167 -0.0006185159
1243800000.0 -0.4050646989 0.3694018339
1253750000.0 -0.04358773 0.5451388917
1263700000.0 0.342350594 0.4276533706
1273650000.0 0.5513473627 0.0856264362
1283600000.0 0.4917858521 -0.3043180205
1293550000.0 0.2046602359 -0.5676914196
1303500000.0 -0.1830881244 -0.5969685857
1313450000.0 -0.5086603811 -0.3800569195
1323400000.0 -0.6321400268 -0.0026413356
1333350000.0 -0.4892881598 0.3749326092
1343300000.0 -0.1345171724 0.5812957396
1353250000.0 0.2746715123 0.5150426199
1363200000.0 0.5491716124 0.2060808208
1373150000.0 0.5699303766 -0.2006243799
1383100000.0 0.3413676346 -0.5254900705
1393050000.0 -0.0288019974 -0.6432894066
1403000000.0 -0.3906219167 -0.5166060522
1412950000.0 -0.6024963684 -0.1977068365
1422900000.0 -0.5752176759 0.1884657013
1432850000.0 -0.3092425622 0.4750320109
1442800000.0 0.0771404371 0.5296970902
1452750000.0 0.4077008364 0.3307534924
1462700000.0 0.5373465219 -0.0233640044
1472650000.0 0.4207082976 -0.3706568493
1482600000.0 0.1217680726 -0.5649669892
1492550000.0 -0.2276845032 -0.5316668426
1502500000.0 -0.4757177717 -0.2873685108
1512450000.0 -0.508992767 0.0599846526
1522400000.0 -0.3054309328 0.3443185168
1532350000.0 0.0318800373 0.4199198176
1542300000.0 0.3268232926 0.2549018361
1552250000.0 0.4299978608 -0.0557136443
1562200000.0 0.3037578998 -0.3445825215
1572150000.0 0.0252121176 -0.4725808889
1582100000.0 -0.2609996039 -0.3813330345
1592050000.0 -0.4118717235 -0.1249499046
1602000000.0 -0.3491150056 0.1713216007
1611950000.0 -0.097763095 0.3455516057
1621900000.0 0.2079596137 0.2963934079
1631850000.0 0.3938637379 0.0458711667
1641800000.0 0.3541075988 -0.2634774941
1651750000.0 0.1143603594 -0.4610609314
1661700000.0 -0.1981616313 -0.4457918936
1671650000.0 -0.4273819016 -0.2263104357
1681600000.0 -0.4577540774 0.0988586729
1691550000.0 -0.2602450247 0.3685042992
1701500000.0 0.0649008939 0.4385721675
1711450000.0 0.3669736066 0.3006688219
1721400000.0 0.5152158537 -0.0300089232
1731350000.0 0.4013397319 -0.3741835442
1741300000.0 0.096647957 -0.5630777664
1751250000.0 -0.2563365062 -0.5215452856
1761200000.0 -0.5120731358 -0.2755287483
1771150000.0 -0.5675346584 0.0796237064
1781100000.0 -0.3937564666 0.4008507648
1791050000.0 -0.0511777767 0.5496406866
1801000000.0 0.3134924054 0.4470267543
1810950000.0 0.5287564049 0.1373080082
1820900000.0 0.5028735037 -0.2331733008
1830850000.0 0.2574608105 -0.5013478702
1840800000.0 -0.0894099353 -0.563768541
1850750000.0 -0.3965691945 -0.4123941327
1860700000.0 -0.5531921821 -0.1159580424
1870650000.0 -0.5054920309 0.2128176804
1880600000.0 -0.2701978185 0.4450703802
1890550000.0 0.0565391571 0.4820563111
1900500000.0 0.3268479625 0.3090946634
1910450000.0 0.4234464841 0.0176264628
1920400000.0 0.3239389023 -0.2530752454
1930350000.0 0.0981302954 -0.3962370847
1940300000.0 -0.1469933472 -0.3769315983
1950250000.0 -0.3142068146 -0.2271432055
1960200000.0 -0.3490069015 -0.0310449783
1970150000.0 -0.2670629143 0.11996076
1980100000.0 -0.1351965453 0.1713657748
1990050000.0 -0.0367973904 0.1331835672
2000000000.0 -0.01339395 0.0692270504
