!Created with skrf (http://scikit-rf.org).
# GHz S RI R 50.0 
!freq ReS11 ImS11
10000000.0 -0.9967064121 0.0649196513
14975000.0 -0.9933007449 0.0976707689
19950000.0 -0.9886847896 0.1311515316
24925000.0 -0.9828561122 0.1654732612
29900000.0 -0.9761023782 0.2006942286
34875000.0 -0.9668268254 0.2378220167
39850000.0 -0.9554133801 0.2769309653
44825000.0 -0.9415193711 0.318262207
49800000.0 -0.9255473175 0.3620699924
54775000.0 -0.9060309789 0.4085510244
59750000.0 -0.8825747982 0.4579909235
64725000.0 -0.8543830239 0.5101060115
69700000.0 -0.8200256412 0.5648029463
74675000.0 -0.7781706759 0.6219728627
79650000.0 -0.7272857432 0.6809575459
84625000.0 -0.6659486833 0.7408097779
89600000.0 -0.5927929686 0.8002208068
94575000.0 -0.5066441343 0.8571110849
99550000.0 -0.4061963334 0.9088417781
104525000.0 -0.2909025745 0.9517584278
109500000.0 -0.1611472522 0.9816704175
114475000.0 -0.018168802 0.993751113
119450000.0 0.134217141 0.9841380973
124425000.0 0.2908219457 0.9490952136
129400000.0 0.4457526323 0.8863542582
134375000.0 0.5838791904 0.8014838625
139350000.0 0.7123872198 0.6890712604
144325000.0 0.8168427958 0.5594069361
149300000.0 0.8958194628 0.4186213471
154275000.0 0.9486271616 0.2739597038
159250000.0 0.9775389051 0.1313402556
164225000.0 0.9850693604 -0.0042402346
169200000.0 0.9752716932 -0.1297467502
174175000.0 0.9520184552 -0.2432535783
179150000.0 0.919459103 -0.3444359476
184125000.0 0.8803853284 -0.4334764466
189100000.0 0.8375160059 -0.5113128014
194075000.0 0.7926659037 -0.5786898634
199050000.0 0.7470217039 -0.637056744
204025000.0 0.7012816269 -0.6869480801
209000000.0 0.6562219528 -0.7304096167
213975000.0 0.6120747729 -0.7674037464
218950000.0 0.569109352 -0.7990720194
223925000.0 0.5274219773 -0.8266203678
228900000.0 0.4868111515 -0.8501994031
233875000.0 0.4475438851 -0.8706197232
238850000.0 0.4087122179 -0.8884242962
243825000.0 0.3695125336 -0.9041279742
248800000.0 0.3432359072 -0.8937897915
253775000.0 0.3021357853 -0.9266983632
258750000.0 0.2644328476 -0.9371036573
263725000.0 0.2274677818 -0.9455020688
268700000.0 0.1902028149 -0.9519030476
273675000.0 0.1525528584 -0.9562055241
278650000.0 0.1139461096 -0.9582264265
283625000.0 0.0742938178 -0.9580584679
288600000.0 0.0335076692 -0.9551366784
293575000.0 -0.0085635264 -0.9494957693
298550000.0 -0.0522778198 -0.9404405398
303525000.0 -0.0972820107 -0.9277559819
308500000.0 -0.1435848266 -0.9106070388
313475000.0 -0.1909025634 -0.8885398777
318450000.0 -0.2386543603 -0.8605734544
323425000.0 -0.2865576516 -0.8261183195
328400000.0 -0.3333397568 -0.7850721505
333375000.0 -0.3779247692 -0.736710714
338350000.0 -0.4186770398 -0.6807941259
343325000.0 -0.4542953174 -0.6177060359
348300000.0 -0.4823451587 -0.5480255761
353275000.0 -0.5011960674 -0.473058484
358250000.0 -0.5094858795 -0.3941992282
363225000.0 -0.5062114182 -0.3140189443
368200000.0 -0.4911306439 -0.2352985848
373175000.0 -0.4653444761 -0.1605358663
378150000.0 -0.4301633079 -0.0921027059
383125000.0 -0.386826469 -0.0316468443
388100000.0 -0.3376120204 0.019712339
393075000.0 -0.2851320992 0.0609262965
398050000.0 -0.2315051827 0.0925840565
403025000.0 -0.1785450473 0.1151053355
408000000.0 -0.1283209073 0.1293578642
412975000.0 -0.0821168619 0.1363793039
417950000.0 -0.039733902 0.1374284065
422925000.0 -0.0015938613 0.1338339803
427900000.0 0.0315659089 0.1266295515
432875000.0 0.060431796 0.1170855484
437850000.0 0.0848572579 0.1059577833
442825000.0 0.1047010552 0.0938215997
447800000.0 0.1208467755 0.0812242522
452775000.0 0.1337746613 0.0683577192
457750000.0 0.1433996478 0.0556421503
462725000.0 0.1500386761 0.0432057972
467700000.0 0.153530057 0.0315246014
472675000.0 0.1540910812 0.020601343
477650000.0 0.15214339 0.010550897
482625000.0 0.1483557961 0.0016537703
487600000.0 0.1426900989 -0.0058237363
492575000.0 0.1348029803 -0.0119119468
497550000.0 0.1294706119 -0.0117602144
502525000.0 0.1214193526 -0.0207367163
507500000.0 0.1106840158 -0.0246917125
512475000.0 0.099320822 -0.0270420242
517450000.0 0.0875191208 -0.0281445891
522425000.0 0.0753467334 -0.0281333514
527400000.0 0.0628947655 -0.0268241498
532375000.0 0.0503573545 -0.0241938733
537350000.0 0.0378370183 -0.0204404654
542325000.0 0.025661233 -0.0158384679
547300000.0 0.013318981 -0.0106518701
552275000.0 0.0005343307 -0.004084836
557250000.0 -0.0113916313 0.0037067599
562225000.0 -0.0228415075 0.012166224
567200000.0 -0.0336104423 0.0214560694
572175000.0 -0.0432318875 0.0313015128
577150000.0 -0.051975046 0.0419329919
582125000.0 -0.0600338164 0.0526720667
587100000.0 -0.0671440057 0.0638174875
592075000.0 -0.0737134338 0.0746631681
597050000.0 -0.0790767917 0.0852628823
602025000.0 -0.0833647547 0.0955969583
607000000.0 -0.0866059367 0.1054969004
611975000.0 -0.0888437135 0.1152980492
616950000.0 -0.090203562 0.1247554407
621925000.0 -0.0907908795 0.1336734959
626900000.0 -0.0902316421 0.1420024124
631875000.0 -0.08903294 0.1497835909
636850000.0 -0.0870861408 0.1572514266
641825000.0 -0.0843780522 0.1640128186
646800000.0 -0.0806484517 0.1700424712
651775000.0 -0.076309941 0.1753445011
656750000.0 -0.0707642511 0.1801905566
661725000.0 -0.065060542 0.183907818
666700000.0 -0.0586922367 0.1867080431
671675000.0 -0.0515919512 0.1882008715
676650000.0 -0.0437514988 0.1887137488
681625000.0 -0.0353033201 0.1882067505
686600000.0 -0.0260856094 0.1870748413
691575000.0 -0.0168558133 0.1847295245
696550000.0 -0.0071956298 0.1812633389
701525000.0 0.0031127421 0.1761734845
706500000.0 0.0138188951 0.1699323173
711475000.0 0.0245356031 0.1626198086
716450000.0 0.0354168899 0.154055403
721425000.0 0.0463006519 0.1444026207
726400000.0 0.0570244579 0.133201641
731375000.0 0.0670672107 0.1205135708
736350000.0 0.0768784635 0.1066906497
741325000.0 0.0859442168 0.0917213513
746300000.0 0.0951914038 0.0747986193
751275000.0 0.1029794235 0.0569216557
756250000.0 0.1098673171 0.0378914409
761225000.0 0.1158079614 0.0177498258
766200000.0 0.1205778396 -0.0035559814
771175000.0 0.1235834104 -0.0257363649
776150000.0 0.1254836146 -0.0483791542
781125000.0 0.1258328011 -0.0719238059
786100000.0 0.1246847316 -0.0954952469
791075000.0 0.1218596357 -0.1194136606
796050000.0 0.1178260569 -0.1432023395
801025000.0 0.1123263834 -0.1667465576
806000000.0 0.1048333804 -0.1894906623
810975000.0 0.0953868817 -0.2117170561
815950000.0 0.0841101251 -0.2332575404
820925000.0 0.0714976951 -0.2545003276
825900000.0 0.0579643484 -0.2748132757
830875000.0 0.0431480064 -0.2936058271
835850000.0 0.0269418692 -0.3109458031
840825000.0 0.0095380544 -0.3275993527
845800000.0 -0.0090219725 -0.3425589518
850775000.0 -0.0288145406 -0.3559296742
855750000.0 -0.0496727547 -0.3681992701
860725000.0 -0.0716518167 -0.3788690587
865700000.0 -0.0941224104 -0.3875680492
870675000.0 -0.1174110044 -0.3943508612
875650000.0 -0.1417051451 -0.3987662217
880625000.0 -0.1662617412 -0.4007502765
885600000.0 -0.191776147 -0.4003011658
890575000.0 -0.2182434567 -0.3967496096
895550000.0 -0.2447449525 -0.39093023
900525000.0 -0.2713511542 -0.3818542869
905500000.0 -0.2982778816 -0.369196882
910475000.0 -0.3250270491 -0.3530794427
915450000.0 -0.3514962715 -0.3335057993
920425000.0 -0.3773299303 -0.3098919786
925400000.0 -0.4024435376 -0.2823165602
930375000.0 -0.4257997158 -0.2501338189
935350000.0 -0.4474948137 -0.213764023
940325000.0 -0.4667985561 -0.1726291561
945300000.0 -0.4829796453 -0.1259681751
950275000.0 -0.4951599471 -0.0737367209
955250000.0 -0.5025373372 -0.0161178863
960225000.0 -0.50257488 0.04749855
965200000.0 -0.4939680169 0.1165192299
970175000.0 -0.4746116934 0.1891366403
975150000.0 -0.4414017872 0.2618986401
980125000.0 -0.3929503834 0.3288057947
985100000.0 -0.3322859845 0.3841557102
990075000.0 -0.2686663333 0.4305796579
995050000.0 -0.2049542055 0.4738716104
1000025000.0 -0.140674813 0.5174229923
1005000000.0 -0.0718464916 0.5646275892
1009975000.0 0.0146242816 0.6078122199
1014950000.0 0.11895243 0.6373386321
1019925000.0 0.2369859999 0.647530975
1024900000.0 0.3615647246 0.6343464168
1029875000.0 0.4850702507 0.5959420467
1034850000.0 0.601449369 0.5339233377
1039825000.0 0.7048220068 0.4500985325
1044800000.0 0.7907053065 0.3481607211
1049775000.0 0.8555530167 0.2320824888
1054750000.0 0.895843288 0.1072415279
1059725000.0 0.9077345832 -0.0180228386
1064700000.0 0.9022188048 -0.1253400592
1069675000.0 0.8971981414 -0.2352682923
1074650000.0 0.8693148653 -0.3505781304
1079625000.0 0.8205765858 -0.4554830399
1084600000.0 0.7618542066 -0.5520651552
1089575000.0 0.6845123867 -0.6385621837
1094550000.0 0.5961441593 -0.7086809459
1099525000.0 0.501371849 -0.7636694709
1104500000.0 0.402113588 -0.8033240143
1109475000.0 0.3000366013 -0.8281033978
1114450000.0 0.1976824356 -0.8390756952
1119425000.0 0.0975286168 -0.8372408021
1124400000.0 0.0009648284 -0.8227641505
1129375000.0 -0.0903967228 -0.7967850081
1134350000.0 -0.1761386515 -0.7613712081
1139325000.0 -0.2544483723 -0.7174361241
1144300000.0 -0.3243201888 -0.6657534884
1149275000.0 -0.3859044245 -0.6093775177
1154250000.0 -0.4385238816 -0.5500047445
1159225000.0 -0.4814989711 -0.4888242314
1164200000.0 -0.5178186894 -0.4290375836
1169175000.0 -0.5493657264 -0.3702778052
1174150000.0 -0.5759218638 -0.3108363445
1179125000.0 -0.5963783557 -0.2512903853
1184100000.0 -0.6115630291 -0.1926650865
1189075000.0 -0.621524674 -0.1363996916
1194050000.0 -0.6267548508 -0.0830941038
1199025000.0 -0.6286301039 -0.0323841977
1204000000.0 -0.6269033981 0.0153484164
1208975000.0 -0.6225369165 0.0597620961
1213950000.0 -0.6163485933 0.1021696724
1218925000.0 -0.6092971059 0.1416798721
1223900000.0 -0.6009000254 0.1780618952
1228875000.0 -0.591321823 0.212025763
1233850000.0 -0.5820377489 0.2442621592
1238825000.0 -0.5719903475 0.2737701314
1243800000.0 -0.5613483383 0.3012634335
1248775000.0 -0.5512317445 0.3271256188
1253750000.0 -0.5414453684 0.3507873999
1258725000.0 -0.5308193263 0.3723552183
1263700000.0 -0.5211375436 0.3927719019
1268675000.0 -0.5124379089 0.4111518959
1273650000.0 -0.5041808423 0.4277902183
1278625000.0 -0.4960088142 0.442772519
1283600000.0 -0.4883842586 0.4559979556
1288575000.0 -0.4814533665 0.4678742706
1293550000.0 -0.4747626926 0.4790667712
1298525000.0 -0.4678030419 0.4886091251
1303500000.0 -0.4614104219 0.4978791154
1308475000.0 -0.4558334283 0.5070903193
1313450000.0 -0.4504197594 0.514851395
1318425000.0 -0.4448649225 0.522561026
1323400000.0 -0.4395003198 0.5297617451
1328375000.0 -0.4340572068 0.5366786707
1333350000.0 -0.4279607562 0.5437419167
1338325000.0 -0.4222741788 0.5503447937
1343300000.0 -0.4171743662 0.5566327169
1348275000.0 -0.4109616628 0.5627119219
1353250000.0 -0.4049548404 0.5684795387
1358225000.0 -0.3993233452 0.5741110657
1363200000.0 -0.3935312473 0.5793128771
1368175000.0 -0.3876578943 0.5836412502
1373150000.0 -0.3816468934 0.5875666408
1378125000.0 -0.3752881979 0.5915331595
1383100000.0 -0.3690622539 0.5949531727
1388075000.0 -0.3634276812 0.5977935008
1393050000.0 -0.3572835452 0.6001456093
1398025000.0 -0.3506309768 0.6022983097
1403000000.0 -0.3443717717 0.6040500576
1407975000.0 -0.3380743575 0.6057910264
1412950000.0 -0.3313288722 0.6072511147
1417925000.0 -0.3240788216 0.6083894786
1422900000.0 -0.3172258292 0.6092230568
1427875000.0 -0.3097313646 0.6101151897
1432850000.0 -0.3015272777 0.6102726209
1437825000.0 -0.2931602406 0.6105830687
1442800000.0 -0.2847517675 0.6106607932
1447775000.0 -0.2754491364 0.6108369762
1452750000.0 -0.2645295388 0.6104939167
1457725000.0 -0.2529638817 0.609529484
1462700000.0 -0.2407213077 0.609391984
1467675000.0 -0.2273622092 0.6089465485
1472650000.0 -0.2129088039 0.6073300492
1477625000.0 -0.1983627211 0.6064360751
1482600000.0 -0.1832069258 0.6050461032
1487575000.0 -0.166934239 0.6023004036
1492550000.0 -0.1502437009 0.5996437863
1497525000.0 -0.1327799078 0.5965320112
1502500000.0 -0.114805031 0.592921481
1507475000.0 -0.0963947432 0.5896005927
1512450000.0 -0.0777543677 0.5861748258
1517425000.0 -0.0584242155 0.5819350161
1522400000.0 -0.0392800675 0.5774312712
1527375000.0 -0.0191719016 0.5722603116
1532350000.0 0.0014453361 0.565910023
1537325000.0 0.0220485366 0.5586758971
1542300000.0 0.0434930363 0.5502029169
1547275000.0 0.0657105002 0.5410508004
1552250000.0 0.0873533838 0.5312735166
1557225000.0 0.1092341464 0.5201391585
1562200000.0 0.1317331341 0.5082273858
1567175000.0 0.1535241921 0.4956628994
1572150000.0 0.1755159965 0.4820461504
1577125000.0 0.1978504082 0.4674852167
1582100000.0 0.2196413256 0.4525579639
1587075000.0 0.2417961459 0.4373337676
1592050000.0 0.2643552573 0.4212142264
1597025000.0 0.2856182195 0.4049630036
1602000000.0 0.3074955377 0.3881645395
1606975000.0 0.3292196712 0.3711149545
1611950000.0 0.3506760656 0.3536266732
1616925000.0 0.3709009755 0.3360272736
1621900000.0 0.3909647494 0.318814033
1626875000.0 0.410686937 0.3014554871
1631850000.0 0.4294446422 0.2841199697
1636825000.0 0.4466577409 0.2674927901
1641800000.0 0.4642374143 0.2511995119
1646775000.0 0.4812957368 0.2353084314
1651750000.0 0.4969120302 0.2201478634
1656725000.0 0.5120320354 0.2054009912
1661700000.0 0.5262214837 0.1914953208
1666675000.0 0.5391664455 0.1776287278
1671650000.0 0.5510812181 0.1644517275
1676625000.0 0.562510198 0.1517934816
1681600000.0 0.5722360051 0.139188172
1686575000.0 0.5815052441 0.1266484951
1691550000.0 0.5899688132 0.1148386273
1696525000.0 0.5980942625 0.1033708253
1701500000.0 0.605510094 0.0919460873
1706475000.0 0.6123426244 0.0807427639
1711450000.0 0.618806596 0.0699899057
1716425000.0 0.6249245516 0.0597739861
1721400000.0 0.630632783 0.049310346
1726375000.0 0.6365304047 0.0398034006
1731350000.0 0.6419283709 0.0306959208
1736325000.0 0.6471063014 0.021879446
1741300000.0 0.6526058747 0.0136375228
1746275000.0 0.6576673076 0.0063340375
1751250000.0 0.6626496102 -8.105e-06
1756225000.0 0.6674458177 -0.0053264849
1761200000.0 0.6714377583 -0.0094674472
1766175000.0 0.6755971844 -0.0128154187
1771150000.0 0.6789093349 -0.0153781386
1776125000.0 0.681954861 -0.0172864763
1781100000.0 0.6851741135 -0.0180717437
1786075000.0 0.6875993477 -0.0183920197
1791050000.0 0.6893359688 -0.0184131888
1796025000.0 0.6910465776 -0.01768244
1801000000.0 0.6923790337 -0.0164513308
1805975000.0 0.6928452859 -0.0153819475
1810950000.0 0.6932219054 -0.0139184484
1815925000.0 0.6932700266 -0.0120832607
1820900000.0 0.6926797736 -0.0102818564
1825875000.0 0.6919647946 -0.0089515135
1830850000.0 0.6906680395 -0.0068771414
1835825000.0 0.689103031 -0.0045873943
1840800000.0 0.6872024273 -0.0019666489
1845775000.0 0.6845710235 0.0005545001
1850750000.0 0.6811245655 0.0034488861
1855725000.0 0.6773929862 0.0066664213
1860700000.0 0.6729746801 0.009924305
1865675000.0 0.6677938817 0.0132951322
1870650000.0 0.6620489118 0.0167460183
1875625000.0 0.655914005 0.0204114606
1880600000.0 0.6489536622 0.023781762
1885575000.0 0.6411919416 0.0268615544
1890550000.0 0.6328527783 0.0297982201
1895525000.0 0.623877555 0.0327410435
1900500000.0 0.6146535425 0.0347432766
1905475000.0 0.604185999 0.0364146591
1910450000.0 0.5931462128 0.0380611704
1915425000.0 0.5811974319 0.040079192
1920400000.0 0.5691521304 0.0410852891
1925375000.0 0.5558864711 0.0425347922
1930350000.0 0.5414942425 0.0440681802
1935325000.0 0.5263682315 0.0457018272
1940300000.0 0.5104504659 0.0469044924
1945275000.0 0.4928762416 0.0483954085
1950250000.0 0.4745687287 0.0503005292
1955225000.0 0.4548985783 0.0520864397
1960200000.0 0.434083968 0.0537209117
1965175000.0 0.4113286624 0.0559175389
1970150000.0 0.3868329365 0.0577114103
1975125000.0 0.3609398286 0.0597035554
1980100000.0 0.3320864531 0.0617345638
1985075000.0 0.30022862 0.06339313
1990050000.0 0.2661778546 0.0650114782
1995025000.0 0.2284149695 0.0673471972
2000000000.0 0.1869886321 0.0699399788
