!Created with skrf (http://scikit-rf.org).
# GHz S RI R 50.0 
!freq ReS11 ImS11
10000000.0 -1.000143315 0.1605207876
19950000.0 -0.9465395786 0.3072871643
29900000.0 -0.8704913925 0.448617265
39850000.0 -0.771895875 0.5889403412
49800000.0 -0.6515108353 0.7228652819
59750000.0 -0.5036341272 0.8438546189
69700000.0 -0.3203430043 0.9393936147
79650000.0 -0.0967266604 0.9890636665
89600000.0 0.1652019976 0.9720658544
99550000.0 0.4486651537 0.8656329902
109500000.0 0.7234086766 0.6528128638
119450000.0 0.9350717376 0.3244051212
129400000.0 1.008888204 -0.0905961754
139350000.0 0.8911048588 -0.5056346339
149300000.0 0.6051962304 -0.8154242183
159250000.0 0.2427565418 -0.9646761507
169200000.0 -0.1088396927 -0.9750771817
179150000.0 -0.4059597293 -0.8916685282
189100000.0 -0.6350684878 -0.7534660085
199050000.0 -0.7947014332 -0.5865033081
209000000.0 -0.88931702 -0.4066352788
218950000.0 -0.934982755 -0.2273997794
228900000.0 -0.9432227309 -0.0551831997
238850000.0 -0.9257664183 0.1092794164
248800000.0 -0.8898614816 0.2632915766
258750000.0 -0.8419257198 0.4040896203
268700000.0 -0.7713284893 0.5355536911
278650000.0 -0.6768617696 0.6476644434
288600000.0 -0.5565413894 0.7363396892
298550000.0 -0.4125397783 0.798755569
308500000.0 -0.2486185705 0.8347011726
318450000.0 -0.0692733321 0.8395325284
328400000.0 0.1182470042 0.8046803289
338350000.0 0.2953252118 0.7181201301
348300000.0 0.4368184101 0.5729208195
358250000.0 0.5112795001 0.3805356249
368200000.0 0.5038052475 0.1740119301
378150000.0 0.422705624 -0.0059878739
388100000.0 0.2983631448 -0.1306664482
398050000.0 0.1651210498 -0.1919358084
408000000.0 0.0487526802 -0.1964804895
417950000.0 -0.0386551419 -0.1608497952
427900000.0 -0.0947833733 -0.1028319217
437850000.0 -0.1254097288 -0.0385733935
447800000.0 -0.1367088949 0.020137667
457750000.0 -0.1336740938 0.066598264
467700000.0 -0.1195167736 0.095999604
477650000.0 -0.0972006016 0.1078501935
487600000.0 -0.0691607214 0.1047768949
497550000.0 -0.0424732758 0.0908759188
507500000.0 -0.0087874496 0.0769179589
517450000.0 0.0135977145 0.0553006711
527400000.0 0.0258831779 0.0341830968
537350000.0 0.0237217124 0.0136303835
547300000.0 0.0095851395 -0.0053973788
557250000.0 -0.0149058388 -0.0242753804
567200000.0 -0.0452622494 -0.0415219224
577150000.0 -0.0766882356 -0.0546507608
587100000.0 -0.1044525494 -0.0610015152
597050000.0 -0.126012639 -0.0583614132
607000000.0 -0.141364694 -0.045074834
616950000.0 -0.1518126691 -0.021836338
626900000.0 -0.1582236194 0.0087724667
636850000.0 -0.1610735982 0.0417906108
646800000.0 -0.1600103875 0.0734812599
656750000.0 -0.1535336802 0.0994917617
666700000.0 -0.1394548645 0.1171191317
676650000.0 -0.1157589361 0.1261812995
686600000.0 -0.0830405471 0.1279953937
696550000.0 -0.0437333079 0.1235462753
706500000.0 -0.001562648 0.1132665625
716450000.0 0.0380466646 0.097400752
726400000.0 0.0698702882 0.0734599302
736350000.0 0.0898855766 0.0402474316
746300000.0 0.095563013 -0.0028744889
756250000.0 0.0868650221 -0.0558063934
766200000.0 0.0636977222 -0.1120378051
776150000.0 0.0327308707 -0.1656054476
786100000.0 -0.003510074 -0.2121154764
796050000.0 -0.046317819 -0.246432612
806000000.0 -0.0968373747 -0.2642082464
815950000.0 -0.1553270867 -0.2626760695
825900000.0 -0.219129607 -0.243979124
835850000.0 -0.2849341054 -0.2104543975
845800000.0 -0.3475817864 -0.1667050388
855750000.0 -0.4019094684 -0.1150282093
865700000.0 -0.4407404906 -0.0566769367
875650000.0 -0.4609252893 0.0089324448
885600000.0 -0.4584661944 0.0802781656
895550000.0 -0.43515536 0.1570516263
905500000.0 -0.392124867 0.2376870809
915450000.0 -0.3330585113 0.3170531053
925400000.0 -0.2580276632 0.3888104227
935350000.0 -0.1664087083 0.4439957261
945300000.0 -0.0582986213 0.4718757466
955250000.0 0.0657301781 0.4626584693
965200000.0 0.2000431985 0.4069372987
975150000.0 0.3330478122 0.3009848044
985100000.0 0.4450229134 0.1418622263
995050000.0 0.5083951348 -0.0644318674
1005000000.0 0.4884247582 -0.2973130337
1014950000.0 0.3631836686 -0.5156745533
1024900000.0 0.139826012 -0.6692513543
1034850000.0 -0.1435294558 -0.7222316582
1044800000.0 -0.4332593418 -0.6638690436
1054750000.0 -0.680680306 -0.5025292588
1064700000.0 -0.8388226424 -0.2614495523
1074650000.0 -0.8918615059 -0.0008082754
1084600000.0 -0.8437193775 0.2723980226
1094550000.0 -0.6980006665 0.5125508066
1104500000.0 -0.4734691495 0.7017200183
1114450000.0 -0.2000477818 0.8041863374
1124400000.0 0.0973034266 0.8010063731
1134350000.0 0.364532799 0.6797241881
1144300000.0 0.553327327 0.4629143695
1154250000.0 0.6417800816 0.2018188086
1164200000.0 0.6395022489 -0.0560284407
1174150000.0 0.5678804606 -0.279350625
1184100000.0 0.4499112299 -0.4511875776
1194050000.0 0.3063497422 -0.565002702
1204000000.0 0.154601577 -0.622595095
1213950000.0 0.007261658 -0.6359554486
1223900000.0 -0.127997265 -0.6207031918
1233850000.0 -0.2488877191 -0.590047721
1243800000.0 -0.3535166454 -0.5508620708
1253750000.0 -0.4422194411 -0.506025392
1263700000.0 -0.5134018141 -0.4539714804
1273650000.0 -0.5681380675 -0.3956402721
1283600000.0 -0.6057980474 -0.3293339943
1293550000.0 -0.631707051 -0.2571649815
1303500000.0 -0.6507449255 -0.182105389
1313450000.0 -0.6665667782 -0.1082673415
1323400000.0 -0.6815710385 -0.0372844288
1333350000.0 -0.6932243901 0.0294693369
1343300000.0 -0.6983589643 0.0922234984
1353250000.0 -0.6928749583 0.1504715686
1363200000.0 -0.6741990506 0.2067670655
1373150000.0 -0.6396519041 0.2634506228
1383100000.0 -0.5904843788 0.3219469208
1393050000.0 -0.5053724354 0.3582535704
1403000000.0 -0.5174505108 0.3654336638
1412950000.0 -0.4859218893 0.4406134155
1422900000.0 -0.4407134503 0.4935129318
1432850000.0 -0.391471473 0.5324164273
1442800000.0 -0.3367358999 0.559046669
1452750000.0 -0.2739427073 0.5737273639
1462700000.0 -0.202003486 0.5788782103
1472650000.0 -0.1224895482 0.5772647274
1482600000.0 -0.0395801105 0.5714087591
1492550000.0 0.0428809057 0.5591844081
1502500000.0 0.1228883645 0.5381211826
1512450000.0 0.1962105615 0.5029130876
1522400000.0 0.2608464702 0.450208286
1532350000.0 0.3139799031 0.3772792631
1542300000.0 0.3566516218 0.2875228674
1552250000.0 0.3883656675 0.1856147154
1562200000.0 0.409404696 0.0780897994
1572150000.0 0.4156220443 -0.029584054
1582100000.0 0.402802081 -0.1325890992
1592050000.0 0.3677506033 -0.2256005353
1602000000.0 0.309407808 -0.3055066704
1611950000.0 0.2327302476 -0.3705542377
1621900000.0 0.1440146796 -0.4235058233
1631850000.0 0.0497505029 -0.4659690828
1641800000.0 -0.0444897514 -0.4983831787
1651750000.0 -0.1350745117 -0.5174459316
1661700000.0 -0.2188415005 -0.5209432169
1671650000.0 -0.2941382955 -0.5066597346
1681600000.0 -0.3613131599 -0.4762662017
1691550000.0 -0.423166922 -0.4346045684
1701500000.0 -0.4815049348 -0.3855480748
1711450000.0 -0.5366049478 -0.3349740685
1721400000.0 -0.5879962252 -0.284830213
1731350000.0 -0.6332324103 -0.237563104
1741300000.0 -0.6682275041 -0.1910059798
1751250000.0 -0.6896994668 -0.1426835186
1761200000.0 -0.6976680626 -0.0925332299
1771150000.0 -0.6952732012 -0.0397736633
1781100000.0 -0.6886931254 0.015034293
1791050000.0 -0.6821036744 0.0691649132
1801000000.0 -0.6785189614 0.1207923461
1810950000.0 -0.6782387257 0.1700103643
1820900000.0 -0.6785248057 0.2145930756
1830850000.0 -0.6728586704 0.2533689437
1840800000.0 -0.65737813 0.2879571156
1850750000.0 -0.6306480692 0.3187963033
1860700000.0 -0.593891557 0.3472146041
1870650000.0 -0.5527671326 0.3756276825
1880600000.0 -0.5125097606 0.4024230406
1890550000.0 -0.4770149747 0.4281967696
1900500000.0 -0.4470933484 0.4504346979
1910450000.0 -0.4201998118 0.4660814738
1920400000.0 -0.393654104 0.4738307907
1930350000.0 -0.3635332267 0.4723666412
1940300000.0 -0.3285167101 0.4618705792
1950250000.0 -0.2880451647 0.4442763163
1960200000.0 -0.2453689949 0.4236610234
1970150000.0 -0.20640518 0.40103871
1980100000.0 -0.1750888866 0.3777094146
1990050000.0 -0.1553418892 0.3499929296
2000000000.0 -0.1502055382 0.3156662241
