!Created with skrf (http://scikit-rf.org).
# GHz S RI R 50.0 
!freq ReS11 ImS11
10000000.0 -0.993424461 0.0660093162
14975000.0 -0.9904175155 0.0992445504
19950000.0 -0.9864432516 0.1330245105
24925000.0 -0.9810895948 0.1679703636
29900000.0 -0.9744478609 0.2034692876
34875000.0 -0.9653713644 0.2408293261
39850000.0 -0.9540372366 0.2800017498
44825000.0 -0.9399936808 0.321446778
49800000.0 -0.9234726671 0.3653513725
54775000.0 -0.9034618073 0.4117899689
59750000.0 -0.8793706609 0.4611638346
64725000.0 -0.8505145797 0.5131474534
69700000.0 -0.8155700886 0.5676666423
74675000.0 -0.7732487393 0.6246411189
79650000.0 -0.7220967397 0.6833544249
84625000.0 -0.6608439232 0.7430675396
89600000.0 -0.5880563045 0.8023265512
94575000.0 -0.5024010814 0.8590110548
99550000.0 -0.4028316685 0.9104380869
104525000.0 -0.288680752 0.9531101657
109500000.0 -0.1602211631 0.9827728975
114475000.0 -0.018696904 0.9946932598
119450000.0 0.1320223341 0.9850057207
124425000.0 0.2868669642 0.9504587774
129400000.0 0.4397449623 0.88898406
134375000.0 0.5771927197 0.8049852226
139350000.0 0.7062531941 0.6937737467
144325000.0 0.8112699752 0.5660102315
149300000.0 0.8913519281 0.4270011408
154275000.0 0.9459241945 0.2836702627
159250000.0 0.9766791389 0.1418112218
164225000.0 0.9861417476 0.0067006097
169200000.0 0.9779978101 -0.1189264701
174175000.0 0.9557379365 -0.2329939297
179150000.0 0.9236012925 -0.334681704
184125000.0 0.8848615779 -0.4241988916
189100000.0 0.8420179533 -0.5024906785
194075000.0 0.7970537028 -0.570672235
199050000.0 0.7513191582 -0.6295728217
204025000.0 0.7056088194 -0.6805895234
209000000.0 0.6605401673 -0.7245264622
213975000.0 0.616490565 -0.7625036103
218950000.0 0.5735600191 -0.7951292069
223925000.0 0.5319794959 -0.8234006549
228900000.0 0.4916884888 -0.8477058174
233875000.0 0.4526095676 -0.8687334924
238850000.0 0.4141550052 -0.8869332968
243825000.0 0.3759414975 -0.9025516813
248800000.0 0.3260941924 -0.9056642929
253775000.0 0.3070601496 -0.925344129
258750000.0 0.2696522534 -0.9355467879
263725000.0 0.2328313186 -0.9436193781
268700000.0 0.1957468164 -0.9497982828
273675000.0 0.1583865133 -0.9540942232
278650000.0 0.1204001715 -0.9562507715
283625000.0 0.0812630258 -0.9565083369
288600000.0 0.0410866491 -0.9542973644
293575000.0 -0.000320674 -0.9495410508
298550000.0 -0.0432385659 -0.9415045438
303525000.0 -0.0873474489 -0.9300787025
308500000.0 -0.1326511708 -0.9143876144
313475000.0 -0.1787102083 -0.8936620165
318450000.0 -0.2254840149 -0.8672158787
323425000.0 -0.2721776605 -0.8343550465
328400000.0 -0.3180564169 -0.7949316189
333375000.0 -0.3618845542 -0.7485820676
338350000.0 -0.4024409184 -0.6946799865
343325000.0 -0.4381430969 -0.633611317
348300000.0 -0.4672391659 -0.5661724618
353275000.0 -0.4876910202 -0.4929006697
358250000.0 -0.4981269019 -0.4155432137
363225000.0 -0.4973866832 -0.3363395059
368200000.0 -0.485035039 -0.2580226493
373175000.0 -0.4614558499 -0.1831386494
378150000.0 -0.4278763853 -0.1142862717
383125000.0 -0.3859903156 -0.0532219046
388100000.0 -0.337666243 -0.0011244192
393075000.0 -0.2856143083 0.0408187874
398050000.0 -0.2320713478 0.0731072119
403025000.0 -0.1788503969 0.0963630582
408000000.0 -0.1284049006 0.1113172957
412975000.0 -0.0818488202 0.1189879931
417950000.0 -0.0390650654 0.1209989441
422925000.0 -0.0006883235 0.1183481849
427900000.0 0.0329485072 0.1123315661
432875000.0 0.0621593896 0.1042062095
437850000.0 0.0868085211 0.0946290994
442825000.0 0.1075894724 0.0838191745
447800000.0 0.1247712499 0.0724071459
452775000.0 0.1386544715 0.0604371391
457750000.0 0.1496358975 0.0480867975
462725000.0 0.1577685336 0.0360621653
467700000.0 0.1627349657 0.0242848746
472675000.0 0.1649879069 0.0130790059
477650000.0 0.1645530869 0.0024381953
482625000.0 0.1622874944 -0.0071697855
487600000.0 0.1579620082 -0.0153809633
492575000.0 0.152075676 -0.0217434109
497550000.0 0.1484904891 -0.0249383465
502525000.0 0.1373432111 -0.0358016142
507500000.0 0.1261212346 -0.0382416847
512475000.0 0.1147001833 -0.0397515251
517450000.0 0.1029710087 -0.0400847249
522425000.0 0.0906877107 -0.0392718735
527400000.0 0.0783417451 -0.0373240301
532375000.0 0.0660361222 -0.0340268991
537350000.0 0.0537707218 -0.0296827387
542325000.0 0.0417443573 -0.024314095
547300000.0 0.0304255428 -0.0180330776
552275000.0 0.0193588276 -0.0115299675
557250000.0 0.0084858951 -0.0042204966
562225000.0 -0.0020501269 0.0036458586
567200000.0 -0.0119328758 0.0122415766
572175000.0 -0.0210265114 0.021491777
577150000.0 -0.0295087342 0.0314581723
582125000.0 -0.0373484065 0.0418517989
587100000.0 -0.0445906695 0.0527657195
592075000.0 -0.0514977188 0.06365303
597050000.0 -0.0575473462 0.0744700345
602025000.0 -0.0625521465 0.0853753467
607000000.0 -0.0666894672 0.0962179484
611975000.0 -0.0697920966 0.1069831196
616950000.0 -0.0719386667 0.1175863603
621925000.0 -0.0732702993 0.1278047528
626900000.0 -0.0736297177 0.1371138315
631875000.0 -0.0728262846 0.1461681997
636850000.0 -0.0709404009 0.1544558559
641825000.0 -0.0682315323 0.1620177249
646800000.0 -0.0644977826 0.1688977121
651775000.0 -0.0596377771 0.1749295371
656750000.0 -0.0539281257 0.1804291854
661725000.0 -0.0476648177 0.1847793174
666700000.0 -0.0409152825 0.1882478126
671675000.0 -0.033470061 0.1904152295
676650000.0 -0.0255368143 0.1918137888
681625000.0 -0.0170206314 0.1923505378
686600000.0 -0.0082286899 0.1918795199
691575000.0 0.0008069954 0.1903920767
696550000.0 0.0100502129 0.1875624724
701525000.0 0.0196412077 0.1833072953
706500000.0 0.029563033 0.1778921679
711475000.0 0.0395873316 0.1711690922
716450000.0 0.0497864709 0.1631003182
721425000.0 0.0600839906 0.1537436009
726400000.0 0.0698957766 0.1429396556
731375000.0 0.0793420461 0.1310696621
736350000.0 0.0882224175 0.1182892766
741325000.0 0.0971321232 0.1043346575
746300000.0 0.106148405 0.0892601469
751275000.0 0.1143316245 0.0728430518
756250000.0 0.121644153 0.0554512179
761225000.0 0.1281194817 0.0368446052
766200000.0 0.1333413181 0.0169204809
771175000.0 0.1372343924 -0.0038287797
776150000.0 0.139601431 -0.0255441561
781125000.0 0.1404809035 -0.0482604755
786100000.0 0.1399728173 -0.071354736
791075000.0 0.1378007518 -0.0950883339
796050000.0 0.1341766232 -0.1188774375
801025000.0 0.1288053334 -0.1430893535
806000000.0 0.121835923 -0.1667677876
810975000.0 0.1129382711 -0.1899898088
815950000.0 0.1020985605 -0.2129306018
820925000.0 0.0898738091 -0.235532797
825900000.0 0.0766617189 -0.2570543797
830875000.0 0.0621789141 -0.2772296051
835850000.0 0.0460436294 -0.2959940411
840825000.0 0.0286853324 -0.3138983427
845800000.0 0.0098962023 -0.3301383416
850775000.0 -0.0102291905 -0.3446890307
855750000.0 -0.0314709623 -0.3581519976
860725000.0 -0.053826071 -0.370018098
865700000.0 -0.0771212761 -0.380106956
870675000.0 -0.1010726579 -0.3884638572
875650000.0 -0.1257651427 -0.3948636223
880625000.0 -0.1513088362 -0.3987471886
885600000.0 -0.1773236445 -0.4005159058
890575000.0 -0.2039610653 -0.3996941398
895550000.0 -0.2306637183 -0.3966240167
900525000.0 -0.2572413115 -0.3907123272
905500000.0 -0.2840984074 -0.3815678512
910475000.0 -0.3108988117 -0.3693197535
915450000.0 -0.3372916175 -0.3541433695
920425000.0 -0.3631489859 -0.3351691695
925400000.0 -0.388853906 -0.3128406041
930375000.0 -0.4133735179 -0.2866971236
935350000.0 -0.4368302298 -0.2566718242
940325000.0 -0.4589188629 -0.2230442574
945300000.0 -0.4790783871 -0.18502548
950275000.0 -0.4966625155 -0.1423857686
955250000.0 -0.5115737611 -0.095406789
960225000.0 -0.5219711947 -0.0435361568
965200000.0 -0.5276078263 0.0132800198
970175000.0 -0.5276495056 0.074628867
975150000.0 -0.5199382479 0.1397428177
980125000.0 -0.5039946267 0.2091117835
985100000.0 -0.47759874 0.281491628
990075000.0 -0.4397334256 0.3551095306
995050000.0 -0.3883859373 0.4280389451
1000025000.0 -0.3236245132 0.4984518174
1005000000.0 -0.2449773222 0.5632691979
1009975000.0 -0.1524479558 0.61889566
1014950000.0 -0.0465486192 0.6610248353
1019925000.0 0.0702319245 0.6877192362
1024900000.0 0.1952911708 0.6953148698
1029875000.0 0.3244457036 0.6805958112
1034850000.0 0.4525570678 0.6425678988
1039825000.0 0.5744547164 0.5804619746
1044800000.0 0.6848412002 0.4953035745
1049775000.0 0.7786046099 0.3902609264
1054750000.0 0.851448742 0.2698173668
1059725000.0 0.9014328381 0.1384010112
1064700000.0 0.9267047793 0.0019796547
1069675000.0 0.9277358238 -0.1347510944
1074650000.0 0.9040732901 -0.2688314415
1079625000.0 0.8536509699 -0.395041028
1084600000.0 0.7676214641 -0.499325885
1089575000.0 0.6984525019 -0.5288895945
1094550000.0 0.6693739222 -0.6214584467
1099525000.0 0.5865816039 -0.7078505191
1104500000.0 0.4894209832 -0.7682750877
1109475000.0 0.3883263868 -0.8096322887
1114450000.0 0.2860968762 -0.8344615768
1119425000.0 0.1854948798 -0.8452145914
1124400000.0 0.088106384 -0.8425697584
1129375000.0 -0.0048693894 -0.8285607167
1134350000.0 -0.0924509585 -0.8053435572
1139325000.0 -0.1737013481 -0.7731298666
1144300000.0 -0.2477000524 -0.7334946755
1149275000.0 -0.3143351187 -0.6881278508
1154250000.0 -0.3737691856 -0.6383328022
1159225000.0 -0.4247944032 -0.5847173452
1164200000.0 -0.4677331393 -0.5292031488
1169175000.0 -0.503244343 -0.4745794563
1174150000.0 -0.5331637728 -0.421063757
1179125000.0 -0.5593037682 -0.3683132359
1184100000.0 -0.5820700802 -0.3153297596
1189075000.0 -0.6003584645 -0.2625500276
1194050000.0 -0.6138185408 -0.2109609062
1199025000.0 -0.6237164922 -0.1606058143
1204000000.0 -0.6294725839 -0.1121543664
1208975000.0 -0.6319260683 -0.0662700167
1213950000.0 -0.6320732571 -0.0215597092
1218925000.0 -0.6304767676 0.0205053888
1223900000.0 -0.6267264724 0.059505209
1228875000.0 -0.6208774274 0.0963709987
1233850000.0 -0.615019685 0.1314960531
1238825000.0 -0.6074137175 0.1639858288
1243800000.0 -0.598309488 0.1943422176
1248775000.0 -0.5897837955 0.2231858625
1253750000.0 -0.5808405556 0.2497624542
1258725000.0 -0.5709060796 0.2743125829
1263700000.0 -0.5613448883 0.2976624552
1268675000.0 -0.5528516476 0.3192843832
1273650000.0 -0.5444108601 0.3391664398
1278625000.0 -0.5361689899 0.3573278416
1283600000.0 -0.528607081 0.3740557587
1288575000.0 -0.5213922746 0.389230939
1293550000.0 -0.5143576191 0.403920468
1298525000.0 -0.5070255794 0.4166894104
1303500000.0 -0.5002149008 0.4292343798
1308475000.0 -0.4938198544 0.4414706121
1313450000.0 -0.4879083331 0.4520411279
1318425000.0 -0.4814564853 0.4622575075
1323400000.0 -0.4748703138 0.4719268375
1328375000.0 -0.4684664323 0.4808221209
1333350000.0 -0.4611862319 0.4899259534
1338325000.0 -0.4540074368 0.4987441178
1343300000.0 -0.4471211183 0.5066894632
1348275000.0 -0.4398544381 0.5147691727
1353250000.0 -0.4323241567 0.5228703647
1358225000.0 -0.4251719801 0.5305240363
1363200000.0 -0.4181087975 0.5378090731
1368175000.0 -0.4113225129 0.5445544164
1373150000.0 -0.4039990932 0.550531912
1378125000.0 -0.3966604655 0.5565444289
1383100000.0 -0.3894549566 0.5621191496
1388075000.0 -0.3825335007 0.5671939113
1393050000.0 -0.3756541227 0.5714751687
1398025000.0 -0.3681710089 0.5753158578
1403000000.0 -0.3609260795 0.5787744459
1407975000.0 -0.353952358 0.5819674786
1412950000.0 -0.3460636352 0.5847687191
1417925000.0 -0.337799728 0.587588051
1422900000.0 -0.3302171822 0.5898281599
1427875000.0 -0.3219952267 0.5923685042
1432850000.0 -0.3132010934 0.5942744906
1437825000.0 -0.3043499676 0.5962316937
1442800000.0 -0.295557286 0.5979480733
1447775000.0 -0.2862770118 0.5999930282
1452750000.0 -0.2758252268 0.6013178452
1457725000.0 -0.2645205843 0.6018988448
1462700000.0 -0.2530785953 0.6033632871
1467675000.0 -0.2407612356 0.6046688115
1472650000.0 -0.227152342 0.6045889308
1477625000.0 -0.213698096 0.6048753861
1482600000.0 -0.199815456 0.6051741719
1487575000.0 -0.1848484207 0.6040244975
1492550000.0 -0.1687840169 0.6028451835
1497525000.0 -0.1523949289 0.6015656959
1502500000.0 -0.1354351845 0.5999791723
1507475000.0 -0.1178027717 0.5986892822
1512450000.0 -0.0997225321 0.5972925745
1517425000.0 -0.0815844239 0.5955114832
1522400000.0 -0.0636025974 0.5932386444
1527375000.0 -0.0447220488 0.5909371084
1532350000.0 -0.0256603882 0.5875049778
1537325000.0 -0.0071612844 0.583303682
1542300000.0 0.0121457146 0.5783356077
1547275000.0 0.0320995936 0.5723657247
1552250000.0 0.0514215097 0.5658953966
1557225000.0 0.0707401227 0.5582522465
1562200000.0 0.090896184 0.5500404796
1567175000.0 0.1104598456 0.5407930813
1572150000.0 0.1302984776 0.530673529
1577125000.0 0.1509571775 0.5196169922
1582100000.0 0.1709601237 0.5078652179
1587075000.0 0.1917299318 0.4958280999
1592050000.0 0.2127471668 0.4835747804
1597025000.0 0.2333096591 0.4709600988
1602000000.0 0.2541863154 0.4581593789
1606975000.0 0.2750944741 0.445354453
1611950000.0 0.2961751212 0.4327340188
1616925000.0 0.3164978643 0.4194925936
1621900000.0 0.336278861 0.4067966689
1626875000.0 0.3561668322 0.394245902
1631850000.0 0.3756651328 0.3811066367
1636825000.0 0.3931900872 0.3678396214
1641800000.0 0.4109848994 0.3552717309
1646775000.0 0.4284698907 0.3423280801
1651750000.0 0.4442390694 0.3290940749
1656725000.0 0.4596727247 0.3164332547
1661700000.0 0.4744453119 0.3042718541
1666675000.0 0.4880993819 0.2916437497
1671650000.0 0.5006890823 0.2794886831
1676625000.0 0.513025322 0.2680727447
1681600000.0 0.5239778308 0.256388475
1686575000.0 0.5343446677 0.2447455915
1691550000.0 0.5441450424 0.2339919633
1696525000.0 0.5531490579 0.2235723286
1701500000.0 0.5619730737 0.2128831974
1706475000.0 0.5701607123 0.2023999842
1711450000.0 0.5776078788 0.1923553349
1716425000.0 0.5847700398 0.182439657
1721400000.0 0.5915021748 0.1722073422
1726375000.0 0.5979955123 0.1623720321
1731350000.0 0.6039066098 0.1525102829
1736325000.0 0.6101010432 0.1426255215
1741300000.0 0.6158216634 0.1333672803
1746275000.0 0.6217694141 0.1246502385
1751250000.0 0.6272949562 0.1162561071
1756225000.0 0.6327889479 0.1090143519
1761200000.0 0.6374225303 0.102789128
1766175000.0 0.6422308542 0.0969916048
1771150000.0 0.6462608431 0.0919157605
1776125000.0 0.6498085301 0.0878418637
1781100000.0 0.6534977288 0.0846496358
1786075000.0 0.656167781 0.0820193933
1791050000.0 0.6581751184 0.0798681089
1796025000.0 0.6597427693 0.078297763
1801000000.0 0.660805929 0.0774213656
1805975000.0 0.6609680543 0.0762202635
1810950000.0 0.6604977363 0.0754920473
1815925000.0 0.6599684792 0.0750434878
1820900000.0 0.6589625684 0.0744542064
1825875000.0 0.6579470432 0.0736579804
1830850000.0 0.6549376978 0.0729324115
1835825000.0 0.6532782388 0.0720928498
1840800000.0 0.6511678562 0.0720090092
1845775000.0 0.6484120245 0.0715265951
1850750000.0 0.6448857821 0.0714978669
1855725000.0 0.6413868082 0.0718722206
1860700000.0 0.6372529457 0.0720962602
1865675000.0 0.6321553344 0.0726072684
1870650000.0 0.6263612315 0.0736134431
1875625000.0 0.6204910592 0.0745977124
1880600000.0 0.6133762177 0.0754428337
1885575000.0 0.6055486527 0.0763372841
1890550000.0 0.5971799591 0.0771503448
1895525000.0 0.5880341342 0.0779396409
1900500000.0 0.5781366088 0.0781418577
1905475000.0 0.5677685745 0.078079931
1910450000.0 0.5567933415 0.0778767139
1915425000.0 0.5447214523 0.0782879512
1920400000.0 0.5328161628 0.0775016657
1925375000.0 0.52056248 0.0775014958
1930350000.0 0.5068356477 0.0774493248
1935325000.0 0.4931286736 0.0773583207
1940300000.0 0.4787093402 0.0770622541
1945275000.0 0.463001469 0.0769522179
1950250000.0 0.4467045226 0.076866219
1955225000.0 0.4295030965 0.0769532843
1960200000.0 0.4109471856 0.0767602845
1965175000.0 0.3906887326 0.0768829931
1970150000.0 0.3687477621 0.0763981295
1975125000.0 0.34524862 0.0760410927
1980100000.0 0.3184002284 0.075885308
1985075000.0 0.2881079527 0.0763971855
1990050000.0 0.2575111539 0.0795434477
1995025000.0 0.2270953835 0.084566498
2000000000.0 0.1963853467 0.0885585361
