!Created with skrf (http://scikit-rf.org).
# GHz S RI R 50.0 
!freq ReS11 ImS11
10000000.0 -0.9993935723 0.1641239967
19950000.0 -0.9434240583 0.3135535037
29900000.0 -0.8649520728 0.4565029954
39850000.0 -0.7636264728 0.5972518297
49800000.0 -0.6415233079 0.7304095113
59750000.0 -0.493558324 0.849042822
69700000.0 -0.3125733952 0.9413335781
79650000.0 -0.0957761785 0.988517859
89600000.0 0.1543969465 0.9730983975
99550000.0 0.4232178666 0.8772288745
109500000.0 0.6869574757 0.6890651757
119450000.0 0.9037410113 0.3977445986
129400000.0 1.009282225 0.0143518078
139350000.0 0.9501380535 -0.3840051258
149300000.0 0.7187426345 -0.7213315221
159250000.0 0.3819619283 -0.9222271359
169200000.0 0.0246616846 -0.9820881615
179150000.0 -0.2971100668 -0.9330207546
189100000.0 -0.5576434181 -0.8109791623
199050000.0 -0.7468770255 -0.6448772414
209000000.0 -0.8647135813 -0.4547793496
218950000.0 -0.9249872777 -0.2590619634
228900000.0 -0.9392508325 -0.0668310799
238850000.0 -0.9197423971 0.1204408765
248800000.0 -0.6828736348 0.2720998937
258750000.0 -0.8233252837 0.4270245843
268700000.0 -0.7341181535 0.5739324521
278650000.0 -0.6181365292 0.6922547299
288600000.0 -0.4738280982 0.7790819123
298550000.0 -0.3056509605 0.8317554973
308500000.0 -0.1192112059 0.8495351151
318450000.0 0.0779262587 0.8271050574
328400000.0 0.2740755842 0.7565419064
338350000.0 0.4442930827 0.6300934492
348300000.0 0.5609642795 0.450478941
358250000.0 0.5990427452 0.2390163475
368200000.0 0.5545273123 0.0315514477
378150000.0 0.4464608055 -0.136368426
388100000.0 0.3074715469 -0.2458568042
398050000.0 0.1674569059 -0.2942615271
408000000.0 0.0484547042 -0.2900230499
417950000.0 -0.0400153122 -0.2478908649
427900000.0 -0.0973137447 -0.185688717
437850000.0 -0.1293373937 -0.1177366407
447800000.0 -0.14156024 -0.0561455109
457750000.0 -0.1385487339 -0.0083210356
467700000.0 -0.1246683224 0.0216345896
477650000.0 -0.1025163815 0.0318483687
487600000.0 -0.0740688594 0.0233573322
497550000.0 -0.0704466341 -0.0370591482
507500000.0 -0.0354435615 0.0103368953
517450000.0 -0.0125180498 -0.0150099623
527400000.0 -0.0043731948 -0.0354519465
537350000.0 -0.0110451536 -0.0528028316
547300000.0 -0.0295492267 -0.07006673
557250000.0 -0.060058522 -0.0825667141
567200000.0 -0.0924666889 -0.0929978462
577150000.0 -0.1244781307 -0.09937857
587100000.0 -0.1516055802 -0.0997911826
597050000.0 -0.1711093898 -0.0920024959
607000000.0 -0.1838713238 -0.0739471291
616950000.0 -0.1908532403 -0.0463183972
626900000.0 -0.1939309547 -0.0116689365
636850000.0 -0.1933926499 0.0253660007
646800000.0 -0.1865325212 0.0617304089
656750000.0 -0.1672905568 0.0952404245
666700000.0 -0.1079623358 0.0770598096
676650000.0 -0.1426533231 0.0737882917
686600000.0 -0.1135787838 0.0890874374
696550000.0 -0.0722668798 0.0887769655
706500000.0 -0.0286209455 0.0801429788
716450000.0 0.011735077 0.0640318475
726400000.0 0.0429081209 0.0393532971
736350000.0 0.0617608691 0.0057428755
746300000.0 0.0652617714 -0.0380231971
756250000.0 0.0550134989 -0.0900360427
766200000.0 0.031675358 -0.1472895838
776150000.0 -0.0009614439 -0.2014129095
786100000.0 -0.0419158566 -0.2478912956
796050000.0 -0.0897197629 -0.2800107417
806000000.0 -0.1428861841 -0.2937529787
815950000.0 -0.2014607446 -0.2873044224
825900000.0 -0.2631240712 -0.263785145
835850000.0 -0.3257923282 -0.2268665914
845800000.0 -0.3848736169 -0.1809869342
855750000.0 -0.4355392966 -0.1283157051
865700000.0 -0.4693671422 -0.0677958237
875650000.0 -0.4816605967 -0.007025671
885600000.0 -0.4784768274 0.0571599488
895550000.0 -0.455296672 0.1291481393
905500000.0 -0.4133912991 0.206072658
915450000.0 -0.3549920602 0.2828131671
925400000.0 -0.2808931655 0.3521170052
935350000.0 -0.189300401 0.4045778482
945300000.0 -0.0794265485 0.4284659426
955250000.0 0.047882093 0.4113664104
965200000.0 0.1852503464 0.3403281148
975150000.0 0.3154018096 0.2075036838
985100000.0 0.4074960725 0.0116037061
995050000.0 0.4208927067 -0.2291387472
1005000000.0 0.321046577 -0.4677473026
1014950000.0 0.107823185 -0.6407600349
1024900000.0 -0.1733674331 -0.6986428882
1034850000.0 -0.4578471728 -0.6333896269
1044800000.0 -0.6916854452 -0.4679369772
1054750000.0 -0.8401707603 -0.2330862332
1064700000.0 -0.8484380729 0.0243085886
1074650000.0 -0.8334135739 0.1766493414
1084600000.0 -0.7584347177 0.4054158935
1094550000.0 -0.5942076566 0.6014607064
1104500000.0 -0.3597605386 0.7334045771
1114450000.0 -0.0902526392 0.7835895532
1124400000.0 0.183120668 0.7304144997
1134350000.0 0.4112490632 0.5698472025
1144300000.0 0.5490454492 0.3298294853
1154250000.0 0.5815184149 0.0672920456
1164200000.0 0.5282360284 -0.169960709
1174150000.0 0.4244724271 -0.3553533923
1184100000.0 0.2943414171 -0.4917154918
1194050000.0 0.144605282 -0.5720400145
1204000000.0 -0.0045536787 -0.5973978347
1213950000.0 -0.142228391 -0.5840161152
1223900000.0 -0.2637215066 -0.5477801131
1233850000.0 -0.3691135809 -0.5013496337
1243800000.0 -0.4584103987 -0.4502642414
1253750000.0 -0.5324647525 -0.3971444442
1263700000.0 -0.5881654674 -0.3395935571
1273650000.0 -0.6272794394 -0.2784148144
1283600000.0 -0.6501490083 -0.2116534858
1293550000.0 -0.6626251265 -0.1411555931
1303500000.0 -0.6702924793 -0.0697113505
1313450000.0 -0.6763237512 5.86725e-05
1323400000.0 -0.6822781892 0.0659755532
1333350000.0 -0.6871319042 0.12699124
1343300000.0 -0.6858052941 0.1834725953
1353250000.0 -0.6758108647 0.2337038879
1363200000.0 -0.6530891813 0.2808236865
1373150000.0 -0.6179249152 0.3266709351
1383100000.0 -0.574924966 0.3728501236
1393050000.0 -0.5283990935 0.4199035416
1403000000.0 -0.4816258223 0.4664356204
1412950000.0 -0.4355587119 0.5101314118
1422900000.0 -0.3898482852 0.5473343187
1432850000.0 -0.3422738195 0.5739310923
1442800000.0 -0.2899940306 0.5899002516
1452750000.0 -0.232000247 0.5956596178
1462700000.0 -0.1663943362 0.5942184651
1472650000.0 -0.0934244665 0.5889388032
1482600000.0 -0.0150022859 0.5809432815
1492550000.0 0.0638504308 0.5675544252
1502500000.0 0.1397579213 0.5451657202
1512450000.0 0.2094733021 0.5092062254
1522400000.0 0.2695534941 0.4569593865
1532350000.0 0.3187549188 0.3855896104
1542300000.0 0.3572530349 0.2975391177
1552250000.0 0.3848480344 0.197241254
1562200000.0 0.4019549599 0.091866651
1572150000.0 0.4054863799 -0.0115640409
1582100000.0 0.392364624 -0.1105479577
1592050000.0 0.3579788122 -0.2006976853
1602000000.0 0.3004835955 -0.27979657
1611950000.0 0.2235326858 -0.3444804396
1621900000.0 0.1337683098 -0.3959276598
1631850000.0 0.0386418712 -0.4355067207
1641800000.0 -0.0560676012 -0.4655243748
1651750000.0 -0.1462328594 -0.4825774387
1661700000.0 -0.229254625 -0.483708927
1671650000.0 -0.3029297333 -0.4665099524
1681600000.0 -0.3684177562 -0.4336865513
1691550000.0 -0.4278606182 -0.3899562638
1701500000.0 -0.4837515865 -0.33974207
1711450000.0 -0.5362596099 -0.2875478888
1721400000.0 -0.5847607151 -0.2362757884
1731350000.0 -0.6271166794 -0.1880996397
1741300000.0 -0.6588756179 -0.1401540549
1751250000.0 -0.6758777195 -0.0914333423
1761200000.0 -0.6797841254 -0.0407437853
1771150000.0 -0.6732337605 0.0121473568
1781100000.0 -0.662426907 0.0670884036
1791050000.0 -0.6524114776 0.1212356825
1801000000.0 -0.6452685597 0.1734244844
1810950000.0 -0.6417575531 0.2225772661
1820900000.0 -0.6374735607 0.2663918326
1830850000.0 -0.6263933967 0.3043072039
1840800000.0 -0.6060924696 0.3360815946
1850750000.0 -0.5740459509 0.3637937156
1860700000.0 -0.5320888162 0.3880237698
1870650000.0 -0.4864113091 0.4117050252
1880600000.0 -0.4419925061 0.4336609924
1890550000.0 -0.4031540733 0.454133325
1900500000.0 -0.3691843883 0.4699801685
1910450000.0 -0.3393701482 0.4796635979
1920400000.0 -0.310533354 0.4787436538
1930350000.0 -0.2787084905 0.4665050733
1940300000.0 -0.2432893403 0.442909579
1950250000.0 -0.2047155254 0.4106127635
1960200000.0 -0.1673461063 0.3739535392
1970150000.0 -0.1385220623 0.3354288706
1980100000.0 -0.1225502466 0.2962176675
1990050000.0 -0.1256953467 0.2564787422
2000000000.0 -0.1494163614 0.2148611261
