!Created with skrf (http://scikit-rf.org).
# GHz S RI R 50.0 
!freq ReS11 ImS11
10000000.0 -1.000545454 0.1598460566
19950000.0 -0.9468986101 0.3060273646
29900000.0 -0.8715122203 0.4463684258
39850000.0 -0.7737631897 0.5859052192
49800000.0 -0.6551284475 0.7190533389
59750000.0 -0.5104592898 0.8395245625
69700000.0 -0.3312569721 0.9355407929
79650000.0 -0.1133473179 0.9871812424
89600000.0 0.1425812066 0.9757966514
99550000.0 0.421323864 0.8789507152
109500000.0 0.6960976889 0.6805030213
119450000.0 0.917088238 0.3679546832
129400000.0 1.010166023 -0.0416893128
139350000.0 0.917800449 -0.4554811825
149300000.0 0.6479638128 -0.7831399098
159250000.0 0.2873676177 -0.9536188095
169200000.0 -0.0721777478 -0.9788587233
179150000.0 -0.3798230177 -0.9027321177
189100000.0 -0.6187785572 -0.7664682993
199050000.0 -0.7857253359 -0.5982930743
209000000.0 -0.8848462517 -0.4158994403
218950000.0 -0.9330058952 -0.2340610589
228900000.0 -0.9422630332 -0.0598827184
238850000.0 -0.9256443475 0.1053549544
248800000.0 -0.8715975816 0.2489389988
258750000.0 -0.8429215503 0.4011288107
268700000.0 -0.7741282603 0.5315689077
278650000.0 -0.6825193469 0.6425537381
288600000.0 -0.5662231648 0.7303472129
298550000.0 -0.4277997624 0.792641364
308500000.0 -0.2708498535 0.8306394299
318450000.0 -0.0994122548 0.8404137204
328400000.0 0.0805659714 0.8152984677
338350000.0 0.2534754706 0.7431381985
348300000.0 0.3973324736 0.6154711926
358250000.0 0.4832401969 0.4387704902
368200000.0 0.4932327175 0.2404881922
378150000.0 0.4308066217 0.0596759263
388100000.0 0.3207832531 -0.074755637
398050000.0 0.1939596252 -0.1482078692
408000000.0 0.0781152122 -0.1634287321
417950000.0 -0.0116817183 -0.1347759933
427900000.0 -0.0719588889 -0.0812439138
437850000.0 -0.1065915689 -0.0186809119
447800000.0 -0.1212385032 0.0399616468
457750000.0 -0.1208197499 0.0862389946
467700000.0 -0.1089898412 0.1165133993
477650000.0 -0.0887087832 0.1296099152
487600000.0 -0.0617371146 0.1291308814
497550000.0 -0.0300636321 0.1176046102
507500000.0 -0.0019214508 0.1040452007
517450000.0 0.0225835721 0.0855522073
527400000.0 0.0371097864 0.0667710055
537350000.0 0.037868709 0.0480046531
547300000.0 0.0276355665 0.0294269706
557250000.0 0.0058169657 0.008465169
567200000.0 -0.0230998508 -0.0110653119
577150000.0 -0.0535929976 -0.0269510007
587100000.0 -0.08168615 -0.0361109818
597050000.0 -0.1040887078 -0.0356879466
607000000.0 -0.1208375439 -0.0241610768
616950000.0 -0.1332666726 -0.0016869192
626900000.0 -0.1420093438 0.0290287258
636850000.0 -0.1475298483 0.0631690114
646800000.0 -0.1490995069 0.0961214116
656750000.0 -0.1455092861 0.1246459849
666700000.0 -0.1337389292 0.1451032603
676650000.0 -0.1119324735 0.1576925841
686600000.0 -0.0806035698 0.1632715512
696550000.0 -0.0419946204 0.1636510856
706500000.0 0.0003540543 0.1592974075
716450000.0 0.0414715447 0.149774231
726400000.0 0.0762082387 0.1331192915
736350000.0 0.1015567302 0.1067219418
746300000.0 0.1154225483 0.0699620652
756250000.0 0.1171613894 0.0203749122
766200000.0 0.1077043232 -0.0362831438
776150000.0 0.0895195269 -0.0955046202
786100000.0 0.0608485142 -0.1506871286
796050000.0 0.022238799 -0.1951761591
806000000.0 -0.0262132087 -0.2234816114
815950000.0 -0.0850985862 -0.2321951913
825900000.0 -0.1518830833 -0.2220514791
835850000.0 -0.2227808859 -0.1955645085
845800000.0 -0.2922141488 -0.1564802948
855750000.0 -0.3534073804 -0.1072566662
865700000.0 -0.3997945833 -0.0492985541
875650000.0 -0.4263622768 0.0171242552
885600000.0 -0.4297297038 0.0911246516
895550000.0 -0.4109495699 0.1717693396
905500000.0 -0.3718387306 0.2567381638
915450000.0 -0.3163573593 0.3412580351
925400000.0 -0.2447158425 0.4180276347
935350000.0 -0.1575879695 0.4790684553
945300000.0 -0.0549802064 0.5151922574
955250000.0 0.0631087708 0.5182354407
965200000.0 0.1932088108 0.4808005625
975150000.0 0.3286940548 0.4006012647
985100000.0 0.4559385223 0.273736219
995050000.0 0.5551901979 0.0983158386
1005000000.0 0.5952138457 -0.1198824139
1014950000.0 0.542717107 -0.3583285163
1024900000.0 0.3770980393 -0.5759534911
1034850000.0 0.1074133603 -0.7192917823
1044800000.0 -0.2215226439 -0.7422217157
1054750000.0 -0.5422243098 -0.6217275462
1064700000.0 -0.7604682651 -0.3684895196
1074650000.0 -0.8547476851 -0.1120617164
1084600000.0 -0.8421387127 0.1999643605
1094550000.0 -0.6824645339 0.4461470407
1104500000.0 -0.4992814196 0.6153184606
1114450000.0 -0.2984327618 0.7484940506
1124400000.0 -0.0334832113 0.8185545674
1134350000.0 0.2343834064 0.7681642135
1144300000.0 0.4500330698 0.6210985241
1154250000.0 0.5907914625 0.4155815374
1164200000.0 0.6547841592 0.1904500733
1174150000.0 0.6590148753 -0.0202211779
1184100000.0 0.6208019558 -0.2112096658
1194050000.0 0.5381211054 -0.373098456
1204000000.0 0.4207166406 -0.4913653931
1213950000.0 0.283317408 -0.5646931398
1223900000.0 0.1405884872 -0.6007553658
1233850000.0 0.0021239289 -0.6105815536
1243800000.0 -0.1249682657 -0.6021690846
1253750000.0 -0.2383137153 -0.5798858699
1263700000.0 -0.3349234283 -0.5436143486
1273650000.0 -0.415149825 -0.4954557046
1283600000.0 -0.4772849005 -0.4332914012
1293550000.0 -0.5249346492 -0.360381088
1303500000.0 -0.5631190046 -0.2812116748
1313450000.0 -0.594755122 -0.2007116293
1323400000.0 -0.6223525682 -0.1226986269
1333350000.0 -0.645501053 -0.0486854321
1343300000.0 -0.6598591382 0.0214048869
1353250000.0 -0.6624957449 0.0869281949
1363200000.0 -0.6507385069 0.1499503809
1373150000.0 -0.6236332779 0.2119903167
1383100000.0 -0.5863753083 0.2733887953
1393050000.0 -0.5431113727 0.3355055526
1403000000.0 -0.4987715205 0.3957395618
1412950000.0 -0.4534874863 0.4529948861
1422900000.0 -0.4072370847 0.5035973096
1432850000.0 -0.3577323889 0.5436447151
1442800000.0 -0.3017352425 0.5727165924
1452750000.0 -0.2377934083 0.5895082371
1462700000.0 -0.1654272156 0.5970546922
1472650000.0 -0.0861807452 0.5984887289
1482600000.0 -0.0043579729 0.5958917692
1492550000.0 0.0769567497 0.5887005158
1502500000.0 0.1548234172 0.5744040779
1512450000.0 0.2265996272 0.5491436834
1522400000.0 0.2908460226 0.5094118495
1532350000.0 0.3472622885 0.4524210437
1542300000.0 0.3968832408 0.3804612001
1552250000.0 0.4408368839 0.2969246053
1562200000.0 0.480246244 0.207698932
1572150000.0 0.5112594173 0.1158289838
1582100000.0 0.5295743018 0.0229502768
1592050000.0 0.530039032 -0.0683353412
1602000000.0 0.5086126403 -0.157007883
1611950000.0 0.465575552 -0.2402101841
1621900000.0 0.4049276127 -0.3180416606
1631850000.0 0.3328239027 -0.3903456267
1641800000.0 0.2552636549 -0.4558559284
1651750000.0 0.1756007228 -0.5109693946
1661700000.0 0.0951589418 -0.5522326206
1671650000.0 0.0157205239 -0.5751305678
1681600000.0 -0.0628149644 -0.5782146629
1691550000.0 -0.140495562 -0.5651072926
1701500000.0 -0.2188392967 -0.5395529063
1711450000.0 -0.2956989328 -0.5077778291
1721400000.0 -0.3696700662 -0.4729467874
1731350000.0 -0.4378740035 -0.437861541
1741300000.0 -0.4968314193 -0.4002283126
1751250000.0 -0.5434688227 -0.3565757288
1761200000.0 -0.5763500085 -0.3060678433
1771150000.0 -0.5964069158 -0.2487085788
1781100000.0 -0.609405799 -0.1855249899
1791050000.0 -0.618693859 -0.1207136348
1801000000.0 -0.6275213778 -0.0576762007
1810950000.0 -0.6377093383 0.0024029823
1820900000.0 -0.6462896111 0.0577513833
1830850000.0 -0.6477796197 0.1074222731
1840800000.0 -0.6384642448 0.1535941166
1850750000.0 -0.6161495935 0.1963902131
1860700000.0 -0.5817630943 0.2365639842
1870650000.0 -0.5410381815 0.2763415548
1880600000.0 -0.4993460284 0.313888707
1890550000.0 -0.4610322104 0.3496121954
1900500000.0 -0.427428721 0.3798180011
1910450000.0 -0.3963358305 0.4033156465
1920400000.0 -0.3650055116 0.4178645208
1930350000.0 -0.3289831998 0.4219776291
1940300000.0 -0.2875259297 0.4158943726
1950250000.0 -0.2397755732 0.4023342249
1960200000.0 -0.188908626 0.3846091205
1970150000.0 -0.1413857608 0.3640868246
1980100000.0 -0.100493192 0.3416316007
1990050000.0 -0.0706452549 0.3140623973
2000000000.0 -0.0537511104 0.2789880023
