!Created with skrf (http://scikit-rf.org).
# GHz S RI R 50.0 
!freq ReS11 ImS11
10000000.0 -0.8106312207 0.5860445744
19950000.0 -0.3241495944 0.9327340502
29900000.0 0.2686514028 0.9408415788
39850000.0 0.7618947893 0.6088560326
49800000.0 0.9764335598 0.0522141401
59750000.0 0.83015702 -0.5289770544
69700000.0 0.3734395141 -0.9182251296
79650000.0 -0.2227245533 -0.9692705894
89600000.0 -0.7346494419 -0.6660282551
99550000.0 -0.9741132665 -0.125784922
109500000.0 -0.8585981398 0.4504626104
119450000.0 -0.4344121942 0.8548233426
129400000.0 0.1476354943 0.9417915928
139350000.0 0.6768799139 0.6728871099
149300000.0 0.9506420919 0.1372281089
159250000.0 0.8511855436 -0.4631254439
169200000.0 0.4021278258 -0.8872696329
179150000.0 -0.2226166496 -0.9458030156
189100000.0 -0.7586825489 -0.5887849394
199050000.0 -0.940879261 0.0664827811
209000000.0 -0.554671678 0.7384270517
218950000.0 0.5086029102 0.7276700442
228900000.0 -0.0886103188 -0.8050689363
238850000.0 -0.5899517524 0.6461362423
248800000.0 0.3495227628 0.8447356127
258750000.0 0.8835012257 0.3128131582
268700000.0 0.8632669869 -0.3887389728
278650000.0 0.5023992333 -0.7610663174
288600000.0 -0.1113818902 -0.9239927136
298550000.0 -0.6485197366 -0.6565440459
308500000.0 -0.9034829528 -0.1268203893
318450000.0 -0.7891694518 0.4432495486
328400000.0 -0.3561960495 0.8296228317
338350000.0 0.223667584 0.8753957298
348300000.0 0.7114578139 0.5567639391
358250000.0 0.8966152613 0.0054582079
368200000.0 0.6971363948 -0.5352796458
378150000.0 0.2108432241 -0.8229731045
388100000.0 -0.3298759388 -0.7389419737
398050000.0 -0.675504731 -0.3453901534
408000000.0 -0.6818742493 0.1454923755
417950000.0 -0.393664775 0.4846530478
427900000.0 -0.0116224998 0.5405683021
437850000.0 0.2567981984 0.3757255106
447800000.0 0.3471887999 0.1476439762
457750000.0 0.3136926864 -0.0334066762
467700000.0 0.2250952559 -0.1486060884
477650000.0 0.1179699471 -0.2023342251
487600000.0 0.0227104521 -0.1985773718
497550000.0 -0.0203439916 -0.171059376
507500000.0 -0.028909914 -0.2108221049
517450000.0 -0.2315562636 -0.3493484458
527400000.0 -0.6158894902 0.121431325
537350000.0 -0.1139721225 0.3407802561
547300000.0 -0.0798012708 0.2008109547
557250000.0 -0.0690545953 0.3548236479
567200000.0 0.2494484953 0.4651210222
577150000.0 0.6205618817 0.1931709307
587100000.0 0.6480716044 -0.3345972573
597050000.0 0.259479417 -0.7294772568
607000000.0 -0.2983771932 -0.7348285153
616950000.0 -0.7029481374 -0.3628825792
626900000.0 -0.7502793876 0.1703588437
636850000.0 -0.4424941117 0.5834408792
646800000.0 0.0340489821 0.685018668
656750000.0 0.4322991187 0.4690783207
666700000.0 0.5882360323 0.0869121216
676650000.0 0.4898195089 -0.269567932
686600000.0 0.2314860326 -0.4759386173
696550000.0 -0.0656018392 -0.5010275942
706500000.0 -0.3103724763 -0.3709131052
716450000.0 -0.4429326013 -0.1397443883
726400000.0 -0.4274374154 0.1240360903
736350000.0 -0.262715898 0.3381676558
746300000.0 0.0021365269 0.4185275424
756250000.0 0.2677789573 0.3207474656
766200000.0 0.4200059336 0.0779285428
776150000.0 0.3829418205 -0.2086403418
786100000.0 0.1743700513 -0.4011340101
796050000.0 -0.1014416037 -0.4104083941
806000000.0 -0.3018607468 -0.2407944322
815950000.0 -0.3312788985 0.0022799306
825900000.0 -0.1992043309 0.1785635853
835850000.0 -0.0148183274 0.206663304
845800000.0 0.1021907759 0.1192941401
855750000.0 0.1157848216 0.0212885373
865700000.0 0.0873254462 -0.0147010381
875650000.0 0.0944636737 -0.0085675472
885600000.0 0.1365349416 -0.0444715194
895550000.0 0.1339761251 -0.1538823791
905500000.0 0.026291896 -0.2530614151
915450000.0 -0.1319230164 -0.2145571435
925400000.0 -0.2096956898 -0.0476567931
935350000.0 -0.1377695709 0.1013214591
945300000.0 -0.0095373979 0.0915717076
955250000.0 0.0008987745 0.0102376239
965200000.0 -0.0625607155 0.0835441217
975150000.0 0.0713516626 0.2439724024
985100000.0 0.3752216326 0.143018003
995050000.0 0.4565550506 -0.2680492407
1005000000.0 0.1076671452 -0.6062774334
1014950000.0 -0.4270588739 -0.5053977774
1024900000.0 -0.6889724091 0.0305963463
1034850000.0 -0.3774200835 0.6074144684
1044800000.0 0.3269511892 0.6689647443
1054750000.0 0.7670364467 0.0681190872
1064700000.0 0.4494836021 -0.6220856049
1074650000.0 -0.3030575358 -0.6401187723
1084600000.0 -0.5027700008 -0.1368200532
1094550000.0 -0.5007816076 0.4466880646
1104500000.0 0.1926545739 0.6548389647
1114450000.0 0.6679804432 0.1753561618
1124400000.0 0.5452787219 -0.4342665029
1134350000.0 0.031377642 -0.6980711752
1144300000.0 -0.4813264528 -0.5042886036
1154250000.0 -0.6913719929 -0.0138422496
1164200000.0 -0.4935665194 0.4744603273
1174150000.0 -0.0131730984 0.6797788966
1184100000.0 0.4655531779 0.4917921892
1194050000.0 0.6750249678 0.0393994516
1204000000.0 0.5326677899 -0.4156327899
1213950000.0 0.1501028031 -0.6555704915
1223900000.0 -0.271482987 -0.6110227883
1233850000.0 -0.583209047 -0.3406957324
1243800000.0 -0.6856701077 0.0804069965
1253750000.0 -0.4862765179 0.4995428313
1263700000.0 -0.0464948549 0.6920436632
1273650000.0 0.4156894651 0.5482740789
1283600000.0 0.672686008 0.1456380276
1293550000.0 0.6204259838 -0.3160704694
1303500000.0 0.3044206893 -0.637950841
1313450000.0 -0.1313116224 -0.7022512623
1323400000.0 -0.5145371953 -0.4937983527
1333350000.0 -0.6925920116 -0.0955236059
1343300000.0 -0.5858780871 0.3312791243
1353250000.0 -0.2319221925 0.5957894389
1363200000.0 0.2077143121 0.5721395442
1373150000.0 0.5223537234 0.2806190295
1383100000.0 0.5773519345 -0.1276938456
1393050000.0 0.3739763491 -0.4625700701
1403000000.0 0.0221830171 -0.5891148414
1412950000.0 -0.3131352264 -0.4724766867
1422900000.0 -0.4874246318 -0.1810051662
1432850000.0 -0.4246340526 0.1336763206
1442800000.0 -0.1817512916 0.3040448119
1452750000.0 0.0754213873 0.2557127308
1462700000.0 0.1833189855 0.0715554348
1472650000.0 0.1204784442 -0.0702381612
1482600000.0 0.0297334417 -0.0636917164
1492550000.0 0.0684887613 -0.0018318015
1502500000.0 0.1840454155 -0.0825547706
1512450000.0 0.1267727418 -0.2911327294
1522400000.0 -0.1378008857 -0.3386342931
1532350000.0 -0.3084728435 -0.1051306717
1542300000.0 -0.1661864758 0.1403296985
1552250000.0 0.092024799 0.1032124908
1562200000.0 0.1414812618 -0.1295640027
1572150000.0 -0.0569412518 -0.257206573
1582100000.0 -0.2760539579 -0.1303730703
1592050000.0 -0.290027077 0.150947744
1602000000.0 -0.0484054215 0.3586420056
1611950000.0 0.2975137241 0.304608109
1621900000.0 0.5055279611 -0.0016073645
1631850000.0 0.4358012957 -0.3775985148
1641800000.0 0.1272762682 -0.6148369765
1651750000.0 -0.2679030117 -0.5991281991
1661700000.0 -0.5738775397 -0.3352114816
1671650000.0 -0.6580308082 0.0743112607
1681600000.0 -0.4659617552 0.4638938153
1691550000.0 -0.0595566647 0.6574289949
1701500000.0 0.389110092 0.5506907112
1711450000.0 0.6717021887 0.1841119039
1721400000.0 0.667190827 -0.2730989261
1731350000.0 0.3940608571 -0.6260292528
1741300000.0 -0.02445022 -0.7495762385
1751250000.0 -0.4329274223 -0.6151303534
1761200000.0 -0.6959661406 -0.274886355
1771150000.0 -0.7231795904 0.1610424923
1781100000.0 -0.4900605691 0.5433030254
1791050000.0 -0.0666304524 0.7207973694
1801000000.0 0.3874350274 0.6064544127
1810950000.0 0.6796944303 0.2388141226
1820900000.0 0.6890477685 -0.2233038334
1830850000.0 0.4289974075 -0.5904445825
1840800000.0 0.0186424093 -0.7346532935
1850750000.0 -0.3889248476 -0.6248336207
1860700000.0 -0.6603145067 -0.3139159025
1870650000.0 -0.7122640561 0.0924979669
1880600000.0 -0.524803279 0.4570259714
1890550000.0 -0.1610076007 0.6450157414
1900500000.0 0.2385790896 0.5832984294
1910450000.0 0.5138288205 0.3062658278
1920400000.0 0.573867121 -0.0597787553
1930350000.0 0.4303830847 -0.3748819022
1940300000.0 0.1602499935 -0.5540078457
1950250000.0 -0.1471008373 -0.5728649886
1960200000.0 -0.4174713168 -0.4409035435
1970150000.0 -0.5912259359 -0.1905220027
1980100000.0 -0.61449583 0.125370636
1990050000.0 -0.4594507905 0.4204658388
2000000000.0 -0.1494325064 0.5921131178
