!Created with skrf (http://scikit-rf.org).
# GHz S RI R 50.0 
!freq ReS11 ImS11
10000000.0 -0.8470241993 0.0614214193
14975000.0 -0.8492017071 0.0940136758
19950000.0 -0.8510854581 0.1286592608
24925000.0 -0.8515637615 0.1657954063
29900000.0 -0.8503207673 0.2047195353
34875000.0 -0.8453437024 0.2461078027
39850000.0 -0.836643004 0.2895370661
44825000.0 -0.8240067438 0.3347915677
49800000.0 -0.8074491586 0.3815910889
54775000.0 -0.7865684019 0.4298029646
59750000.0 -0.7613569788 0.479149851
64725000.0 -0.7318601561 0.5295441135
69700000.0 -0.6974616051 0.5804407759
74675000.0 -0.6576801191 0.6321244316
79650000.0 -0.6119498539 0.6843715706
84625000.0 -0.5596657607 0.7368623001
89600000.0 -0.4996942604 0.7892461139
94575000.0 -0.4303615683 0.8404463088
99550000.0 -0.349989471 0.8887179864
104525000.0 -0.257354118 0.931122395
109500000.0 -0.1517219522 0.9639119234
114475000.0 -0.033898309 0.9829544619
119450000.0 0.0934854419 0.9845632174
124425000.0 0.2265011878 0.9658532107
129400000.0 0.3447625863 0.9134153525
134375000.0 0.4868383287 0.862943727
139350000.0 0.6060254803 0.7783479937
144325000.0 0.7104010998 0.6750476457
149300000.0 0.7963028564 0.5569989959
154275000.0 0.8611296674 0.4296928535
159250000.0 0.9044072908 0.2979920532
164225000.0 0.9260174312 0.1673328
169200000.0 0.9281182596 0.0419446447
174175000.0 0.913286042 -0.0748912016
179150000.0 0.8858843362 -0.180618253
184125000.0 0.8497797071 -0.2745013281
189100000.0 0.8089950663 -0.3571702705
194075000.0 0.7657555999 -0.4297651093
199050000.0 0.7218511117 -0.4937256264
204025000.0 0.6775050077 -0.5506027849
209000000.0 0.6329410095 -0.601612528
213975000.0 0.5876087141 -0.6476564617
218950000.0 0.5410662818 -0.6888444873
223925000.0 0.4933881969 -0.7257408214
228900000.0 0.4443721114 -0.7583041884
233875000.0 0.3939055972 -0.7865762302
238850000.0 0.3410795064 -0.8108647284
243825000.0 0.2806961647 -0.8314979066
248800000.0 0.2981984777 -0.7747316332
253775000.0 0.2131945998 -0.8487089627
258750000.0 0.1592212659 -0.8600333462
263725000.0 0.1097122238 -0.866189333
268700000.0 0.0626733878 -0.8689503694
273675000.0 0.017302311 -0.8693494887
278650000.0 -0.0270774077 -0.867369622
283625000.0 -0.0710187458 -0.8632030791
288600000.0 -0.1152583368 -0.8569505779
293575000.0 -0.1603886768 -0.848697633
298550000.0 -0.2069166769 -0.8366526815
303525000.0 -0.254806364 -0.8209047541
308500000.0 -0.3041415986 -0.8005074444
313475000.0 -0.3540334832 -0.7739735753
318450000.0 -0.4030649821 -0.7401667078
323425000.0 -0.4502603589 -0.6999886859
328400000.0 -0.4943317071 -0.6525997953
333375000.0 -0.5346953054 -0.5978094547
338350000.0 -0.5689185248 -0.5370261915
343325000.0 -0.5951343457 -0.471383991
348300000.0 -0.6133242645 -0.400746284
353275000.0 -0.6225758708 -0.3284343982
358250000.0 -0.6198936404 -0.2545363568
363225000.0 -0.6068665455 -0.1810834011
368200000.0 -0.5855408385 -0.1120633599
373175000.0 -0.5545772414 -0.0493343141
378150000.0 -0.5155443068 0.0074091328
383125000.0 -0.4715492311 0.0554245373
388100000.0 -0.4240790795 0.0940629383
393075000.0 -0.3739051437 0.1252818889
398050000.0 -0.3238672919 0.1484653652
403025000.0 -0.2749620251 0.1622374081
408000000.0 -0.227418493 0.1697175128
412975000.0 -0.1829697209 0.1727725818
417950000.0 -0.1424893531 0.1698844937
422925000.0 -0.1056283169 0.1620405601
427900000.0 -0.0737876433 0.1519367877
432875000.0 -0.046088521 0.1385371909
437850000.0 -0.0211759854 0.1224475364
442825000.0 -0.0008833283 0.10640148
447800000.0 0.0141966154 0.0902995569
452775000.0 0.0265316667 0.0733916363
457750000.0 0.0353948565 0.0570787319
462725000.0 0.0401168405 0.0413194967
467700000.0 0.0425143478 0.0262864567
472675000.0 0.0431571925 0.0127573715
477650000.0 0.0412720186 -0.0002903591
482625000.0 0.0372040769 -0.0116491858
487600000.0 0.0290012397 -0.0197859688
492575000.0 0.0095798363 -0.0175134262
497550000.0 0.0586621772 -0.0115509882
502525000.0 0.0380001222 -0.0374581197
507500000.0 0.0255341974 -0.043873204
512475000.0 0.0159718358 -0.0477261597
517450000.0 0.0068963634 -0.0502955213
522425000.0 -0.0024145753 -0.0516676844
527400000.0 -0.0109538619 -0.0513652876
532375000.0 -0.0190962034 -0.0500055407
537350000.0 -0.0274239404 -0.0484933027
542325000.0 -0.0365235551 -0.0453683811
547300000.0 -0.0456332516 -0.0398803453
552275000.0 -0.0525819954 -0.0337878165
557250000.0 -0.0587989555 -0.0274496177
562225000.0 -0.0655652084 -0.0204338237
567200000.0 -0.0714686947 -0.0130846274
572175000.0 -0.0757096964 -0.0054206263
577150000.0 -0.0795704042 0.0033117644
582125000.0 -0.0832173261 0.0124096659
587100000.0 -0.0852879926 0.0221921478
592075000.0 -0.0864697564 0.0319844067
597050000.0 -0.0873988264 0.0414036049
602025000.0 -0.0869733466 0.0508501394
607000000.0 -0.0852721983 0.0604485914
611975000.0 -0.0825095993 0.0692415687
616950000.0 -0.0785521093 0.077800869
621925000.0 -0.0738941912 0.0860933064
626900000.0 -0.0684437429 0.0937552561
631875000.0 -0.0622006483 0.1001434766
636850000.0 -0.0552704896 0.1057530881
641825000.0 -0.0477789759 0.110924149
646800000.0 -0.0399318537 0.115928203
651775000.0 -0.0318030814 0.1194094579
656750000.0 -0.0228827302 0.1223341321
661725000.0 -0.0136881716 0.1256647654
666700000.0 -0.0048585504 0.1285208282
671675000.0 0.0042775903 0.129991695
676650000.0 0.014075076 0.1309071832
681625000.0 0.0239901415 0.1309409587
686600000.0 0.0348753132 0.1301618623
691575000.0 0.0465306324 0.1286753303
696550000.0 0.0582185434 0.1263296054
701525000.0 0.0699794648 0.1225913349
706500000.0 0.082070276 0.1172374845
711475000.0 0.0946144203 0.1103857174
716450000.0 0.1067248931 0.1021422385
721425000.0 0.1187150296 0.0921249663
726400000.0 0.1309398846 0.0807346496
731375000.0 0.1424308147 0.068319931
736350000.0 0.1530102457 0.0545602545
741325000.0 0.1628703109 0.0392938286
746300000.0 0.1721684513 0.0223781219
751275000.0 0.180149133 0.0055836894
756250000.0 0.1866148422 -0.0130807275
761225000.0 0.1911182467 -0.0328271934
766200000.0 0.1944259593 -0.0529035587
771175000.0 0.1959913053 -0.0734483101
776150000.0 0.1954641065 -0.0933533884
781125000.0 0.1927230877 -0.1133444718
786100000.0 0.1884126819 -0.1327338408
791075000.0 0.1832250235 -0.1512137055
796050000.0 0.1772006484 -0.1694492148
801025000.0 0.1705271891 -0.1881235618
806000000.0 0.1629693251 -0.2059811124
810975000.0 0.1537871362 -0.2234815838
815950000.0 0.1425928988 -0.2408127687
820925000.0 0.1301539412 -0.2576962987
825900000.0 0.1169974808 -0.2733961177
830875000.0 0.1029289152 -0.2876497796
835850000.0 0.0876704237 -0.3006074173
840825000.0 0.0716819047 -0.3127147801
845800000.0 0.0558353852 -0.3233390137
850775000.0 0.0392252378 -0.3328762688
855750000.0 0.021698891 -0.3415655924
860725000.0 0.0035352171 -0.3493816555
865700000.0 -0.0155699899 -0.3561849406
870675000.0 -0.0356882849 -0.3623226328
875650000.0 -0.0571451693 -0.3668254092
880625000.0 -0.0801920467 -0.3689677539
885600000.0 -0.1045345574 -0.3691089419
890575000.0 -0.1298217128 -0.3669242446
895550000.0 -0.156127259 -0.3621222856
900525000.0 -0.1826613598 -0.3544277034
905500000.0 -0.2094821141 -0.3435324146
910475000.0 -0.2363545441 -0.3293736374
915450000.0 -0.2627958814 -0.3116619823
920425000.0 -0.2890056927 -0.2902694405
925400000.0 -0.3143255254 -0.2653860921
930375000.0 -0.3381718761 -0.2365137705
935350000.0 -0.3604406788 -0.2038400239
940325000.0 -0.3813227165 -0.1669297112
945300000.0 -0.4000805462 -0.1253333558
950275000.0 -0.4155464549 -0.0798528603
955250000.0 -0.4282091818 -0.0294470417
960225000.0 -0.435931011 0.0270930916
965200000.0 -0.4375071091 0.0888811572
970175000.0 -0.4312973999 0.155303799
975150000.0 -0.4157482471 0.2261161374
980125000.0 -0.3882403749 0.2990843776
985100000.0 -0.3474491559 0.3728522246
990075000.0 -0.2924816214 0.4431889726
995050000.0 -0.2235534656 0.5077524482
1000025000.0 -0.1409928814 0.563911605
1005000000.0 -0.0450936751 0.6072974486
1009975000.0 0.0608135878 0.6343847094
1014950000.0 0.1739715157 0.6410787333
1019925000.0 0.2888364048 0.6258726708
1024900000.0 0.4004044734 0.5891883127
1029875000.0 0.5035172511 0.5317433557
1034850000.0 0.5939407067 0.4560295887
1039825000.0 0.668542599 0.3654604141
1044800000.0 0.7258756066 0.2635875478
1049775000.0 0.7648515381 0.153616552
1054750000.0 0.7830814941 0.0384791585
1059725000.0 0.7757299699 -0.0744230988
1064700000.0 0.7535258356 -0.1621094137
1069675000.0 0.7414510157 -0.2534959674
1074650000.0 0.7026636973 -0.3519036773
1079625000.0 0.6451753859 -0.413855254
1084600000.0 0.6289513727 -0.4889079432
1089575000.0 0.5655204319 -0.5835905618
1094550000.0 0.4815005139 -0.6544823803
1099525000.0 0.3898717883 -0.7063590992
1104500000.0 0.2945300463 -0.7416691687
1109475000.0 0.1972395798 -0.7614784041
1114450000.0 0.1008569344 -0.7667016535
1119425000.0 0.0070132073 -0.7594864434
1124400000.0 -0.0822740284 -0.7400753771
1129375000.0 -0.1658331545 -0.7106404263
1134350000.0 -0.2433233202 -0.6717556286
1139325000.0 -0.3135640791 -0.6251686725
1144300000.0 -0.376056247 -0.571403565
1149275000.0 -0.429746684 -0.5129495269
1154250000.0 -0.4750952473 -0.4505885998
1159225000.0 -0.5102071204 -0.3866997435
1164200000.0 -0.5364752809 -0.323924668
1169175000.0 -0.5563967728 -0.2645140086
1174150000.0 -0.5717955412 -0.2070478901
1179125000.0 -0.5834398193 -0.1501135396
1184100000.0 -0.5903406195 -0.0943295186
1189075000.0 -0.592287487 -0.0407130818
1194050000.0 -0.5895070553 0.0101406983
1199025000.0 -0.5831653622 0.0567046719
1204000000.0 -0.5736529804 0.1002011651
1208975000.0 -0.5622656373 0.1397331137
1213950000.0 -0.5491229649 0.1757421309
1218925000.0 -0.5354033773 0.2081457155
1223900000.0 -0.5221212555 0.2369788152
1228875000.0 -0.5086639777 0.2629070156
1233850000.0 -0.4960385673 0.2872801409
1238825000.0 -0.4847184631 0.3089191471
1243800000.0 -0.4734216514 0.3292000419
1248775000.0 -0.4627579888 0.3498044947
1253750000.0 -0.4521277492 0.3690396088
1258725000.0 -0.441210132 0.3870954848
1263700000.0 -0.4302477305 0.4048704998
1268675000.0 -0.4194865939 0.4211448659
1273650000.0 -0.4079458843 0.4364620112
1278625000.0 -0.3966074394 0.4503792416
1283600000.0 -0.3851912981 0.4624092846
1288575000.0 -0.3732567621 0.4731171868
1293550000.0 -0.3615049129 0.4827413712
1298525000.0 -0.3499432045 0.4900108157
1303500000.0 -0.3379780222 0.4961950345
1308475000.0 -0.3280176993 0.5007014796
1313450000.0 -0.3188016841 0.5028970429
1318425000.0 -0.311065166 0.5038651184
1323400000.0 -0.3060379993 0.5043029937
1328375000.0 -0.3029475437 0.5043011408
1333350000.0 -0.3022763633 0.5055095982
1338325000.0 -0.3031783038 0.5082827822
1343300000.0 -0.3042405908 0.512839732
1348275000.0 -0.3048620709 0.5195861921
1353250000.0 -0.3038954133 0.5276751239
1358225000.0 -0.3008601389 0.5363688959
1363200000.0 -0.2961461685 0.5452624705
1368175000.0 -0.289858638 0.5538430229
1373150000.0 -0.2816207242 0.5616674314
1378125000.0 -0.2725104819 0.5691341342
1383100000.0 -0.2622662247 0.5747639091
1388075000.0 -0.2515068286 0.5797151181
1393050000.0 -0.2400061454 0.5833020139
1398025000.0 -0.228635509 0.5852065508
1403000000.0 -0.2171565463 0.5851350462
1407975000.0 -0.2058439107 0.5845209656
1412950000.0 -0.1958205213 0.5819060251
1417925000.0 -0.1869753978 0.5776492763
1422900000.0 -0.1802047728 0.5727203543
1427875000.0 -0.1768469007 0.5677715485
1432850000.0 -0.1754300746 0.5635675249
1437825000.0 -0.1759527514 0.5612077143
1442800000.0 -0.1772289248 0.5609169953
1447775000.0 -0.1779022781 0.5624169344
1452750000.0 -0.1759959049 0.565952153
1457725000.0 -0.1713138966 0.5706192942
1462700000.0 -0.1645788955 0.575231282
1467675000.0 -0.1556721681 0.5788446783
1472650000.0 -0.1435497743 0.5836403433
1477625000.0 -0.1308606095 0.5871804816
1482600000.0 -0.1166243905 0.587888748
1487575000.0 -0.1008970799 0.5891929395
1492550000.0 -0.0854411954 0.5894917581
1497525000.0 -0.0679296282 0.5874247173
1502500000.0 -0.0501105641 0.5849579819
1507475000.0 -0.0332748426 0.5823225964
1512450000.0 -0.0152506852 0.578742405
1517425000.0 0.0021009414 0.5741713546
1522400000.0 0.017896174 0.5681833549
1527375000.0 0.0336747356 0.5619564035
1532350000.0 0.0483301317 0.5560355754
1537325000.0 0.0626305657 0.5476324029
1542300000.0 0.0780173354 0.5394853942
1547275000.0 0.0916861049 0.5321460147
1552250000.0 0.1070965996 0.5227976383
1557225000.0 0.1226563882 0.5129386919
1562200000.0 0.1366371423 0.5028654221
1567175000.0 0.1506809906 0.49266792
1572150000.0 0.1674758196 0.4838461472
1577125000.0 0.1836280961 0.4737435726
1582100000.0 0.2009193763 0.4612714424
1587075000.0 0.2197348275 0.4500548178
1592050000.0 0.2373261775 0.4371377782
1597025000.0 0.2553815871 0.4229522825
1602000000.0 0.273066998 0.4090371497
1606975000.0 0.2903939488 0.3951110094
1611950000.0 0.3074047865 0.3805496575
1616925000.0 0.323890549 0.3660622336
1621900000.0 0.3400218671 0.35114493
1626875000.0 0.3550704799 0.3371142657
1631850000.0 0.3694008956 0.3209646906
1636825000.0 0.3845274924 0.3055165821
1641800000.0 0.3977485235 0.2905589021
1646775000.0 0.4104448373 0.2737091189
1651750000.0 0.4234393818 0.2575476603
1656725000.0 0.4343422305 0.2414158699
1661700000.0 0.4443710586 0.2233919723
1666675000.0 0.4536372025 0.2068496446
1671650000.0 0.4595319762 0.1901587728
1676625000.0 0.4635839816 0.1732036384
1681600000.0 0.4655936489 0.1602266775
1686575000.0 0.4654881086 0.1524309001
1691550000.0 0.4705427472 0.1473907829
1696525000.0 0.4805892262 0.1411205449
1701500000.0 0.4903890453 0.1309223592
1706475000.0 0.4972337838 0.1178402944
1711450000.0 0.5017608216 0.1048692502
1716425000.0 0.5046903682 0.0933442025
1721400000.0 0.5062193017 0.0827579363
1726375000.0 0.508363364 0.0726434841
1731350000.0 0.5114803577 0.0641100491
1736325000.0 0.5146631034 0.0561484679
1741300000.0 0.5191561783 0.047343909
1746275000.0 0.5248476298 0.0388969542
1751250000.0 0.5300635118 0.0308592115
1756225000.0 0.535370435 0.0214661825
1761200000.0 0.5401928769 0.0127469104
1766175000.0 0.5433850615 0.0038941023
1771150000.0 0.5461480027 -0.0050412872
1776125000.0 0.5480071 -0.0128127601
1781100000.0 0.548099148 -0.0209796549
1786075000.0 0.547122302 -0.0281218798
1791050000.0 0.544912937 -0.0335844947
1796025000.0 0.5414657072 -0.0388663592
1801000000.0 0.5377407584 -0.0424197336
1805975000.0 0.5325377065 -0.0440392399
1810950000.0 0.5277277272 -0.0446479621
1815925000.0 0.5248563485 -0.043514763
1820900000.0 0.5221541102 -0.0423097339
1825875000.0 0.5216600524 -0.0406759092
1830850000.0 0.5224889964 -0.0381480404
1835825000.0 0.524492565 -0.0373692362
1840800000.0 0.526749302 -0.0372659596
1845775000.0 0.5286218186 -0.0375669364
1850750000.0 0.529643558 -0.0388702508
1855725000.0 0.5299739857 -0.0409946451
1860700000.0 0.5276906322 -0.0433918536
1865675000.0 0.5242464555 -0.045615483
1870650000.0 0.519325106 -0.0481159867
1875625000.0 0.5123565373 -0.0504415044
1880600000.0 0.5037146351 -0.0528770239
1885575000.0 0.4934461193 -0.0547118319
1890550000.0 0.4810922561 -0.0557766028
1895525000.0 0.4681934831 -0.0565415432
1900500000.0 0.4538142224 -0.0566441345
1905475000.0 0.4384903481 -0.0552125372
1910450000.0 0.4245590085 -0.0522283743
1915425000.0 0.4108110718 -0.0488284448
1920400000.0 0.3982960254 -0.0442371872
1925375000.0 0.3877709873 -0.0396501036
1930350000.0 0.3772517292 -0.0358664926
1935325000.0 0.3676438559 -0.0326380031
1940300000.0 0.3566276017 -0.0309265667
1945275000.0 0.3434313465 -0.029042052
1950250000.0 0.3300535883 -0.0269749863
1955225000.0 0.3137004009 -0.0253928776
1960200000.0 0.2948233359 -0.023018927
1965175000.0 0.2751259157 -0.0193471423
1970150000.0 0.2520552559 -0.0157223207
1975125000.0 0.2269986206 -0.0103725968
1980100000.0 0.2006881431 -0.0042645546
1985075000.0 0.1709073812 0.0031307832
1990050000.0 0.1399663863 0.0129289642
1995025000.0 0.1071384465 0.0235618633
2000000000.0 0.0704788163 0.0377142098
