!Created with skrf (http://scikit-rf.org).
# GHz S RI R 50.0 
!freq ReS11 ImS11
10000000.0 -0.9865128203 0.0746137063
19950000.0 -0.976210398 0.1423455734
29900000.0 -0.9610179712 0.2120840521
39850000.0 -0.9391244062 0.2854484904
49800000.0 -0.9073100961 0.3653463904
59750000.0 -0.8627740914 0.4535437872
69700000.0 -0.8011592987 0.5504870934
79650000.0 -0.7165915197 0.6563975815
89600000.0 -0.5997690947 0.7668567281
99550000.0 -0.4411152083 0.8720418698
109500000.0 -0.2319880735 0.954224382
119450000.0 0.0296860513 0.9846507516
129400000.0 0.3161177581 0.9325103902
139350000.0 0.6034195379 0.7821288101
149300000.0 0.8239141943 0.5454464983
159250000.0 0.9509306181 0.2658368998
169200000.0 0.9836352552 -0.0095374854
179150000.0 0.9446324524 -0.2477694999
189100000.0 0.8629293929 -0.437553194
199050000.0 0.7632620396 -0.581600608
209000000.0 0.6592736665 -0.6872961767
218950000.0 0.5591888901 -0.7653300224
228900000.0 0.4649793485 -0.8223499932
238850000.0 0.3688655629 -0.8643428565
248800000.0 0.3650009013 -0.8287253907
258750000.0 0.2295671334 -0.8982785396
268700000.0 0.1406271638 -0.9091667632
278650000.0 0.0530865732 -0.9098485573
288600000.0 -0.035037084 -0.9015135517
298550000.0 -0.1239079029 -0.8818099945
308500000.0 -0.2153645904 -0.8476280147
318450000.0 -0.3077189938 -0.7931938066
328400000.0 -0.3976620022 -0.7136320698
338350000.0 -0.4778996874 -0.6052207269
348300000.0 -0.5361641036 -0.4697411811
358250000.0 -0.5584126145 -0.317221006
368200000.0 -0.5371162719 -0.1646198927
378150000.0 -0.4753026469 -0.0314335612
388100000.0 -0.3843629553 0.0691426848
398050000.0 -0.2801005912 0.1337104884
408000000.0 -0.1782404538 0.165189779
417950000.0 -0.0889693032 0.1713589611
427900000.0 -0.0183616614 0.160942406
437850000.0 0.0327061649 0.14004921
447800000.0 0.0665438106 0.1130164443
457750000.0 0.0844037441 0.0830827119
467700000.0 0.0899712205 0.0541754745
477650000.0 0.0860635952 0.0278836763
487600000.0 0.0638153359 0.0049594864
497550000.0 0.0928659737 0.0212458059
507500000.0 0.0645057162 -0.0073448155
517450000.0 0.0404099175 -0.0133163119
527400000.0 0.0155676105 -0.013714315
537350000.0 -0.0099627667 -0.0107506986
547300000.0 -0.0381043649 -0.0020785462
557250000.0 -0.0589786014 0.010162437
567200000.0 -0.0766006308 0.0240276805
577150000.0 -0.0901634346 0.0401412419
587100000.0 -0.1012888447 0.0584234608
597050000.0 -0.1095010113 0.0769042621
607000000.0 -0.1149198162 0.0957287464
616950000.0 -0.1171149972 0.1120151243
626900000.0 -0.1159993713 0.1262305134
636850000.0 -0.1105575094 0.1375734629
646800000.0 -0.1003079025 0.1467446774
656750000.0 -0.0865309868 0.1539201724
666700000.0 -0.0690667358 0.1598849456
676650000.0 -0.0500585123 0.1630593353
686600000.0 -0.0306540408 0.1627244706
696550000.0 -0.0096567502 0.1577884637
706500000.0 0.0121217527 0.1469160843
716450000.0 0.0362724706 0.1292048552
726400000.0 0.0614381822 0.1056660063
736350000.0 0.08705037 0.0778889724
746300000.0 0.1117509114 0.0470559939
756250000.0 0.1331388164 0.0127762798
766200000.0 0.1488052482 -0.0244160581
776150000.0 0.1576138589 -0.065205608
786100000.0 0.159904461 -0.1092134255
796050000.0 0.1554160111 -0.1564298949
806000000.0 0.1465819689 -0.2051266405
815950000.0 0.1336152056 -0.2517470759
825900000.0 0.1171577207 -0.2938705955
835850000.0 0.0972706938 -0.3300068926
845800000.0 0.0719938945 -0.3586923015
855750000.0 0.0401011262 -0.3802942626
865700000.0 0.0023901271 -0.3963320853
875650000.0 -0.0410076578 -0.4067100817
885600000.0 -0.0876968186 -0.4119869548
895550000.0 -0.1358350133 -0.4108366179
905500000.0 -0.1849362448 -0.4014137147
915450000.0 -0.2342795189 -0.3800478162
925400000.0 -0.2838948425 -0.3429069913
935350000.0 -0.3334386781 -0.2873196289
945300000.0 -0.3810212836 -0.2102525837
955250000.0 -0.4202870477 -0.1076163373
965200000.0 -0.4368047001 0.0219950212
975150000.0 -0.4075369379 0.1699936367
985100000.0 -0.3263046315 0.292131129
995050000.0 -0.2431789705 0.4079988884
1005000000.0 -0.1040061022 0.5306338188
1014950000.0 0.0949209692 0.6185944924
1024900000.0 0.3365207888 0.6286412208
1034850000.0 0.5663733588 0.5432732165
1044800000.0 0.7408575656 0.3790543759
1054750000.0 0.8263061199 0.1657894033
1064700000.0 0.8395189139 0.0014154227
1074650000.0 0.830446342 -0.2029288585
1084600000.0 0.7642868563 -0.3438246793
1094550000.0 0.6695234011 -0.5072935181
1104500000.0 0.5235777801 -0.6259158558
1114450000.0 0.3507083487 -0.6975975285
1124400000.0 0.1657090363 -0.7204662166
1134350000.0 -0.0151114741 -0.6968489042
1144300000.0 -0.1778659252 -0.6340665708
1154250000.0 -0.3128669571 -0.5407372491
1164200000.0 -0.4124383185 -0.4307094265
1174150000.0 -0.4850110696 -0.31773121
1184100000.0 -0.535224242 -0.1998286205
1194050000.0 -0.5620224745 -0.0859320423
1204000000.0 -0.5718491912 0.0150424993
1213950000.0 -0.5700145842 0.1015262899
1223900000.0 -0.5616947271 0.17241532
1233850000.0 -0.5494600268 0.2306596872
1243800000.0 -0.5341928258 0.2784838419
1253750000.0 -0.5166132722 0.3201716045
1263700000.0 -0.4982216155 0.3574770277
1273650000.0 -0.4816210258 0.3902480882
1283600000.0 -0.4685639911 0.4185694218
1293550000.0 -0.4596387637 0.4410612271
1303500000.0 -0.4550111668 0.4576362225
1313450000.0 -0.4526755954 0.4686029355
1323400000.0 -0.4505647944 0.4751889011
1333350000.0 -0.446792449 0.479918836
1343300000.0 -0.4409755715 0.4857274567
1353250000.0 -0.4344515778 0.4937096265
1363200000.0 -0.4276609344 0.5025397416
1373150000.0 -0.4216412247 0.5107660622
1383100000.0 -0.4177495555 0.5165475531
1393050000.0 -0.4150664261 0.5188874261
1403000000.0 -0.4118421587 0.5167368828
1412950000.0 -0.406860255 0.5111090676
1422900000.0 -0.3986831785 0.5040197663
1432850000.0 -0.3882692776 0.4977769443
1442800000.0 -0.376527547 0.4938526492
1452750000.0 -0.3662395547 0.4950154102
1462700000.0 -0.355100763 0.4993998589
1472650000.0 -0.3434112557 0.5059500061
1482600000.0 -0.3292810881 0.5100608244
1492550000.0 -0.3119003441 0.5125628309
1502500000.0 -0.2894714082 0.5111112983
1512450000.0 -0.2613450966 0.5097597115
1522400000.0 -0.2282232997 0.5069934587
1532350000.0 -0.1898417571 0.5057805413
1542300000.0 -0.1486894172 0.5040870275
1552250000.0 -0.1050196652 0.502550321
1562200000.0 -0.0615154887 0.4991056188
1572150000.0 -0.0172760258 0.4916776339
1582100000.0 0.0271210376 0.4802703065
1592050000.0 0.0730419268 0.465436676
1602000000.0 0.1187788288 0.448510959
1611950000.0 0.1650772218 0.4290176305
1621900000.0 0.2095760582 0.409803762
1631850000.0 0.2537538839 0.3870478546
1641800000.0 0.2950838208 0.3649167585
1651750000.0 0.3326113647 0.3374245914
1661700000.0 0.3698299518 0.3095469671
1671650000.0 0.4028710277 0.2815273856
1681600000.0 0.4338728219 0.2536971657
1691550000.0 0.4630804195 0.2290441443
1701500000.0 0.4887492511 0.2074972397
1711450000.0 0.5111356648 0.1881588753
1721400000.0 0.5293209267 0.1697948832
1731350000.0 0.543954904 0.1510848305
1741300000.0 0.5544731709 0.1303199799
1751250000.0 0.5578889053 0.1054414967
1761200000.0 0.526908752 0.0812954096
1771150000.0 0.5404878901 0.1536618426
1781100000.0 0.5816316492 0.1355199154
1791050000.0 0.5925749364 0.1257863341
1801000000.0 0.5967539293 0.1225865115
1810950000.0 0.5973690093 0.1218406025
1820900000.0 0.5959895376 0.1205748628
1830850000.0 0.593317807 0.1171193445
1840800000.0 0.5903317526 0.1128815877
1850750000.0 0.5857109077 0.1084379453
1860700000.0 0.5789010122 0.1052039943
1870650000.0 0.5689895469 0.1050364084
1880600000.0 0.5551628695 0.1075883142
1890550000.0 0.5364621397 0.1126119406
1900500000.0 0.514256179 0.1168413703
1910450000.0 0.4893819412 0.1175692272
1920400000.0 0.4606420161 0.1148309366
1930350000.0 0.4343089255 0.111025579
1940300000.0 0.4056930029 0.1022313124
1950250000.0 0.3730577261 0.09293841
1960200000.0 0.3341807394 0.0850101804
1970150000.0 0.2875181411 0.079890325
1980100000.0 0.230804891 0.0777404473
1990050000.0 0.1622724462 0.0783328867
2000000000.0 0.0793094785 0.083908175
