!Created with skrf (http://scikit-rf.org).
# GHz S RI R 50.0 
!freq ReS11 ImS11
10000000.0 -1.001930593 0.1600211385
19950000.0 -0.9475055923 0.3061691866
29900000.0 -0.871120652 0.4466603679
39850000.0 -0.7726906318 0.5866668727
49800000.0 -0.6536768761 0.7207296264
59750000.0 -0.508172485 0.8421278384
69700000.0 -0.3274867785 0.9383003393
79650000.0 -0.1074228898 0.9894777098
89600000.0 0.1509357554 0.975322475
99550000.0 0.4319702037 0.8738545376
109500000.0 0.7074029609 0.6687583384
119450000.0 0.9256546431 0.3486119486
129400000.0 1.011548843 -0.0655678716
139350000.0 0.9075133868 -0.4797710052
149300000.0 0.6279676248 -0.8005733126
159250000.0 0.2635025717 -0.9600382588
169200000.0 -0.0944198514 -0.9764509541
179150000.0 -0.3981855896 -0.8952812136
189100000.0 -0.632838279 -0.756626975
199050000.0 -0.7959210504 -0.5874564384
209000000.0 -0.8915388702 -0.4053216966
218950000.0 -0.9363257265 -0.2237589115
228900000.0 -0.9431711609 -0.0496329623
238850000.0 -0.9244722057 0.1154103864
248800000.0 -0.8758032158 0.2735788058
258750000.0 -0.838139398 0.4128487836
268700000.0 -0.7674614342 0.5434099341
278650000.0 -0.6730584861 0.6539984371
288600000.0 -0.5531537861 0.7405988075
298550000.0 -0.4100409014 0.8003493988
308500000.0 -0.2480330679 0.8348450373
318450000.0 -0.0711578193 0.8393280799
328400000.0 0.1131628877 0.8064551238
338350000.0 0.2874536607 0.7239205034
348300000.0 0.4270888359 0.5840394056
358250000.0 0.5017151659 0.3967905346
368200000.0 0.4957596637 0.1937461938
378150000.0 0.4180562535 0.0157538891
388100000.0 0.2973934497 -0.1098779979
398050000.0 0.1661138656 -0.1725824644
408000000.0 0.0505223024 -0.1785326237
417950000.0 -0.0362722738 -0.1430130246
427900000.0 -0.0925064751 -0.0850686094
437850000.0 -0.1234089656 -0.0204286095
447800000.0 -0.1353785312 0.0389038389
457750000.0 -0.1326628469 0.0861661997
467700000.0 -0.1183237846 0.1165318358
477650000.0 -0.0949351327 0.1292494316
487600000.0 -0.065424353 0.1268614785
497550000.0 -0.0366712341 0.112519129
507500000.0 -0.0039660461 0.0992782187
517450000.0 0.0196050186 0.0786007323
527400000.0 0.0323390017 0.0583970888
537350000.0 0.0307224272 0.0386530106
547300000.0 0.0172610976 0.0203420232
557250000.0 -0.0063607783 0.0018474134
567200000.0 -0.0358320809 -0.0153869207
577150000.0 -0.0656425974 -0.0285434296
587100000.0 -0.0917844049 -0.0353380353
597050000.0 -0.1117397941 -0.032849193
607000000.0 -0.1258063995 -0.019339425
616950000.0 -0.1350547927 0.0039012459
626900000.0 -0.1410860191 0.0351576322
636850000.0 -0.144140276 0.0686530316
646800000.0 -0.1436538027 0.100403134
656750000.0 -0.1377827953 0.1260895543
666700000.0 -0.1239465425 0.143798312
676650000.0 -0.1001634426 0.1521764202
686600000.0 -0.0670739224 0.1535970615
696550000.0 -0.0270649472 0.1494745843
706500000.0 0.015599337 0.1402153361
716450000.0 0.056035891 0.1260391668
726400000.0 0.0882139774 0.1045342577
736350000.0 0.1094877008 0.073712569
746300000.0 0.1162425999 0.0318028484
756250000.0 0.1104257714 -0.0198744369
766200000.0 0.0927066132 -0.0780375743
776150000.0 0.0649764504 -0.1366919792
786100000.0 0.0279847078 -0.1887906375
796050000.0 -0.0177187865 -0.2268714844
806000000.0 -0.0707468878 -0.2459531976
815950000.0 -0.1317193005 -0.2428244334
825900000.0 -0.1974430434 -0.219387106
835850000.0 -0.2642529614 -0.1794899081
845800000.0 -0.3265170903 -0.1305237269
855750000.0 -0.3785941278 -0.0752872133
865700000.0 -0.4136129816 -0.0167222787
875650000.0 -0.4266391631 0.0486435505
885600000.0 -0.4159808519 0.1201492966
895550000.0 -0.3823843533 0.197729616
905500000.0 -0.3286222824 0.2782179142
915450000.0 -0.2577030539 0.3557216223
925400000.0 -0.1711416083 0.4221801052
935350000.0 -0.0688494997 0.4671778039
945300000.0 0.0479411437 0.4785429078
955250000.0 0.1762901754 0.4460589592
965200000.0 0.3071433033 0.359689162
975150000.0 0.4258509089 0.2150757315
985100000.0 0.5073399433 0.0127542373
995050000.0 0.515652501 -0.2344896897
1005000000.0 0.4148777218 -0.4869669561
1014950000.0 0.193574579 -0.6801537865
1024900000.0 -0.1086988426 -0.7516369543
1034850000.0 -0.4229787495 -0.6807387276
1044800000.0 -0.6828473865 -0.4870519572
1054750000.0 -0.8426418725 -0.2140233578
1064700000.0 -0.8761761373 0.0842359418
1074650000.0 -0.7928075133 0.3521726684
1084600000.0 -0.6348744388 0.5197020342
1094550000.0 -0.4829761097 0.6792837078
1104500000.0 -0.2314893654 0.7871280264
1114450000.0 0.0318642619 0.8008879624
1124400000.0 0.2782527691 0.7338280515
1134350000.0 0.4771374806 0.5926154226
1144300000.0 0.6066134824 0.3920203356
1154250000.0 0.6614622969 0.1675078835
1164200000.0 0.651514741 -0.0513164763
1174150000.0 0.5967976089 -0.2412995599
1184100000.0 0.5072714838 -0.3993187411
1194050000.0 0.3899728471 -0.5177059649
1204000000.0 0.254928604 -0.5895748681
1213950000.0 0.1142105784 -0.6206207186
1223900000.0 -0.0222247392 -0.6212370241
1233850000.0 -0.1488769712 -0.6037962093
1243800000.0 -0.2621960784 -0.5749332451
1253750000.0 -0.3603373961 -0.5375011433
1263700000.0 -0.4412124333 -0.4905185785
1273650000.0 -0.5053931623 -0.4345413997
1283600000.0 -0.5520015037 -0.3681829159
1293550000.0 -0.585719952 -0.2937690404
1303500000.0 -0.6115075295 -0.2145951033
1313450000.0 -0.6332906666 -0.1356040392
1323400000.0 -0.6532946126 -0.0595674321
1333350000.0 -0.6691799124 0.0114900178
1343300000.0 -0.6773552676 0.0780048629
1353250000.0 -0.6744593121 0.1389407338
1363200000.0 -0.6569453258 0.1964387818
1373150000.0 -0.624295226 0.2530335302
1383100000.0 -0.582316988 0.3089602379
1393050000.0 -0.5352063384 0.36620005
1403000000.0 -0.487806671 0.4222058342
1412950000.0 -0.4406624072 0.4751885431
1422900000.0 -0.3936614643 0.5215053639
1432850000.0 -0.3438744584 0.5569906479
1442800000.0 -0.288976884 0.5808443549
1452750000.0 -0.2262467759 0.5931187485
1462700000.0 -0.1542499018 0.5954078615
1472650000.0 -0.075219177 0.5916071588
1482600000.0 0.0079063047 0.5840001582
1492550000.0 0.0909616484 0.571082251
1502500000.0 0.1706223533 0.5497921196
1512450000.0 0.2427434634 0.517079366
1522400000.0 0.3046641214 0.4690586118
1532350000.0 0.3557164392 0.4037979586
1542300000.0 0.3971143501 0.3233774183
1552250000.0 0.430436565 0.2310604533
1562200000.0 0.4557020125 0.1335618545
1572150000.0 0.470595372 0.035117463
1582100000.0 0.4721588236 -0.0618506608
1592050000.0 0.455977944 -0.15430721
1602000000.0 0.4178501363 -0.2399442439
1611950000.0 0.3596596772 -0.3154604346
1621900000.0 0.2852202905 -0.3819946987
1631850000.0 0.2009320035 -0.4396271631
1641800000.0 0.1119449818 -0.4881169321
1651750000.0 0.0227015598 -0.5240838037
1661700000.0 -0.0637273249 -0.5451460988
1671650000.0 -0.1456951005 -0.5472914728
1681600000.0 -0.2219614993 -0.5307401124
1691550000.0 -0.2941082603 -0.4996332416
1701500000.0 -0.3626961745 -0.458997209
1711450000.0 -0.4284749541 -0.4145982687
1721400000.0 -0.4900172554 -0.3688538484
1731350000.0 -0.5456292003 -0.3249646081
1741300000.0 -0.5911384946 -0.2791952259
1751250000.0 -0.6220072159 -0.2296975441
1761200000.0 -0.6391922637 -0.1754407551
1771150000.0 -0.6442504909 -0.1162627973
1781100000.0 -0.6438219734 -0.0540180197
1791050000.0 -0.6414213574 0.008528119
1801000000.0 -0.6406421622 0.0684086271
1810950000.0 -0.642362485 0.1246103364
1820900000.0 -0.6423578982 0.1753480976
1830850000.0 -0.6350700964 0.2194211706
1840800000.0 -0.6164905158 0.2587300333
1850750000.0 -0.5848582406 0.2933228663
1860700000.0 -0.5413294746 0.3245221225
1870650000.0 -0.492724637 0.3545704695
1880600000.0 -0.4441772792 0.3820433871
1890550000.0 -0.4000389966 0.4065530754
1900500000.0 -0.3621529957 0.4248074334
1910450000.0 -0.3288508925 0.4319318307
1920400000.0 -0.3002129578 0.4261398252
1930350000.0 -0.2748813172 0.414500873
1940300000.0 -0.245671766 0.3985270415
1950250000.0 -0.20775221 0.3760108545
1960200000.0 -0.16366429 0.349215732
1970150000.0 -0.1223447626 0.3179827126
1980100000.0 -0.0898230891 0.2826133438
1990050000.0 -0.0741980981 0.2385442704
2000000000.0 -0.0791413905 0.1833729363
