!Created with skrf (http://scikit-rf.org).
# GHz S RI R 50.0 
!freq ReS11 ImS11
10000000.0 -0.9966707395 0.1675949601
19950000.0 -0.9408276714 0.3207480389
29900000.0 -0.8611861634 0.4665116728
39850000.0 -0.7571905039 0.6089716756
49800000.0 -0.6304085749 0.7421692959
59750000.0 -0.4767207601 0.8587741196
69700000.0 -0.2899427553 0.9474784149
79650000.0 -0.0682408257 0.9894242508
89600000.0 0.1848799991 0.9672867586
99550000.0 0.4534993325 0.8634780198
109500000.0 0.7121634991 0.6662298322
119450000.0 0.9181901501 0.3672033577
129400000.0 1.008390035 -0.0055978037
139350000.0 0.9362452843 -0.4114537393
149300000.0 0.697816883 -0.7395899274
159250000.0 0.3606410723 -0.9304173054
169200000.0 0.0058819649 -0.9846782865
179150000.0 -0.3126263702 -0.9300614117
189100000.0 -0.5696685968 -0.8032956829
199050000.0 -0.7556205108 -0.6335823995
209000000.0 -0.8708817347 -0.4417096628
218950000.0 -0.9291098845 -0.2457368836
228900000.0 -0.9423084487 -0.0545267912
238850000.0 -0.9214309908 0.1306328919
248800000.0 -0.8118815481 0.1665643176
258750000.0 -0.822980755 0.4329302117
268700000.0 -0.7348096211 0.5749432794
278650000.0 -0.6221232564 0.6898562257
288600000.0 -0.4845136132 0.7753228834
298550000.0 -0.3256171768 0.8291813735
308500000.0 -0.1504909005 0.8515932879
318450000.0 0.0350145972 0.8380865791
328400000.0 0.2215336263 0.7817924906
338350000.0 0.3894871275 0.6751392277
348300000.0 0.514616491 0.5164347302
358250000.0 0.5725483798 0.3206092557
368200000.0 0.5531438448 0.1187648313
378150000.0 0.468379557 -0.0541311939
388100000.0 0.344901778 -0.1754678558
398050000.0 0.2110788005 -0.2374177931
408000000.0 0.0915397701 -0.2443630599
417950000.0 -0.0006413587 -0.2098352328
427900000.0 -0.061222324 -0.1517983826
437850000.0 -0.0916668515 -0.0914162531
447800000.0 -0.1103887941 -0.0442351993
457750000.0 -0.1191137029 0.0091835546
467700000.0 -0.1073103081 0.0443868869
477650000.0 -0.0851091483 0.0595671735
487600000.0 -0.0558459759 0.0556862848
497550000.0 -0.0544780748 -0.0052090901
507500000.0 -0.0160688604 0.0495196378
517450000.0 0.0097614139 0.0272251134
527400000.0 0.0215453493 0.0077094363
537350000.0 0.0195483971 -0.0103955795
547300000.0 0.006196233 -0.0298221238
557250000.0 -0.0198345656 -0.0457995642
567200000.0 -0.0488176058 -0.059157411
577150000.0 -0.0787233332 -0.0688011532
587100000.0 -0.1052992079 -0.0728854474
597050000.0 -0.1260747512 -0.0686667383
607000000.0 -0.1409312098 -0.054364805
616950000.0 -0.1510719466 -0.0308379249
626900000.0 -0.1574923216 -0.00044675
636850000.0 -0.1602902789 0.0325023921
646800000.0 -0.1585910299 0.0639665988
656750000.0 -0.1515036798 0.0915142247
666700000.0 -0.1366914402 0.1115502075
676650000.0 -0.1121619178 0.1232120223
686600000.0 -0.0789017522 0.1279119935
696550000.0 -0.0385477539 0.1258896942
706500000.0 0.0044094301 0.1177829961
716450000.0 0.045834939 0.1040014364
726400000.0 0.0804251087 0.0816528468
736350000.0 0.1046273615 0.049509439
746300000.0 0.1160559848 0.0071317755
756250000.0 0.1145308558 -0.0459373484
766200000.0 0.1009996024 -0.1046621869
776150000.0 0.0767791111 -0.164245271
786100000.0 0.0419668041 -0.2185888051
796050000.0 -0.002733723 -0.2607400447
806000000.0 -0.0565897091 -0.2868357752
815950000.0 -0.1196460043 -0.2936192241
825900000.0 -0.189218622 -0.281805954
835850000.0 -0.2620322961 -0.2544977483
845800000.0 -0.3328863331 -0.2141738808
855750000.0 -0.3950295361 -0.1607860982
865700000.0 -0.4267244334 -0.0928147699
875650000.0 -0.4430194497 -0.0411519493
885600000.0 -0.460784959 0.0133370313
895550000.0 -0.4578269782 0.0872693856
905500000.0 -0.434973893 0.1697938686
915450000.0 -0.3960157507 0.2544581641
925400000.0 -0.3417646772 0.3353301209
935350000.0 -0.2710106611 0.4056065768
945300000.0 -0.1829040214 0.4565853454
955250000.0 -0.0760990024 0.4811898715
965200000.0 0.0484228896 0.4708621615
975150000.0 0.1853847426 0.4206115613
985100000.0 0.3237629796 0.324211078
995050000.0 0.4439175495 0.1761426036
1005000000.0 0.5153390213 -0.0236922722
1014950000.0 0.5006348581 -0.2599950665
1024900000.0 0.3693907047 -0.4923514868
1034850000.0 0.1236542121 -0.6619851019
1044800000.0 -0.1942688556 -0.7163801248
1054750000.0 -0.5165984308 -0.6259539886
1064700000.0 -0.756741651 -0.3964031835
1074650000.0 -0.8601589707 -0.12994254
1084600000.0 -0.8614485966 0.1710807914
1094550000.0 -0.7282723367 0.4401347812
1104500000.0 -0.5332277601 0.6409213152
1114450000.0 -0.2787009922 0.769454523
1124400000.0 0.002132561 0.7959801438
1134350000.0 0.261257957 0.7125919171
1144300000.0 0.4589497437 0.5391669792
1154250000.0 0.5721350062 0.3147756729
1164200000.0 0.6012435968 0.0834629201
1174150000.0 0.5751200603 -0.1236960155
1184100000.0 0.5026084322 -0.3048740338
1194050000.0 0.3898323378 -0.442326065
1204000000.0 0.2553096495 -0.5290477132
1213950000.0 0.113463701 -0.5709877031
1223900000.0 -0.0237958533 -0.5795869698
1233850000.0 -0.1500186871 -0.5662294264
1243800000.0 -0.2625810365 -0.5385499986
1253750000.0 -0.3596372986 -0.5015781733
1263700000.0 -0.4392134641 -0.4544227228
1273650000.0 -0.5024370789 -0.3987002025
1283600000.0 -0.5486254809 -0.3336162193
1293550000.0 -0.582493102 -0.2613930832
1303500000.0 -0.6080184813 -0.1857786719
1313450000.0 -0.6282527936 -0.1101316102
1323400000.0 -0.646031637 -0.037186222
1333350000.0 -0.6591039426 0.0316288498
1343300000.0 -0.6650255632 0.0969720625
1353250000.0 -0.660902954 0.1571799201
1363200000.0 -0.643587022 0.2147695638
1373150000.0 -0.6131826971 0.2708438489
1383100000.0 -0.5743690588 0.3262752537
1393050000.0 -0.5306795068 0.3809695699
1403000000.0 -0.4864403477 0.4338274342
1412950000.0 -0.4417266527 0.4831313062
1422900000.0 -0.3967781478 0.5251347045
1432850000.0 -0.3501613651 0.5570125722
1442800000.0 -0.3003048889 0.5787523184
1452750000.0 -0.2456328651 0.5909509123
1462700000.0 -0.1850472893 0.5978959921
1472650000.0 -0.1179928759 0.6028418927
1482600000.0 -0.0454787278 0.6063253082
1492550000.0 0.0290258376 0.6063855642
1502500000.0 0.1026856671 0.5992117195
1512450000.0 0.1726385073 0.5813646806
1522400000.0 0.2363943622 0.549449811
1532350000.0 0.2945748741 0.5011097202
1542300000.0 0.3469116355 0.4382632477
1552250000.0 0.3945065015 0.3637775531
1562200000.0 0.4391039948 0.2822297805
1572150000.0 0.4762803883 0.1973989318
1582100000.0 0.5023019179 0.1099295799
1592050000.0 0.5121169941 0.0218540791
1602000000.0 0.5016395443 -0.065834107
1611950000.0 0.4704103729 -0.1497133177
1621900000.0 0.4213055256 -0.2304518738
1631850000.0 0.3596237803 -0.3069500253
1641800000.0 0.2898242757 -0.377225298
1651750000.0 0.215436688 -0.4380890839
1661700000.0 0.1384641029 -0.4846207326
1671650000.0 0.0603077535 -0.5139747557
1681600000.0 -0.0191639026 -0.5239346131
1691550000.0 -0.0993104755 -0.517786942
1701500000.0 -0.1807937416 -0.4980240503
1711450000.0 -0.2613611489 -0.4682320929
1721400000.0 -0.3379178149 -0.4327129936
1731350000.0 -0.4078022313 -0.3931117853
1741300000.0 -0.4660898573 -0.3471323448
1751250000.0 -0.5103813633 -0.289898719
1761200000.0 -0.5203246783 -0.2096103504
1771150000.0 -0.4774981016 -0.2505993982
1781100000.0 -0.5573480383 -0.1816569701
1791050000.0 -0.5785892027 -0.1073372011
1801000000.0 -0.5904685782 -0.0396033951
1810950000.0 -0.5999041562 0.0224203115
1820900000.0 -0.6058811514 0.0789089513
1830850000.0 -0.6046700751 0.1296223391
1840800000.0 -0.5921536036 0.1751809813
1850750000.0 -0.5677965903 0.2169453011
1860700000.0 -0.531909482 0.2551611722
1870650000.0 -0.4901603293 0.2919932866
1880600000.0 -0.4474786843 0.3256492978
1890550000.0 -0.4080539614 0.355926776
1900500000.0 -0.3724883366 0.3814592773
1910450000.0 -0.3395590129 0.3998285557
1920400000.0 -0.3073242523 0.4085279042
1930350000.0 -0.2723730076 0.40730473
1940300000.0 -0.2336647027 0.3967293151
1950250000.0 -0.1906891463 0.3787053233
1960200000.0 -0.1462293988 0.356552497
1970150000.0 -0.1069362644 0.3313450282
1980100000.0 -0.0762128493 0.3039003414
1990050000.0 -0.0577658422 0.2729629431
2000000000.0 -0.0536819355 0.2358002746
