!Created with skrf (http://scikit-rf.org).
# GHz S RI R 50.0 
!freq ReS11 ImS11
10000000.0 -0.9996261997 0.1638595513
19950000.0 -0.9446110646 0.3126938296
29900000.0 -0.8671721156 0.4549865011
39850000.0 -0.7674375421 0.5950770825
49800000.0 -0.6468975099 0.7274026839
59750000.0 -0.5009121526 0.8457704514
69700000.0 -0.3231712891 0.9382875034
79650000.0 -0.1102320989 0.9875631193
89600000.0 0.1360151204 0.9766271142
99550000.0 0.4019631771 0.888165495
109500000.0 0.6655445693 0.7101970936
119450000.0 0.8881443966 0.4306440795
129400000.0 1.007386337 0.0650200926
139350000.0 0.9655741454 -0.3418303044
149300000.0 0.7499907754 -0.6905000011
159250000.0 0.4192987967 -0.9080826621
169200000.0 0.0593897779 -0.9830994335
179150000.0 -0.2699187974 -0.9435288618
189100000.0 -0.5391066513 -0.8257533265
199050000.0 -0.7359750379 -0.6600354612
209000000.0 -0.8594554239 -0.4686371359
218950000.0 -0.9238972443 -0.2710702437
228900000.0 -0.9410356875 -0.0776035301
238850000.0 -0.9238358256 0.1094833515
248800000.0 -0.789337946 0.1790785686
258750000.0 -0.8283754547 0.4228557367
268700000.0 -0.7423522176 0.5671932896
278650000.0 -0.6299554714 0.6848083158
288600000.0 -0.4909358733 0.7721812409
298550000.0 -0.3293604069 0.8269327828
308500000.0 -0.1504403537 0.849536879
318450000.0 0.0391212046 0.8353234497
328400000.0 0.2296457975 0.7775089074
338350000.0 0.3998327727 0.6676234335
348300000.0 0.5250358763 0.5054509404
358250000.0 0.5800616492 0.3059797992
368200000.0 0.5563036391 0.1017440402
378150000.0 0.4672243276 -0.0718465028
388100000.0 0.3408784495 -0.1930748798
398050000.0 0.2066519625 -0.2542163215
408000000.0 0.0876822685 -0.2613783338
417950000.0 -0.0042329762 -0.2278162145
427900000.0 -0.0661395627 -0.1712667548
437850000.0 -0.1031199309 -0.1067516435
447800000.0 -0.1190978227 -0.0467404828
457750000.0 -0.1193306894 0.0006494515
467700000.0 -0.1077454635 0.0314407594
477650000.0 -0.0870726969 0.0429535848
487600000.0 -0.0596675622 0.03611643
497550000.0 -0.0691629687 -0.0235550177
507500000.0 -0.0199262538 0.027971227
517450000.0 0.0038222559 0.0037748687
527400000.0 0.0130466865 -0.0164512666
537350000.0 0.0081122132 -0.0340743519
547300000.0 -0.008485896 -0.0522810854
557250000.0 -0.037556256 -0.0670630691
567200000.0 -0.0693825616 -0.0795403511
577150000.0 -0.1009165306 -0.0877951461
587100000.0 -0.1288627841 -0.0904824433
597050000.0 -0.1497884973 -0.0845593365
607000000.0 -0.1643758372 -0.0680846931
616950000.0 -0.1741580759 -0.0416254803
626900000.0 -0.1800297748 -0.0081830391
636850000.0 -0.1822886357 0.0278123193
646800000.0 -0.1800150349 0.0628277236
656750000.0 -0.1714897347 0.0929860564
666700000.0 -0.1524461062 0.1128429109
676650000.0 -0.1156315563 0.0965265758
686600000.0 -0.0972035274 0.1090136426
696550000.0 -0.0680130909 0.1143213889
706500000.0 -0.0238900673 0.1098529538
716450000.0 0.0192793269 0.0984424434
726400000.0 0.0546300055 0.078198897
736350000.0 0.0791649771 0.047692759
746300000.0 0.0899203162 0.006697828
756250000.0 0.0879543579 -0.0450427466
766200000.0 0.0730812473 -0.1034638198
776150000.0 0.0488343695 -0.1623620606
786100000.0 0.0144009216 -0.21507061
796050000.0 -0.0292623769 -0.2551187349
806000000.0 -0.0807457237 -0.2778699151
815950000.0 -0.1405792472 -0.2809918597
825900000.0 -0.2056432297 -0.2662672254
835850000.0 -0.2738537374 -0.2369402813
845800000.0 -0.3392709369 -0.1967355225
855750000.0 -0.3973486472 -0.1483033281
865700000.0 -0.4412620733 -0.0924332135
875650000.0 -0.4673455532 -0.0296539681
885600000.0 -0.4720561287 0.0411965321
895550000.0 -0.4563470626 0.1192041608
905500000.0 -0.4210425005 0.203276549
915450000.0 -0.3688002959 0.2887721773
925400000.0 -0.2985292543 0.3692351097
935350000.0 -0.2070846848 0.4355921181
945300000.0 -0.0894209488 0.474977657
955250000.0 0.0600543863 0.4656216525
965200000.0 0.2141264554 0.3565880234
975150000.0 0.2106256166 0.1829280348
985100000.0 0.2601196741 0.1692599774
995050000.0 0.3814960874 0.06032023
1005000000.0 0.439071475 -0.1323954846
1014950000.0 0.4011232417 -0.3494943502
1024900000.0 0.2506351193 -0.5523869506
1034850000.0 -0.0019143311 -0.6790553826
1044800000.0 -0.3011650935 -0.6892706891
1054750000.0 -0.5825282362 -0.5780028653
1064700000.0 -0.7900475293 -0.3658573074
1074650000.0 -0.8859343293 -0.0939937496
1084600000.0 -0.857000681 0.1911934602
1094550000.0 -0.6777893855 0.3973931498
1104500000.0 -0.5870130851 0.5901738303
1114450000.0 -0.3381136512 0.7478008374
1124400000.0 -0.0545945597 0.7928087085
1134350000.0 0.2164765367 0.7212119322
1144300000.0 0.4280681836 0.5468719026
1154250000.0 0.5492404666 0.313047398
1164200000.0 0.5793500027 0.0709681135
1174150000.0 0.5502136701 -0.1451728187
1184100000.0 0.468201403 -0.33298198
1194050000.0 0.343771419 -0.4688870062
1204000000.0 0.1999069315 -0.5477083921
1213950000.0 0.052815852 -0.5783094373
1223900000.0 -0.0856697567 -0.5757976062
1233850000.0 -0.2106775858 -0.5532764259
1243800000.0 -0.3196929442 -0.518769964
1253750000.0 -0.4124108112 -0.4770385014
1263700000.0 -0.4864895284 -0.427252703
1273650000.0 -0.5431853431 -0.3693988722
1283600000.0 -0.5827544643 -0.3035899327
1293550000.0 -0.6101032355 -0.2309378043
1303500000.0 -0.6299741768 -0.1551649195
1313450000.0 -0.6454162768 -0.080826283
1323400000.0 -0.6599501929 -0.0097787164
1333350000.0 -0.6717105817 0.0562907358
1343300000.0 -0.6763528089 0.1185384
1353250000.0 -0.6714092295 0.1752217276
1363200000.0 -0.6527264464 0.2293314926
1373150000.0 -0.6210267773 0.2817487921
1383100000.0 -0.5807565628 0.3346138149
1393050000.0 -0.535919503 0.387231224
1403000000.0 -0.4909409229 0.4386677381
1412950000.0 -0.4462066122 0.4869819819
1422900000.0 -0.4012850573 0.5284976585
1432850000.0 -0.3548914325 0.5592548511
1442800000.0 -0.3048023355 0.5782887578
1452750000.0 -0.2501728256 0.5882939438
1462700000.0 -0.1895206097 0.5926345433
1472650000.0 -0.1207007555 0.5955876443
1482600000.0 -0.0457538519 0.5975316289
1492550000.0 0.0315884059 0.5955423663
1502500000.0 0.1075879291 0.5853921283
1512450000.0 0.1789893751 0.5632911376
1522400000.0 0.2437307361 0.5256370665
1532350000.0 0.3010182222 0.4705316748
1542300000.0 0.3512942349 0.3991101695
1552250000.0 0.3953334329 0.315128593
1562200000.0 0.4343770561 0.2243708996
1572150000.0 0.464379243 0.1308841835
1582100000.0 0.4803516767 0.036731872
1592050000.0 0.4771488628 -0.0556718987
1602000000.0 0.4516272947 -0.1445145983
1611950000.0 0.4047069207 -0.2261371017
1621900000.0 0.3405200571 -0.3009861354
1631850000.0 0.2653128049 -0.3690498138
1641800000.0 0.1847876876 -0.4298731122
1651750000.0 0.1016170554 -0.4797558403
1661700000.0 0.0185918419 -0.5139006554
1671650000.0 -0.0632012797 -0.5285164298
1681600000.0 -0.1426515482 -0.5234220038
1691550000.0 -0.2198371328 -0.5023657555
1701500000.0 -0.2958295328 -0.4696883735
1711450000.0 -0.3689191668 -0.4299971152
1721400000.0 -0.4373151121 -0.3880389221
1731350000.0 -0.4992207967 -0.3460550034
1741300000.0 -0.5496588976 -0.3016870921
1751250000.0 -0.5866869812 -0.253695959
1761200000.0 -0.609393397 -0.200651355
1771150000.0 -0.6198163217 -0.14265493
1781100000.0 -0.6235564082 -0.0807300657
1791050000.0 -0.6251028708 -0.0183714969
1801000000.0 -0.6274199117 0.0418178529
1810950000.0 -0.6316712573 0.0983930946
1820900000.0 -0.6331918696 0.1505708004
1830850000.0 -0.6285584116 0.1959496625
1840800000.0 -0.6129874202 0.2373497814
1850750000.0 -0.5846415437 0.2745952452
1860700000.0 -0.5446959371 0.3091964153
1870650000.0 -0.4998798217 0.3425922538
1880600000.0 -0.45447432 0.3742516184
1890550000.0 -0.4134311015 0.4036014722
1900500000.0 -0.3764042979 0.4278220158
1910450000.0 -0.3420014537 0.4455208672
1920400000.0 -0.3064518865 0.4538649047
1930350000.0 -0.2650311011 0.4503917569
1940300000.0 -0.2138525187 0.4332974778
1950250000.0 -0.1535981214 0.394052093
1960200000.0 -0.122438109 0.324481275
1970150000.0 -0.1255272303 0.312097791
1980100000.0 -0.0938033927 0.3022658012
1990050000.0 -0.0688840374 0.2734905837
2000000000.0 -0.0629804419 0.2306201648
