!Created with skrf (http://scikit-rf.org).
# GHz S RI R 50.0 
!freq ReS11 ImS11
10000000.0 -0.7461115884 0.6714247465
19950000.0 -0.1152931952 0.9811157125
29900000.0 0.5629425326 0.8005386864
39850000.0 0.9566302246 0.2071923835
49800000.0 0.8464730567 -0.509121089
59750000.0 0.2638301867 -0.9641866843
69700000.0 -0.4848369362 -0.8804362827
79650000.0 -0.9588025825 -0.2766079468
89600000.0 -0.8438749907 0.5000625359
99550000.0 -0.1701514759 0.9494347221
109500000.0 0.6401095639 0.7148009746
119450000.0 0.9642291802 -0.105831608
129400000.0 0.4626830484 -0.8691328878
139350000.0 -0.4612418598 -0.8701905592
149300000.0 -0.959974487 -0.1089544032
159250000.0 -0.6268704192 0.7073012527
169200000.0 0.1987401793 0.9159492264
179150000.0 0.8517554118 0.4115575599
189100000.0 0.8787055326 -0.3879153067
199050000.0 0.3129741252 -0.9141123287
209000000.0 -0.4281760815 -0.8566255519
218950000.0 -0.8882086176 -0.3105844411
228900000.0 -0.8433754863 0.381052876
238850000.0 -0.3499380963 0.8496534853
248800000.0 0.3290492372 0.8577440954
258750000.0 0.8318319121 0.4241361393
268700000.0 0.90797556 -0.2456430213
278650000.0 0.5096604621 -0.7837992847
288600000.0 -0.140497507 -0.9055283347
298550000.0 -0.6914523068 -0.5563048941
308500000.0 -0.8547965553 0.0660790028
318450000.0 -0.546138127 0.6228578865
328400000.0 0.0586105861 0.7973539108
338350000.0 0.5878917848 0.4838310398
348300000.0 0.6975851495 -0.0929166105
358250000.0 0.3543984975 -0.5113348945
368200000.0 -0.125749594 -0.5065031113
378150000.0 -0.3756063794 -0.18077916
388100000.0 -0.2841023323 0.1467138691
398050000.0 -0.0264250769 0.238761952
408000000.0 0.1453208851 0.1070670341
417950000.0 0.1242748486 -0.0634728291
427900000.0 -0.0093848386 -0.1209650293
437850000.0 -0.1138762329 -0.0448059055
447800000.0 -0.1092377062 0.0766775413
457750000.0 -0.0101960942 0.1437833583
467700000.0 0.1001026747 0.1107632389
477650000.0 0.1452846904 0.0087525544
487600000.0 0.1034315532 -0.0876971336
497550000.0 0.0147792893 -0.1222801797
507500000.0 -0.0631148292 -0.0911638405
517450000.0 -0.087327353 -0.0243483545
527400000.0 -0.0626037077 0.0249255636
537350000.0 -0.0236433368 0.0319765511
547300000.0 -0.0082003453 0.0119433887
557250000.0 -0.0230747737 -0.0016211008
567200000.0 -0.0455626641 0.0151581259
577150000.0 -0.0396113668 0.0537440866
587100000.0 0.0102839722 0.0808185106
597050000.0 0.0782668197 0.0606758738
607000000.0 0.1185372866 -0.0163982145
616950000.0 0.0944709188 -0.113492744
626900000.0 0.0027460653 -0.1729928008
636850000.0 -0.114408663 -0.1537561045
646800000.0 -0.1923128156 -0.0548730742
656750000.0 -0.1815272618 0.0744903015
666700000.0 -0.0829772196 0.1655012732
676650000.0 0.0538373806 0.1632929379
686600000.0 0.1548315638 0.0693803849
696550000.0 0.1628870091 -0.066961018
706500000.0 0.0791534753 -0.1666388427
716450000.0 -0.0471803169 -0.1767456226
726400000.0 -0.1362854497 -0.0984158602
736350000.0 -0.1342517286 0.0141677418
746300000.0 -0.0486834309 0.0828632776
756250000.0 0.0559302453 0.0594382487
766200000.0 0.1004750088 -0.0393665113
776150000.0 0.0462408308 -0.1384618995
786100000.0 -0.0738180238 -0.1552763985
796050000.0 -0.1720978401 -0.0635338111
806000000.0 -0.1612620575 0.0899786611
815950000.0 -0.026637176 0.19530486
825900000.0 0.1651413646 0.1649672708
835850000.0 0.2855956585 -0.0071448872
845800000.0 0.2442909336 -0.2311946006
855750000.0 0.0424070321 -0.3677919088
865700000.0 -0.2138786606 -0.3202834175
875650000.0 -0.3699877215 -0.0918102071
885600000.0 -0.3061348359 0.196229454
895550000.0 -0.0454415046 0.3542913893
905500000.0 0.2293299889 0.2688945795
915450000.0 0.3681822282 0.0409268569
925400000.0 0.3377513873 -0.2370403478
935350000.0 0.0930092233 -0.4212011996
945300000.0 -0.2318299186 -0.3591147688
955250000.0 -0.4036155168 -0.0561509666
965200000.0 -0.2632778385 0.2918647348
975150000.0 0.1312701068 0.3927172759
985100000.0 0.4631821607 0.1005224399
995050000.0 0.3899247992 -0.3794310203
1005000000.0 -0.1003875575 -0.5959139409
1014950000.0 -0.5929263101 -0.2686279912
1024900000.0 -0.5883383742 0.3813090545
1034850000.0 0.0061023166 0.760506914
1044800000.0 0.6773771031 0.4601042532
1054750000.0 0.8130296647 -0.2666918222
1064700000.0 0.3233795006 -0.7984033277
1074650000.0 -0.3769352214 -0.753043134
1084600000.0 -0.7668021546 -0.2200645969
1094550000.0 -0.6614782287 0.4314229493
1104500000.0 -0.0770340836 0.7634530582
1114450000.0 0.5304786225 0.5213702219
1124400000.0 0.7129020103 -0.0734994444
1134350000.0 0.3936424885 -0.5608815126
1144300000.0 -0.1464609981 -0.6366741049
1154250000.0 -0.5419845756 -0.3003381325
1164200000.0 -0.5529026067 0.1993281492
1174150000.0 -0.1920769721 0.5275857374
1184100000.0 0.2783609958 0.4668598866
1194050000.0 0.5317346465 0.0843255352
1204000000.0 0.4253675207 -0.3428474081
1213950000.0 0.0565886011 -0.5555387072
1223900000.0 -0.3450389126 -0.4545304285
1233850000.0 -0.5673891097 -0.1091991013
1243800000.0 -0.4934292506 0.2967387673
1253750000.0 -0.1612681068 0.5471603931
1263700000.0 0.2551873665 0.5043345827
1273650000.0 0.5335913974 0.1949133571
1283600000.0 0.5416935828 -0.2146216714
1293550000.0 0.2912520362 -0.5292060702
1303500000.0 -0.0943359785 -0.6171393675
1313450000.0 -0.4513690342 -0.4488854262
1323400000.0 -0.6298514998 -0.0919840388
1333350000.0 -0.5438278651 0.3038227005
1343300000.0 -0.2196669615 0.5603481572
1353250000.0 0.1978583255 0.5489075266
1363200000.0 0.5103908399 0.2747371388
1373150000.0 0.5795698916 -0.1277071986
1383100000.0 0.3891091162 -0.4775355528
1393050000.0 0.032093369 -0.6355198886
1403000000.0 -0.3412776518 -0.5452111548
1412950000.0 -0.5834858567 -0.2471382908
1422900000.0 -0.5894916383 0.1403538951
1432850000.0 -0.3476109498 0.4480950318
1442800000.0 0.0369458895 0.5326250598
1452750000.0 0.3840465475 0.351063905
1462700000.0 0.5308043985 -0.0014368571
1472650000.0 0.4226048198 -0.356390422
1482600000.0 0.1248374563 -0.5563341768
1492550000.0 -0.2247516997 -0.5230979585
1502500000.0 -0.4692108176 -0.2782508307
1512450000.0 -0.4966136618 0.0664847603
1522400000.0 -0.2884281284 0.3435477278
1532350000.0 0.0491119766 0.4083850772
1542300000.0 0.3374007884 0.23062091
1552250000.0 0.4236217862 -0.0870590932
1562200000.0 0.2760788232 -0.3692944736
1572150000.0 -0.0150115499 -0.4746714213
1582100000.0 -0.2961009641 -0.3575431953
1592050000.0 -0.4260217561 -0.0814514826
1602000000.0 -0.3333476716 0.2155262785
1611950000.0 -0.0563555987 0.3711435154
1621900000.0 0.2581375929 0.289618433
1631850000.0 0.4283054499 0.0093930314
1641800000.0 0.3586199937 -0.3109684398
1651750000.0 0.0901040267 -0.5006453422
1661700000.0 -0.2389266508 -0.464791584
1671650000.0 -0.4711180492 -0.2200096432
1681600000.0 -0.4916666627 0.1270125451
1691550000.0 -0.2765282828 0.4157703667
1701500000.0 0.086870475 0.4971540129
1711450000.0 0.4201359134 0.3148365152
1721400000.0 0.5536947992 -0.0438282098
1731350000.0 0.4247425128 -0.4009073466
1741300000.0 0.1035796178 -0.5944320343
1751250000.0 -0.2652923684 -0.5511282534
1761200000.0 -0.5345722702 -0.2968094751
1771150000.0 -0.600959696 0.0719425071
1781100000.0 -0.4290917951 0.4133342873
1791050000.0 -0.077414269 0.5819621817
1801000000.0 0.3099289391 0.4930362557
1810950000.0 0.5541218592 0.1781850979
1820900000.0 0.545680882 -0.2143499531
1830850000.0 0.3028005563 -0.5091376499
1840800000.0 -0.0567771478 -0.5962832938
1850750000.0 -0.3889404665 -0.4589687145
1860700000.0 -0.5759770389 -0.1601734788
1870650000.0 -0.5531260101 0.1885971801
1880600000.0 -0.3278992886 0.4545137476
1890550000.0 0.0119430579 0.5285335959
1900500000.0 0.319212703 0.3770397963
1910450000.0 0.4590386656 0.0760318397
1920400000.0 0.3868203803 -0.2300788011
1930350000.0 0.159316078 -0.4162160203
1940300000.0 -0.1110869038 -0.4296545907
1950250000.0 -0.3208374889 -0.2922190567
1960200000.0 -0.3999439857 -0.0785920979
1970150000.0 -0.340573042 0.120219578
1980100000.0 -0.1914063827 0.2224836687
1990050000.0 -0.0395852095 0.2086410018
2000000000.0 0.0373031488 0.1214294056
