!Created with skrf (http://scikit-rf.org).
# GHz S RI R 50.0 
!freq ReS11 ImS11
10000000.0 -1.000053193 0.1617007233
19950000.0 -0.9453436985 0.308785628
29900000.0 -0.8685496097 0.4498884445
39850000.0 -0.7696002929 0.5898082277
49800000.0 -0.6494010235 0.7229473495
59750000.0 -0.5028138047 0.8431546254
69700000.0 -0.3219672194 0.937951649
79650000.0 -0.1020461528 0.9877430577
89600000.0 0.1551057268 0.9730102567
99550000.0 0.4344284363 0.8719218717
109500000.0 0.7079007582 0.66798979
119450000.0 0.9245646699 0.3497097359
129400000.0 1.010122338 -0.0604825282
139350000.0 0.9064613952 -0.4773486145
149300000.0 0.6273890875 -0.7984157741
159250000.0 0.2626728333 -0.9590782568
169200000.0 -0.0965388568 -0.9753320471
179150000.0 -0.4015103835 -0.8919724215
189100000.0 -0.6358249739 -0.7503153384
199050000.0 -0.7980217634 -0.5786892991
209000000.0 -0.8920010071 -0.394464863
218950000.0 -0.9357392214 -0.2119812739
228900000.0 -0.9412833948 -0.0380062141
238850000.0 -0.9212831893 0.126069365
248800000.0 -0.877308507 0.2689416219
258750000.0 -0.8322822695 0.4200678512
268700000.0 -0.761099613 0.5483894787
278650000.0 -0.6671470132 0.6565877886
288600000.0 -0.5490616167 0.7411345126
298550000.0 -0.4097183627 0.8001559576
308500000.0 -0.2525357077 0.8345320312
318450000.0 -0.0812864608 0.8404339444
328400000.0 0.097717975 0.8104217297
338350000.0 0.2683210353 0.7333492518
348300000.0 0.4079603297 0.60103508
358250000.0 0.4871972209 0.4214233062
368200000.0 0.4892947103 0.2240010507
378150000.0 0.4191790807 0.0473965995
388100000.0 0.3033842208 -0.0792798985
398050000.0 0.1749452327 -0.1430856541
408000000.0 0.0614617022 -0.1508192831
417950000.0 -0.0241514847 -0.117353627
427900000.0 -0.0803128046 -0.0627059474
437850000.0 -0.1117714459 -0.0009112113
447800000.0 -0.1248433805 0.0570912854
457750000.0 -0.1235608453 0.102669854
467700000.0 -0.111402392 0.1318787003
477650000.0 -0.0901480163 0.1456067645
487600000.0 -0.0625676528 0.1459496546
497550000.0 -0.0221251631 0.1364966644
507500000.0 0.0027007609 0.1194390273
517450000.0 0.0267192437 0.1015447819
527400000.0 0.0411179442 0.0831913863
537350000.0 0.0417474591 0.0639783522
547300000.0 0.0290476653 0.0446457493
557250000.0 0.0062137508 0.0268810793
567200000.0 -0.0221939865 0.0097981984
577150000.0 -0.0518718675 -0.0043178412
587100000.0 -0.0781931646 -0.0115047371
597050000.0 -0.0986628954 -0.0094486667
607000000.0 -0.1129960059 0.0033829374
616950000.0 -0.1223018499 0.0266628205
626900000.0 -0.1277900642 0.0575459336
636850000.0 -0.1302716295 0.0908671415
646800000.0 -0.1289095563 0.1224405857
656750000.0 -0.1226431736 0.1482749206
666700000.0 -0.1087280792 0.1659253175
676650000.0 -0.0857885968 0.1751963308
686600000.0 -0.0539547015 0.1779068677
696550000.0 -0.0155007213 0.1750374323
706500000.0 0.0260228253 0.1676165072
716450000.0 0.0657612411 0.1555891624
726400000.0 0.0985416923 0.1364736849
736350000.0 0.121239049 0.1081930241
746300000.0 0.13138454 0.0691665692
756250000.0 0.1295096201 0.0202907279
766200000.0 0.1163855491 -0.0357957011
776150000.0 0.0943128636 -0.0930966841
786100000.0 0.0625098845 -0.1456725839
796050000.0 0.02092995 -0.1862636794
806000000.0 -0.0294182111 -0.2100590955
815950000.0 -0.0888176416 -0.2134048924
825900000.0 -0.1548468491 -0.1975917135
835850000.0 -0.2240024537 -0.1654139081
845800000.0 -0.2899716286 -0.1207219326
855750000.0 -0.346300212 -0.0659333638
865700000.0 -0.3858594404 -0.0032249624
875650000.0 -0.4028023454 0.066509758
885600000.0 -0.3952208229 0.1424293581
895550000.0 -0.3639466017 0.2226401991
905500000.0 -0.3114360829 0.3046234097
915450000.0 -0.2412106501 0.3826593677
925400000.0 -0.1545768281 0.4485909802
935350000.0 -0.052467062 0.4936170532
945300000.0 0.0637899753 0.5066139875
955250000.0 0.1918241506 0.4774456654
965200000.0 0.3242564686 0.3985882479
975150000.0 0.449422893 0.2651164351
985100000.0 0.5433786876 0.0747822679
995050000.0 0.5721552954 -0.1622294092
1005000000.0 0.5003843441 -0.419514908
1014950000.0 0.2943230505 -0.6424737394
1024900000.0 -0.0270943642 -0.7519258169
1034850000.0 -0.3878716972 -0.6979711674
1044800000.0 -0.692419292 -0.4865492519
1054750000.0 -0.8644985943 -0.1710997429
1064700000.0 -0.8687760687 0.1505013593
1074650000.0 -0.7502816848 0.4346017408
1084600000.0 -0.5618812067 0.554466914
1094550000.0 -0.3835725787 0.7333460885
1104500000.0 -0.1286382404 0.809325698
1114450000.0 0.1197098026 0.8027682687
1124400000.0 0.3399616809 0.7235011408
1134350000.0 0.5105740171 0.5836513146
1144300000.0 0.6217746824 0.4018436773
1154250000.0 0.6735575808 0.2029331487
1164200000.0 0.6747722451 0.007522192
1174150000.0 0.6393613088 -0.1698535642
1184100000.0 0.5725214308 -0.3265013355
1194050000.0 0.475955611 -0.4512441296
1204000000.0 0.3570494575 -0.5375137961
1213950000.0 0.2254096969 -0.5855076857
1223900000.0 0.091064674 -0.6034899532
1233850000.0 -0.0382883977 -0.6007541996
1243800000.0 -0.1575569413 -0.5840417647
1253750000.0 -0.2642332102 -0.5556667355
1263700000.0 -0.3553593919 -0.5150007961
1273650000.0 -0.4306607492 -0.4629272789
1283600000.0 -0.4883146432 -0.3977196885
1293550000.0 -0.5321479567 -0.3221356708
1303500000.0 -0.5663464636 -0.2400759093
1313450000.0 -0.593761431 -0.1566836088
1323400000.0 -0.6167879395 -0.0751832709
1333350000.0 -0.6338448251 0.0020601319
1343300000.0 -0.6415044362 0.0748323745
1353250000.0 -0.6374500085 0.1422360772
1363200000.0 -0.6176967731 0.2061616649
1373150000.0 -0.5829716243 0.2674121485
1383100000.0 -0.5383356351 0.3275279304
1393050000.0 -0.4887448135 0.3866749233
1403000000.0 -0.438502322 0.4431614462
1412950000.0 -0.3887872749 0.4951569929
1422900000.0 -0.3384034619 0.5396260641
1432850000.0 -0.2860495514 0.5725412875
1442800000.0 -0.2280503941 0.5938668268
1452750000.0 -0.1626379338 0.603533956
1462700000.0 -0.0889907598 0.6044003275
1472650000.0 -0.0089222431 0.599579495
1482600000.0 0.0737002248 0.5912561451
1492550000.0 0.1550181624 0.5789353647
1502500000.0 0.2317326005 0.5590611809
1512450000.0 0.3010644953 0.5268563338
1522400000.0 0.3600452943 0.4800900812
1532350000.0 0.4080514651 0.416324093
1542300000.0 0.4473237651 0.338032148
1552250000.0 0.4797628565 0.2500475676
1562200000.0 0.5065573876 0.1582264712
1572150000.0 0.5258514178 0.0673442634
1582100000.0 0.5356835427 -0.0210653492
1592050000.0 0.5315539599 -0.1049970286
1602000000.0 0.5085341189 -0.1848689201
1611950000.0 0.4663687051 -0.2580623708
1621900000.0 0.4076487814 -0.3273735355
1631850000.0 0.3371225903 -0.3933234608
1641800000.0 0.2602108985 -0.4547071979
1651750000.0 0.1797710964 -0.5083629602
1661700000.0 0.0979303321 -0.5494922165
1671650000.0 0.0156495634 -0.5725923266
1681600000.0 -0.0657386796 -0.5745299078
1691550000.0 -0.1453600644 -0.558542684
1701500000.0 -0.2237277778 -0.5289856405
1711450000.0 -0.2988159149 -0.4914385296
1721400000.0 -0.3698774452 -0.4504592236
1731350000.0 -0.4348002608 -0.4087743054
1741300000.0 -0.4895760913 -0.3641444983
1751250000.0 -0.5317619627 -0.3143083868
1761200000.0 -0.5596390955 -0.2575694339
1771150000.0 -0.5746301188 -0.1936681073
1781100000.0 -0.5809565936 -0.121604431
1791050000.0 -0.5779021692 -0.0395516526
1801000000.0 -0.5508214717 -0.0036131367
1810950000.0 -0.5367869068 -0.0033681082
1820900000.0 -0.5977354318 0.0711943958
1830850000.0 -0.6058959234 0.1304804248
1840800000.0 -0.5922644216 0.1817750728
1850750000.0 -0.5632381759 0.2275357797
1860700000.0 -0.5207935554 0.2692478909
1870650000.0 -0.471477003 0.3085208906
1880600000.0 -0.4212415471 0.3437663667
1890550000.0 -0.3746255564 0.3757364509
1900500000.0 -0.3332124603 0.3992944564
1910450000.0 -0.2958037725 0.4139455119
1920400000.0 -0.2591746836 0.4165397709
1930350000.0 -0.2212153333 0.4070420284
1940300000.0 -0.1788202236 0.3864518614
1950250000.0 -0.1321393914 0.3574617162
1960200000.0 -0.0839197332 0.3233583337
1970150000.0 -0.0406357126 0.2843925213
1980100000.0 -0.0064068265 0.2406240416
1990050000.0 0.0119761156 0.1871878479
2000000000.0 0.0074573364 0.1189937492
