!Created with skrf (http://scikit-rf.org).
# GHz S RI R 50.0 
!freq ReS11 ImS11
10000000.0 -0.793321654 0.6019341254
19950000.0 -0.2834338286 0.9459270191
29900000.0 0.3294386001 0.9284047207
39850000.0 0.8199582034 0.5506886227
49800000.0 0.9910768121 -0.0564376085
59750000.0 0.7507588913 -0.6561106762
69700000.0 0.1736651315 -0.9814690865
79650000.0 -0.4950339745 -0.8571254591
89600000.0 -0.9291733348 -0.3097733775
99550000.0 -0.8815046237 0.4087101655
109500000.0 -0.3305234754 0.9122621684
119450000.0 0.4457629858 0.8673656722
129400000.0 0.9508984955 0.2333998906
139350000.0 0.7956117852 -0.5700101414
149300000.0 0.071042576 -0.9648108636
159250000.0 -0.6808054457 -0.670128225
169200000.0 -0.948452104 0.0622877018
179150000.0 -0.6107300842 0.7320056759
189100000.0 0.0748484227 0.9557944532
199050000.0 0.7012628147 0.6565350733
209000000.0 0.9547285721 0.0342503999
218950000.0 0.7485141163 -0.5778314202
228900000.0 0.2137355961 -0.9114551328
238850000.0 -0.4021447976 -0.8388317672
248800000.0 -0.7008986559 -0.4385135048
258750000.0 -0.9161860523 0.1651338525
268700000.0 -0.6248221294 0.6908778147
278650000.0 -0.0759007025 0.9216693619
288600000.0 0.4941222462 0.763414059
298550000.0 0.8387590283 0.2885407732
308500000.0 0.8088383698 -0.2929835637
318450000.0 0.4196863288 -0.7169413487
328400000.0 -0.1427438662 -0.7857208104
338350000.0 -0.5957999887 -0.4699724684
348300000.0 -0.7036804859 0.0469111463
358250000.0 -0.4370111562 0.4609948026
368200000.0 0.0010090169 0.5500255323
378150000.0 0.3250609815 0.3253715124
388100000.0 0.3749038853 -0.0107087284
398050000.0 0.1944313578 -0.2332243762
408000000.0 -0.0426247609 -0.24577181
417950000.0 -0.1798340927 -0.1070357033
427900000.0 -0.1696383707 0.0542718613
437850000.0 -0.0626490945 0.1375442237
447800000.0 0.0518519497 0.1177601461
457750000.0 0.1066507235 0.0342595323
467700000.0 0.0864097423 -0.0494281363
477650000.0 0.0243635478 -0.0863158892
487600000.0 -0.0303437258 -0.0688764799
497550000.0 -0.0348228796 -0.0866404123
507500000.0 -0.0616542156 0.0088243995
517450000.0 -0.0248748262 0.0198132082
527400000.0 -0.0046790856 0.0010362191
537350000.0 -0.015051403 -0.0230721009
547300000.0 -0.0476183836 -0.0257830878
557250000.0 -0.0742746139 0.0071596727
567200000.0 -0.0673943623 0.0585416919
577150000.0 -0.0184244814 0.0996796388
587100000.0 0.0558387134 0.0986643806
597050000.0 0.1216002756 0.0448801751
607000000.0 0.1419709447 -0.0465125467
616950000.0 0.1001570067 -0.137393671
626900000.0 0.007672925 -0.1863911452
636850000.0 -0.0986760349 -0.1683704285
646800000.0 -0.1721665729 -0.0868293927
656750000.0 -0.1807113203 0.0246600353
666700000.0 -0.1172860267 0.1177386811
676650000.0 -0.0089592022 0.1514752078
686600000.0 0.0943579026 0.1106230378
696550000.0 0.1465554072 0.0164213148
706500000.0 0.1246769015 -0.0819670458
716450000.0 0.0460305027 -0.1347852759
726400000.0 -0.0414632452 -0.1141729063
736350000.0 -0.0798356705 -0.0378901547
746300000.0 -0.0526914104 0.0363573718
756250000.0 0.0195236071 0.0758423156
766200000.0 0.1080117482 0.0526210347
776150000.0 0.1593882179 -0.0365713729
786100000.0 0.1282207649 -0.1484574874
796050000.0 0.0147687162 -0.215166255
806000000.0 -0.1326807124 -0.1838972576
815950000.0 -0.2364005363 -0.0479348931
825900000.0 -0.2290160899 0.1414261497
835850000.0 -0.0939407179 0.2960928823
845800000.0 0.1193237668 0.3350395351
855750000.0 0.3197555819 0.2286785318
865700000.0 0.4157375239 0.0121831121
875650000.0 0.3545706591 -0.2279076646
885600000.0 0.1479611948 -0.3870866485
895550000.0 -0.1260016296 -0.3827851289
905500000.0 -0.3462638382 -0.2016786249
915450000.0 -0.402706635 0.0860447941
925400000.0 -0.258935359 0.3454086477
935350000.0 0.0214877596 0.4477730419
945300000.0 0.3026095529 0.3333806854
955250000.0 0.4326774097 0.0467118908
965200000.0 0.3120960536 -0.2665335678
975150000.0 -0.0266663578 -0.4003900894
985100000.0 -0.3757410892 -0.209754187
995050000.0 -0.4497858365 0.2143569776
1005000000.0 -0.1387208964 0.5639996658
1014950000.0 0.3770207635 0.5321746409
1024900000.0 0.7046756492 0.0620952695
1034850000.0 0.5231015041 -0.5449396084
1044800000.0 -0.1094820918 -0.7932514135
1054750000.0 -0.7094054825 -0.4468204285
1064700000.0 -0.8202832532 0.2059622603
1074650000.0 -0.4729197696 0.7067906113
1084600000.0 0.1054909372 0.8347301549
1094550000.0 0.6256632323 0.5212105825
1104500000.0 0.7643008878 -0.0685320567
1114450000.0 0.4363562063 -0.5691808509
1124400000.0 -0.1281036566 -0.6642063794
1134350000.0 -0.5488009282 -0.3437164889
1144300000.0 -0.6082514859 0.1358037839
1154250000.0 -0.3364853623 0.4889125806
1164200000.0 0.0789685595 0.5487543315
1174150000.0 0.4088579713 0.3135651306
1184100000.0 0.4842494999 -0.0829889607
1194050000.0 0.2630581162 -0.4153361588
1204000000.0 -0.1135164938 -0.5013224981
1213950000.0 -0.4359900663 -0.3274340887
1223900000.0 -0.5714500222 -0.0034918784
1233850000.0 -0.4844486852 0.3282957784
1243800000.0 -0.2140541165 0.5440153817
1253750000.0 0.1406348608 0.5571351861
1263700000.0 0.4420643782 0.3498773939
1273650000.0 0.5624181128 -0.0028034961
1283600000.0 0.4527064004 -0.3573583759
1293550000.0 0.1691414545 -0.5793142078
1303500000.0 -0.1772725854 -0.6073646988
1313450000.0 -0.4751299386 -0.4501183781
1323400000.0 -0.6442405226 -0.1626728086
1333350000.0 -0.6358312971 0.1751644093
1343300000.0 -0.4403974062 0.4668891289
1353250000.0 -0.1033584344 0.6086579414
1363200000.0 0.2665342595 0.5355885575
1373150000.0 0.5332967967 0.2655395096
1383100000.0 0.6025546334 -0.0983388896
1393050000.0 0.4697446366 -0.4270714743
1403000000.0 0.1953495026 -0.6260503905
1412950000.0 -0.131392719 -0.6511670664
1422900000.0 -0.4204223434 -0.5049202729
1432850000.0 -0.5909957429 -0.2240211911
1442800000.0 -0.5839711249 0.1138044661
1452750000.0 -0.387546884 0.4004983612
1462700000.0 -0.0592247742 0.5317092001
1472650000.0 0.2817274755 0.4566598901
1482600000.0 0.5132992099 0.2125555877
1492550000.0 0.56703674 -0.1023238539
1502500000.0 0.4448658716 -0.3809153585
1512450000.0 0.1965250666 -0.5413256271
1522400000.0 -0.0984292432 -0.5358480799
1532350000.0 -0.3418589767 -0.3597152548
1542300000.0 -0.4387554304 -0.0679252558
1552250000.0 -0.3413869919 0.2265732882
1562200000.0 -0.0903808985 0.3977618327
1572150000.0 0.1991503396 0.3831724608
1582100000.0 0.4110481725 0.2069492903
1592050000.0 0.4715512999 -0.0511761782
1602000000.0 0.3669313948 -0.2904485721
1611950000.0 0.1354230769 -0.42101374
1621900000.0 -0.1383673337 -0.3843583128
1631850000.0 -0.3406319734 -0.17929245
1641800000.0 -0.3739410762 0.1152598366
1651750000.0 -0.2172531225 0.3687047144
1661700000.0 0.0580303086 0.4707408827
1671650000.0 0.3331043406 0.389389547
1681600000.0 0.5066556105 0.1666611643
1691550000.0 0.5236823932 -0.1189597846
1701500000.0 0.3718025109 -0.3727158252
1711450000.0 0.0892374008 -0.5021328014
1721400000.0 -0.2325400917 -0.4414486907
1731350000.0 -0.4642573875 -0.1957005777
1741300000.0 -0.5041215618 0.1408224562
1751250000.0 -0.3358176712 0.4223662423
1761200000.0 -0.0946089459 0.5110901225
1771150000.0 0.1541893119 0.571583397
1781100000.0 0.4344916714 0.437384719
1791050000.0 0.589836998 0.1691898388
1801000000.0 0.5771006016 -0.1475194103
1810950000.0 0.3891070691 -0.4173614897
1820900000.0 0.0727876585 -0.542164768
1830850000.0 -0.2624988755 -0.4678240118
1840800000.0 -0.4941443578 -0.2237480637
1850750000.0 -0.5514908711 0.0917531311
1860700000.0 -0.4408605028 0.3705740672
1870650000.0 -0.2175323159 0.5423888951
1880600000.0 0.0493245665 0.5757395852
1890550000.0 0.2906847055 0.4705686332
1900500000.0 0.4423201838 0.2548755673
1910450000.0 0.4543010268 -0.0108151363
1920400000.0 0.3181966343 -0.2374578052
1930350000.0 0.0879762581 -0.3451845917
1940300000.0 -0.1445478459 -0.3089100943
1950250000.0 -0.2980677364 -0.1720612103
1960200000.0 -0.3445272702 -0.0036231974
1970150000.0 -0.3001855075 0.1335529113
1980100000.0 -0.2076492477 0.2004832282
1990050000.0 -0.1236371076 0.1927109274
2000000000.0 -0.0948782028 0.1463097064
