!Created with skrf (http://scikit-rf.org).
# GHz S RI R 50.0 
!freq ReS11 ImS11
10000000.0 -0.7739437874 0.6792246567
19950000.0 -0.1406288207 0.9905197369
29900000.0 0.5348994446 0.8183658685
39850000.0 0.940805946 0.2466631174
49800000.0 0.8729810566 -0.4631757418
59750000.0 0.3326462759 -0.9591701192
69700000.0 -0.4238133865 -0.9441939245
79650000.0 -0.9585991095 -0.3799008895
89600000.0 -0.9140626245 0.4131187205
99550000.0 -0.2892588894 0.9263242469
109500000.0 0.528523791 0.7966947597
119450000.0 0.9710263971 0.0608146135
129400000.0 0.6353195542 -0.7711895562
139350000.0 -0.2456442781 -0.9913792683
149300000.0 -0.9260168411 -0.3739956225
159250000.0 -0.8101535506 0.5126719831
169200000.0 -0.0635190525 0.9357569127
179150000.0 0.7070854828 0.634624335
189100000.0 0.9728715989 -0.125891386
199050000.0 0.5895616953 -0.8122693892
209000000.0 -0.1563229828 -0.9869506506
218950000.0 -0.7760719748 -0.5834642327
228900000.0 -0.9295854375 0.1179741701
238850000.0 -0.5670512064 0.721914438
248800000.0 0.102286647 0.7135220376
258750000.0 0.6898949148 0.6338281023
268700000.0 0.9395130832 0.0041694234
278650000.0 0.7286623665 -0.5885071051
288600000.0 0.1598485144 -0.9220939887
298550000.0 -0.4865958965 -0.7557888504
308500000.0 -0.8307052896 -0.1935332674
318450000.0 -0.6888453138 0.4410070581
328400000.0 -0.1490194126 0.7841003555
338350000.0 0.4560108214 0.6321356925
348300000.0 0.7318624979 0.1034573256
358250000.0 0.5227689237 -0.4088082215
368200000.0 0.0461899349 -0.5562834192
378150000.0 -0.3170238582 -0.3135916311
388100000.0 -0.3490600087 0.0586016186
398050000.0 -0.1207704155 0.2716808031
408000000.0 0.1321022927 0.2269536105
417950000.0 0.2240901557 0.0384135326
427900000.0 0.1416196643 -0.114915896
437850000.0 -0.0045501834 -0.1360914573
447800000.0 -0.0958284907 -0.0481312422
457750000.0 -0.0849878723 0.0607004869
467700000.0 -0.006361289 0.1110746162
477650000.0 0.0676186319 0.0845469039
487600000.0 0.0844780373 0.0214152465
497550000.0 0.0473858485 0.0307662946
507500000.0 0.0281808121 -0.0453751912
517450000.0 -0.0050737502 -0.0164232844
527400000.0 0.0020834234 0.0082855306
537350000.0 0.0234397832 0.0023319508
547300000.0 0.0246427205 -0.032887268
557250000.0 -0.0180776551 -0.0606785082
567200000.0 -0.0788320272 -0.0445964447
577150000.0 -0.1158867095 0.0203422591
587100000.0 -0.0927112222 0.1035853116
597050000.0 -0.0080491414 0.1527714719
607000000.0 0.0988272582 0.1271826605
616950000.0 0.1667503582 0.027841892
626900000.0 0.1518836264 -0.0995351104
636850000.0 0.0535448098 -0.1899464901
646800000.0 -0.082278836 -0.1936807749
656750000.0 -0.1867211389 -0.1053462876
666700000.0 -0.2020561429 0.0299224551
676650000.0 -0.1188982439 0.1370131889
686600000.0 0.0167198551 0.1508834392
696550000.0 0.0987048464 0.0637208215
706500000.0 0.1221509435 -0.0290918964
716450000.0 0.0698807683 -0.1215732871
726400000.0 -0.0288148501 -0.1406547794
736350000.0 -0.099421527 -0.0785992226
746300000.0 -0.0898161915 0.0122387932
756250000.0 -0.0057132385 0.0580410061
766200000.0 0.0897941344 0.013119498
776150000.0 0.1161943804 -0.101404049
786100000.0 0.0377609434 -0.2073180053
796050000.0 -0.1111824743 -0.2203082586
806000000.0 -0.235445329 -0.10507215
815950000.0 -0.2391456741 0.0869580789
825900000.0 -0.090880778 0.2428480104
835850000.0 0.1445654563 0.2540921856
845800000.0 0.3388050056 0.0907020635
855750000.0 0.3739089435 -0.1753420066
865700000.0 0.2133131316 -0.4064521042
875650000.0 -0.0726321955 -0.4713855431
885600000.0 -0.3384362842 -0.3193956591
895550000.0 -0.4351759243 -0.0152759626
905500000.0 -0.294479564 0.2848979645
915450000.0 0.022583075 0.4125301773
925400000.0 0.349738238 0.2814896643
935350000.0 0.4821172824 -0.0518367593
945300000.0 0.3412502604 -0.3722818543
955250000.0 0.0070204012 -0.4947086467
965200000.0 -0.3175702886 -0.3230123304
975150000.0 -0.3995004164 0.0545080359
985100000.0 -0.1341061906 0.3718131026
995050000.0 0.3111416005 0.3352147194
1005000000.0 0.5421949394 -0.0922579369
1014950000.0 0.2879840598 -0.55647483
1024900000.0 -0.2902520286 -0.604511665
1034850000.0 -0.6948353513 -0.1087351707
1044800000.0 -0.4973933769 0.5687953872
1054750000.0 0.2287745109 0.7942678885
1064700000.0 0.7955781433 0.2949792319
1074650000.0 0.8005186161 -0.3755739617
1084600000.0 0.2698859036 -0.8461639054
1094550000.0 -0.4162706023 -0.744441988
1104500000.0 -0.7921857876 -0.1742837047
1114450000.0 -0.6039875508 0.4853122042
1124400000.0 0.0253941749 0.7445340051
1134350000.0 0.5815485067 0.410202819
1144300000.0 0.6419710099 -0.1825374763
1154250000.0 0.2588079242 -0.5612418055
1164200000.0 -0.2326393286 -0.5198071882
1174150000.0 -0.5086320163 -0.148058674
1184100000.0 -0.4157713612 0.2959319767
1194050000.0 -0.0135243863 0.5070609295
1204000000.0 0.3939462238 0.3291392748
1213950000.0 0.52109914 -0.0802876236
1223900000.0 0.3249726803 -0.4407110075
1233850000.0 -0.0523073369 -0.5661091597
1243800000.0 -0.4173651076 -0.4119031943
1253750000.0 -0.5962063591 -0.0502678981
1263700000.0 -0.4875479293 0.3517078858
1273650000.0 -0.1270562603 0.5824137249
1283600000.0 0.2994483684 0.5090748277
1293550000.0 0.5682982193 0.1752971561
1303500000.0 0.5613455742 -0.2394205996
1313450000.0 0.3157430506 -0.5529393899
1323400000.0 -0.0623365689 -0.6639238639
1333350000.0 -0.4380390938 -0.5319310358
1343300000.0 -0.667535472 -0.1922886845
1353250000.0 -0.639620186 0.2320303143
1363200000.0 -0.3403769763 0.5538187797
1373150000.0 0.1003671361 0.6107551068
1383100000.0 0.4725002688 0.3777274902
1393050000.0 0.6165719189 -0.0225788575
1403000000.0 0.4980295275 -0.4145006717
1412950000.0 0.1834412352 -0.6550607173
1422900000.0 -0.2051455696 -0.6684398632
1432850000.0 -0.5265118701 -0.4516482134
1442800000.0 -0.6570591981 -0.0830522496
1452750000.0 -0.5361836136 0.2930641286
1462700000.0 -0.2039637294 0.5165236093
1472650000.0 0.1983158262 0.4830898071
1482600000.0 0.4873450433 0.208064264
1492550000.0 0.5377747391 -0.1759315038
1502500000.0 0.3451693738 -0.496995923
1512450000.0 0.0059384772 -0.6276259307
1522400000.0 -0.3338158154 -0.5236229048
1532350000.0 -0.5319132349 -0.2310618119
1542300000.0 -0.4969018463 0.1228297681
1552250000.0 -0.2387896586 0.370010672
1562200000.0 0.1144376843 0.3830772397
1572150000.0 0.3773176576 0.1585204948
1582100000.0 0.4174140644 -0.1750397849
1592050000.0 0.2289999076 -0.4373772029
1602000000.0 -0.0779110367 -0.5013668192
1611950000.0 -0.3464736516 -0.3426978302
1621900000.0 -0.4420135388 -0.0420853233
1631850000.0 -0.3087553602 0.2503665828
1641800000.0 -0.0046112766 0.3769245869
1651750000.0 0.3119508026 0.2565128376
1661700000.0 0.4593391595 -0.0522698294
1671650000.0 0.352910046 -0.3774706252
1681600000.0 0.0558494493 -0.5467033398
1691550000.0 -0.2815089765 -0.4817422369
1701500000.0 -0.5042748596 -0.2153802063
1711450000.0 -0.5127555994 0.1407357193
1721400000.0 -0.287620866 0.4358854399
1731350000.0 0.0870999572 0.5244196061
1741300000.0 0.4396793785 0.3440855967
1751250000.0 0.5895279472 -0.0276499313
1761200000.0 0.4650635338 -0.4051192727
1771150000.0 0.1392052659 -0.6159885393
1781100000.0 -0.2380299174 -0.5880704038
1791050000.0 -0.5247219491 -0.3471453551
1801000000.0 -0.6147642244 0.0247582666
1810950000.0 -0.4053192736 0.3421633907
1820900000.0 -0.2182102463 0.5376464039
1830850000.0 0.1913661737 0.5557660727
1840800000.0 0.504827058 0.2915754204
1850750000.0 0.5709659062 -0.1043899464
1860700000.0 0.3840116759 -0.4379023581
1870650000.0 0.0544557141 -0.5852171532
1880600000.0 -0.2815670229 -0.5228689408
1890550000.0 -0.5167585144 -0.2950199292
1900500000.0 -0.5845481366 0.01741239
1910450000.0 -0.462000783 0.3116926086
1920400000.0 -0.1872455619 0.4758962016
1930350000.0 0.1253678769 0.4350608149
1940300000.0 0.3321586515 0.2131348328
1950250000.0 0.3496297451 -0.0703274071
1960200000.0 0.2060453491 -0.2827133202
1970150000.0 -0.0059380456 -0.3569897368
1980100000.0 -0.1904317817 -0.2999518547
1990050000.0 -0.2870422032 -0.1705733246
2000000000.0 -0.2866102015 -0.0458770198
