!Created with skrf (http://scikit-rf.org).
# GHz S RI R 50.0 
!freq ReS11 ImS11
10000000.0 -1.000733802 0.1583454992
19950000.0 -0.9479086782 0.3028839501
29900000.0 -0.8737369192 0.4421270396
39850000.0 -0.7775676466 0.5806453301
49800000.0 -0.6611779146 0.713327064
59750000.0 -0.519005908 0.834040126
69700000.0 -0.3427394382 0.9312318193
79650000.0 -0.1278591259 0.9854220637
89600000.0 0.1256803729 0.978092642
99550000.0 0.4041660193 0.886578049
109500000.0 0.6811509994 0.6944174652
119450000.0 0.9078163781 0.3873830858
129400000.0 0.9942203133 -0.0272967657
139350000.0 0.9261400894 -0.4378597546
149300000.0 0.6607371083 -0.772787121
159250000.0 0.300092504 -0.9499446225
169200000.0 -0.0622927082 -0.9798245534
179150000.0 -0.3733339816 -0.9056389345
189100000.0 -0.6149299713 -0.7696322163
199050000.0 -0.7836668955 -0.6010501396
209000000.0 -0.884044079 -0.417885153
218950000.0 -0.9329186188 -0.2351951189
228900000.0 -0.942563611 -0.0601160648
238850000.0 -0.9255858527 0.1062495792
248800000.0 -0.8768723281 0.2376534604
258750000.0 -0.8421642013 0.4028884726
268700000.0 -0.7722435521 0.5342697796
278650000.0 -0.6789431457 0.6459989194
288600000.0 -0.5606814941 0.733876126
298550000.0 -0.4199971589 0.7955522353
308500000.0 -0.2604876386 0.8323340128
318450000.0 -0.0862037174 0.8398262878
328400000.0 0.0959211072 0.8106054282
338350000.0 0.2692844254 0.7332062037
348300000.0 0.4106927326 0.5996384827
358250000.0 0.4911951989 0.4184007911
368200000.0 0.4940700386 0.2193682715
378150000.0 0.4260030607 0.0411721408
388100000.0 0.3127938274 -0.0881266239
398050000.0 0.1858350243 -0.1565187677
408000000.0 0.0720872236 -0.1680661092
417950000.0 -0.0148040362 -0.1379738668
427900000.0 -0.0725364434 -0.0845462873
437850000.0 -0.1052652177 -0.0229359028
447800000.0 -0.1187825254 0.0344025035
457750000.0 -0.1173278703 0.0795452042
467700000.0 -0.1048435933 0.1082149218
477650000.0 -0.0835688836 0.1196979878
487600000.0 -0.0555933404 0.1170184358
497550000.0 -0.0303916038 0.097776169
507500000.0 0.0010078593 0.0885762975
517450000.0 0.0240272164 0.0683448695
527400000.0 0.0363646036 0.0480421296
537350000.0 0.0344613237 0.0280988337
547300000.0 0.0212610765 0.0088455878
557250000.0 -0.0041026424 -0.0116363106
567200000.0 -0.0365942705 -0.0298683692
577150000.0 -0.0760213847 -0.0426829032
587100000.0 -0.0916459813 -0.0428702199
597050000.0 -0.1148529236 -0.0445375693
607000000.0 -0.1316726183 -0.0318085322
616950000.0 -0.1434840142 -0.0083841122
626900000.0 -0.1511903799 0.0230460672
636850000.0 -0.1558523301 0.0574338692
646800000.0 -0.1563955546 0.0907193223
656750000.0 -0.1515963303 0.1187949902
666700000.0 -0.1390761193 0.1386709311
676650000.0 -0.1165863507 0.1503907352
686600000.0 -0.0847429484 0.1550811974
696550000.0 -0.0460243946 0.1545307625
706500000.0 -0.0038556448 0.1487185412
716450000.0 0.0370948084 0.1383237434
726400000.0 0.0709044359 0.1203805304
736350000.0 0.0950134991 0.0927297165
746300000.0 0.1063916445 0.0545857244
756250000.0 0.1057712754 0.0053978595
766200000.0 0.0935970911 -0.0503803641
776150000.0 0.0720310877 -0.1080631669
786100000.0 0.0411728677 -0.160313999
796050000.0 0.0007864013 -0.2012309287
806000000.0 -0.0482816756 -0.2247661574
815950000.0 -0.1066785709 -0.2282466265
825900000.0 -0.171746994 -0.2129132978
835850000.0 -0.2394167041 -0.1814737435
845800000.0 -0.3041191197 -0.1378788809
855750000.0 -0.3600067189 -0.0846023016
865700000.0 -0.3996192757 -0.0235623898
875650000.0 -0.4182587054 0.0457495637
885600000.0 -0.4123113762 0.1214071895
895550000.0 -0.3825597362 0.202419548
905500000.0 -0.3306840706 0.2861445121
915450000.0 -0.2597340304 0.3670377806
925400000.0 -0.1702055384 0.4361743061
935350000.0 -0.062289428 0.4834615173
945300000.0 0.0624904178 0.4958512675
955250000.0 0.2007195349 0.4619801141
965200000.0 0.3438614967 0.3708451604
975150000.0 0.4748764487 0.2159100029
985100000.0 0.5626464834 -0.0066602843
995050000.0 0.5569279283 -0.2850740286
1005000000.0 0.3895639963 -0.5508358407
1014950000.0 0.0531333849 -0.6324269975
1024900000.0 -0.1700048685 -0.4144036572
1034850000.0 -0.0974423614 -0.4452573254
1044800000.0 -0.301543066 -0.5710734618
1054750000.0 -0.6104764273 -0.4754995089
1064700000.0 -0.8019674336 -0.2201342505
1074650000.0 -0.8604431627 0.0656018456
1084600000.0 -0.7560719913 0.3510567145
1094550000.0 -0.6394066839 0.5474383724
1104500000.0 -0.3957182676 0.7341725425
1114450000.0 -0.1165997402 0.8128136305
1124400000.0 0.1604951093 0.7878451666
1134350000.0 0.3963866298 0.665915825
1144300000.0 0.5611481356 0.4705831041
1154250000.0 0.6429828711 0.2428638409
1164200000.0 0.6557069752 0.0205420831
1174150000.0 0.6211715404 -0.1845689193
1184100000.0 0.5407496224 -0.3590332656
1194050000.0 0.4279629544 -0.4899555365
1204000000.0 0.2950524977 -0.5733215514
1213950000.0 0.1548871727 -0.6141436583
1223900000.0 0.017230515 -0.6231730332
1233850000.0 -0.1112516091 -0.6122009086
1243800000.0 -0.226998842 -0.5884181235
1253750000.0 -0.3284585361 -0.5548079012
1263700000.0 -0.4129718781 -0.5106727713
1273650000.0 -0.4816249594 -0.4571973185
1283600000.0 -0.5322406722 -0.3923011689
1293550000.0 -0.5697447373 -0.3190790763
1303500000.0 -0.5988968528 -0.2410510945
1313450000.0 -0.6228793097 -0.1623316516
1323400000.0 -0.6438735797 -0.0865156535
1333350000.0 -0.6604964795 -0.0148901456
1343300000.0 -0.6687413077 0.0513304298
1353250000.0 -0.6679125465 0.1127764304
1363200000.0 -0.6532182744 0.1730547339
1373150000.0 -0.6226338937 0.2322949148
1383100000.0 -0.58230614 0.290982061
1393050000.0 -0.5365929525 0.3500761407
1403000000.0 -0.4893024313 0.4074286173
1412950000.0 -0.4417746118 0.4611709568
1422900000.0 -0.3929774044 0.5077642522
1432850000.0 -0.3413608661 0.5433405805
1442800000.0 -0.2840700498 0.5673364238
1452750000.0 -0.2198232522 0.5796692894
1462700000.0 -0.1464843884 0.5828791346
1472650000.0 -0.0656908913 0.5805052228
1482600000.0 0.0189742088 0.5740088685
1492550000.0 0.1036972823 0.5617249271
1502500000.0 0.1850457889 0.5400369275
1512450000.0 0.2589795625 0.5051293565
1522400000.0 0.3228032402 0.4533477009
1532350000.0 0.3750982643 0.3831058226
1542300000.0 0.4171441635 0.2969302628
1552250000.0 0.4496422184 0.1994827042
1562200000.0 0.4728132241 0.0981875098
1572150000.0 0.4856697295 -0.0017495176
1582100000.0 0.4850699875 -0.0991742377
1592050000.0 0.465718475 -0.1906142325
1602000000.0 0.4243120762 -0.2736600627
1611950000.0 0.3634276779 -0.3463955188
1621900000.0 0.2878972148 -0.4106369551
1631850000.0 0.2042760979 -0.4674330929
1641800000.0 0.1168802215 -0.5163212246
1651750000.0 0.02922926 -0.5540952034
1661700000.0 -0.0555723337 -0.5767081144
1671650000.0 -0.1362329538 -0.5813797593
1681600000.0 -0.2121544172 -0.5670939117
1691550000.0 -0.2845956512 -0.5385448591
1701500000.0 -0.3542522599 -0.4992240153
1711450000.0 -0.421013258 -0.4560884189
1721400000.0 -0.4840822232 -0.4112297193
1731350000.0 -0.5412470428 -0.368181395
1741300000.0 -0.5886411643 -0.3233002329
1751250000.0 -0.6220748253 -0.2746617304
1761200000.0 -0.6424356591 -0.2213768933
1771150000.0 -0.6510305465 -0.1626381144
1781100000.0 -0.6530810312 -0.0996931338
1791050000.0 -0.6527747259 -0.035019598
1801000000.0 -0.6522799885 0.0293006029
1810950000.0 -0.6498209748 0.0954435222
1820900000.0 -0.6279320136 0.1636500328
1830850000.0 -0.5265432796 0.1007388073
1840800000.0 -0.6386789626 0.1275223578
1850750000.0 -0.637926899 0.1970687952
1860700000.0 -0.6041284878 0.2474753392
1870650000.0 -0.5616026382 0.290941322
1880600000.0 -0.5177680087 0.3295908307
1890550000.0 -0.4774000424 0.3649096007
1900500000.0 -0.4419728913 0.3947310768
1910450000.0 -0.4092814303 0.4166952653
1920400000.0 -0.3758516226 0.4292075915
1930350000.0 -0.3381514232 0.4301837549
1940300000.0 -0.2950389061 0.4205250189
1950250000.0 -0.2460343879 0.4017744955
1960200000.0 -0.193882968 0.3780159728
1970150000.0 -0.1453919643 0.3499506776
1980100000.0 -0.1042372053 0.3174616232
1990050000.0 -0.0768436411 0.2770868224
2000000000.0 -0.0657595318 0.2254580665
