!Created with skrf (http://scikit-rf.org).
# GHz S RI R 50.0 
!freq ReS11 ImS11
10000000.0 -0.8458076927 0.0612298413
14975000.0 -0.8480863163 0.0937801977
19950000.0 -0.8500821892 0.1283358323
24925000.0 -0.8507953063 0.1652971863
29900000.0 -0.8496155971 0.2040468154
34875000.0 -0.8448019024 0.2451780325
39850000.0 -0.8362522981 0.2884404566
44825000.0 -0.8235622008 0.3334668406
49800000.0 -0.8070690506 0.3801115065
54775000.0 -0.786254973 0.4280962847
59750000.0 -0.761075948 0.4772809674
64725000.0 -0.7316433915 0.5273210068
69700000.0 -0.697280619 0.5781463225
74675000.0 -0.6577521285 0.6297044376
79650000.0 -0.612446838 0.681771076
84625000.0 -0.5606782004 0.7342874585
89600000.0 -0.501317904 0.7866864285
94575000.0 -0.432748415 0.8379496054
99550000.0 -0.3533737964 0.886337001
104525000.0 -0.2616992898 0.9291130086
109500000.0 -0.1571633747 0.9623471302
114475000.0 -0.0403116777 0.9820842866
119450000.0 0.0862146333 0.9846253943
124425000.0 0.2185420742 0.9668972748
129400000.0 0.3425628877 0.9254688545
134375000.0 0.4784680898 0.8666269268
139350000.0 0.597766049 0.7835604329
144325000.0 0.7026307626 0.681834922
149300000.0 0.7894482987 0.5653707817
154275000.0 0.8555732694 0.4393239351
159250000.0 0.900202169 0.3088166728
164225000.0 0.9233291492 0.1790671652
169200000.0 0.9270070869 0.0541053445
174175000.0 0.9137505909 -0.0625206863
179150000.0 0.8875125354 -0.1682483539
184125000.0 0.8523993891 -0.2622593541
189100000.0 0.8124676121 -0.344982333
194075000.0 0.7699136987 -0.4178809345
199050000.0 0.7267177912 -0.4821417871
204025000.0 0.6830522596 -0.539453788
209000000.0 0.6392074088 -0.5908391932
213975000.0 0.5945601329 -0.6374427863
218950000.0 0.5486025283 -0.679190983
223925000.0 0.5015955298 -0.716699235
228900000.0 0.452952504 -0.7498458614
233875000.0 0.4027945612 -0.778739545
238850000.0 0.3497319131 -0.8037759061
243825000.0 0.2885839098 -0.8249076162
248800000.0 0.1686258881 -0.6761768564
253775000.0 0.2343319352 -0.8377474058
258750000.0 0.1758307237 -0.8524049937
263725000.0 0.1249549675 -0.8596470475
268700000.0 0.0771945207 -0.863137586
273675000.0 0.0313373144 -0.8640817325
278650000.0 -0.0138798216 -0.8628505887
283625000.0 -0.0583752838 -0.8592845522
288600000.0 -0.1029120356 -0.8536826078
293575000.0 -0.1485193664 -0.8459325474
298550000.0 -0.1956757346 -0.8344027716
303525000.0 -0.2442247834 -0.8193927893
308500000.0 -0.2941278003 -0.7992943434
313475000.0 -0.3445593026 -0.7729832407
318450000.0 -0.39428393 -0.7393195003
323425000.0 -0.4419801289 -0.6986893336
328400000.0 -0.4864969802 -0.6507124851
333375000.0 -0.5268899569 -0.5956024383
338350000.0 -0.5614047751 -0.5343802527
343325000.0 -0.5877699016 -0.4679654102
348300000.0 -0.6058366872 -0.3964821152
353275000.0 -0.6141876255 -0.3235670648
358250000.0 -0.6111879803 -0.2502686428
363225000.0 -0.5987920285 -0.1769213472
368200000.0 -0.5780078346 -0.1086029303
373175000.0 -0.5478254455 -0.0461338572
378150000.0 -0.5099445468 0.0103176351
383125000.0 -0.4668804157 0.0584014101
388100000.0 -0.4198338835 0.0967657034
393075000.0 -0.3706082468 0.1278027649
398050000.0 -0.3213746231 0.150725683
403025000.0 -0.2730418747 0.1645697512
408000000.0 -0.2262775062 0.1723205409
412975000.0 -0.1831138262 0.1756984524
417950000.0 -0.1433196776 0.1732899012
422925000.0 -0.1069749789 0.1662808214
427900000.0 -0.0756768238 0.1566599557
432875000.0 -0.0485152336 0.1438433187
437850000.0 -0.0240605433 0.1289416344
442825000.0 -0.0041221379 0.1137246142
447800000.0 0.0105711722 0.0979717805
452775000.0 0.0225726914 0.0819574743
457750000.0 0.0311868448 0.0664189399
462725000.0 0.0358683205 0.0507854309
467700000.0 0.0382992793 0.0361530731
472675000.0 0.0388561454 0.0229650839
477650000.0 0.037079489 0.0102761709
482625000.0 0.0331471091 -0.0008183895
487600000.0 0.0248466721 -0.0095238456
492575000.0 0.0052647909 -0.0124088881
497550000.0 0.0500615991 0.0269187039
502525000.0 0.0378371826 -0.018249798
507500000.0 0.024764613 -0.0271137483
512475000.0 0.0150463504 -0.0315103243
517450000.0 0.0061667329 -0.0343323555
522425000.0 -0.0029202652 -0.0360577812
527400000.0 -0.011395836 -0.0360216292
532375000.0 -0.019713847 -0.0349337975
537350000.0 -0.0277036512 -0.0337427319
542325000.0 -0.0368477966 -0.0313976609
547300000.0 -0.0466145486 -0.0264380081
552275000.0 -0.0536915636 -0.0203551612
557250000.0 -0.0598324962 -0.0142397983
562225000.0 -0.0665065994 -0.007905832
567200000.0 -0.0723170652 -0.0009826219
572175000.0 -0.076492426 0.0067850321
577150000.0 -0.0805705118 0.0153127787
582125000.0 -0.084181864 0.0241945544
587100000.0 -0.0866748759 0.0338445717
592075000.0 -0.0883092278 0.0438502543
597050000.0 -0.0891826148 0.0528794344
602025000.0 -0.0888797355 0.0622153233
607000000.0 -0.0878767181 0.0715918768
611975000.0 -0.0854268859 0.0802506819
616950000.0 -0.0818315794 0.088668219
621925000.0 -0.0779609724 0.0965403311
626900000.0 -0.073260917 0.1037317682
631875000.0 -0.0673421727 0.109861339
636850000.0 -0.0608740377 0.1149963056
641825000.0 -0.0537607502 0.1197199282
646800000.0 -0.0464818721 0.1241472054
651775000.0 -0.0386108997 0.1272484141
656750000.0 -0.0298239867 0.1299198972
661725000.0 -0.0211247743 0.1329348076
666700000.0 -0.0127144385 0.1353950399
671675000.0 -0.0037905191 0.1367492391
676650000.0 0.0055703188 0.1376487599
681625000.0 0.0152063951 0.1374144797
686600000.0 0.0258156672 0.136584749
691575000.0 0.0370483548 0.13547028
696550000.0 0.0483386961 0.1329245649
701525000.0 0.0595301269 0.1288910286
706500000.0 0.0713428671 0.1233387311
711475000.0 0.083333655 0.1163124411
716450000.0 0.095268601 0.1077528732
721425000.0 0.1072594843 0.0972834817
726400000.0 0.1193504159 0.0857462385
731375000.0 0.1306412085 0.0731401377
736350000.0 0.141405222 0.0590753238
741325000.0 0.1516815128 0.0434521943
746300000.0 0.1613884885 0.0272538188
751275000.0 0.169707576 0.009863631
756250000.0 0.1765195796 -0.0080859958
761225000.0 0.1820372378 -0.0273176725
766200000.0 0.186475397 -0.047069179
771175000.0 0.1892649859 -0.0670486843
776150000.0 0.1903518568 -0.087012393
781125000.0 0.1893906843 -0.1076110008
786100000.0 0.186886182 -0.1286202208
791075000.0 0.1829578606 -0.1491190807
796050000.0 0.1772489964 -0.169775613
801025000.0 0.1702355118 -0.1904408971
806000000.0 0.1616076783 -0.2096375369
810975000.0 0.1512411662 -0.2280852671
815950000.0 0.1395160532 -0.2461723171
820925000.0 0.1267698943 -0.2632719991
825900000.0 0.1132987065 -0.2791226947
830875000.0 0.0991341452 -0.2932405374
835850000.0 0.0839856492 -0.3061384263
840825000.0 0.0684531885 -0.3181932592
845800000.0 0.0529361121 -0.328456389
850775000.0 0.0366573497 -0.3375313759
855750000.0 0.0197065753 -0.3463182729
860725000.0 0.0019601662 -0.3538313538
865700000.0 -0.0165372442 -0.3608771127
870675000.0 -0.0360993104 -0.366928694
875650000.0 -0.0567722908 -0.3714461938
880625000.0 -0.0795355438 -0.373897759
885600000.0 -0.1034201831 -0.3743049144
890575000.0 -0.1280563737 -0.3724752754
895550000.0 -0.1535430744 -0.3682530646
900525000.0 -0.1793208606 -0.3609343191
905500000.0 -0.2054397361 -0.3506898507
910475000.0 -0.231465482 -0.3368925983
915450000.0 -0.2572433952 -0.319450541
920425000.0 -0.2824438979 -0.2987822951
925400000.0 -0.3066920162 -0.2741056698
930375000.0 -0.329769291 -0.2454707132
935350000.0 -0.3513118108 -0.2129344415
940325000.0 -0.3713939648 -0.1764704585
945300000.0 -0.3898603099 -0.1351298711
950275000.0 -0.4048972895 -0.0893371332
955250000.0 -0.4166862118 -0.0384277325
960225000.0 -0.4241869998 0.0185254341
965200000.0 -0.4251472365 0.0811263847
970175000.0 -0.4179216043 0.1487224868
975150000.0 -0.4007639423 0.2204086756
980125000.0 -0.3713808599 0.2945248891
985100000.0 -0.328219756 0.3687303541
990075000.0 -0.2702057471 0.4396465622
995050000.0 -0.1973652013 0.5038372556
1000025000.0 -0.1105626215 0.557831471
1005000000.0 -0.0113941262 0.5970570675
1009975000.0 0.0967856433 0.6179386441
1014950000.0 0.2102487162 0.6174741105
1019925000.0 0.3228015124 0.5945623217
1024900000.0 0.4298512361 0.5504761457
1029875000.0 0.5256647109 0.4873993308
1034850000.0 0.6068036655 0.4080961224
1039825000.0 0.6713241899 0.316606995
1044800000.0 0.7184122285 0.2166678457
1049775000.0 0.7469714943 0.1108925363
1054750000.0 0.7539034664 0.0024988984
1059725000.0 0.7310627676 -0.0968973251
1064700000.0 0.7021024141 -0.1498274196
1069675000.0 0.7138822949 -0.2151604723
1074650000.0 0.7018238548 -0.3077966381
1079625000.0 0.6655284604 -0.3911370326
1084600000.0 0.6281767354 -0.4666304572
1089575000.0 0.5706503687 -0.545932877
1094550000.0 0.4986724384 -0.6088335471
1099525000.0 0.4201285581 -0.6572312255
1104500000.0 0.3375101922 -0.691806599
1109475000.0 0.2527518625 -0.7135005504
1114450000.0 0.1685005241 -0.722113533
1119425000.0 0.0870378496 -0.7201814922
1124400000.0 0.0107094401 -0.7092271409
1129375000.0 -0.0605929349 -0.6931787534
1134350000.0 -0.1305050343 -0.6740401972
1139325000.0 -0.2012058341 -0.6481352193
1144300000.0 -0.2701549759 -0.6123996269
1149275000.0 -0.3336032261 -0.5670761592
1154250000.0 -0.3901395146 -0.5140916589
1159225000.0 -0.4371550821 -0.4558893677
1164200000.0 -0.4746392166 -0.3951861555
1169175000.0 -0.5041936274 -0.3353237331
1174150000.0 -0.5278286651 -0.27534474
1179125000.0 -0.5460176784 -0.2154923234
1184100000.0 -0.5586672789 -0.1567681564
1189075000.0 -0.5656566595 -0.0998031049
1194050000.0 -0.5681144328 -0.0452424873
1199025000.0 -0.5653678404 0.0058989778
1204000000.0 -0.5592970796 0.053363052
1208975000.0 -0.5508041034 0.0969985859
1213950000.0 -0.5399865325 0.136986514
1218925000.0 -0.528079113 0.1729646026
1223900000.0 -0.5159214486 0.2048728728
1228875000.0 -0.5032230671 0.2340147794
1233850000.0 -0.4917961288 0.2609793697
1238825000.0 -0.4805939827 0.2849614917
1243800000.0 -0.4689318698 0.3076528599
1248775000.0 -0.4585556862 0.3296731342
1253750000.0 -0.4476749832 0.3507779126
1258725000.0 -0.4360349204 0.3706710313
1263700000.0 -0.4248569965 0.3900202011
1268675000.0 -0.4134195916 0.407756767
1273650000.0 -0.4015775059 0.4249940216
1278625000.0 -0.389699811 0.4403883342
1283600000.0 -0.3774052578 0.4537735969
1288575000.0 -0.3653585454 0.4661000666
1293550000.0 -0.3532333124 0.4768683966
1298525000.0 -0.3410734224 0.4853712316
1303500000.0 -0.3296270429 0.4926269757
1308475000.0 -0.3197736653 0.4976849819
1313450000.0 -0.3103133925 0.5008452074
1318425000.0 -0.3028314536 0.5025244103
1323400000.0 -0.2979234709 0.503322084
1328375000.0 -0.2951369479 0.5038291672
1333350000.0 -0.2952000267 0.505309765
1338325000.0 -0.2964391342 0.5080743897
1343300000.0 -0.2980536095 0.5129732664
1348275000.0 -0.2993030141 0.5196906743
1353250000.0 -0.2989588476 0.527763278
1358225000.0 -0.29662131 0.5367180557
1363200000.0 -0.2925488833 0.5455085178
1368175000.0 -0.2869066204 0.5537354532
1373150000.0 -0.279828493 0.561626348
1378125000.0 -0.2719298224 0.5683818575
1383100000.0 -0.2626206778 0.5740880498
1388075000.0 -0.2532838976 0.5784854305
1393050000.0 -0.2432734337 0.5817433646
1398025000.0 -0.2325300905 0.5828948421
1403000000.0 -0.2212239723 0.5826699371
1407975000.0 -0.211440184 0.5813239417
1412950000.0 -0.2018262566 0.5780024349
1417925000.0 -0.193631226 0.5734049951
1422900000.0 -0.1878042104 0.56800141
1427875000.0 -0.1848501617 0.5621081807
1432850000.0 -0.1843603038 0.5574411152
1437825000.0 -0.185642079 0.5544865575
1442800000.0 -0.1884049442 0.5535302163
1447775000.0 -0.190006725 0.55430613
1452750000.0 -0.1901663601 0.557460835
1457725000.0 -0.1884713391 0.5622388558
1462700000.0 -0.1839000202 0.5671437686
1467675000.0 -0.1766763854 0.5714662555
1472650000.0 -0.1679432029 0.5772119792
1477625000.0 -0.1580395586 0.5808806143
1482600000.0 -0.144475468 0.5836485451
1487575000.0 -0.1312560897 0.5858128882
1492550000.0 -0.1175085233 0.5854809313
1497525000.0 -0.1015603309 0.5850905219
1502500000.0 -0.0851475027 0.5839449404
1507475000.0 -0.0688388769 0.5806438414
1512450000.0 -0.0527822014 0.578024075
1517425000.0 -0.0371603371 0.5746606193
1522400000.0 -0.0214400689 0.5690968062
1527375000.0 -0.0070823897 0.5639441073
1532350000.0 0.0055213152 0.5587275375
1537325000.0 0.0198748198 0.552012336
1542300000.0 0.0340125099 0.5466411129
1547275000.0 0.0466513007 0.5397736053
1552250000.0 0.0618128863 0.5337858747
1557225000.0 0.0777714052 0.5272353817
1562200000.0 0.093621332 0.5188013191
1567175000.0 0.1104979067 0.5096512728
1572150000.0 0.1274484624 0.5011418457
1577125000.0 0.1447419206 0.4898307513
1582100000.0 0.1633944003 0.4777143379
1587075000.0 0.1805789147 0.4663066616
1592050000.0 0.1986518101 0.4533478084
1597025000.0 0.2172345459 0.4404646627
1602000000.0 0.2357906764 0.4274335791
1606975000.0 0.2538118911 0.4139741613
1611950000.0 0.2720839751 0.4001182599
1616925000.0 0.289834731 0.3855604069
1621900000.0 0.3079331844 0.3707141226
1626875000.0 0.3238192344 0.3552820573
1631850000.0 0.3408174452 0.3383259612
1636825000.0 0.3570309304 0.322902913
1641800000.0 0.37169864 0.305735398
1646775000.0 0.3870268745 0.287657049
1651750000.0 0.4016034966 0.2708339887
1656725000.0 0.4147387761 0.2525487369
1661700000.0 0.4281416364 0.2341363219
1666675000.0 0.4397435083 0.2164465653
1671650000.0 0.4502915939 0.1983449238
1676625000.0 0.4614421758 0.180422344
1681600000.0 0.4700136803 0.1637098812
1686575000.0 0.4770023581 0.1464500893
1691550000.0 0.4838190599 0.130046057
1696525000.0 0.4895066995 0.1148925318
1701500000.0 0.4928327844 0.1001603354
1706475000.0 0.4953383647 0.0861489337
1711450000.0 0.4973856798 0.0732862559
1716425000.0 0.4979657463 0.0621467057
1721400000.0 0.4982379737 0.0512789186
1726375000.0 0.4999131704 0.0415538594
1731350000.0 0.5022313722 0.0332400539
1736325000.0 0.5048889791 0.0243794072
1741300000.0 0.5094093463 0.0148507358
1746275000.0 0.5149070246 0.006018631
1751250000.0 0.5193813359 -0.0038416092
1756225000.0 0.5248864721 -0.013895669
1761200000.0 0.5289166327 -0.0236516332
1766175000.0 0.5321826238 -0.0339586872
1771150000.0 0.5345825479 -0.0436766484
1776125000.0 0.5352115541 -0.0524947976
1781100000.0 0.535366315 -0.0614917578
1786075000.0 0.5337546576 -0.0695270451
1791050000.0 0.5298303193 -0.0761874118
1796025000.0 0.5252418967 -0.0820939517
1801000000.0 0.5192236574 -0.0857434309
1805975000.0 0.5121873003 -0.0882575379
1810950000.0 0.5059129051 -0.0894393417
1815925000.0 0.4994074719 -0.0886408455
1820900000.0 0.4936913238 -0.0882477453
1825875000.0 0.487836513 -0.0874119995
1830850000.0 0.4796218826 -0.0838294746
1835825000.0 0.4719724893 -0.0757707092
1840800000.0 0.4704064504 -0.0628009136
1845775000.0 0.4750177164 -0.0484356049
1850750000.0 0.4855838778 -0.0369645149
1855725000.0 0.4984354954 -0.0334457093
1860700000.0 0.5072412618 -0.0375285977
1865675000.0 0.5096954672 -0.0449548292
1870650000.0 0.5053550293 -0.0516614275
1875625000.0 0.4971987042 -0.0535909962
1880600000.0 0.4906835695 -0.0520207561
1885575000.0 0.4844690086 -0.0521155826
1890550000.0 0.4755635997 -0.0536554453
1895525000.0 0.4649355262 -0.054296258
1900500000.0 0.4533636823 -0.0540411294
1905475000.0 0.4403450875 -0.0529130481
1910450000.0 0.4274497379 -0.0502850135
1915425000.0 0.4159462503 -0.0466894807
1920400000.0 0.4056998207 -0.0425133342
1925375000.0 0.3968988589 -0.0380235933
1930350000.0 0.3890282415 -0.0344261901
1935325000.0 0.3807662538 -0.0316035464
1940300000.0 0.372228708 -0.0296624908
1945275000.0 0.3620649425 -0.0289916798
1950250000.0 0.3497825987 -0.0275430518
1955225000.0 0.3358462159 -0.0263180589
1960200000.0 0.3195221473 -0.0257277778
1965175000.0 0.3002695355 -0.0230308835
1970150000.0 0.2797424018 -0.0209877865
1975125000.0 0.2557348782 -0.0181949902
1980100000.0 0.2299420368 -0.0136215645
1985075000.0 0.2022538881 -0.0096289892
1990050000.0 0.1705130991 -0.0038176989
1995025000.0 0.1379467598 0.0046999478
2000000000.0 0.1022560663 0.0127159881
