!Created with skrf (http://scikit-rf.org).
# GHz S RI R 50.0 
!freq ReS11 ImS11
10000000.0 -0.7616824737 0.6786649896
19950000.0 -0.1235794644 0.9873834167
29900000.0 0.5571476726 0.801995586
39850000.0 0.9518818124 0.2068426144
49800000.0 0.8451969547 -0.5129388158
59750000.0 0.2625893304 -0.9766574448
69700000.0 -0.4957024116 -0.8973327383
79650000.0 -0.977003756 -0.2853941919
89600000.0 -0.85635716 0.5010779663
99550000.0 -0.1720133767 0.9488546089
109500000.0 0.6419419686 0.70702069
119450000.0 0.9655345656 -0.1201903779
129400000.0 0.4570571574 -0.8893658371
139350000.0 -0.4777033074 -0.8839902423
149300000.0 -0.971863832 -0.1083606388
159250000.0 -0.6250803611 0.7087510219
169200000.0 0.2057919458 0.9107929954
179150000.0 0.8603003656 0.4024977788
189100000.0 0.8888241747 -0.4024706503
199050000.0 0.3190958563 -0.9348799094
209000000.0 -0.4296341066 -0.8766931961
218950000.0 -0.8921533472 -0.3255647697
228900000.0 -0.8480354167 0.3698433765
238850000.0 -0.355235743 0.8438223254
248800000.0 0.313909238 0.8368059215
258750000.0 0.8401720612 0.4330681161
268700000.0 0.9288721414 -0.2426963881
278650000.0 0.5337472637 -0.792584119
288600000.0 -0.1214659931 -0.9214611962
298550000.0 -0.6795502292 -0.5780038938
308500000.0 -0.8538432219 0.0443305687
318450000.0 -0.5562504184 0.6111206308
328400000.0 0.0488275841 0.8034739645
338350000.0 0.5925520975 0.4999606419
348300000.0 0.7153629526 -0.0821983264
358250000.0 0.3744059278 -0.5105087289
368200000.0 -0.1095446222 -0.5112966364
378150000.0 -0.3645568737 -0.185905603
388100000.0 -0.2770198378 0.1438621366
398050000.0 -0.0208379816 0.23902604
408000000.0 0.1514024031 0.1088027029
417950000.0 0.1303200608 -0.0610126235
427900000.0 -0.0052538176 -0.1185226046
437850000.0 -0.1117142121 -0.0401076988
447800000.0 -0.1077479178 0.0843094974
457750000.0 -0.0080865369 0.1537777987
467700000.0 0.1042536089 0.1218774393
477650000.0 0.1518114341 0.0192007262
487600000.0 0.1105498741 -0.0801811754
497550000.0 0.0211945555 -0.1181155046
507500000.0 -0.063269165 -0.0875779738
517450000.0 -0.0904913435 -0.0192356564
527400000.0 -0.0673236276 0.0322296497
537350000.0 -0.0278639959 0.0410598157
547300000.0 -0.0115263329 0.0202014488
557250000.0 -0.0262263684 0.0056036555
567200000.0 -0.0497120344 0.020934759
577150000.0 -0.0465699907 0.0591181173
587100000.0 0.0006829368 0.0867259358
597050000.0 0.0678929526 0.0688481696
607000000.0 0.1097935191 -0.0068782692
616950000.0 0.0885138063 -0.1048354777
626900000.0 -0.0012546378 -0.1681419937
636850000.0 -0.1189962008 -0.1536167871
646800000.0 -0.2009719392 -0.0589490154
656750000.0 -0.1954218618 0.0700948362
666700000.0 -0.100369667 0.1641482599
676650000.0 0.0359507221 0.1661673278
686600000.0 0.1395384328 0.0750882916
696550000.0 0.1525245642 -0.0611555231
706500000.0 0.0726142006 -0.1642410163
716450000.0 -0.0520597769 -0.1794727321
726400000.0 -0.1430918036 -0.1054987338
736350000.0 -0.1440151569 0.004887976
746300000.0 -0.0620073218 0.0740298787
756250000.0 0.0414983433 0.0525486316
766200000.0 0.0873758849 -0.0428271647
776150000.0 0.0380122521 -0.1411610773
786100000.0 -0.0775451501 -0.1624733688
796050000.0 -0.1766641743 -0.0763529357
806000000.0 -0.1718776751 0.0737943865
815950000.0 -0.0437963761 0.1833863659
825900000.0 0.1470130256 0.1628514315
835850000.0 0.2763006778 -0.0002821041
845800000.0 0.2498549194 -0.225026291
855750000.0 0.0604302941 -0.3730653927
865700000.0 -0.1932411734 -0.3440414352
875650000.0 -0.3640344881 -0.13241165
885600000.0 -0.3347435361 0.1530305668
895550000.0 -0.1038028211 0.347561747
905500000.0 0.2099978099 0.320336081
915450000.0 0.4178753384 0.0706579271
925400000.0 0.3788291298 -0.2615284792
935350000.0 0.103094987 -0.4630645387
945300000.0 -0.2435268224 -0.3895753098
955250000.0 -0.4214056359 -0.0669079986
965200000.0 -0.2770154914 0.2981208319
975150000.0 0.1304121896 0.4087120438
985100000.0 0.4789840202 0.1146365996
995050000.0 0.4151523474 -0.3770335146
1005000000.0 -0.0714337765 -0.6066002035
1014950000.0 -0.5707756455 -0.3015272856
1024900000.0 -0.6045136363 0.3382341651
1034850000.0 -0.0455139623 0.7580426826
1044800000.0 0.6521103435 0.5106557837
1054750000.0 0.8395415794 -0.2196801174
1064700000.0 0.3613639931 -0.7831878077
1074650000.0 -0.3385268665 -0.729721515
1084600000.0 -0.7159658277 -0.2929675999
1094550000.0 -0.6929537196 0.3795623608
1104500000.0 -0.131306666 0.7672771342
1114450000.0 0.5056250494 0.5667121518
1124400000.0 0.7265921995 -0.030921212
1134350000.0 0.4206827203 -0.5408594806
1144300000.0 -0.1240820835 -0.6345113415
1154250000.0 -0.5325267201 -0.3082769613
1164200000.0 -0.5616229612 0.1922868704
1174150000.0 -0.2106932144 0.5354475632
1184100000.0 0.2665541085 0.4923706874
1194050000.0 0.5348741994 0.1116084172
1204000000.0 0.4374018828 -0.3250231276
1213950000.0 0.0687934847 -0.5492414807
1223900000.0 -0.3390835161 -0.4599995482
1233850000.0 -0.5757771315 -0.1197300322
1243800000.0 -0.5192544151 0.2913772509
1253750000.0 -0.1958276131 0.5602310616
1263700000.0 0.2270490362 0.5361741659
1273650000.0 0.5240096208 0.2354794514
1283600000.0 0.5507515083 -0.1803321757
1293550000.0 0.3111689145 -0.5113375463
1303500000.0 -0.0752472773 -0.6195583182
1313450000.0 -0.4452981796 -0.4681571466
1323400000.0 -0.6446844622 -0.1178546496
1333350000.0 -0.5800115212 0.2856370139
1343300000.0 -0.2675906796 0.5617072454
1353250000.0 0.1535420052 0.5734974068
1363200000.0 0.4847800721 0.3146988413
1373150000.0 0.5781167531 -0.0880948904
1383100000.0 0.4070271111 -0.4538789579
1393050000.0 0.0554091461 -0.6349973753
1403000000.0 -0.3268575118 -0.5670044477
1412950000.0 -0.58867617 -0.2799891659
1422900000.0 -0.615118548 0.1092505536
1432850000.0 -0.3891398708 0.4308663708
1442800000.0 -0.0082204886 0.5363991895
1452750000.0 0.3496500047 0.3752424007
1462700000.0 0.5198399323 0.0304672604
1472650000.0 0.4338850191 -0.3334241136
1482600000.0 0.1461122235 -0.5536440555
1492550000.0 -0.2078263676 -0.5395894595
1502500000.0 -0.4647197321 -0.3053984953
1512450000.0 -0.5068236515 0.0378898373
1522400000.0 -0.3110434134 0.3227593391
1532350000.0 0.0220851304 0.4033136511
1542300000.0 0.3185206886 0.2396397088
1552250000.0 0.4210057397 -0.0729523462
1562200000.0 0.2871441988 -0.3636076245
1572150000.0 -0.0018489878 -0.4823644705
1582100000.0 -0.2900066147 -0.3727952706
1592050000.0 -0.4280465382 -0.0961119243
1602000000.0 -0.3399720983 0.2070280861
1611950000.0 -0.0634697857 0.3710915498
1621900000.0 0.2578086115 0.2982573476
1631850000.0 0.4405479257 0.0195755071
1641800000.0 0.3804809751 -0.3107380535
1651750000.0 0.1101322492 -0.5124189817
1661700000.0 -0.2277678515 -0.4826383329
1671650000.0 -0.469606614 -0.2369140235
1681600000.0 -0.4989358886 0.11424887
1691550000.0 -0.2923848106 0.4131656187
1701500000.0 0.0696080445 0.5128457135
1711450000.0 0.4169982789 0.3485661958
1721400000.0 0.5746263327 -0.0085910686
1731350000.0 0.4610038466 -0.3817037487
1741300000.0 0.1385089047 -0.5933342046
1751250000.0 -0.2397030046 -0.5575303116
1761200000.0 -0.5126648617 -0.3028735053
1771150000.0 -0.5723776541 0.0524212967
1781100000.0 -0.437143565 0.3570024468
1791050000.0 -0.1469963138 0.5678219178
1801000000.0 0.2468545649 0.5473924798
1810950000.0 0.5410596613 0.2680848813
1820900000.0 0.5867087814 -0.1343257222
1830850000.0 0.3727888709 -0.4680249533
1840800000.0 0.0113047334 -0.5972248934
1850750000.0 -0.3441015643 -0.4909568696
1860700000.0 -0.5653515924 -0.2059711763
1870650000.0 -0.5809594842 0.1489617299
1880600000.0 -0.3850143811 0.4434122171
1890550000.0 -0.0530352576 0.5593436397
1900500000.0 0.2764087296 0.4451385898
1910450000.0 0.4569077286 0.1581876962
1920400000.0 0.4216294606 -0.1635615045
1930350000.0 0.2128881654 -0.381504776
1940300000.0 -0.0611636525 -0.4301485295
1950250000.0 -0.2915802508 -0.3200171006
1960200000.0 -0.4039596044 -0.1164542636
1970150000.0 -0.3762680255 0.0917005906
1980100000.0 -0.2450370658 0.2234819224
1990050000.0 -0.0872115591 0.2388466263
2000000000.0 0.011675761 0.1641029327
