!Created with skrf (http://scikit-rf.org).
# GHz S RI R 50.0 
!freq ReS11 ImS11
10000000.0 -0.9674818757 0.1801283728
19950000.0 -0.9353230523 0.3484549591
29900000.0 -0.8772484356 0.5058079229
39850000.0 -0.7782491048 0.647086202
49800000.0 -0.6396010684 0.7648749904
59750000.0 -0.4629013871 0.8567338663
69700000.0 -0.2516065032 0.9218623878
79650000.0 -0.0106597695 0.9533445221
89600000.0 0.2557629951 0.9326133447
99550000.0 0.5315375903 0.8297037395
109500000.0 0.7776992271 0.6139940941
119450000.0 0.9365140073 0.2822005419
129400000.0 0.9547112743 -0.123080197
139350000.0 0.8102884584 -0.5240103198
149300000.0 0.5271317003 -0.8368652066
159250000.0 0.1684173899 -1.000096357
169200000.0 -0.1865094445 -1.000640019
179150000.0 -0.4797055733 -0.8756050228
189100000.0 -0.6935917371 -0.6834567833
199050000.0 -0.8379507026 -0.4676011904
209000000.0 -0.9265077637 -0.2524795471
218950000.0 -0.9726127033 -0.0497861835
228900000.0 -0.9737783865 0.134148972
238850000.0 -0.9321028929 0.2959976714
248800000.0 -0.8548146965 0.4286038054
258750000.0 -0.7510129374 0.5554129158
268700000.0 -0.6292896639 0.6630140649
278650000.0 -0.4958061415 0.7581875543
288600000.0 -0.352470684 0.8355830002
298550000.0 -0.2004308727 0.886836208
308500000.0 -0.0407844221 0.8984120721
318450000.0 0.1217002332 0.859446218
328400000.0 0.2783858558 0.7685648066
338350000.0 0.415006634 0.6296783978
348300000.0 0.5172365303 0.4527063846
358250000.0 0.5638929078 0.2564038084
368200000.0 0.5388031768 0.0686855334
378150000.0 0.4434620571 -0.0749955701
388100000.0 0.3022226632 -0.1533987702
398050000.0 0.1531393213 -0.1694410643
408000000.0 0.0254089411 -0.1418822925
417950000.0 -0.0638694775 -0.0912643281
427900000.0 -0.1156352829 -0.0346445553
437850000.0 -0.1276709621 0.0189925373
447800000.0 -0.1137708401 0.0654306371
457750000.0 -0.0817302083 0.1037964701
467700000.0 -0.0435791145 0.1357665313
477650000.0 -0.0100953498 0.1565208004
487600000.0 0.0186881075 0.1638186158
497550000.0 0.033875277 0.1605370598
507500000.0 0.0430793007 0.1362902474
517450000.0 0.0475866991 0.1042753043
527400000.0 0.0475385111 0.0678092557
537350000.0 0.0464268515 0.0329037965
547300000.0 0.0436242299 0.0080785329
557250000.0 0.0351735592 -0.0037130183
567200000.0 0.0167844324 -0.0017452862
577150000.0 -0.0087371637 0.0093652732
587100000.0 -0.0398096246 0.0262757513
597050000.0 -0.0708411749 0.0440227494
607000000.0 -0.0953832221 0.060144613
616950000.0 -0.1076357509 0.0743660922
626900000.0 -0.1040112105 0.088783918
636850000.0 -0.0868836391 0.1064654869
646800000.0 -0.0585849095 0.1265448889
656750000.0 -0.0260716124 0.1507662539
666700000.0 0.0047382151 0.1718428847
676650000.0 0.0336312437 0.1859137096
686600000.0 0.0555117042 0.1883213817
696550000.0 0.0757407669 0.1721377978
706500000.0 0.0957733885 0.1414260978
716450000.0 0.1174656266 0.0979501119
726400000.0 0.1378526611 0.0487075742
736350000.0 0.1538358379 -0.0017281652
746300000.0 0.1613791423 -0.0468585782
756250000.0 0.1500857693 -0.085016021
766200000.0 0.1206300431 -0.1165783158
776150000.0 0.0695241623 -0.1416676902
786100000.0 0.0045045001 -0.1612449611
796050000.0 -0.0687546812 -0.1735364178
806000000.0 -0.1416682428 -0.1767866667
815950000.0 -0.2044135216 -0.1646850401
825900000.0 -0.2544358074 -0.1321403843
835850000.0 -0.2873765194 -0.0797903054
845800000.0 -0.3069410848 -0.0070331912
855750000.0 -0.3138421931 0.0784667036
865700000.0 -0.3096267811 0.1693923044
875650000.0 -0.291849619 0.2564827555
885600000.0 -0.2567036935 0.330694517
895550000.0 -0.2002383866 0.3865673145
905500000.0 -0.1204535137 0.4192877069
915450000.0 -0.0210797989 0.4316870719
925400000.0 0.0928625658 0.4224426384
935350000.0 0.2159745186 0.3902828613
945300000.0 0.3357321466 0.3317074103
955250000.0 0.4374804796 0.2367238623
965200000.0 0.5027048168 0.099139505
975150000.0 0.5121153362 -0.078435858
985100000.0 0.4501869531 -0.2842675031
995050000.0 0.3037393186 -0.4885303457
1005000000.0 0.0660197371 -0.6430846737
1014950000.0 -0.2428184303 -0.6811388588
1024900000.0 -0.5503812665 -0.5518748648
1034850000.0 -0.7601360648 -0.2724210158
1044800000.0 -0.8236765896 0.075199465
1054750000.0 -0.7441837929 0.4077240774
1064700000.0 -0.5638113972 0.6584648482
1074650000.0 -0.3171108034 0.8272336635
1084600000.0 -0.0332257133 0.8684567909
1094550000.0 0.2319799419 0.7989485138
1104500000.0 0.4515767051 0.6548869069
1114450000.0 0.6151973276 0.4683855078
1124400000.0 0.717141853 0.2613460557
1134350000.0 0.7518878534 0.0506875506
1144300000.0 0.7165999618 -0.1491141616
1154250000.0 0.6175616196 -0.3188250251
1164200000.0 0.4768723804 -0.4523439272
1174150000.0 0.3158701016 -0.5476463798
1184100000.0 0.1549972036 -0.6070044403
1194050000.0 0.0030958021 -0.633995625
1204000000.0 -0.1341447565 -0.6249855319
1213950000.0 -0.2518660484 -0.5836025008
1223900000.0 -0.352781985 -0.5092888758
1233850000.0 -0.4336903741 -0.4140710964
1243800000.0 -0.5032952203 -0.3084376856
1253750000.0 -0.5592230461 -0.2043063342
1263700000.0 -0.6019329805 -0.1072991678
1273650000.0 -0.629182422 -0.0193834977
1283600000.0 -0.6355430334 0.0578241651
1293550000.0 -0.6213956309 0.1299193585
1303500000.0 -0.5878816462 0.2007321186
1313450000.0 -0.5411471295 0.2734808846
1323400000.0 -0.4887387074 0.3480926906
1333350000.0 -0.4366487876 0.4218802382
1343300000.0 -0.3873801214 0.4894554411
1353250000.0 -0.3385112054 0.5449210592
1363200000.0 -0.2887579285 0.5830806464
1373150000.0 -0.2333730859 0.60356856
1383100000.0 -0.1687307261 0.6090038119
1393050000.0 -0.0956238688 0.6057754857
1403000000.0 -0.0150520472 0.6011711051
1412950000.0 0.0687520107 0.5966006919
1422900000.0 0.1502986136 0.5922955967
1432850000.0 0.2242036445 0.5823292746
1442800000.0 0.2873622496 0.5617803823
1452750000.0 0.3391304937 0.5250335761
1462700000.0 0.3809168998 0.4707502205
1472650000.0 0.418999341 0.4024547658
1482600000.0 0.4558765522 0.325113241
1492550000.0 0.4936733575 0.2443839801
1502500000.0 0.5276440487 0.1639537864
1512450000.0 0.5524297372 0.0863018503
1522400000.0 0.5605248157 0.0101109952
1532350000.0 0.5463996791 -0.063408033
1542300000.0 0.5115577646 -0.1342412195
1552250000.0 0.4589046722 -0.206286904
1562200000.0 0.3968799689 -0.27682802
1572150000.0 0.3304178284 -0.3461999647
1582100000.0 0.2610002017 -0.4082679288
1592050000.0 0.1877217486 -0.4576192548
1602000000.0 0.1088020533 -0.4870878765
1611950000.0 0.0250491215 -0.4920134267
1621900000.0 -0.0629072716 -0.4771209501
1631850000.0 -0.1529159528 -0.4476770769
1641800000.0 -0.2405864479 -0.4113832084
1651750000.0 -0.3230891545 -0.3716000383
1661700000.0 -0.3960111919 -0.3273386117
1671650000.0 -0.4560888484 -0.2762315601
1681600000.0 -0.4979358236 -0.211352824
1691550000.0 -0.5222304312 -0.1358397405
1701500000.0 -0.5329481593 -0.0517332687
1711450000.0 -0.5355477701 0.03492285
1721400000.0 -0.535808471 0.116199313
1731350000.0 -0.5352448133 0.1908981911
1741300000.0 -0.5306636888 0.2552586997
1751250000.0 -0.5174759765 0.3106620582
1761200000.0 -0.4895367199 0.3581893514
1771150000.0 -0.4448563028 0.4016674307
1781100000.0 -0.3868168049 0.4426916526
1791050000.0 -0.3234926808 0.4829228486
1801000000.0 -0.2634300648 0.5235947647
1810950000.0 -0.2106812202 0.5598723553
1820900000.0 -0.167875896 0.5892664395
1830850000.0 -0.1295232688 0.6059724411
1840800000.0 -0.0913090013 0.6075516646
1850750000.0 -0.047762971 0.5939338936
1860700000.0 0.0046996585 0.5693746987
1870650000.0 0.0647792953 0.5408297276
1880600000.0 0.1276349515 0.5142600814
1890550000.0 0.1847556508 0.4924515063
1900500000.0 0.2311871188 0.4746463028
1910450000.0 0.2618580433 0.4559678996
1920400000.0 0.2746686433 0.4294746548
1930350000.0 0.273133541 0.3918309381
1940300000.0 0.2637822422 0.340490858
1950250000.0 0.2528747582 0.2798414014
1960200000.0 0.2438334294 0.2177559724
1970150000.0 0.2361709393 0.1601328514
1980100000.0 0.2240332352 0.1167277356
1990050000.0 0.1993038406 0.0891604969
2000000000.0 0.1513391386 0.0812522907
