!Created with skrf (http://scikit-rf.org).
# GHz S RI R 50.0 
!freq ReS11 ImS11
10000000.0 -0.8112631886 0.6039946047
19950000.0 -0.2988709244 0.9434767637
29900000.0 0.3115305892 0.9208146681
39850000.0 0.8010522212 0.5433982369
49800000.0 0.9787485003 -0.0634324236
59750000.0 0.7459845486 -0.6725288792
69700000.0 0.1630550633 -1.009196936
79650000.0 -0.5182277817 -0.8766576782
89600000.0 -0.9461676626 -0.3011313399
99550000.0 -0.8619408106 0.4369950849
109500000.0 -0.2614179194 0.9236426394
119450000.0 0.541502692 0.8164322197
129400000.0 1.001556335 0.1059325547
139350000.0 0.7257051739 -0.7077362785
149300000.0 -0.0778154357 -0.9833751719
159250000.0 -0.7710890702 -0.5552355901
169200000.0 -0.9133381665 0.2057301588
179150000.0 -0.4946417882 0.8110909465
189100000.0 0.1953453956 0.953049202
199050000.0 0.7765778763 0.6027441461
209000000.0 0.973285029 -0.0248641326
218950000.0 0.7330967506 -0.606026781
228900000.0 0.201509002 -0.9054470511
238850000.0 -0.3906396233 -0.8271923677
248800000.0 -0.7932280854 -0.4103474861
258750000.0 -0.9224146394 0.1563060186
268700000.0 -0.6637881214 0.6845702764
278650000.0 -0.140254686 0.9461752496
288600000.0 0.429923362 0.8313179088
298550000.0 0.8072251703 0.393546475
308500000.0 0.8392847694 -0.1808952539
318450000.0 0.5139334217 -0.6494109641
328400000.0 -0.0269119105 -0.8066691766
338350000.0 -0.527110035 -0.5768745325
348300000.0 -0.7259829682 -0.0882479432
358250000.0 -0.5363436871 0.3625613521
368200000.0 -0.1262080376 0.5184166741
378150000.0 0.2139056278 0.354131487
388100000.0 0.3027202898 0.0519082669
398050000.0 0.1673985114 -0.1599622078
408000000.0 -0.0258939474 -0.1781673127
417950000.0 -0.12763757 -0.0631745046
427900000.0 -0.0943321776 0.0607493266
437850000.0 0.0161540895 0.1023560892
447800000.0 0.1098938176 0.0452282162
457750000.0 0.1338429205 -0.0587488076
467700000.0 0.0754350176 -0.1435652365
477650000.0 -0.0213775661 -0.1610969086
487600000.0 -0.1011755543 -0.1095801912
497550000.0 -0.1251423977 -0.0235437273
507500000.0 -0.0916167504 0.0567594859
517450000.0 -0.0265395508 0.0890191812
527400000.0 0.0329291452 0.0720351961
537350000.0 0.0551630588 0.0287455331
547300000.0 0.0414668007 -0.0053439809
557250000.0 0.0093963796 -0.0102087478
567200000.0 -0.0117890641 0.0144019865
577150000.0 -0.001010988 0.0469445274
587100000.0 0.0383597414 0.056027717
597050000.0 0.0779691386 0.0247170285
607000000.0 0.0883532764 -0.0379492964
616950000.0 0.0505461737 -0.1027912168
626900000.0 -0.0279275918 -0.1332750909
636850000.0 -0.112999547 -0.1077011745
646800000.0 -0.1665302949 -0.0317180047
656750000.0 -0.1610207917 0.0665299342
666700000.0 -0.0915283206 0.1404308502
676650000.0 0.0126156046 0.1537308575
686600000.0 0.1042667725 0.0971037109
696550000.0 0.1444855729 -0.0059761674
706500000.0 0.1143214471 -0.1092551739
716450000.0 0.0254599289 -0.1664230222
726400000.0 -0.0736166023 -0.1497809388
736350000.0 -0.1297008579 -0.0688427995
746300000.0 -0.110815674 0.030886599
756250000.0 -0.0212743501 0.0910238833
766200000.0 0.0902711269 0.0739102665
776150000.0 0.1609334937 -0.0190048859
786100000.0 0.1458762266 -0.138809961
796050000.0 0.0417411981 -0.2158442115
806000000.0 -0.1007497122 -0.1951887077
815950000.0 -0.2023466645 -0.0669090593
825900000.0 -0.1972619153 0.1147239065
835850000.0 -0.0663713084 0.2618723478
845800000.0 0.1383446014 0.2970521934
855750000.0 0.3282497626 0.1887497823
865700000.0 0.4088511743 -0.0266217037
875650000.0 0.3286274815 -0.2548257621
885600000.0 0.1069709894 -0.3879912753
895550000.0 -0.1653349998 -0.3457633141
905500000.0 -0.3611138872 -0.1315710203
915450000.0 -0.3767315592 0.1692717386
925400000.0 -0.1915846107 0.4147566881
935350000.0 0.1134285162 0.4781441397
945300000.0 0.3878313972 0.3117343399
955250000.0 0.4766501739 -0.0167262003
965200000.0 0.2965262629 -0.3367713547
975150000.0 -0.0898255718 -0.4416981785
985100000.0 -0.4579325476 -0.2060239759
995050000.0 -0.5189385281 0.2643347245
1005000000.0 -0.1622725369 0.6312289891
1014950000.0 0.3888378363 0.5665460332
1024900000.0 0.6988202984 0.044575797
1034850000.0 0.4398322543 -0.5501030545
1044800000.0 -0.1674947124 -0.6450247968
1054750000.0 -0.5481420165 -0.4040178058
1064700000.0 -0.7815337336 0.0978166889
1074650000.0 -0.5283107626 0.6612238525
1084600000.0 0.0883494534 0.8382693868
1094550000.0 0.6360575863 0.5077407526
1104500000.0 0.7768783877 -0.1162350138
1114450000.0 0.4191881303 -0.6433710575
1124400000.0 -0.186988075 -0.7272776453
1134350000.0 -0.6245261125 -0.3633044919
1144300000.0 -0.6684813885 0.1572820079
1154250000.0 -0.3678346322 0.5364794691
1164200000.0 0.0838157333 0.6136841146
1174150000.0 0.4635406296 0.378845893
1184100000.0 0.5862552356 -0.0522094366
1194050000.0 0.3786799468 -0.4446093549
1204000000.0 -0.0262378065 -0.582441438
1213950000.0 -0.4004861777 -0.4296550407
1223900000.0 -0.5893951357 -0.0967342645
1233850000.0 -0.547044075 0.2704218436
1243800000.0 -0.3001742465 0.5418132847
1253750000.0 0.0661550282 0.6162777866
1263700000.0 0.4120949047 0.4502044013
1273650000.0 0.5888813539 0.102537221
1283600000.0 0.5219720588 -0.2805058427
1293550000.0 0.2543888394 -0.5439148703
1303500000.0 -0.0977497281 -0.6118544163
1313450000.0 -0.4188949184 -0.4862934194
1323400000.0 -0.624072735 -0.2167462797
1333350000.0 -0.657536335 0.1237448504
1343300000.0 -0.4963446704 0.4384799682
1353250000.0 -0.1722410105 0.613339989
1363200000.0 0.2044402249 0.567714355
1373150000.0 0.4900658452 0.3114693153
1383100000.0 0.5798735381 -0.053065067
1393050000.0 0.4633152446 -0.391584282
1403000000.0 0.1993562379 -0.6067055766
1412950000.0 -0.1241971962 -0.648937521
1422900000.0 -0.4166321602 -0.51500191
1432850000.0 -0.5922037288 -0.2378511592
1442800000.0 -0.5852696156 0.1015782351
1452750000.0 -0.3814944395 0.388077811
1462700000.0 -0.0461247332 0.507942932
1472650000.0 0.291925268 0.4178464183
1482600000.0 0.5108887809 0.1646637595
1492550000.0 0.5486689076 -0.1521735455
1502500000.0 0.4078555223 -0.4223096754
1512450000.0 0.1449106755 -0.5594850742
1522400000.0 -0.1477331379 -0.5181840453
1532350000.0 -0.3634188142 -0.305471309
1542300000.0 -0.4124832197 0.0018385911
1552250000.0 -0.2668170876 0.2793538695
1562200000.0 0.012591966 0.4092692891
1572150000.0 0.2980510347 0.3425169249
1582100000.0 0.4737547023 0.1267637448
1592050000.0 0.4797407233 -0.144061573
1602000000.0 0.3161578751 -0.3633669358
1611950000.0 0.043155473 -0.442116319
1621900000.0 -0.2348805257 -0.3363885256
1631850000.0 -0.401367218 -0.0733566849
1641800000.0 -0.3738080519 0.2438964996
1651750000.0 -0.1573104781 0.4793030627
1661700000.0 0.1526900843 0.5315169538
1671650000.0 0.4282469499 0.3916036294
1681600000.0 0.5727520052 0.1203295981
1691550000.0 0.5417868784 -0.1908741159
1701500000.0 0.3406761706 -0.4429766958
1711450000.0 0.0226644816 -0.5491305646
1721400000.0 -0.3164849738 -0.4559731922
1731350000.0 -0.5487025235 -0.1782245512
1741300000.0 -0.5780221707 0.1837520995
1751250000.0 -0.3990161254 0.4898702587
1761200000.0 -0.0916754432 0.6389901805
1771150000.0 0.2363356359 0.6039949039
1781100000.0 0.4958670866 0.411740815
1791050000.0 0.626457791 0.1160859937
1801000000.0 0.5914363845 -0.2128726453
1810950000.0 0.3852469346 -0.487317384
1820900000.0 0.0524034879 -0.6107266751
1830850000.0 -0.2987482037 -0.5243581187
1840800000.0 -0.5381115187 -0.258293773
1850750000.0 -0.5906269116 0.0811196153
1860700000.0 -0.4664106317 0.3780153827
1870650000.0 -0.2267822567 0.5615321866
1880600000.0 0.0566649191 0.603152182
1890550000.0 0.3164839764 0.5031359156
1900500000.0 0.4900465851 0.2840775127
1910450000.0 0.5224373972 0.0018644561
1920400000.0 0.3944224392 -0.2540397621
1930350000.0 0.1516661705 -0.3913601055
1940300000.0 -0.1111186059 -0.3729770297
1950250000.0 -0.3030636381 -0.2326975896
1960200000.0 -0.3838958396 -0.0405665377
1970150000.0 -0.3604276486 0.135869503
1980100000.0 -0.2664152617 0.2510580054
1990050000.0 -0.1507533199 0.2848855786
2000000000.0 -0.0667256085 0.2492083506
