!Created with skrf (http://scikit-rf.org).
# GHz S RI R 50.0 
!freq ReS11 ImS11
10000000.0 -0.8756808915 0.5346168484
19950000.0 -0.470013744 0.8922896403
29900000.0 0.0602836642 0.9899863823
39850000.0 0.5714786126 0.7974107178
49800000.0 0.9117351882 0.3573330411
59750000.0 0.9642042437 -0.2131990466
69700000.0 0.682004663 -0.7352405462
79650000.0 0.130043889 -1.010245039
89600000.0 -0.5005325573 -0.8961019127
99550000.0 -0.9385122811 -0.396656588
109500000.0 -0.9550401172 0.2908868668
119450000.0 -0.5002069868 0.837201446
129400000.0 0.2202204568 0.9338430657
139350000.0 0.8326686126 0.4955515187
149300000.0 0.9527913024 -0.2542317206
159250000.0 0.5120188699 -0.861880071
169200000.0 -0.200224875 -0.9845349817
179150000.0 -0.7747482028 -0.6161194217
189100000.0 -0.9665016859 -0.0019941216
199050000.0 -0.7562049851 0.5702453136
209000000.0 -0.2707102624 0.8993140126
218950000.0 0.2978295798 0.8947931672
228900000.0 0.7622080476 0.5767272061
238850000.0 0.9684716259 0.0473659125
248800000.0 0.8699822283 -0.3087715101
258750000.0 0.5007896883 -0.8391997338
268700000.0 -0.0290209299 -0.9621606523
278650000.0 -0.5248539417 -0.7779928254
288600000.0 -0.8358719451 -0.360919614
298550000.0 -0.8706458856 0.1527641093
308500000.0 -0.6185023844 0.5995854644
318450000.0 -0.1587578665 0.8268251939
328400000.0 0.345120278 0.7435485182
338350000.0 0.6889826935 0.377003822
348300000.0 0.7226031577 -0.1046850577
358250000.0 0.4546067105 -0.4678470075
368200000.0 0.0564027289 -0.5555649261
378150000.0 -0.255971947 -0.3815480967
388100000.0 -0.3565099296 -0.09126736
398050000.0 -0.2548326318 0.1467488554
408000000.0 -0.0597685235 0.2350151322
417950000.0 0.1071932747 0.1784575455
427900000.0 0.1736958923 0.0490225694
437850000.0 0.1390307694 -0.0677893197
447800000.0 0.0481876582 -0.1201448088
457750000.0 -0.0397338872 -0.1001961988
467700000.0 -0.0844672155 -0.0360449137
477650000.0 -0.0735942019 0.0306832646
487600000.0 -0.016281044 0.05291297
497550000.0 -0.0388590523 0.0917257475
507500000.0 0.0276427072 0.0608223671
517450000.0 0.0353363757 0.0234688336
527400000.0 0.0163571706 0.0017544683
537350000.0 -0.0109981414 0.0045824712
547300000.0 -0.0219441794 0.040931052
557250000.0 0.0053716324 0.0681326318
567200000.0 0.0496557096 0.0730005926
577150000.0 0.0955060906 0.0454331708
587100000.0 0.1206141658 -0.0127057997
597050000.0 0.1070989984 -0.0829695541
607000000.0 0.0521187951 -0.1401996078
616950000.0 -0.0308196152 -0.1604122188
626900000.0 -0.114618281 -0.1312619594
636850000.0 -0.1700961695 -0.0591306745
646800000.0 -0.174698772 0.0334924808
656750000.0 -0.1251472446 0.1135553224
666700000.0 -0.0365547399 0.1521702738
676650000.0 0.0590593263 0.1342629623
686600000.0 0.1230673828 0.0646374894
696550000.0 0.1032709222 -0.0314875366
706500000.0 0.0430036826 -0.1109427457
716450000.0 0.0303667724 -0.0807378698
726400000.0 -0.0424856083 -0.0967124157
736350000.0 -0.0928535944 -0.0439666806
746300000.0 -0.0868911011 0.0351871178
756250000.0 -0.0234266248 0.0937179425
766200000.0 0.0738433346 0.0946833646
776150000.0 0.1593488315 0.0246662059
786100000.0 0.1892041765 -0.0971704561
796050000.0 0.1359294249 -0.2266706655
806000000.0 0.0061082297 -0.3083876678
815950000.0 -0.1624606731 -0.2983408365
825900000.0 -0.3079148671 -0.1850494019
835850000.0 -0.3706243554 0.0053526642
845800000.0 -0.3122729788 0.2141555346
855750000.0 -0.1331808309 0.3637307425
865700000.0 0.0951851472 0.3804973259
875650000.0 0.3012134133 0.2697991314
885600000.0 0.4339552269 0.077184407
895550000.0 0.4403085648 -0.1648003421
905500000.0 0.3067987653 -0.377905648
915450000.0 0.0698742689 -0.4843528207
925400000.0 -0.1919897114 -0.4380840214
935350000.0 -0.3817001391 -0.2442268012
945300000.0 -0.4181794775 0.0334672778
955250000.0 -0.2680185923 0.2848813877
965200000.0 0.0239549621 0.3852834405
975150000.0 0.3260019542 0.2539836768
985100000.0 0.4559031936 -0.0780492591
995050000.0 0.2889512267 -0.4307967091
1005000000.0 -0.1248550568 -0.5618358855
1014950000.0 -0.547359152 -0.3173781526
1024900000.0 -0.6594355994 0.2157110264
1034850000.0 -0.303023738 0.7014987302
1044800000.0 0.3370654055 0.7618710866
1054750000.0 0.7897758729 0.3000096141
1064700000.0 0.8162179204 -0.2161982945
1074650000.0 0.4879802296 -0.7100345407
1084600000.0 -0.0099106713 -0.8457280232
1094550000.0 -0.5231188007 -0.6308946202
1104500000.0 -0.7612963584 -0.1424116467
1114450000.0 -0.6248901599 0.3746588405
1124400000.0 -0.1906237914 0.6578695457
1134350000.0 0.2988832385 0.5655591298
1144300000.0 0.5765583985 0.1884413036
1154250000.0 0.5339724573 -0.2317713203
1164200000.0 0.2559960747 -0.493736173
1174150000.0 -0.0945207822 -0.5382487831
1184100000.0 -0.3968423503 -0.3710920579
1194050000.0 -0.5388391626 -0.0552684142
1204000000.0 -0.4655379905 0.2829065546
1213950000.0 -0.2055015757 0.5118272093
1223900000.0 0.1379000696 0.5448829473
1233850000.0 0.4333467823 0.3779758638
1243800000.0 0.5848408332 0.0834381266
1253750000.0 0.5611864086 -0.2379948771
1263700000.0 0.3852675674 -0.4971062398
1273650000.0 0.1120669504 -0.6363458023
1283600000.0 -0.1917619303 -0.6321829115
1293550000.0 -0.4609925171 -0.4882557446
1303500000.0 -0.6350646829 -0.231570901
1313450000.0 -0.668389758 0.0842744168
1323400000.0 -0.5427113913 0.3844264207
1333350000.0 -0.2816247374 0.588263861
1343300000.0 0.0475256579 0.6377369152
1353250000.0 0.356366551 0.5209461176
1363200000.0 0.5680461674 0.2749622501
1373150000.0 0.6387268829 -0.0329421547
1383100000.0 0.5640867747 -0.3299815935
1393050000.0 0.370253776 -0.5570781274
1403000000.0 0.1006399675 -0.6725479649
1412950000.0 -0.1897581983 -0.6563871207
1422900000.0 -0.4413009257 -0.5128972313
1432850000.0 -0.5981357853 -0.2716487687
1442800000.0 -0.6285166916 0.0120539982
1452750000.0 -0.527804557 0.2773697655
1462700000.0 -0.3144296878 0.4701376873
1472650000.0 -0.0299901422 0.5396229504
1482600000.0 0.2541763199 0.4619279339
1492550000.0 0.4611673102 0.2566769375
1502500000.0 0.5388422624 -0.0189763546
1512450000.0 0.473392014 -0.2912851942
1522400000.0 0.2871021817 -0.4910628389
1532350000.0 0.0305695497 -0.568320999
1542300000.0 -0.2261873948 -0.5062182105
1552250000.0 -0.4126191163 -0.3235485832
1562200000.0 -0.476626184 -0.0764051962
1572150000.0 -0.4063867363 0.1654178825
1582100000.0 -0.2181759329 0.333246841
1592050000.0 0.0308589304 0.3724767944
1602000000.0 0.2607992156 0.2718392842
1611950000.0 0.3940578697 0.0619609325
1621900000.0 0.3912234752 -0.1854703552
1631850000.0 0.2560762186 -0.3901228245
1641800000.0 0.0307699895 -0.4872419373
1651750000.0 -0.2133979281 -0.4486919734
1661700000.0 -0.4039726376 -0.2870776982
1671650000.0 -0.4860951638 -0.0468857957
1681600000.0 -0.432449468 0.2069210862
1691550000.0 -0.2533977056 0.4041175897
1701500000.0 0.0083160691 0.4844064686
1711450000.0 0.2798443564 0.4168157288
1721400000.0 0.4820334244 0.2127339526
1731350000.0 0.550587673 -0.0681049445
1741300000.0 0.4674742545 -0.3452546645
1751250000.0 0.2603556075 -0.5429486953
1761200000.0 -0.0116289666 -0.6152920284
1771150000.0 -0.2830049082 -0.5508832142
1781100000.0 -0.4955116349 -0.3654404242
1791050000.0 -0.602069766 -0.082046623
1801000000.0 -0.5153028206 0.0650760981
1810950000.0 -0.4843112359 0.3372268732
1820900000.0 -0.2699955713 0.5180181469
1830850000.0 0.0078939717 0.5705209884
1840800000.0 0.2765839111 0.4822417258
1850750000.0 0.4673146514 0.2760682379
1860700000.0 0.5317941442 0.0095938816
1870650000.0 0.4638572409 -0.2456076463
1880600000.0 0.294501361 -0.4300514957
1890550000.0 0.0749037483 -0.5140529919
1900500000.0 -0.1446703372 -0.4947457419
1910450000.0 -0.3237488525 -0.3897935256
1920400000.0 -0.4336891782 -0.2277304192
1930350000.0 -0.4612116251 -0.0453492922
1940300000.0 -0.4074519555 0.1185101387
1950250000.0 -0.2939298118 0.2276003891
1960200000.0 -0.1585426133 0.2629340943
1970150000.0 -0.0439769582 0.2318148128
1980100000.0 0.0183904787 0.1700870541
1990050000.0 0.0317410441 0.1217056128
2000000000.0 0.0348312185 0.1209212412
