!Created with skrf (http://scikit-rf.org).
# GHz S RI R 50.0 
!freq ReS11 ImS11
10000000.0 -0.7744475529 0.6764468142
19950000.0 -0.1453550725 0.9896188659
29900000.0 0.5290479929 0.8226188227
39850000.0 0.938772713 0.255592504
49800000.0 0.8773633588 -0.4538392119
59750000.0 0.3415676652 -0.9548256092
69700000.0 -0.4171221226 -0.9456157073
79650000.0 -0.9574726554 -0.3790004596
89600000.0 -0.909188022 0.4228202519
99550000.0 -0.2644095881 0.9336349593
109500000.0 0.5670157291 0.7705230202
119450000.0 0.9745310619 -0.0110994618
129400000.0 0.5656012784 -0.8330722029
139350000.0 -0.3646468137 -0.9507928547
149300000.0 -0.9633800753 -0.238760065
159250000.0 -0.7237747532 0.6232537849
169200000.0 0.0691176529 0.9368538879
179150000.0 0.7849828503 0.5432994754
189100000.0 0.9577514259 -0.2281910933
199050000.0 0.5192771973 -0.8590529962
209000000.0 -0.2179361105 -0.9735349227
218950000.0 -0.7994691612 -0.5499376029
228900000.0 -0.93015384 0.1355651368
238850000.0 -0.5785775371 0.7197157181
248800000.0 0.0553738689 0.9036413442
258750000.0 0.6753189188 0.6670721464
268700000.0 0.9690592364 0.0648985577
278650000.0 0.785905972 -0.5790441647
288600000.0 0.2207262353 -0.9304143568
298550000.0 -0.425417636 -0.8118497848
308500000.0 -0.8189661175 -0.2961952137
318450000.0 -0.7598386446 0.3412753581
328400000.0 -0.2840226394 0.7558925144
338350000.0 0.3313604318 0.7104240293
348300000.0 0.6973925923 0.2483632773
358250000.0 0.59470087 -0.2861097123
368200000.0 0.1703122168 -0.51655849
378150000.0 -0.2076880278 -0.3565334211
388100000.0 -0.2926280339 -0.0311520311
398050000.0 -0.1231920786 0.172544671
408000000.0 0.0790049249 0.1475682432
417950000.0 0.1382958203 0.0008709647
427900000.0 0.0502765443 -0.0996905211
437850000.0 -0.0709908807 -0.0744049389
447800000.0 -0.116599759 0.038447114
457750000.0 -0.0544185953 0.1437614473
467700000.0 0.065262074 0.164098792
477650000.0 0.1585905396 0.0890790067
487600000.0 0.1690295494 -0.0273459952
497550000.0 0.1019034898 -0.1125310059
507500000.0 -0.0026206863 -0.1260968855
517450000.0 -0.0753159948 -0.0721758413
527400000.0 -0.0883192192 0.001569416
537350000.0 -0.0535415053 0.0472654115
547300000.0 -0.0125030755 0.0485682363
557250000.0 0.0020104195 0.0242977063
567200000.0 -0.0154489526 0.0104001505
577150000.0 -0.03603417 0.0282290049
587100000.0 -0.0257507465 0.0656358441
597050000.0 0.0250139107 0.0868474845
607000000.0 0.0909447215 0.0582651185
616950000.0 0.1256006574 -0.0226280033
626900000.0 0.0940430542 -0.1199007107
636850000.0 -0.00504191 -0.1784791994
646800000.0 -0.1290533914 -0.1514407903
656750000.0 -0.1910633041 -0.0436850984
666700000.0 -0.1772441768 0.0743545249
676650000.0 -0.082109178 0.1607300817
686600000.0 0.0520671049 0.1587153924
696550000.0 0.1515994994 0.0646223754
706500000.0 0.1615500349 -0.0710414208
716450000.0 0.0784573078 -0.1741010663
726400000.0 -0.0486145084 -0.1889300858
736350000.0 -0.1421103881 -0.1107365809
746300000.0 -0.1447985679 0.0071726765
756250000.0 -0.0573170636 0.0848625677
766200000.0 0.0594140101 0.06632445
776150000.0 0.1207743956 -0.038483596
786100000.0 0.0768544551 -0.1572582951
796050000.0 -0.0513118236 -0.2006663005
806000000.0 -0.1769517374 -0.1222174866
815950000.0 -0.2013229407 0.0425192702
825900000.0 -0.0826436794 0.1876485948
835850000.0 0.1247815535 0.2035341576
845800000.0 0.2968159277 0.0558548689
855750000.0 0.3174618817 -0.1873046421
865700000.0 0.1517783814 -0.3886110217
875650000.0 -0.1239675235 -0.4184682364
885600000.0 -0.3554765743 -0.2336755681
895550000.0 -0.3885280041 0.0788784272
905500000.0 -0.1806344666 0.3187168005
915450000.0 0.1167810688 0.3628792341
925400000.0 0.3928045994 0.1892745907
935350000.0 0.4665573996 -0.1495914777
945300000.0 0.2638789712 -0.4467011802
955250000.0 -0.1066160582 -0.5012782258
965200000.0 -0.4100184538 -0.2483689882
975150000.0 -0.4126831468 0.1754476713
985100000.0 -0.0510079332 0.4609100823
995050000.0 0.4319016896 0.3203074914
1005000000.0 0.5927592074 -0.2037874016
1014950000.0 0.2085726904 -0.6586529037
1024900000.0 -0.4351726484 -0.5781273042
1034850000.0 -0.7487479917 0.0599891622
1044800000.0 -0.348592098 0.7212598782
1054750000.0 0.4615522106 0.7320401392
1064700000.0 0.896877387 0.0676021291
1074650000.0 0.6428833892 -0.635448548
1084600000.0 -0.0265726221 -0.8723373604
1094550000.0 -0.6241800287 -0.5485592138
1104500000.0 -0.787884963 0.1009377019
1114450000.0 -0.4100872718 0.6525896023
1124400000.0 0.2443021068 0.7147191538
1134350000.0 0.6853324343 0.2711888519
1144300000.0 0.6383066167 -0.3063339574
1154250000.0 0.2181979556 -0.6372767676
1164200000.0 -0.2803612272 -0.5741993569
1174150000.0 -0.5780425075 -0.1914484478
1184100000.0 -0.515445559 0.2825637938
1194050000.0 -0.1266168409 0.5634986517
1204000000.0 0.3376444534 0.4627787304
1213950000.0 0.568890374 0.0664003787
1223900000.0 0.4566397223 -0.3562103831
1233850000.0 0.1038554674 -0.5808836682
1243800000.0 -0.3010708134 -0.5196402512
1253750000.0 -0.5705308579 -0.2092341697
1263700000.0 -0.5687430292 0.2105414286
1273650000.0 -0.2770186909 0.5271833168
1283600000.0 0.1567550589 0.561946528
1293550000.0 0.4972445333 0.2989756816
1303500000.0 0.5812712673 -0.1110738193
1313450000.0 0.3972697104 -0.4725004808
1323400000.0 0.0405477186 -0.644933499
1333350000.0 -0.3479126352 -0.570629739
1343300000.0 -0.6182001977 -0.2711166002
1353250000.0 -0.6467361461 0.1445268661
1363200000.0 -0.3965339649 0.4937944905
1373150000.0 0.0270391503 0.5997642652
1383100000.0 0.4167936182 0.4096538666
1393050000.0 0.5957404929 0.0281483815
1403000000.0 0.5087574967 -0.3679198509
1412950000.0 0.2124429757 -0.6269312562
1422900000.0 -0.1735587015 -0.6626470661
1432850000.0 -0.5054235692 -0.4630337525
1442800000.0 -0.6508741714 -0.0972983613
1452750000.0 -0.5354563149 0.2884059811
1462700000.0 -0.1972048003 0.5170672441
1472650000.0 0.2085502072 0.4768190755
1482600000.0 0.4904751382 0.1916946917
1492550000.0 0.5289127218 -0.1939179326
1502500000.0 0.326743353 -0.5064257301
1512450000.0 -0.0155876892 -0.6242787737
1522400000.0 -0.3525761834 -0.5077160644
1532350000.0 -0.5416373432 -0.2066535664
1542300000.0 -0.49404649 0.1489382879
1552250000.0 -0.2230938501 0.3908421788
1562200000.0 0.1382012238 0.3933811669
1572150000.0 0.4026960206 0.1568413961
1582100000.0 0.4384655835 -0.1874659299
1592050000.0 0.2415461817 -0.4587561328
1602000000.0 -0.0771031674 -0.5281733999
1611950000.0 -0.3607896143 -0.3695878745
1621900000.0 -0.4724203444 -0.061702292
1631850000.0 -0.3521361762 0.2492679863
1641800000.0 -0.0463905687 0.4043786574
1651750000.0 0.292195518 0.3091455329
1661700000.0 0.4703797023 0.0040518393
1671650000.0 0.4068463411 -0.3041188261
1681600000.0 0.136688559 -0.5520872913
1691550000.0 -0.2225405613 -0.5329855052
1701500000.0 -0.4852776244 -0.2917188372
1711450000.0 -0.5435204335 0.0660332301
1721400000.0 -0.3614137191 0.393021882
1731350000.0 -0.0012238095 0.536319381
1741300000.0 0.3767549591 0.4090769231
1751250000.0 0.5823692579 0.0609735847
1761200000.0 0.5134640893 -0.3328385323
1771150000.0 0.218519572 -0.5877470852
1781100000.0 -0.1593299769 -0.6110642894
1791050000.0 -0.472745837 -0.4141457854
1801000000.0 -0.6166178574 -0.0742527531
1810950000.0 -0.5365681541 0.2930698763
1820900000.0 -0.2442813635 0.5484921874
1830850000.0 0.1545041058 0.5690052053
1840800000.0 0.4787724725 0.3274988975
1850750000.0 0.5712767422 -0.0600770416
1860700000.0 0.4083594443 -0.40516373
1870650000.0 0.089918375 -0.57351949
1880600000.0 -0.2476336088 -0.5317853559
1890550000.0 -0.4935815249 -0.3184438606
1900500000.0 -0.5770217328 -0.0123782417
1910450000.0 -0.4713565861 0.2845464771
1920400000.0 -0.2094507002 0.4584879011
1930350000.0 0.0980027717 0.4330107478
1940300000.0 0.3110876338 0.2260758995
1950250000.0 0.3430796149 -0.0490909012
1960200000.0 0.21198114 -0.2625503028
1970150000.0 0.0058195598 -0.3435462285
1980100000.0 -0.1788884172 -0.2934925062
1990050000.0 -0.2755375578 -0.1660686978
2000000000.0 -0.2678706533 -0.041408878
