!Created with skrf (http://scikit-rf.org).
# GHz S RI R 50.0 
!freq ReS11 ImS11
10000000.0 -0.9944041728 0.1635155202
19950000.0 -0.9388478006 0.3124991281
29900000.0 -0.8609180521 0.4545900804
39850000.0 -0.7607718581 0.5944247056
49800000.0 -0.6402137292 0.7264002833
59750000.0 -0.4947934369 0.8440461116
69700000.0 -0.318057367 0.9359217692
79650000.0 -0.1067508686 0.9845662808
89600000.0 0.1373718689 0.9737561766
99550000.0 0.4009669932 0.8862354183
109500000.0 0.6629769263 0.7104933218
119450000.0 0.8856356962 0.4337372041
129400000.0 0.9919234853 0.0871484887
139350000.0 0.9674824744 -0.3363366076
149300000.0 0.751707715 -0.6871747896
159250000.0 0.4179389585 -0.9056620542
169200000.0 0.0541123315 -0.9792761506
179150000.0 -0.278281104 -0.9355531985
189100000.0 -0.5480868164 -0.8122300645
199050000.0 -0.7429306705 -0.6410997006
209000000.0 -0.8624848492 -0.4455744076
218950000.0 -0.9216248094 -0.2449374064
228900000.0 -0.9332057516 -0.0493815995
238850000.0 -0.9095834407 0.1409022036
248800000.0 -0.7746794295 0.1288024679
258750000.0 -0.8111364577 0.4369224687
268700000.0 -0.721871757 0.5810095529
278650000.0 -0.6073820941 0.6957154776
288600000.0 -0.4675766177 0.7791802371
298550000.0 -0.3064200236 0.829461591
308500000.0 -0.129371268 0.847892407
318450000.0 0.057233758 0.8302823825
328400000.0 0.2436283854 0.7701332297
338350000.0 0.4086300141 0.6597390116
348300000.0 0.5283282344 0.4990624813
358250000.0 0.5793563887 0.3034731307
368200000.0 0.5535771198 0.103412133
378150000.0 0.4632404358 -0.0665540912
388100000.0 0.3372051249 -0.183943139
398050000.0 0.2037097111 -0.2422784605
408000000.0 0.0867492998 -0.2467496161
417950000.0 -0.0024737909 -0.2113980403
427900000.0 -0.0618011507 -0.1538268145
437850000.0 -0.0957000926 -0.0887614589
447800000.0 -0.1094692681 -0.0290288556
457750000.0 -0.1074210818 0.0172794194
467700000.0 -0.0940153308 0.0458325014
477650000.0 -0.0717285514 0.0540493175
487600000.0 -0.0419896114 0.0399392937
497550000.0 -0.0876033956 -0.0601627784
507500000.0 -0.0270377895 0.0333858522
517450000.0 -0.0084383418 0.0421416197
527400000.0 0.021479444 0.0149579862
537350000.0 0.0207848318 -0.008462742
547300000.0 0.0054630952 -0.0302484589
557250000.0 -0.0232185509 -0.0461883738
567200000.0 -0.0542489117 -0.0597008555
577150000.0 -0.0857336319 -0.0699339632
587100000.0 -0.1135380521 -0.073936156
597050000.0 -0.1347563795 -0.0691488268
607000000.0 -0.1494391667 -0.0539239209
616950000.0 -0.1596030849 -0.0286025497
626900000.0 -0.1657034921 0.0037985648
636850000.0 -0.1691171542 0.0387435898
646800000.0 -0.1682263201 0.0721832282
656750000.0 -0.1626007969 0.1004926026
666700000.0 -0.1487056029 0.1211074141
676650000.0 -0.1251367854 0.1329994891
686600000.0 -0.0921461387 0.1380074157
696550000.0 -0.0514813009 0.1368663866
706500000.0 -0.0083689874 0.1299299168
716450000.0 0.0334022309 0.1177963075
726400000.0 0.0675287095 0.0978944841
736350000.0 0.0910052808 0.0680596042
746300000.0 0.1016494058 0.0282504697
756250000.0 0.0992649946 -0.0226269639
766200000.0 0.0850330825 -0.079787504
776150000.0 0.0610063704 -0.1379143915
786100000.0 0.0274028545 -0.1901032501
796050000.0 -0.0150345376 -0.2298297713
806000000.0 -0.0654056809 -0.2527890002
815950000.0 -0.1245543267 -0.2556276123
825900000.0 -0.1893260345 -0.240541715
835850000.0 -0.2569583323 -0.2106640172
845800000.0 -0.3220079531 -0.1697680009
855750000.0 -0.3791876487 -0.1207100491
865700000.0 -0.4218996731 -0.0644248071
875650000.0 -0.4456978794 -0.001251777
885600000.0 -0.4479010355 0.06863611
895550000.0 -0.4295789591 0.1446576849
905500000.0 -0.3924009478 0.2252778638
915450000.0 -0.3393035847 0.3053424367
925400000.0 -0.2708980446 0.374998519
935350000.0 -0.1953092469 0.4341866352
945300000.0 -0.1000737653 0.4738593759
955250000.0 0.0136694601 0.4805833801
965200000.0 0.142165824 0.446498289
975150000.0 0.2781607925 0.3666020673
985100000.0 0.4057484467 0.2353013333
995050000.0 0.4999497184 0.0503605304
1005000000.0 0.5234676027 -0.1793670961
1014950000.0 0.4393427237 -0.4208895019
1024900000.0 0.2348723693 -0.6178373509
1034850000.0 -0.0602165814 -0.7135404722
1044800000.0 -0.382978374 -0.6756203791
1054750000.0 -0.6620291903 -0.5074292429
1064700000.0 -0.8246999168 -0.2395281453
1074650000.0 -0.8684278376 0.0155752344
1084600000.0 -0.8186702954 0.2900372119
1094550000.0 -0.6648410135 0.5190369785
1104500000.0 -0.4525098617 0.6863825332
1114450000.0 -0.2000603708 0.7766823951
1124400000.0 0.0639585936 0.7723951047
1134350000.0 0.2995636981 0.6644043418
1144300000.0 0.4528577595 0.4673294376
1154250000.0 0.4963498785 0.3079660637
1164200000.0 0.5667934897 0.1094697458
1174150000.0 0.5543644923 -0.1020434431
1184100000.0 0.4890702214 -0.2847113388
1194050000.0 0.3774504799 -0.4262650693
1204000000.0 0.2387275581 -0.5131101727
1213950000.0 0.0917591288 -0.5505960435
1223900000.0 -0.0496113673 -0.5523618242
1233850000.0 -0.1785465369 -0.5314485765
1243800000.0 -0.2921172348 -0.4972187924
1253750000.0 -0.3887854331 -0.4532890785
1263700000.0 -0.4652846421 -0.4003984253
1273650000.0 -0.5237375719 -0.3392817365
1283600000.0 -0.5635114233 -0.2692811385
1293550000.0 -0.5901094391 -0.1928256075
1303500000.0 -0.6084887579 -0.1140812875
1313450000.0 -0.6223229054 -0.0357944177
1323400000.0 -0.6341911595 0.0388935446
1333350000.0 -0.6422111656 0.1083182737
1343300000.0 -0.6425486045 0.1726465602
1353250000.0 -0.6325152936 0.2305267549
1363200000.0 -0.6091873893 0.2842222828
1373150000.0 -0.5725424662 0.3355938524
1383100000.0 -0.5277414657 0.385912714
1393050000.0 -0.4793739235 0.436323079
1403000000.0 -0.4309933851 0.4851074549
1412950000.0 -0.3835644963 0.5298526547
1422900000.0 -0.3373458167 0.5681068573
1432850000.0 -0.2900525809 0.5944509941
1442800000.0 -0.2404183819 0.6098575002
1452750000.0 -0.186619456 0.6160836218
1462700000.0 -0.1269324616 0.6173848341
1472650000.0 -0.0600335416 0.6175024995
1482600000.0 0.0125164412 0.6171068231
1492550000.0 0.0861664265 0.6130307075
1502500000.0 0.1575848224 0.602648451
1512450000.0 0.2242435332 0.5813096384
1522400000.0 0.2837287964 0.5469455076
1532350000.0 0.3367367326 0.4965524189
1542300000.0 0.384690592 0.4308006784
1552250000.0 0.4280299831 0.3534383743
1562200000.0 0.4680544506 0.2698445149
1572150000.0 0.5008170726 0.1841903181
1582100000.0 0.5223110156 0.0975184645
1592050000.0 0.5288144082 0.0114944265
1602000000.0 0.5154484863 -0.0743901684
1611950000.0 0.4803043591 -0.1571577244
1621900000.0 0.4258409204 -0.2361096466
1631850000.0 0.3583493166 -0.3107009786
1641800000.0 0.284185692 -0.379309649
1651750000.0 0.2065089332 -0.4383599674
1661700000.0 0.1264241634 -0.4832605517
1671650000.0 0.0450489816 -0.508912452
1681600000.0 -0.0373594149 -0.5143117037
1691550000.0 -0.1193091671 -0.5010345506
1701500000.0 -0.2012443727 -0.4735202834
1711450000.0 -0.2810946331 -0.437468145
1721400000.0 -0.3567905226 -0.3972369074
1731350000.0 -0.4248642757 -0.3552961538
1741300000.0 -0.4819566584 -0.310246668
1751250000.0 -0.5251087723 -0.2592200456
1761200000.0 -0.5522181848 -0.2027277216
1771150000.0 -0.5655759237 -0.1399406309
1781100000.0 -0.5709095293 -0.0731704588
1791050000.0 -0.5724170984 -0.0054955695
1801000000.0 -0.5738784474 0.0602669783
1810950000.0 -0.575227213 0.1228386728
1820900000.0 -0.5735426611 0.180405892
1830850000.0 -0.5628574189 0.2314232582
1840800000.0 -0.5361536098 0.2783596342
1850750000.0 -0.4734884636 0.3139865857
1860700000.0 -0.4669768992 0.2923785946
1870650000.0 -0.4335384939 0.3485437504
1880600000.0 -0.3860159216 0.3864229535
1890550000.0 -0.3422780825 0.4174698283
1900500000.0 -0.3035864009 0.4421073476
1910450000.0 -0.2685618737 0.4581776028
1920400000.0 -0.234495094 0.4637249474
1930350000.0 -0.1973142261 0.457860014
1940300000.0 -0.1560050985 0.44141977
1950250000.0 -0.1103204221 0.4168748916
1960200000.0 -0.0643094514 0.3883360459
1970150000.0 -0.0237773252 0.3566194597
1980100000.0 0.0074315458 0.3235897624
1990050000.0 0.0243273646 0.2866591435
2000000000.0 0.0252000854 0.2431368527
