!Created with skrf (http://scikit-rf.org).
# GHz S RI R 50.0 
!freq ReS11 ImS11
10000000.0 -0.9899601353 0.0699210129
14975000.0 -0.98741908 0.104732716
19950000.0 -0.9841582217 0.1399199406
24925000.0 -0.9791058589 0.1763233728
29900000.0 -0.9730229368 0.2126003124
34875000.0 -0.9641064299 0.2507346983
39850000.0 -0.9522023218 0.290652315
44825000.0 -0.9370774039 0.3325782124
49800000.0 -0.9187978698 0.3769807101
54775000.0 -0.8965857973 0.4239557182
59750000.0 -0.8697560819 0.4737459977
64725000.0 -0.837956896 0.5263056979
69700000.0 -0.7997992035 0.5815843985
74675000.0 -0.7542427156 0.6394162849
79650000.0 -0.6996347738 0.6990868005
84625000.0 -0.6348445559 0.7596849544
89600000.0 -0.5582172498 0.8193791296
94575000.0 -0.468577028 0.8756912813
99550000.0 -0.3646321359 0.9256751849
104525000.0 -0.2457159503 0.9654060756
109500000.0 -0.1126991639 0.9898382953
114475000.0 0.0326230113 0.994373084
119450000.0 0.1858738514 0.975062209
124425000.0 0.3410951854 0.9291797716
129400000.0 0.4922769796 0.8555582645
134375000.0 0.6234271549 0.7623101277
139350000.0 0.7464374234 0.6411816266
144325000.0 0.8431866192 0.5063958392
149300000.0 0.9143836726 0.3631920661
154275000.0 0.9600396915 0.2183118619
159250000.0 0.9822664239 0.0771258889
164225000.0 0.9838567943 -0.0554669097
169200000.0 0.9687285588 -0.1771546671
174175000.0 0.9402601465 -0.2863588053
179150000.0 0.9028197213 -0.3827718137
184125000.0 0.859712365 -0.4669524499
189100000.0 0.8134196538 -0.5400104003
194075000.0 0.765609548 -0.6033955841
199050000.0 0.7179135792 -0.6580899689
204025000.0 0.670950931 -0.7055734172
209000000.0 0.6258093445 -0.7464185939
213975000.0 0.5818913982 -0.7822275575
218950000.0 0.5396705201 -0.8129497801
223925000.0 0.49936499 -0.8398193536
228900000.0 0.4602756196 -0.8628415437
233875000.0 0.422536201 -0.8824316722
238850000.0 0.3854181666 -0.8991057492
243825000.0 0.3480810857 -0.9128503503
248800000.0 0.3201995537 -0.9139855858
253775000.0 0.280132034 -0.9316607639
258750000.0 0.2435773917 -0.9391224844
263725000.0 0.2071124676 -0.9446501586
268700000.0 0.170420604 -0.9487141963
273675000.0 0.1330834296 -0.9512452228
278650000.0 0.0950107609 -0.9520367656
283625000.0 0.0561001666 -0.9512564453
288600000.0 0.0162324028 -0.9485171612
293575000.0 -0.0247193498 -0.9437564312
298550000.0 -0.0667078948 -0.935778992
303525000.0 -0.1098216644 -0.9245685698
308500000.0 -0.1538432069 -0.9088367023
313475000.0 -0.1984322695 -0.8878652393
318450000.0 -0.2434438044 -0.8608191381
323425000.0 -0.2882591062 -0.8270283732
328400000.0 -0.3321115464 -0.7861203993
333375000.0 -0.3738139499 -0.7378491251
338350000.0 -0.4125137777 -0.6821559556
343325000.0 -0.4464584394 -0.6192389969
348300000.0 -0.4737059331 -0.5494751043
353275000.0 -0.4920543743 -0.4747351917
358250000.0 -0.5003787694 -0.3965933882
363225000.0 -0.4977426782 -0.3173192575
368200000.0 -0.4834993286 -0.239665008
373175000.0 -0.4584276884 -0.1664720934
378150000.0 -0.423677323 -0.1001052623
383125000.0 -0.3806605068 -0.0418205988
388100000.0 -0.331691006 0.0075035088
393075000.0 -0.2788358948 0.0471299452
398050000.0 -0.2244219951 0.0772474539
403025000.0 -0.1704404136 0.0988459993
408000000.0 -0.1187103428 0.1127684144
412975000.0 -0.0707780414 0.1196913673
417950000.0 -0.0270136295 0.1214144228
422925000.0 0.0122288375 0.1188621448
427900000.0 0.0463385154 0.1127572072
432875000.0 0.0755436708 0.1043464149
437850000.0 0.0995674866 0.0946316209
442825000.0 0.1193038462 0.0835902243
447800000.0 0.1350916166 0.0713455933
452775000.0 0.1473222051 0.0580316455
457750000.0 0.1558964865 0.0446671037
462725000.0 0.1616227709 0.0318111152
467700000.0 0.1648806436 0.0195881542
472675000.0 0.1659325257 0.0080261179
477650000.0 0.1652015134 -0.0024481299
482625000.0 0.163055931 -0.011677555
487600000.0 0.1593900271 -0.019494568
492575000.0 0.155956659 -0.0256802857
497550000.0 0.147161998 -0.0350567771
502525000.0 0.1387834616 -0.0362656405
507500000.0 0.130096834 -0.037580672
512475000.0 0.1201633561 -0.0379538745
517450000.0 0.1093229266 -0.0372085757
522425000.0 0.0974818407 -0.035489308
527400000.0 0.085133134 -0.0328469984
532375000.0 0.0723623338 -0.0292398507
537350000.0 0.0596333916 -0.0247425805
542325000.0 0.0469779741 -0.0193993183
547300000.0 0.0354044039 -0.013291606
552275000.0 0.0242872923 -0.0071625854
557250000.0 0.0135812644 -0.0002970093
562225000.0 0.0034894809 0.0071969879
567200000.0 -0.0054694874 0.0154281055
572175000.0 -0.0134133983 0.0246756987
577150000.0 -0.0204561916 0.0346951941
582125000.0 -0.0269116323 0.0452851527
587100000.0 -0.0326727734 0.0567434611
592075000.0 -0.0380137051 0.0683504606
597050000.0 -0.0427575275 0.0800195011
602025000.0 -0.0467629431 0.0917427481
607000000.0 -0.0504328277 0.1032110887
611975000.0 -0.0531410534 0.114213007
616950000.0 -0.0551296309 0.1246661312
621925000.0 -0.0563660436 0.1343087053
626900000.0 -0.0563218714 0.1432849754
631875000.0 -0.0552541619 0.1509087967
636850000.0 -0.0536190455 0.1579429768
641825000.0 -0.0504997186 0.1640779056
646800000.0 -0.0462190975 0.1693983299
651775000.0 -0.0406241147 0.1740791077
656750000.0 -0.0340874954 0.1784804345
661725000.0 -0.027062522 0.1819919597
666700000.0 -0.0195165776 0.1848478264
671675000.0 -0.0112000863 0.186827221
676650000.0 -0.0026084315 0.1881758011
681625000.0 0.0064821675 0.1887210276
686600000.0 0.0153244891 0.188493557
691575000.0 0.0239537482 0.1869240172
696550000.0 0.0328677521 0.1834223242
701525000.0 0.0418143112 0.1787797558
706500000.0 0.0506881959 0.1723477202
711475000.0 0.0599471318 0.1641894328
716450000.0 0.0692844832 0.1546043981
721425000.0 0.0787072255 0.1435046831
726400000.0 0.0882943525 0.13111273
731375000.0 0.0974673901 0.1171686653
736350000.0 0.1071185203 0.1018424858
741325000.0 0.1164704422 0.0853882003
746300000.0 0.1250229932 0.0685193534
751275000.0 0.1327531053 0.0501596428
756250000.0 0.1396366955 0.0317228947
761225000.0 0.1454315717 0.0121316578
766200000.0 0.1495985243 -0.007760794
771175000.0 0.1517138405 -0.0289187849
776150000.0 0.1526750668 -0.0505797214
781125000.0 0.151597294 -0.0730831989
786100000.0 0.1488842388 -0.0963030772
791075000.0 0.1444979288 -0.1198573238
796050000.0 0.1385396541 -0.1439349176
801025000.0 0.1310486767 -0.1682431704
806000000.0 0.1219307133 -0.1921911868
810975000.0 0.111212986 -0.2159166922
815950000.0 0.0994271075 -0.2393043341
820925000.0 0.0865359598 -0.2618619774
825900000.0 0.072493641 -0.282948196
830875000.0 0.0570108549 -0.3024698639
835850000.0 0.0401941861 -0.3203615418
840825000.0 0.022150636 -0.3366977566
845800000.0 0.0027175028 -0.3509064531
850775000.0 -0.0183951755 -0.3632903277
855750000.0 -0.0406122641 -0.3743812972
860725000.0 -0.0642265276 -0.3837791712
865700000.0 -0.088554962 -0.3912684849
870675000.0 -0.1137111779 -0.3970842952
875650000.0 -0.1395867821 -0.4011830787
880625000.0 -0.1662045697 -0.4033548532
885600000.0 -0.1930421242 -0.4038869943
890575000.0 -0.2198991738 -0.4019547401
895550000.0 -0.2465196571 -0.397703148
900525000.0 -0.2728447574 -0.3905506354
905500000.0 -0.2991090744 -0.3809086812
910475000.0 -0.3248617184 -0.3677059779
915450000.0 -0.3496973687 -0.350872193
920425000.0 -0.3739751873 -0.3304667079
925400000.0 -0.3983320016 -0.3058238337
930375000.0 -0.4213615304 -0.277049485
935350000.0 -0.4432344181 -0.2439868945
940325000.0 -0.4643353883 -0.2071650994
945300000.0 -0.4835773382 -0.1656866312
950275000.0 -0.4992065014 -0.1197744795
955250000.0 -0.5122179908 -0.0695250271
960225000.0 -0.5204371765 -0.0143244878
965200000.0 -0.5230402834 0.0449671163
970175000.0 -0.5188217893 0.1081631091
975150000.0 -0.505354618 0.1747649369
980125000.0 -0.4813096336 0.2439427932
985100000.0 -0.4451415134 0.3147581365
990075000.0 -0.394620999 0.3856541127
995050000.0 -0.3300135892 0.4538303512
1000025000.0 -0.2498983961 0.5166549029
1005000000.0 -0.1532397175 0.5696876427
1009975000.0 -0.0451379275 0.6104135206
1014950000.0 0.0732889203 0.6346255838
1019925000.0 0.1964055631 0.6392310943
1024900000.0 0.3182984113 0.62225554
1029875000.0 0.4301225862 0.5834036924
1034850000.0 0.5281456027 0.5251856377
1039825000.0 0.6106109691 0.4514270086
1044800000.0 0.681494922 0.3653537758
1049775000.0 0.7454581786 0.2688324869
1054750000.0 0.8029119474 0.1591799683
1059725000.0 0.8466032569 0.0356820191
1064700000.0 0.8698476889 -0.096373953
1069675000.0 0.8665195827 -0.2323881467
1074650000.0 0.8333978917 -0.3652172389
1079625000.0 0.766288946 -0.4856972759
1084600000.0 0.6585355527 -0.5618770308
1089575000.0 0.6221126257 -0.5621915101
1094550000.0 0.5919749993 -0.6704511463
1099525000.0 0.498735571 -0.7536379992
1104500000.0 0.393777762 -0.804917849
1109475000.0 0.286633899 -0.8340118724
1114450000.0 0.1805694876 -0.8451363361
1119425000.0 0.0779036425 -0.8414386388
1124400000.0 -0.019688428 -0.8251422084
1129375000.0 -0.1111735353 -0.7987313692
1134350000.0 -0.1954886935 -0.7633953295
1139325000.0 -0.2715686618 -0.7205364712
1144300000.0 -0.3400745757 -0.6713277767
1149275000.0 -0.3996981253 -0.6183125371
1154250000.0 -0.4514012359 -0.5620911309
1159225000.0 -0.493986909 -0.50397197
1164200000.0 -0.5281361174 -0.4453089955
1169175000.0 -0.5556006818 -0.3888230034
1174150000.0 -0.5778545679 -0.3341540364
1179125000.0 -0.5967329085 -0.2793188496
1184100000.0 -0.6111125872 -0.2245291683
1189075000.0 -0.6217496835 -0.1710972661
1194050000.0 -0.628938668 -0.1193724478
1199025000.0 -0.6320121588 -0.0697606242
1204000000.0 -0.6320263549 -0.0228286772
1208975000.0 -0.6301126587 0.021416316
1213950000.0 -0.6265343019 0.0640030912
1218925000.0 -0.6210230796 0.103358573
1223900000.0 -0.614355185 0.1394914524
1228875000.0 -0.6066021697 0.1736580907
1233850000.0 -0.5971996229 0.2053391735
1238825000.0 -0.5871269256 0.2346316712
1243800000.0 -0.5756374531 0.2622633969
1248775000.0 -0.5640016794 0.2876652811
1253750000.0 -0.5519611111 0.3111725252
1258725000.0 -0.539528069 0.333984945
1263700000.0 -0.5276778287 0.3549930804
1268675000.0 -0.5175533537 0.3745543028
1273650000.0 -0.5073981276 0.3934532118
1278625000.0 -0.4986000983 0.4102588137
1283600000.0 -0.4904656727 0.4256290919
1288575000.0 -0.4829041817 0.440115215
1293550000.0 -0.4762315835 0.4537319522
1298525000.0 -0.4700613301 0.4656958986
1303500000.0 -0.463904808 0.4767071941
1308475000.0 -0.4593234641 0.4865939424
1313450000.0 -0.4536548032 0.4949642815
1318425000.0 -0.4475338646 0.5028148265
1323400000.0 -0.4414817314 0.5103053615
1328375000.0 -0.4353699155 0.5168601524
1333350000.0 -0.4280796656 0.5235280639
1338325000.0 -0.4205867901 0.5296233811
1343300000.0 -0.4128492416 0.5357659232
1348275000.0 -0.4048267107 0.5425903822
1353250000.0 -0.3971973962 0.5495154035
1358225000.0 -0.3896081178 0.5559825208
1363200000.0 -0.3826003402 0.5624002815
1368175000.0 -0.3760015749 0.5689995754
1373150000.0 -0.3689613669 0.5748972656
1378125000.0 -0.3621193753 0.580490746
1383100000.0 -0.3565244954 0.5853814506
1388075000.0 -0.3504716946 0.5897029856
1393050000.0 -0.3441395438 0.5929475358
1398025000.0 -0.3382725786 0.5953346329
1403000000.0 -0.3316832892 0.5966600229
1407975000.0 -0.3247611828 0.5984659176
1412950000.0 -0.3175214068 0.5995656394
1417925000.0 -0.3098575877 0.599633152
1422900000.0 -0.3019041082 0.599991757
1427875000.0 -0.2933400972 0.6016339302
1432850000.0 -0.2843894633 0.6020824626
1437825000.0 -0.2756443746 0.6028367518
1442800000.0 -0.2666695099 0.604428477
1447775000.0 -0.2572272235 0.6054987189
1452750000.0 -0.247272209 0.6058629239
1457725000.0 -0.2370244768 0.6069011366
1462700000.0 -0.2258851754 0.6082513945
1467675000.0 -0.21483279 0.6079738694
1472650000.0 -0.2025264242 0.6077260804
1477625000.0 -0.1896819224 0.6068112887
1482600000.0 -0.176569274 0.6054121914
1487575000.0 -0.1617333581 0.6029284143
1492550000.0 -0.1458090618 0.5997341557
1497525000.0 -0.1295823876 0.5963423794
1502500000.0 -0.1120990075 0.5928969705
1507475000.0 -0.0930628935 0.5897732213
1512450000.0 -0.0741783116 0.5860151545
1517425000.0 -0.0553168741 0.5823970899
1522400000.0 -0.0362291761 0.5794744339
1527375000.0 -0.0167472824 0.5756514517
1532350000.0 0.0021066742 0.5709515461
1537325000.0 0.0210045241 0.5660555768
1542300000.0 0.0405036459 0.5601347008
1547275000.0 0.0594950408 0.5523122041
1552250000.0 0.0780068547 0.5446686083
1557225000.0 0.0967516891 0.5348854558
1562200000.0 0.1151486448 0.5232960036
1567175000.0 0.1334808362 0.5115465783
1572150000.0 0.152287602 0.4982101054
1577125000.0 0.1713307564 0.483672192
1582100000.0 0.1906587347 0.469025022
1587075000.0 0.2108532294 0.4540165267
1592050000.0 0.2316897984 0.4389133444
1597025000.0 0.2524545006 0.4239657447
1602000000.0 0.2740350707 0.4094434351
1606975000.0 0.2958151906 0.3951781131
1611950000.0 0.3176485856 0.3810764123
1616925000.0 0.3389558896 0.3665024623
1621900000.0 0.3598986587 0.3520708356
1626875000.0 0.379403921 0.3378901119
1631850000.0 0.3982965053 0.323016903
1636825000.0 0.4152357529 0.3079138958
1641800000.0 0.432088004 0.2924373003
1646775000.0 0.4479949252 0.277050717
1651750000.0 0.4621629806 0.2610317496
1656725000.0 0.4760989891 0.2450984302
1661700000.0 0.4894192166 0.2295571297
1666675000.0 0.5019226355 0.2142397539
1671650000.0 0.5138629519 0.1991372354
1676625000.0 0.5252899701 0.1850328472
1681600000.0 0.5363201031 0.1715572085
1686575000.0 0.547214068 0.1584715976
1691550000.0 0.5575658623 0.1463424779
1696525000.0 0.566725748 0.1346586705
1701500000.0 0.575700914 0.123642916
1706475000.0 0.5834708883 0.1126399266
1711450000.0 0.5905995244 0.1019498887
1716425000.0 0.5967045347 0.0919215184
1721400000.0 0.6021626677 0.0819403097
1726375000.0 0.6068929884 0.0713466367
1731350000.0 0.6108294188 0.0608835157
1736325000.0 0.6151885968 0.0508369721
1741300000.0 0.6194744164 0.0410138249
1746275000.0 0.6241425651 0.0316480272
1751250000.0 0.6280967291 0.0227472349
1756225000.0 0.6326176007 0.0150732614
1761200000.0 0.6372478509 0.0082829343
1766175000.0 0.6415743731 0.0024768569
1771150000.0 0.6459350535 -0.0022504919
1776125000.0 0.6503132146 -0.0056353868
1781100000.0 0.6537537576 -0.007904958
1786075000.0 0.6568863065 -0.0097720374
1791050000.0 0.6586759338 -0.0107444126
1796025000.0 0.6601825523 -0.0109391049
1801000000.0 0.6608664633 -0.0105933653
1805975000.0 0.6600363571 -0.0107470752
1810950000.0 0.6584129902 -0.0104706073
1815925000.0 0.6567080086 -0.0101895185
1820900000.0 0.6544874916 -0.0104080375
1825875000.0 0.6521995916 -0.0100868387
1830850000.0 0.6482118071 -0.0100313633
1835825000.0 0.6457622597 -0.0095734867
1840800000.0 0.6436527711 -0.0087227573
1845775000.0 0.6407960572 -0.0071199728
1850750000.0 0.6384303159 -0.0050852266
1855725000.0 0.6364288901 -0.0027817801
1860700000.0 0.6329119397 -0.0003723277
1865675000.0 0.6289978997 0.0027243645
1870650000.0 0.6241954018 0.00616718
1875625000.0 0.6183771293 0.0095282522
1880600000.0 0.6108302476 0.0128530889
1885575000.0 0.6020229784 0.0165375528
1890550000.0 0.5923606618 0.0198857057
1895525000.0 0.5818861292 0.0227263546
1900500000.0 0.5696439826 0.0255106403
1905475000.0 0.5571894176 0.0275920883
1910450000.0 0.5444307042 0.0294739312
1915425000.0 0.5318193316 0.0315428767
1920400000.0 0.5180967796 0.0331796943
1925375000.0 0.5048241418 0.0354146388
1930350000.0 0.4909506074 0.0382646232
1935325000.0 0.477256048 0.0409589839
1940300000.0 0.4624848129 0.0436542531
1945275000.0 0.4471401589 0.0478665685
1950250000.0 0.4313726456 0.0524545124
1955225000.0 0.4136177475 0.0571128009
1960200000.0 0.3946050783 0.0618633684
1965175000.0 0.3741744866 0.0681742908
1970150000.0 0.3513749651 0.0737658723
1975125000.0 0.326736662 0.0788257391
1980100000.0 0.3002980033 0.0845866227
1985075000.0 0.2718033175 0.0904712488
1990050000.0 0.2419696113 0.0949302161
1995025000.0 0.2098274732 0.0995549332
2000000000.0 0.1756778794 0.1053433696
