!Created with skrf (http://scikit-rf.org).
# GHz S RI R 50.0 
!freq ReS11 ImS11
10000000.0 -0.7929632124 0.6003937657
19950000.0 -0.2854859879 0.94444369
29900000.0 0.3253866893 0.9292352862
39850000.0 0.8158904965 0.5556757775
49800000.0 0.9904646543 -0.0476363801
59750000.0 0.7570357987 -0.6465603463
69700000.0 0.1871154269 -0.9772308376
79650000.0 -0.4790582585 -0.864313821
89600000.0 -0.9213308325 -0.3294799619
99550000.0 -0.8915628028 0.3851354112
109500000.0 -0.359527651 0.9011319119
119450000.0 0.4125487948 0.8834663169
129400000.0 0.939812517 0.2743402395
139350000.0 0.8212944128 -0.5320404902
149300000.0 0.1180179568 -0.9605276253
159250000.0 -0.6473255349 -0.7030282336
169200000.0 -0.950350657 0.016772965
179150000.0 -0.6428732889 0.702620554
189100000.0 0.0335207311 0.9563013766
199050000.0 0.672840373 0.6825346924
209000000.0 0.9505117621 0.0696802995
218950000.0 0.7662339269 -0.5507283824
228900000.0 0.2421905473 -0.9025015534
238850000.0 -0.3756771261 -0.8490649057
248800000.0 -0.8092799936 -0.3522087179
258750000.0 -0.9173350898 0.1386961947
268700000.0 -0.6392023887 0.6728318997
278650000.0 -0.0955196026 0.9163611267
288600000.0 0.477936015 0.7699313739
298550000.0 0.8314938248 0.3006249672
308500000.0 0.8093679271 -0.2827349175
318450000.0 0.4227084388 -0.7110084413
328400000.0 -0.1405649561 -0.7813112761
338350000.0 -0.5929887866 -0.4641104486
348300000.0 -0.6968198006 0.053012768
358250000.0 -0.4255209274 0.4631134244
368200000.0 0.0127848916 0.5451299346
378150000.0 0.3322250763 0.3146197744
388100000.0 0.3748189511 -0.0230352978
398050000.0 0.1890008784 -0.2432050914
408000000.0 -0.0514735379 -0.2523790287
417950000.0 -0.191303676 -0.1091302527
427900000.0 -0.1819919736 0.0578406035
437850000.0 -0.0730945136 0.1471880744
447800000.0 0.046662314 0.1325076522
457750000.0 0.1095955023 0.0503553236
467700000.0 0.0973951418 -0.037218386
477650000.0 0.0397598945 -0.0821172689
487600000.0 -0.0177980854 -0.0732417327
497550000.0 -0.0184655679 -0.0362072663
507500000.0 -0.0631087891 -0.0166513006
517450000.0 -0.0342687002 0.0017146505
527400000.0 -0.0206122522 -0.0098597794
537350000.0 -0.0330471905 -0.025138939
547300000.0 -0.0638945184 -0.0213119717
557250000.0 -0.0872297615 0.0194880945
567200000.0 -0.0723654169 0.0753676415
577150000.0 -0.0142873948 0.115878453
587100000.0 0.0674480805 0.1106994673
597050000.0 0.1378724844 0.0496019451
607000000.0 0.1586988443 -0.0501664343
616950000.0 0.1129169151 -0.1488565691
626900000.0 0.0135421651 -0.2026853314
636850000.0 -0.1009761549 -0.1858300777
646800000.0 -0.1817087346 -0.1017298129
656750000.0 -0.1953622283 0.0153540338
666700000.0 -0.1347151638 0.1167787258
676650000.0 -0.0263808872 0.1604816072
686600000.0 0.0833308501 0.1288287555
696550000.0 0.1470992234 0.0396154752
706500000.0 0.1397078415 -0.0619540733
716450000.0 0.0724735245 -0.1277733099
726400000.0 -0.0155403167 -0.1271056643
736350000.0 -0.0726897029 -0.0645802824
746300000.0 -0.0646465478 0.0201782557
756250000.0 0.0069531883 0.0731767139
766200000.0 0.0998296557 0.0551505292
776150000.0 0.1540614582 -0.0320994166
786100000.0 0.1263585829 -0.1429050334
796050000.0 0.0162120111 -0.210561824
806000000.0 -0.1292784195 -0.1817586008
815950000.0 -0.2332073275 -0.0490124363
825900000.0 -0.2284493768 0.1383555435
835850000.0 -0.097036991 0.293353412
845800000.0 0.1139886679 0.335250774
855750000.0 0.3149257324 0.2331149815
865700000.0 0.4139901802 0.0199026611
875650000.0 0.3586260782 -0.2198041856
885600000.0 0.1570257257 -0.382823727
895550000.0 -0.1146860292 -0.3849255906
905500000.0 -0.3367734972 -0.2107387833
915450000.0 -0.3995306981 0.0725699332
925400000.0 -0.2631748551 0.332742902
935350000.0 0.0122415934 0.4390562831
945300000.0 0.2913227445 0.329216462
955250000.0 0.4205386423 0.0452822079
965200000.0 0.2979343063 -0.2646484452
975150000.0 -0.0444626448 -0.3891175742
985100000.0 -0.3875275974 -0.1813550615
995050000.0 -0.4371865504 0.2549973994
1005000000.0 -0.0908385119 0.5878043906
1014950000.0 0.4315240407 0.5098368172
1024900000.0 0.7232093937 0.0069599392
1034850000.0 0.4972702548 -0.5865428473
1044800000.0 -0.1408179814 -0.7967145942
1054750000.0 -0.7168347817 -0.439080102
1064700000.0 -0.8166996295 0.1991678381
1074650000.0 -0.5052169488 0.6778646758
1084600000.0 0.0501077192 0.8304498217
1094550000.0 0.5718116291 0.5831965395
1104500000.0 0.7757883492 0.0289124185
1114450000.0 0.5251479565 -0.5045129101
1124400000.0 -0.015156401 -0.6855952062
1134350000.0 -0.4855099201 -0.4380717038
1144300000.0 -0.626973443 0.028476958
1154250000.0 -0.4183712606 0.4262382467
1164200000.0 -0.0171954719 0.5565292841
1174150000.0 0.347878597 0.3768706757
1184100000.0 0.4803751678 -0.0040960398
1194050000.0 0.3057059907 -0.3618547771
1204000000.0 -0.0565604618 -0.4900030099
1213950000.0 -0.3923966315 -0.3496723995
1223900000.0 -0.5530837983 -0.0410003798
1233850000.0 -0.4903551389 0.2921442732
1243800000.0 -0.2374784019 0.5202035674
1253750000.0 0.1100848013 0.5518735247
1263700000.0 0.4169280604 0.3626922506
1273650000.0 0.5515178456 0.0203151239
1283600000.0 0.4578073076 -0.334663313
1293550000.0 0.1858790134 -0.5656139445
1303500000.0 -0.1559741349 -0.6063387986
1313450000.0 -0.4568406291 -0.4611839788
1323400000.0 -0.6341500649 -0.1827185503
1333350000.0 -0.6381967782 0.1514660794
1343300000.0 -0.4564046275 0.4469127909
1353250000.0 -0.1285922135 0.6008927883
1363200000.0 0.2409162261 0.5439648453
1373150000.0 0.5172098664 0.2873939495
1383100000.0 0.6017865497 -0.0716994011
1393050000.0 0.4831879817 -0.4047474399
1403000000.0 0.218594971 -0.6140011803
1412950000.0 -0.1044054113 -0.6527005143
1422900000.0 -0.3966920372 -0.5205346516
1432850000.0 -0.5777846355 -0.2517075373
1442800000.0 -0.5880211033 0.080846734
1452750000.0 -0.4113482344 0.3732840603
1462700000.0 -0.0970472188 0.5230412808
1472650000.0 0.245099843 0.4729183958
1482600000.0 0.4928875101 0.2464369826
1492550000.0 0.5688800861 -0.0640816449
1502500000.0 0.4660020645 -0.3504611189
1512450000.0 0.2307078747 -0.5270533949
1522400000.0 -0.0615382336 -0.5431848056
1532350000.0 -0.315005978 -0.387519575
1542300000.0 -0.4330494533 -0.1070958614
1552250000.0 -0.3604267721 0.191254333
1562200000.0 -0.1255752964 0.3811937739
1572150000.0 0.1638529414 0.38904637
1582100000.0 0.3864935152 0.2289544555
1592050000.0 0.4637998949 -0.0222444111
1602000000.0 0.3753402486 -0.2646937802
1611950000.0 0.1545766325 -0.4060841027
1621900000.0 -0.1162685033 -0.3831427021
1631850000.0 -0.3235515505 -0.1902986961
1641800000.0 -0.3673232837 0.0981841855
1651750000.0 -0.2210234456 0.3526592903
1661700000.0 0.0479116028 0.4607744493
1671650000.0 0.3210668225 0.3855106039
1681600000.0 0.4937226551 0.165674098
1691550000.0 0.4986190763 -0.1126404085
1701500000.0 0.3822398619 -0.3217461818
1711450000.0 0.124487166 -0.4930918443
1721400000.0 -0.2061022816 -0.4585439593
1731350000.0 -0.4554094609 -0.2264673936
1741300000.0 -0.5181605014 0.1087005911
1751250000.0 -0.3863316585 0.403031273
1761200000.0 -0.124769284 0.5840864744
1771150000.0 0.1866433531 0.5896336336
1781100000.0 0.4496766756 0.4357610213
1791050000.0 0.5970752943 0.1679304552
1801000000.0 0.5838707365 -0.1467087995
1810950000.0 0.398278823 -0.4175362859
1820900000.0 0.0836671483 -0.5475042011
1830850000.0 -0.2546975171 -0.4797305304
1840800000.0 -0.4935355351 -0.239974382
1850750000.0 -0.5604579998 0.0763511995
1860700000.0 -0.4576945066 0.361379196
1870650000.0 -0.2378869101 0.5425410249
1880600000.0 0.0302249005 0.5863778999
1890550000.0 0.2783094096 0.490551551
1900500000.0 0.4426089087 0.2793922476
1910450000.0 0.4687889828 0.0102064994
1920400000.0 0.3434488527 -0.2293848023
1930350000.0 0.1129456613 -0.3554486156
1940300000.0 -0.131599448 -0.334952475
1950250000.0 -0.3046497593 -0.1997503503
1960200000.0 -0.3675342002 -0.0212637354
1970150000.0 -0.3300551972 0.1339963895
1980100000.0 -0.2313213745 0.2214105327
1990050000.0 -0.1258912476 0.2268150809
2000000000.0 -0.0680044086 0.1741628822
