!Created with skrf (http://scikit-rf.org).
# GHz S RI R 50.0 
!freq ReS11 ImS11
10000000.0 -0.8257385613 0.6146132059
19950000.0 -0.300138564 0.9555040027
29900000.0 0.3199210912 0.9267216551
39850000.0 0.8125849657 0.5416848556
49800000.0 0.9893278427 -0.0703953848
59750000.0 0.7543171698 -0.6820752957
69700000.0 0.1693527178 -1.020323036
79650000.0 -0.5140585807 -0.8914249911
89600000.0 -0.9481167475 -0.3252196209
99550000.0 -0.8840816457 0.4038642819
109500000.0 -0.3187218404 0.9056868193
119450000.0 0.4687086509 0.8579827264
129400000.0 0.9825698401 0.2220980507
139350000.0 0.8168783336 -0.6117643301
149300000.0 0.0627037914 -0.9946241151
159250000.0 -0.6901979465 -0.6654280785
169200000.0 -0.9368830131 0.0834338211
179150000.0 -0.5837751913 0.7534636153
189100000.0 0.1137386499 0.9743388427
199050000.0 0.7483713678 0.6610921384
209000000.0 0.9904888234 0.0193746528
218950000.0 0.7575487327 -0.5941895779
228900000.0 0.203665234 -0.9108335966
238850000.0 -0.4187083486 -0.8173049691
248800000.0 -0.7220211882 -0.4734424983
258750000.0 -0.9269872331 0.1894827279
268700000.0 -0.6318300694 0.7292702471
278650000.0 -0.0678847116 0.960635432
288600000.0 0.5106253185 0.7850091132
298550000.0 0.8460429583 0.2906949082
308500000.0 0.7991731752 -0.2983655849
318450000.0 0.3969490587 -0.7214269756
328400000.0 -0.1752503319 -0.7867847794
338350000.0 -0.6347086882 -0.4614742607
348300000.0 -0.735007098 0.0685458326
358250000.0 -0.448043794 0.4813083247
368200000.0 0.0032024018 0.5518008925
378150000.0 0.3241811639 0.3079400572
388100000.0 0.3635479255 -0.0375917464
398050000.0 0.1743729522 -0.2591650016
408000000.0 -0.0648169386 -0.26474342
417950000.0 -0.1965558766 -0.1192192148
427900000.0 -0.1757554782 0.0434206323
437850000.0 -0.0596105627 0.123568605
447800000.0 0.0586753535 0.0990332143
457750000.0 0.1144847629 0.0120060651
467700000.0 0.0920907414 -0.0701863306
477650000.0 0.0285734644 -0.0992977014
487600000.0 -0.0195581979 -0.0647997264
497550000.0 -0.0485854048 -0.092956697
507500000.0 -0.0426198484 -0.0060718313
517450000.0 -0.0083695688 0.0098916867
527400000.0 0.0107556063 -0.0040648222
537350000.0 -0.0001240512 -0.0243462757
547300000.0 -0.0407617618 -0.0226967696
557250000.0 -0.0672311444 0.0229126269
567200000.0 -0.0559558709 0.0812030018
577150000.0 -0.0023506212 0.1246808577
587100000.0 0.07484694 0.120831167
597050000.0 0.1397797952 0.0618967032
607000000.0 0.1538623713 -0.0349462201
616950000.0 0.1028083269 -0.1297415687
626900000.0 0.0011562083 -0.1777151623
636850000.0 -0.1135796342 -0.1574240734
646800000.0 -0.1911444349 -0.0725685255
656750000.0 -0.2010480194 0.0424140266
666700000.0 -0.1363918902 0.1359783406
676650000.0 -0.0258618022 0.1661543696
686600000.0 0.078534013 0.1211402523
696550000.0 0.1295884635 0.0228987882
706500000.0 0.1094844173 -0.0796329892
716450000.0 0.0340910839 -0.136940199
726400000.0 -0.0526716718 -0.1244582578
736350000.0 -0.0972825545 -0.0537350175
746300000.0 -0.0700819916 0.029524589
756250000.0 0.0169403349 0.0681728823
766200000.0 0.1147160059 0.0306971237
776150000.0 0.1615483403 -0.0719391619
786100000.0 0.1179730615 -0.1880002618
796050000.0 -0.008348468 -0.2449683532
806000000.0 -0.1582171332 -0.1907865542
815950000.0 -0.2416275022 -0.0328126136
825900000.0 -0.2084999847 0.1558351718
835850000.0 -0.0557770924 0.3012683492
845800000.0 0.1657371455 0.326072294
855750000.0 0.3642776581 0.2038409696
865700000.0 0.4463979465 -0.0241126666
875650000.0 0.3631635514 -0.2630074661
885600000.0 0.1370765403 -0.4059104993
895550000.0 -0.1440131609 -0.3749643514
905500000.0 -0.3546402434 -0.1706712178
915450000.0 -0.3926773119 0.1280346152
925400000.0 -0.2306685983 0.3841333419
935350000.0 0.060729067 0.4703053072
945300000.0 0.3367419989 0.3317078697
955250000.0 0.4397145208 0.0270236036
965200000.0 0.2822948322 -0.2783821767
975150000.0 -0.0790807109 -0.3784208415
985100000.0 -0.4184950312 -0.1473323066
995050000.0 -0.4454949571 0.299902523
1005000000.0 -0.0713342631 0.616521244
1014950000.0 0.4540033153 0.4937872263
1024900000.0 0.7049463818 -0.0461907386
1034850000.0 0.413912238 -0.6303408162
1044800000.0 -0.2656427493 -0.7669448281
1054750000.0 -0.7644024651 -0.303057267
1064700000.0 -0.7946169449 0.2513381473
1074650000.0 -0.3914286007 0.7174874422
1084600000.0 0.1018377828 0.7879684573
1094550000.0 0.6219905474 0.4884990335
1104500000.0 0.7568304831 -0.1127870267
1114450000.0 0.4059381709 -0.6186932023
1124400000.0 -0.1811957266 -0.6854807148
1134350000.0 -0.5864144001 -0.3195961589
1144300000.0 -0.5926829128 0.1754177784
1154250000.0 -0.2766270345 0.4980245453
1164200000.0 0.1433438349 0.5146997777
1174150000.0 0.4606348288 0.2433917202
1184100000.0 0.4862986556 -0.1740051297
1194050000.0 0.2108682607 -0.4774013679
1204000000.0 -0.1823400428 -0.5000068663
1213950000.0 -0.4765742177 -0.2694554149
1223900000.0 -0.5610589783 0.0797847462
1233850000.0 -0.4232960353 0.4046481215
1243800000.0 -0.1162240644 0.5876908358
1253750000.0 0.2484755597 0.5505064635
1263700000.0 0.5245155376 0.2922870039
1273650000.0 0.5885255629 -0.0854780953
1283600000.0 0.4178705375 -0.4241760523
1293550000.0 0.0969539764 -0.6015424622
1303500000.0 -0.2555136598 -0.5798435703
1313450000.0 -0.5379288073 -0.3832143794
1323400000.0 -0.6770117882 -0.0708146439
1333350000.0 -0.6291564748 0.2751844428
1343300000.0 -0.3903351755 0.5489065554
1353250000.0 -0.0240335565 0.6438473025
1363200000.0 0.3403330452 0.508803571
1373150000.0 0.5636503694 0.1922041583
1383100000.0 0.5761095358 -0.1821593312
1393050000.0 0.3978822334 -0.4907407907
1403000000.0 0.0993252405 -0.6541537837
1412950000.0 -0.2296742126 -0.6388411289
1422900000.0 -0.4984835523 -0.4542174006
1432850000.0 -0.6258566086 -0.15143804
1442800000.0 -0.5676869927 0.1791687908
1452750000.0 -0.332779439 0.4313806767
1462700000.0 0.0075508073 0.5168498962
1472650000.0 0.337231383 0.4022021266
1482600000.0 0.5420971731 0.1342044002
1492550000.0 0.5641412757 -0.1873488061
1502500000.0 0.409737033 -0.4553451786
1512450000.0 0.1359035055 -0.5854206461
1522400000.0 -0.1643349552 -0.5319908841
1532350000.0 -0.3799783888 -0.3076339614
1542300000.0 -0.4223077025 0.0060582745
1552250000.0 -0.2711072082 0.2822398816
1562200000.0 0.0053877185 0.4087837772
1572150000.0 0.2874485861 0.3474576361
1582100000.0 0.4644561 0.1388506064
1592050000.0 0.4747139432 -0.1256656202
1602000000.0 0.3192170415 -0.3404620376
1611950000.0 0.0567148398 -0.4178742711
1621900000.0 -0.2103592701 -0.3160242457
1631850000.0 -0.3649971664 -0.0643219172
1641800000.0 -0.3318143416 0.230680755
1651750000.0 -0.1394950995 0.4445556142
1661700000.0 0.1593335318 0.5012616253
1671650000.0 0.423020685 0.3568208244
1681600000.0 0.5479469299 0.0858931194
1691550000.0 0.4968174648 -0.2131911186
1701500000.0 0.2816650671 -0.4414519138
1711450000.0 -0.0370661922 -0.5163494221
1721400000.0 -0.3557920346 -0.392495333
1731350000.0 -0.5490058108 -0.1010416098
1741300000.0 -0.5353115575 0.2480356045
1751250000.0 -0.3266354497 0.5192274531
1761200000.0 -0.0129333128 0.6247927001
1771150000.0 0.2999326557 0.5498413518
1781100000.0 0.5279670665 0.3296328189
1791050000.0 0.6159235943 0.0229668453
1801000000.0 0.5334940271 -0.2947278742
1810950000.0 0.2860192873 -0.5296948989
1820900000.0 -0.0607296917 -0.5908399017
1830850000.0 -0.3833737504 -0.4431255082
1840800000.0 -0.5617685017 -0.1455108048
1850750000.0 -0.5493966369 0.1835418482
1860700000.0 -0.3792256851 0.4405179048
1870650000.0 -0.1202565999 0.5711004287
1880600000.0 0.1562494234 0.5580702832
1890550000.0 0.3848930804 0.412309089
1900500000.0 0.503848943 0.1685224845
1910450000.0 0.4708572797 -0.103104376
1920400000.0 0.2913658705 -0.3076900474
1930350000.0 0.037038492 -0.3716692631
1940300000.0 -0.1901633171 -0.2910301937
1950250000.0 -0.3215497355 -0.1234279387
1960200000.0 -0.3407193673 0.0552627547
1970150000.0 -0.2756529355 0.1851882224
1980100000.0 -0.1779300679 0.2361943107
1990050000.0 -0.1056125771 0.2168125496
2000000000.0 -0.0974743982 0.1777381098
