!Created with skrf (http://scikit-rf.org).
# GHz S RI R 50.0 
!freq ReS11 ImS11
10000000.0 -0.968024584 0.178484713
19950000.0 -0.9370115556 0.3452360777
29900000.0 -0.8808993198 0.5009019717
39850000.0 -0.7852716264 0.640055585
49800000.0 -0.6521535343 0.755800537
59750000.0 -0.4837369576 0.8464389671
69700000.0 -0.2846717477 0.9128109739
79650000.0 -0.0606413872 0.9510308354
89600000.0 0.1856366477 0.9478048142
99550000.0 0.4429502895 0.8787061356
109500000.0 0.6853915543 0.7159268736
119450000.0 0.8716542139 0.4480084505
129400000.0 0.9581045075 0.0946749791
139350000.0 0.9131927122 -0.2946118319
149300000.0 0.729966936 -0.6538956401
159250000.0 0.4311690518 -0.9114352467
169200000.0 0.0768200059 -1.017247306
179150000.0 -0.2629749451 -0.9709129407
189100000.0 -0.5408348155 -0.8178282001
199050000.0 -0.7449831038 -0.6102028136
209000000.0 -0.8811893123 -0.3832133798
218950000.0 -0.9612991486 -0.1576994257
228900000.0 -0.9827000222 0.0555472065
238850000.0 -0.9459398687 0.2512307427
248800000.0 -0.7366865645 0.4462999765
258750000.0 -0.7597757536 0.5385418257
268700000.0 -0.6177385168 0.6672079734
278650000.0 -0.4612034706 0.772195973
288600000.0 -0.2927055328 0.8507426548
298550000.0 -0.1150880242 0.8922488276
308500000.0 0.0656227965 0.883431181
318450000.0 0.2402932032 0.8160034144
328400000.0 0.3979330462 0.6921448135
338350000.0 0.5245097067 0.5218843383
348300000.0 0.6046710526 0.3204558759
358250000.0 0.6222695012 0.1087812638
368200000.0 0.569154368 -0.0804997526
378150000.0 0.4521717394 -0.2151714466
388100000.0 0.2996814742 -0.2853397077
398050000.0 0.1451862388 -0.2946612741
408000000.0 0.0107193594 -0.2619741476
417950000.0 -0.0898742386 -0.2080282152
427900000.0 -0.1499438503 -0.1488266608
437850000.0 -0.1688318247 -0.0901297697
447800000.0 -0.1578349288 -0.0376073084
457750000.0 -0.127319308 0.0077746561
467700000.0 -0.0910842552 0.0414535583
477650000.0 -0.0580452534 0.0618872645
487600000.0 -0.0305302561 0.064270322
497550000.0 -0.0323856439 0.0303186319
507500000.0 -0.0281518954 0.0635652047
517450000.0 -0.0254996655 0.0254206168
527400000.0 -0.0310376489 -0.0091998674
537350000.0 -0.0371045855 -0.0377882843
547300000.0 -0.0470627766 -0.0572725381
557250000.0 -0.0624296722 -0.0611139084
567200000.0 -0.0806408813 -0.0489632047
577150000.0 -0.1043820901 -0.0278936524
587100000.0 -0.1338562067 -0.0023281601
597050000.0 -0.161554639 0.0222704498
607000000.0 -0.1818680841 0.0420804053
616950000.0 -0.1896957028 0.0620397778
626900000.0 -0.1839684797 0.079386361
636850000.0 -0.1631880615 0.0994495188
646800000.0 -0.1312052124 0.1220171095
656750000.0 -0.0961999532 0.1494842919
666700000.0 -0.0637202113 0.1724986632
676650000.0 -0.0312443059 0.1871053974
686600000.0 -0.0039124032 0.1914084775
696550000.0 0.0200688921 0.1761830509
706500000.0 0.0435480876 0.1436831685
716450000.0 0.0688055712 0.0975361217
726400000.0 0.0925794575 0.0447800632
736350000.0 0.1099577422 -0.0091464096
746300000.0 0.1139770013 -0.0591124464
756250000.0 0.0973980044 -0.1014972685
766200000.0 0.0593968097 -0.1319545611
776150000.0 0.0007444218 -0.1473372658
786100000.0 -0.0608229601 -0.1530658719
796050000.0 -0.1221859091 -0.1625302668
806000000.0 -0.1889119997 -0.1700204687
815950000.0 -0.2477061792 -0.1635408571
825900000.0 -0.2943416964 -0.1360661386
835850000.0 -0.3270613321 -0.0886280535
845800000.0 -0.3468711297 -0.0211828695
855750000.0 -0.3561343622 0.0588519182
865700000.0 -0.3583730767 0.1460102436
875650000.0 -0.3465697621 0.2295645131
885600000.0 -0.3207232746 0.3028840158
895550000.0 -0.2739567577 0.3601448829
905500000.0 -0.202495021 0.3970753528
915450000.0 -0.1095081305 0.4169222648
925400000.0 0.0015537813 0.415089583
935350000.0 0.125271381 0.3932752043
945300000.0 0.2489034132 0.3417114901
955250000.0 0.3581719271 0.2497229835
965200000.0 0.4312926154 0.1095182415
975150000.0 0.4414775278 -0.0779770464
985100000.0 0.3676064077 -0.2948877416
995050000.0 0.1974740823 -0.497200352
1005000000.0 -0.065213275 -0.628417417
1014950000.0 -0.3706557296 -0.6238481366
1024900000.0 -0.638192327 -0.4654984014
1034850000.0 -0.7963876468 -0.1990137044
1044800000.0 -0.8344633752 0.1021045569
1054750000.0 -0.7663393541 0.385292392
1064700000.0 -0.604758976 0.5913200147
1074650000.0 -0.4656620591 0.7368626498
1084600000.0 -0.253320271 0.8164560739
1094550000.0 -0.0243490115 0.8395869219
1104500000.0 0.2093915519 0.7725532358
1114450000.0 0.4125084269 0.6444346574
1124400000.0 0.5695836892 0.4725464109
1134350000.0 0.6653723251 0.2719884478
1144300000.0 0.6844433722 0.0568293273
1154250000.0 0.6212383303 -0.1449456422
1164200000.0 0.4950669568 -0.3140488373
1174150000.0 0.3314294068 -0.4381535713
1184100000.0 0.1566599236 -0.5140937107
1194050000.0 -0.0087991542 -0.5469415887
1204000000.0 -0.1586021475 -0.5348474504
1213950000.0 -0.2802852718 -0.4840886582
1223900000.0 -0.3795287269 -0.4011333327
1233850000.0 -0.4545858872 -0.2992715286
1243800000.0 -0.512767492 -0.1886567342
1253750000.0 -0.557369691 -0.0845848343
1263700000.0 -0.5892351618 0.0122104673
1273650000.0 -0.6044291904 0.0951569018
1283600000.0 -0.6023824067 0.1667506791
1293550000.0 -0.5807201032 0.232145028
1303500000.0 -0.5414642941 0.2940332115
1313450000.0 -0.4920849425 0.3586613647
1323400000.0 -0.4375446033 0.4245467439
1333350000.0 -0.3857497309 0.4896971638
1343300000.0 -0.3365440377 0.5499386959
1353250000.0 -0.2899931111 0.5962556176
1363200000.0 -0.2413421922 0.6275657671
1373150000.0 -0.1890715656 0.6406849665
1383100000.0 -0.1282642341 0.6390718075
1393050000.0 -0.0595913708 0.631498823
1403000000.0 0.0155744716 0.622202914
1412950000.0 0.0929719964 0.6146806525
1422900000.0 0.1663975123 0.6090244934
1432850000.0 0.2308350064 0.6001922589
1442800000.0 0.2840033295 0.582404886
1452750000.0 0.3246806532 0.553549851
1462700000.0 0.3615471603 0.5098526073
1472650000.0 0.3977747961 0.452316377
1482600000.0 0.4374971533 0.3847469424
1492550000.0 0.4797740146 0.3122528532
1502500000.0 0.5205899387 0.2395794272
1512450000.0 0.5546179945 0.1667781166
1522400000.0 0.5701890369 0.0942684394
1532350000.0 0.5677977835 0.0244349197
1542300000.0 0.5421651449 -0.0485897397
1552250000.0 0.4985157467 -0.1213336862
1562200000.0 0.4452753867 -0.1956664661
1572150000.0 0.38596439 -0.2701462751
1582100000.0 0.3250709652 -0.3374139566
1592050000.0 0.2597067239 -0.3955045613
1602000000.0 0.1867613776 -0.4355291627
1611950000.0 0.1047132889 -0.4524271968
1621900000.0 0.0156757619 -0.4488238602
1631850000.0 -0.0798998184 -0.4298180649
1641800000.0 -0.1732350261 -0.4002783061
1651750000.0 -0.2628809571 -0.3664928558
1661700000.0 -0.343145765 -0.3251715604
1671650000.0 -0.4085864985 -0.2753278217
1681600000.0 -0.4560544148 -0.2120260413
1691550000.0 -0.4836141271 -0.1339413676
1701500000.0 -0.4970468079 -0.0488627764
1711450000.0 -0.5018244943 0.0413267854
1721400000.0 -0.5018089812 0.1258368408
1731350000.0 -0.5010557112 0.2023504249
1741300000.0 -0.4962059096 0.2689240026
1751250000.0 -0.4818573981 0.324031076
1761200000.0 -0.4525102472 0.3713542083
1771150000.0 -0.4070753952 0.4128616001
1781100000.0 -0.3486195925 0.4512665084
1791050000.0 -0.2845277569 0.489922311
1801000000.0 -0.2244340744 0.5279216525
1810950000.0 -0.1708050956 0.5628913677
1820900000.0 -0.1271681181 0.5901635793
1830850000.0 -0.0881430949 0.6049400132
1840800000.0 -0.0491078627 0.6039184821
1850750000.0 -0.0052121292 0.5871910023
1860700000.0 0.0471227518 0.5597845898
1870650000.0 0.1066627244 0.5280255725
1880600000.0 0.1693107609 0.4979536782
1890550000.0 0.2261330655 0.4722575183
1900500000.0 0.2730549919 0.4491905102
1910450000.0 0.3036397329 0.4228955626
1920400000.0 0.3140456935 0.3809299335
1930350000.0 0.2860620746 0.3243482806
1940300000.0 0.250723507 0.2989413041
1950250000.0 0.2509039854 0.252917049
1960200000.0 0.2473421326 0.1890554288
1970150000.0 0.2382288691 0.1290183191
1980100000.0 0.222493685 0.0836212827
1990050000.0 0.1912562073 0.0584526147
2000000000.0 0.13864108 0.0554268182
