!Created with skrf (http://scikit-rf.org).
# GHz S RI R 50.0 
!freq ReS11 ImS11
10000000.0 -0.7771320247 0.589069969
19950000.0 -0.2819500371 0.9228021962
29900000.0 0.3136733374 0.9000197706
39850000.0 0.7906441806 0.5239833982
49800000.0 0.9548794126 -0.077555684
59750000.0 0.7134778092 -0.6724390076
69700000.0 0.1388375878 -0.9915067787
79650000.0 -0.5179372861 -0.8553707591
89600000.0 -0.9291410361 -0.2993097519
99550000.0 -0.8605684376 0.4149256976
109500000.0 -0.3024067321 0.9073292489
119450000.0 0.4732218987 0.8548410224
129400000.0 0.9772716349 0.2169292434
139350000.0 0.8106784156 -0.6013593753
149300000.0 0.0735599875 -0.9840936401
159250000.0 -0.6710639778 -0.669521254
169200000.0 -0.9246049111 0.0651306903
179150000.0 -0.588737906 0.7259004008
189100000.0 0.0815558611 0.9464564453
199050000.0 0.6934953874 0.6503664284
209000000.0 0.9389868119 0.0345397778
218950000.0 0.7320326432 -0.5654388619
228900000.0 0.2060596489 -0.8845403123
238850000.0 -0.3956173077 -0.801870618
248800000.0 -0.5560810378 -0.3541855517
258750000.0 -0.8831809266 0.182503803
268700000.0 -0.5922926745 0.7036550593
278650000.0 -0.0516881641 0.9231542486
288600000.0 0.4984760994 0.7527491056
298550000.0 0.8193060744 0.2754260188
308500000.0 0.7740660659 -0.2987408855
318450000.0 0.3802939195 -0.7142808113
328400000.0 -0.1818040396 -0.7751547972
338350000.0 -0.6299653196 -0.4488708823
348300000.0 -0.7212700629 0.0769075983
358250000.0 -0.4328267289 0.4849711315
368200000.0 0.0145675875 0.5548311575
378150000.0 0.3340035948 0.3125941619
388100000.0 0.3736516912 -0.0304946969
398050000.0 0.188173747 -0.2506877713
408000000.0 -0.048202639 -0.2578590016
417950000.0 -0.1816153224 -0.1162822031
427900000.0 -0.1679271227 0.041814621
437850000.0 -0.061923931 0.1198750793
447800000.0 0.0456664083 0.0960756711
457750000.0 0.09356705 0.0145182665
467700000.0 0.071110399 -0.0614837123
477650000.0 0.0132865925 -0.0867050858
487600000.0 -0.0248649766 -0.0525231592
497550000.0 -0.0647327458 -0.0512768305
507500000.0 -0.0360777405 0.0104827244
517450000.0 0.0025122392 0.0196712434
527400000.0 0.0217226351 -0.0007049481
537350000.0 0.0088908208 -0.024497592
547300000.0 -0.0304945356 -0.0251325674
557250000.0 -0.0606053802 0.0115713193
567200000.0 -0.0579309918 0.0655545809
577150000.0 -0.0137698976 0.1067051138
587100000.0 0.0559818943 0.1056529754
597050000.0 0.1166864389 0.0502788685
607000000.0 0.1318719405 -0.0397967199
616950000.0 0.0849432924 -0.1270873011
626900000.0 -0.0061144688 -0.1686130649
636850000.0 -0.1086511774 -0.1435517325
646800000.0 -0.1727269478 -0.0595691807
656750000.0 -0.1722824806 0.0480701229
666700000.0 -0.1056173399 0.1326864136
676650000.0 -0.00182012 0.1549369716
686600000.0 0.0929331319 0.1060078515
696550000.0 0.1340204454 0.005970528
706500000.0 0.1039229327 -0.0951091059
716450000.0 0.0195455814 -0.1466709807
726400000.0 -0.0718396729 -0.1269079357
736350000.0 -0.115950966 -0.0470414927
746300000.0 -0.0846784796 0.044098711
756250000.0 0.0095724132 0.0889983867
766200000.0 0.1149916623 0.0550316346
776150000.0 0.1704106195 -0.0477596046
786100000.0 0.1348860927 -0.1657962218
796050000.0 0.0162718963 -0.2284932594
806000000.0 -0.1295155382 -0.1866960699
815950000.0 -0.2222522743 -0.0431010252
825900000.0 -0.2006600416 0.1425855797
835850000.0 -0.0598245451 0.2817627284
845800000.0 0.1461951206 0.3022075732
855750000.0 0.3267910776 0.1833193238
865700000.0 0.3983203938 -0.0340573841
875650000.0 0.3131118551 -0.2558388371
885600000.0 0.0951009483 -0.378528124
895550000.0 -0.1617815581 -0.3290515582
905500000.0 -0.3362510013 -0.1164640666
915450000.0 -0.3339021392 0.166698561
925400000.0 -0.1443691083 0.3814534429
935350000.0 0.14146917 0.4089923236
945300000.0 0.3675779666 0.2173228694
955250000.0 0.3802541647 -0.1052922021
965200000.0 0.1230332079 -0.3493329507
975150000.0 -0.2640998316 -0.2934761279
985100000.0 -0.4652584203 0.0765944375
995050000.0 -0.2822040296 0.4905092069
1005000000.0 0.2096751892 0.6123315578
1014950000.0 0.6485469743 0.2487329167
1024900000.0 0.6258024286 -0.3778628999
1034850000.0 0.0909478101 -0.7655698671
1044800000.0 -0.5483454485 -0.5632847458
1054750000.0 -0.7043401188 0.0237432042
1064700000.0 -0.5880474716 0.412360232
1074650000.0 -0.2631648011 0.6479932865
1084600000.0 0.2880651087 0.7465292876
1094550000.0 0.6990788432 0.3079607271
1104500000.0 0.670179923 -0.2782576603
1114450000.0 0.2433685623 -0.6602831818
1124400000.0 -0.297377736 -0.6151166679
1134350000.0 -0.6133878775 -0.2208062034
1144300000.0 -0.5650261764 0.2451369261
1154250000.0 -0.2355396846 0.5308681388
1164200000.0 0.1772313987 0.5189606197
1174150000.0 0.4699317037 0.2411337557
1184100000.0 0.4921579414 -0.1647562436
1194050000.0 0.2280751993 -0.4660104977
1204000000.0 -0.1558569011 -0.5000911123
1213950000.0 -0.4529327356 -0.2857644958
1223900000.0 -0.5512729392 0.0516547489
1233850000.0 -0.4319501297 0.3723522622
1243800000.0 -0.1457511767 0.5591582138
1253750000.0 0.2050901586 0.5341657289
1263700000.0 0.4784008281 0.2935068861
1273650000.0 0.5526426007 -0.068696465
1283600000.0 0.4000180546 -0.3991794602
1293550000.0 0.0977476073 -0.575678155
1303500000.0 -0.2358027967 -0.5572751113
1313450000.0 -0.4995170808 -0.3690112813
1323400000.0 -0.6275901807 -0.0717141085
1333350000.0 -0.5840239826 0.2567687754
1343300000.0 -0.3616770107 0.5185068747
1353250000.0 -0.0153519228 0.6096585366
1363200000.0 0.3317572416 0.4786758454
1373150000.0 0.5433095652 0.1710056609
1383100000.0 0.5488770503 -0.191647186
1393050000.0 0.3686275233 -0.4865399845
1403000000.0 0.0793747672 -0.6370013542
1412950000.0 -0.2331131658 -0.6106476729
1422900000.0 -0.4797976849 -0.4247660868
1432850000.0 -0.5927251039 -0.1295355476
1442800000.0 -0.5312048837 0.191523381
1452750000.0 -0.2999107106 0.4350695149
1462700000.0 0.0329776801 0.5119527069
1472650000.0 0.3499892539 0.3915218817
1482600000.0 0.5401124064 0.12260918
1492550000.0 0.5490068071 -0.1944551794
1502500000.0 0.386302311 -0.454439397
1512450000.0 0.1125357259 -0.5762708878
1522400000.0 -0.1807199054 -0.5197247652
1532350000.0 -0.390430872 -0.2971209885
1542300000.0 -0.4323536232 0.0147549479
1552250000.0 -0.2828220272 0.2938997441
1562200000.0 -0.0037978238 0.4271506909
1572150000.0 0.2865078218 0.3697322817
1582100000.0 0.4738539593 0.1582525267
1592050000.0 0.4926412833 -0.1149494938
1602000000.0 0.341777421 -0.3423567745
1611950000.0 0.0784966551 -0.4348011492
1621900000.0 -0.1957605266 -0.3475904631
1631850000.0 -0.3662502038 -0.1084563116
1641800000.0 -0.3633000675 0.1842596782
1651750000.0 -0.180065878 0.4232128809
1661700000.0 0.1108289551 0.4929303875
1671650000.0 0.3777085194 0.3724923645
1681600000.0 0.5229850027 0.120595125
1691550000.0 0.4990029103 -0.1727521507
1701500000.0 0.3105926603 -0.4076023794
1711450000.0 0.0137853417 -0.4991174996
1721400000.0 -0.2957945267 -0.4001487849
1731350000.0 -0.4983709972 -0.1331872982
1741300000.0 -0.5095974421 0.2028974635
1751250000.0 -0.328458523 0.4763372069
1761200000.0 -0.034172371 0.5939142903
1771150000.0 0.2678252072 0.5333711498
1781100000.0 0.4899258196 0.3265043467
1791050000.0 0.5748870608 0.0335913468
1801000000.0 0.4962160498 -0.2680287558
1810950000.0 0.2651105526 -0.4882567356
1820900000.0 -0.0556243942 -0.5433362604
1830850000.0 -0.3552824035 -0.4024151234
1840800000.0 -0.5215400731 -0.1200736694
1850750000.0 -0.5076107588 0.1921571191
1860700000.0 -0.3427711317 0.4333498389
1870650000.0 -0.0942991352 0.5489376631
1880600000.0 0.1641668856 0.5227247167
1890550000.0 0.365181813 0.3689347617
1900500000.0 0.4535321885 0.1306286821
1910450000.0 0.3991103494 -0.1197258299
1920400000.0 0.2173207352 -0.2937603106
1930350000.0 -0.0201529436 -0.3290539498
1940300000.0 -0.2163581866 -0.2290324372
1950250000.0 -0.3081651106 -0.0591952153
1960200000.0 -0.289737421 0.102042494
1970150000.0 -0.1976222959 0.1963662553
1980100000.0 -0.0956140127 0.1969176441
1990050000.0 -0.0560537647 0.1269486905
2000000000.0 -0.1179948027 0.0684116766
