!Created with skrf (http://scikit-rf.org).
# GHz S RI R 50.0 
!freq ReS11 ImS11
10000000.0 -0.805691349 0.6059614147
19950000.0 -0.2909086532 0.9494798021
29900000.0 0.324929169 0.9288950687
39850000.0 0.8172321538 0.5488252518
49800000.0 0.9911524644 -0.0606549778
59750000.0 0.7530361743 -0.6653532887
69700000.0 0.1735378102 -0.9959425582
79650000.0 -0.4999322678 -0.8717114739
89600000.0 -0.9357683705 -0.3204206412
99550000.0 -0.8866385017 0.4011332231
109500000.0 -0.3349785632 0.9078783245
119450000.0 0.4454647856 0.8692474956
129400000.0 0.961435589 0.2378310951
139350000.0 0.810030205 -0.5771892299
149300000.0 0.0787673441 -0.9763147717
159250000.0 -0.6780779676 -0.6774798721
169200000.0 -0.9469663136 0.0601124337
179150000.0 -0.6081854741 0.7360276945
189100000.0 0.0839088019 0.9646842953
199050000.0 0.7181660628 0.6611801864
209000000.0 0.9695161655 0.0294448414
218950000.0 0.7533723299 -0.5859143807
228900000.0 0.2098932387 -0.9142488458
238850000.0 -0.4094345164 -0.8336920245
248800000.0 -0.6642819247 -0.4061936651
258750000.0 -0.9212449542 0.1794581998
268700000.0 -0.6238001729 0.7102432535
278650000.0 -0.066106054 0.937851133
288600000.0 0.5067682831 0.769087714
298550000.0 0.8450827123 0.2852847315
308500000.0 0.8069147076 -0.2984906794
318450000.0 0.4118924608 -0.7220785434
328400000.0 -0.1562326804 -0.7887008981
338350000.0 -0.613013049 -0.4669454523
348300000.0 -0.717320475 0.0571025275
358250000.0 -0.4415641416 0.4715045286
368200000.0 0.0024051205 0.5548290116
378150000.0 0.3268648288 0.323256493
388100000.0 0.3739754407 -0.0181360209
398050000.0 0.1902887132 -0.2418870086
408000000.0 -0.0477636653 -0.2523456098
417950000.0 -0.1842171191 -0.1120027637
427900000.0 -0.170800984 0.0500607991
437850000.0 -0.0604646576 0.131828278
447800000.0 0.0544201786 0.1098023356
457750000.0 0.107967503 0.0249270545
467700000.0 0.086195163 -0.0579098685
477650000.0 0.0238741543 -0.0908771355
487600000.0 -0.0286403685 -0.0697006677
497550000.0 -0.0317948428 -0.0953492813
507500000.0 -0.0539724466 0.0093768521
517450000.0 -0.0154890783 0.0195458657
527400000.0 0.0042392499 -0.0012141596
537350000.0 -0.0081452726 -0.0252031984
547300000.0 -0.043443738 -0.0263342112
557250000.0 -0.0710552064 0.0091558494
567200000.0 -0.0641928025 0.0635103838
577150000.0 -0.0149229601 0.1058830893
587100000.0 0.0603460957 0.10555026
597050000.0 0.1258139369 0.0500190854
607000000.0 0.1447626402 -0.042339793
616950000.0 0.0991851486 -0.13378064
626900000.0 0.0036892134 -0.1822622947
636850000.0 -0.104243952 -0.1611915537
646800000.0 -0.1775856778 -0.0783160388
656750000.0 -0.184941375 0.0324706391
666700000.0 -0.1201126881 0.1248708782
676650000.0 -0.0115772429 0.1560406349
686600000.0 0.0916092942 0.1120237692
696550000.0 0.1425269781 0.0160744768
706500000.0 0.119934274 -0.0846749759
716450000.0 0.0406361931 -0.1401677848
726400000.0 -0.0494848234 -0.1237890361
736350000.0 -0.0969928261 -0.0479891374
746300000.0 -0.0727902274 0.0413635467
756250000.0 0.0147049216 0.0878152309
766200000.0 0.1158428335 0.0559640498
776150000.0 0.1678748821 -0.0456203962
786100000.0 0.1309427854 -0.1645735052
796050000.0 0.0092098159 -0.2306880826
806000000.0 -0.1426043223 -0.1915196676
815950000.0 -0.2433971293 -0.0464440079
825900000.0 -0.2265601196 0.1480619266
835850000.0 -0.0810314132 0.2997354863
845800000.0 0.1380716632 0.3289570168
855750000.0 0.3339953192 0.2125372121
865700000.0 0.4198896275 -0.0064441573
875650000.0 0.3479706855 -0.24148683
885600000.0 0.1363849889 -0.3890684899
895550000.0 -0.1350735594 -0.3726727956
905500000.0 -0.346170527 -0.1829550353
915450000.0 -0.3907491741 0.1048736366
925400000.0 -0.2365019952 0.3568636131
935350000.0 0.0487919058 0.4454926799
945300000.0 0.322015223 0.31463291
955250000.0 0.430585739 0.0177220348
965200000.0 0.2841736868 -0.284017908
975150000.0 -0.0661452915 -0.3888552336
985100000.0 -0.4002700408 -0.1706820932
995050000.0 -0.4404537882 0.2584518597
1005000000.0 -0.1045572555 0.5829768811
1014950000.0 0.4064487195 0.5163653468
1024900000.0 0.7056457878 0.0312452141
1034850000.0 0.5031239049 -0.5620356754
1044800000.0 -0.1296275279 -0.7958647901
1054750000.0 -0.7276573436 -0.4435243528
1064700000.0 -0.8333238683 0.2210268197
1074650000.0 -0.465884544 0.7191024007
1084600000.0 0.10130179 0.8228132653
1094550000.0 0.6334512723 0.5183986576
1104500000.0 0.7712758785 -0.087052566
1114450000.0 0.4259523402 -0.5953190669
1124400000.0 -0.1579349331 -0.6752247786
1134350000.0 -0.5746765961 -0.3228165823
1144300000.0 -0.6021468541 0.1716297102
1154250000.0 -0.2981086986 0.5111340977
1164200000.0 0.1308993309 0.538121641
1174150000.0 0.4466098327 0.2681047493
1184100000.0 0.4843283737 -0.1422417707
1194050000.0 0.2248586019 -0.4556347956
1204000000.0 -0.1641920012 -0.5024135888
1213950000.0 -0.4723459929 -0.2909129252
1223900000.0 -0.5758860047 0.0508849004
1233850000.0 -0.454935853 0.3796317557
1243800000.0 -0.1607672128 0.5745500318
1253750000.0 0.2020915426 0.556138562
1263700000.0 0.4896438647 0.3174734476
1273650000.0 0.5790295894 -0.0510600604
1283600000.0 0.4355526047 -0.3991095723
1293550000.0 0.1296830679 -0.5991359751
1303500000.0 -0.2224148015 -0.5992854283
1313450000.0 -0.512920672 -0.4176495799
1323400000.0 -0.6642464611 -0.1138899106
1333350000.0 -0.6321490877 0.2297632056
1343300000.0 -0.4110305004 0.5124694179
1353250000.0 -0.0568887117 0.629255281
1363200000.0 0.3116525073 0.5237385581
1373150000.0 0.5571608467 0.2292495434
1383100000.0 0.5981459044 -0.1414206432
1393050000.0 0.4413923917 -0.4616014757
1403000000.0 0.1520287256 -0.6433158048
1412950000.0 -0.1798857403 -0.6474921209
1422900000.0 -0.4634507017 -0.477953348
1432850000.0 -0.6133994169 -0.178011169
1442800000.0 -0.5749817342 0.1640253042
1452750000.0 -0.3479873408 0.4339383899
1462700000.0 -0.0064586512 0.5321244665
1472650000.0 0.3259268809 0.4250371958
1482600000.0 0.5334080417 0.1616716863
1492550000.0 0.5591089669 -0.1561678414
1502500000.0 0.4109704928 -0.4231725465
1512450000.0 0.1447337386 -0.5581029072
1522400000.0 -0.1512762085 -0.5168369461
1532350000.0 -0.3714605681 -0.3071968658
1542300000.0 -0.4263009932 -0.0025607102
1552250000.0 -0.2868015702 0.2732183812
1562200000.0 -0.0164401975 0.4038772793
1572150000.0 0.2639866604 0.3461307471
1582100000.0 0.443473849 0.1390720305
1592050000.0 0.457214834 -0.1257553605
1602000000.0 0.305536466 -0.3434706655
1611950000.0 0.0462634009 -0.4259140015
1621900000.0 -0.2203294125 -0.3296741789
1631850000.0 -0.3788425123 -0.0808178897
1641800000.0 -0.3490014694 0.219718941
1651750000.0 -0.1397002685 0.4386620554
1661700000.0 0.155703701 0.4834317904
1671650000.0 0.4155910199 0.344509786
1681600000.0 0.546383088 0.081365934
1691550000.0 0.5052894553 -0.2151937125
1701500000.0 0.298192334 -0.4465928852
1711450000.0 -0.0161617804 -0.5266846265
1721400000.0 -0.3347292632 -0.4077699144
1731350000.0 -0.5311172998 -0.1199918835
1741300000.0 -0.5234716194 0.2276194759
1751250000.0 -0.3228846563 0.5014606454
1761200000.0 -0.0157136344 0.6113742529
1771150000.0 0.2852960322 0.5378846358
1781100000.0 0.4851929467 0.3450466653
1791050000.0 0.5979050758 0.0861329432
1801000000.0 0.5561002769 -0.2309789905
1810950000.0 0.3321474385 -0.4866873438
1820900000.0 -0.009091128 -0.5763688426
1830850000.0 -0.3439020916 -0.4552412963
1840800000.0 -0.5481169813 -0.1735125691
1850750000.0 -0.5649411331 0.1569245148
1860700000.0 -0.4164880417 0.4285010536
1870650000.0 -0.1666101956 0.5795815461
1880600000.0 0.1132990718 0.5860359109
1890550000.0 0.3544495798 0.4532539167
1900500000.0 0.4932853037 0.2121874666
1910450000.0 0.4807507978 -0.0684847692
1920400000.0 0.3143409704 -0.2949372008
1930350000.0 0.0595313606 -0.3861859431
1940300000.0 -0.18111825 -0.3263734128
1950250000.0 -0.3378770743 -0.1659803114
1960200000.0 -0.3771272788 0.0212060633
1970150000.0 -0.3206961209 0.172811871
1980100000.0 -0.212848049 0.2497175148
1990050000.0 -0.108315961 0.2461924993
2000000000.0 -0.0539252084 0.193719257
