!Created with skrf (http://scikit-rf.org).
# GHz S RI R 50.0 
!freq ReS11 ImS11
10000000.0 -0.7792937309 0.5807705665
19950000.0 -0.2886591157 0.9134828243
29900000.0 0.3046114053 0.896642618
39850000.0 0.7842243692 0.5288129653
49800000.0 0.9558615364 -0.0675645023
59750000.0 0.7213969707 -0.6630409257
69700000.0 0.1470815547 -0.9861055715
79650000.0 -0.5169310223 -0.8503872952
89600000.0 -0.9324192799 -0.2853550803
99550000.0 -0.8493992262 0.440101178
109500000.0 -0.2570570923 0.9219834677
119450000.0 0.5385687258 0.8164378611
129400000.0 0.9960105328 0.1132144296
139350000.0 0.725422481 -0.6976745299
149300000.0 -0.0678017318 -0.9768196931
159250000.0 -0.7582919181 -0.5590060832
169200000.0 -0.9041096972 0.1924767778
179150000.0 -0.4941599398 0.7894851631
189100000.0 0.1795786348 0.9285041805
199050000.0 0.7449374602 0.588765538
209000000.0 0.9397514591 -0.0199726824
218950000.0 0.7108125317 -0.5879364361
228900000.0 0.1931339693 -0.8829819546
238850000.0 -0.3867688437 -0.8042565958
248800000.0 -0.7484156459 -0.396372889
258750000.0 -0.8918288006 0.1627340609
268700000.0 -0.6290887716 0.6733451352
278650000.0 -0.1155244231 0.9171965889
288600000.0 0.435270162 0.7952990605
298550000.0 0.7950571989 0.3627958328
308500000.0 0.8158606611 -0.2011126626
318450000.0 0.4834776826 -0.6558645454
328400000.0 -0.0578536527 -0.793281217
338350000.0 -0.5446644036 -0.542329447
348300000.0 -0.7157131818 -0.045702085
358250000.0 -0.4997776707 0.3910624336
368200000.0 -0.0818642982 0.5187110491
378150000.0 0.2427503246 0.3307057466
388100000.0 0.3062682951 0.0245473529
398050000.0 0.1560157483 -0.1740984487
408000000.0 -0.041602373 -0.1760053264
417950000.0 -0.1345852182 -0.0511445673
427900000.0 -0.0930196405 0.0727733404
437850000.0 0.016914205 0.1088782337
447800000.0 0.110838425 0.0488674796
457750000.0 0.1298429594 -0.0559041824
467700000.0 0.0680964874 -0.1378821574
477650000.0 -0.0275131581 -0.154961699
487600000.0 -0.1062826526 -0.100241216
497550000.0 -0.1224234007 -0.0185707334
507500000.0 -0.0918762601 0.0539056129
517450000.0 -0.0254717681 0.0854810081
527400000.0 0.0313420377 0.0710085203
537350000.0 0.0545681159 0.0349573609
547300000.0 0.0429964386 -0.0008219341
557250000.0 0.0101418529 -0.0065102233
567200000.0 -0.0078870242 0.0138774782
577150000.0 0.0039328594 0.0402505101
587100000.0 0.0412223881 0.0423033974
597050000.0 0.0751864148 0.0074624575
607000000.0 0.0763250442 -0.053786392
616950000.0 0.0326638487 -0.1112578098
626900000.0 -0.045602145 -0.1289236702
636850000.0 -0.1253081634 -0.0925755884
646800000.0 -0.1640425238 -0.0103423498
656750000.0 -0.142221615 0.0841024429
666700000.0 -0.0635459609 0.1462628113
676650000.0 0.0412513053 0.1457526001
686600000.0 0.1256691 0.0778901111
696550000.0 0.1503204087 -0.0330336348
706500000.0 0.1017642405 -0.1333835578
716450000.0 0.0026024025 -0.1770860537
726400000.0 -0.0967290545 -0.1439559286
736350000.0 -0.146065587 -0.0491069826
746300000.0 -0.1124099955 0.0559650651
756250000.0 -0.010693368 0.1126751615
766200000.0 0.1044332445 0.0844120097
776150000.0 0.1741591758 -0.0186472119
786100000.0 0.1504018333 -0.1407317368
796050000.0 0.0395596717 -0.2158283202
806000000.0 -0.1019433278 -0.1872396167
815950000.0 -0.1997390781 -0.0554934239
825900000.0 -0.1837050563 0.1205861027
835850000.0 -0.0501512628 0.2555877405
845800000.0 0.1460055768 0.2733445991
855750000.0 0.317388794 0.15659557
865700000.0 0.3755577615 -0.0544525476
875650000.0 0.277796328 -0.263557625
885600000.0 0.0534080678 -0.36405021
895550000.0 -0.1959889907 -0.289538798
905500000.0 -0.3445606239 -0.0609410125
915450000.0 -0.3087623814 0.2170277809
925400000.0 -0.0954097242 0.4056043657
935350000.0 0.195488647 0.3981177783
945300000.0 0.405445698 0.1759446445
955250000.0 0.3877074282 -0.1562958934
965200000.0 0.1034798156 -0.3875802462
975150000.0 -0.2917069471 -0.3092356732
985100000.0 -0.4915726982 0.0725319321
995050000.0 -0.3034310386 0.511604625
1005000000.0 0.2231035642 0.6256211175
1014950000.0 0.6591263376 0.2234345519
1024900000.0 0.5860966862 -0.4113890224
1034850000.0 0.0047278195 -0.7368237763
1044800000.0 -0.5884162766 -0.4388934957
1054750000.0 -0.5778951393 0.111169345
1064700000.0 -0.5358114496 0.3781814618
1074650000.0 -0.224648875 0.6131852711
1084600000.0 0.3273400549 0.7185680083
1094550000.0 0.7320668911 0.2452350122
1104500000.0 0.6589205585 -0.3563791809
1114450000.0 0.1870742433 -0.7135048316
1124400000.0 -0.3692631222 -0.6239553689
1134350000.0 -0.6758879614 -0.1958960396
1144300000.0 -0.611450121 0.2901963709
1154250000.0 -0.2637149166 0.5914828866
1164200000.0 0.175864759 0.596787174
1174150000.0 0.5140326613 0.3195267977
1184100000.0 0.5824585178 -0.1172879153
1194050000.0 0.3387466653 -0.4798585616
1204000000.0 -0.0692548696 -0.5807143275
1213950000.0 -0.4254685339 -0.4056162187
1223900000.0 -0.5920109776 -0.0671779304
1233850000.0 -0.5300014488 0.2907595641
1243800000.0 -0.2728513017 0.5437242135
1253750000.0 0.0906630687 0.5953783357
1263700000.0 0.4196865436 0.4126388886
1273650000.0 0.5719851936 0.0618532644
1283600000.0 0.4837789998 -0.3052331073
1293550000.0 0.2103295369 -0.5427307756
1303500000.0 -0.1316244172 -0.5856507426
1313450000.0 -0.4294105213 -0.4445745491
1323400000.0 -0.6064487277 -0.1732622083
1333350000.0 -0.6166710008 0.1556269661
1343300000.0 -0.4399963374 0.4483306763
1353250000.0 -0.1138017372 0.5936810371
1363200000.0 0.2484529251 0.5193751493
1373150000.0 0.502107085 0.2465146233
1383100000.0 0.5557683829 -0.1124468854
1393050000.0 0.4112039106 -0.4269659518
1403000000.0 0.1364990483 -0.6049597467
1412950000.0 -0.1751624652 -0.6097836162
1422900000.0 -0.4373946821 -0.450503471
1432850000.0 -0.5750790483 -0.1685212942
1442800000.0 -0.5352647145 0.1567727532
1452750000.0 -0.3112016224 0.4116587383
1462700000.0 0.0229098834 0.4945118033
1472650000.0 0.3391157621 0.3727931899
1482600000.0 0.5227670088 0.1040765188
1492550000.0 0.5223760044 -0.2062612579
1502500000.0 0.3525575763 -0.4522472154
1512450000.0 0.0793254053 -0.5539622018
1522400000.0 -0.2028918425 -0.4764634498
1532350000.0 -0.3886522307 -0.2417552435
1542300000.0 -0.4006983791 0.0663394935
1552250000.0 -0.2237186893 0.3220674792
1562200000.0 0.0624731874 0.4163828346
1572150000.0 0.3381063691 0.3238681277
1582100000.0 0.4943703916 0.0904105389
1592050000.0 0.4751867928 -0.1845081451
1602000000.0 0.2909823426 -0.3935424585
1611950000.0 0.0091319514 -0.4524462107
1621900000.0 -0.2644145882 -0.3270513594
1631850000.0 -0.4153579749 -0.0532317584
1641800000.0 -0.3688442147 0.2616735886
1651750000.0 -0.1419784836 0.4821906097
1661700000.0 0.1669593848 0.5193259494
1671650000.0 0.4330646345 0.3689799279
1681600000.0 0.5637647445 0.0954795618
1691550000.0 0.5200283064 -0.2078807675
1701500000.0 0.3132797407 -0.4426573019
1711450000.0 0.0028333425 -0.5296359149
1721400000.0 -0.316660516 -0.4246002927
1731350000.0 -0.5261150858 -0.1504410933
1741300000.0 -0.5417210137 0.1954000351
1751250000.0 -0.361120402 0.4821104802
1761200000.0 -0.0614996288 0.6136878447
1771150000.0 0.25142221 0.5656392742
1781100000.0 0.4891856911 0.3668836305
1791050000.0 0.5936147344 0.0753608851
1801000000.0 0.5350861251 -0.2338980251
1810950000.0 0.3196977989 -0.4742683215
1820900000.0 0.0005515193 -0.5617132339
1830850000.0 -0.3177191988 -0.4522856615
1840800000.0 -0.5176773877 -0.1859474085
1850750000.0 -0.5389453819 0.1319518682
1860700000.0 -0.3988358608 0.3953536302
1870650000.0 -0.1613000462 0.5412431084
1880600000.0 0.1018315968 0.5475894618
1890550000.0 0.3226457953 0.4236840907
1900500000.0 0.4449955107 0.2050426334
1910450000.0 0.4333799082 -0.0460558783
1920400000.0 0.2877353642 -0.2480513718
1930350000.0 0.0625192935 -0.3285689289
1940300000.0 -0.1504482699 -0.2726064736
1950250000.0 -0.2792631087 -0.1285451351
1960200000.0 -0.3004113914 0.0312495008
1970150000.0 -0.2428603336 0.139671194
1980100000.0 -0.1687760235 0.1747411213
1990050000.0 -0.1198821707 0.1539585592
2000000000.0 -0.1383623628 0.1152948167
