!Created with skrf (http://scikit-rf.org).
# GHz S RI R 50.0 
!freq ReS11 ImS11
10000000.0 -0.8676293762 0.5292873282
19950000.0 -0.4680199854 0.8869026358
29900000.0 0.058026682 0.9889379446
39850000.0 0.5681554862 0.8024047342
49800000.0 0.9109230397 0.3678273949
59750000.0 0.9687441271 -0.1983644896
69700000.0 0.6949505419 -0.71904061
79650000.0 0.1540065644 -0.9991760743
89600000.0 -0.4697559642 -0.9003487743
99550000.0 -0.9164647071 -0.4226268142
109500000.0 -0.9611121193 0.2532410468
119450000.0 -0.5393944054 0.813797944
129400000.0 0.1677067645 0.9498826091
139350000.0 0.8003904343 0.5459237492
149300000.0 0.9619939668 -0.1948595814
159250000.0 0.5539136865 -0.8248338395
169200000.0 -0.1538025252 -0.9822738684
179150000.0 -0.7478912123 -0.6367633969
189100000.0 -0.9639776379 -0.0263803394
199050000.0 -0.7693831879 0.5556190448
209000000.0 -0.2879252558 0.8967905669
218950000.0 0.2830544552 0.9002650371
228900000.0 0.7508195997 0.5863526261
238850000.0 0.9605701604 0.0637241003
248800000.0 0.7934702238 -0.2566384795
258750000.0 0.4926845985 -0.8313501131
268700000.0 -0.0330297394 -0.9540026884
278650000.0 -0.5265569876 -0.7725537628
288600000.0 -0.8372317952 -0.3590111258
298550000.0 -0.8746800447 0.1517435976
308500000.0 -0.6258529881 0.5974126966
318450000.0 -0.1697784576 0.8258926623
328400000.0 0.3312288783 0.7471904762
338350000.0 0.677029524 0.3874694623
348300000.0 0.7191565991 -0.0900839768
358250000.0 0.4613407021 -0.4573629344
368200000.0 0.0672788601 -0.5544701749
378150000.0 -0.2484411712 -0.3893037588
388100000.0 -0.355156191 -0.1027556605
398050000.0 -0.2580787883 0.134939171
408000000.0 -0.0665659205 0.2235431969
417950000.0 0.0971141006 0.1670502231
427900000.0 0.1605461411 0.0391034847
437850000.0 0.1239641484 -0.0741812779
447800000.0 0.0328778272 -0.1219709122
457750000.0 -0.0529602129 -0.0970484906
467700000.0 -0.0932999052 -0.0296407242
477650000.0 -0.0781018579 0.0383797893
487600000.0 -0.0184711629 0.0643008444
497550000.0 -0.0463444274 0.0924983702
507500000.0 0.0368204454 0.0609487719
517450000.0 0.0453198695 0.0191384417
527400000.0 0.0252160909 -0.0057040789
537350000.0 -0.0024758493 -0.0051481576
547300000.0 -0.017788345 0.0261725321
557250000.0 0.005467787 0.055554626
567200000.0 0.0481791471 0.061869712
577150000.0 0.0934310691 0.0352173019
587100000.0 0.1179689644 -0.0222733554
597050000.0 0.1034318252 -0.0918281058
607000000.0 0.0472503344 -0.1477453249
616950000.0 -0.0372208983 -0.1649302601
626900000.0 -0.1221356165 -0.1307998661
636850000.0 -0.1767744254 -0.05176132
646800000.0 -0.1775094864 0.0482621301
656750000.0 -0.1188676339 0.1344804437
666700000.0 -0.0127005658 0.1696915327
676650000.0 0.0880568229 0.1011150888
686600000.0 0.0784114607 0.0762511542
696550000.0 0.1353116643 0.0142188991
706500000.0 0.1197900352 -0.0748101806
716450000.0 0.0521504085 -0.1300090486
726400000.0 -0.0320729392 -0.1288102738
736350000.0 -0.0921401812 -0.0743284733
746300000.0 -0.09924453 0.0066374355
756250000.0 -0.0472451116 0.0725699371
766200000.0 0.0421541764 0.0870732054
776150000.0 0.1262978896 0.0343103589
786100000.0 0.1616225826 -0.0705017624
796050000.0 0.1201799846 -0.1864352844
806000000.0 0.0067304206 -0.2619792434
815950000.0 -0.1443402582 -0.254376234
825900000.0 -0.2741866503 -0.1517308579
835850000.0 -0.3267591748 0.0205490621
845800000.0 -0.2694125855 0.2056477852
855750000.0 -0.1093164876 0.336379808
865700000.0 0.1074330086 0.3590440125
875650000.0 0.3115504353 0.2556851966
885600000.0 0.4303949733 0.050337558
895550000.0 0.4172374011 -0.1948056551
905500000.0 0.2670332388 -0.397587042
915450000.0 0.023550745 -0.4845868614
925400000.0 -0.2334027017 -0.4169013335
935350000.0 -0.409230769 -0.2072139832
945300000.0 -0.4278747869 0.0758231054
955250000.0 -0.2628667201 0.3217422049
965200000.0 0.0354520567 0.4113987391
975150000.0 0.3371083952 0.2732448262
985100000.0 0.4713561677 -0.057388183
995050000.0 0.3209746391 -0.4146280075
1005000000.0 -0.0767150478 -0.5681021894
1014950000.0 -0.503164166 -0.3654644589
1024900000.0 -0.6624484958 0.1346753487
1034850000.0 -0.3747096299 0.6376079589
1044800000.0 0.2359502936 0.7686622447
1054750000.0 0.7461855888 0.3783427937
1064700000.0 0.8283704991 -0.1654216796
1074650000.0 0.5350858759 -0.6920086306
1084600000.0 0.0573760156 -0.792711153
1094550000.0 -0.4641287466 -0.7002184524
1104500000.0 -0.7744944774 -0.24082843
1114450000.0 -0.7082753348 0.3011641848
1124400000.0 -0.3055637884 0.6568976782
1134350000.0 0.2133546573 0.647786548
1144300000.0 0.5643007993 0.3098879521
1154250000.0 0.5955440306 -0.1332336816
1164200000.0 0.3642137393 -0.459151356
1174150000.0 0.0062545336 -0.5717793876
1184100000.0 -0.3337632987 -0.4464160376
1194050000.0 -0.5220905072 -0.1468737074
1204000000.0 -0.4916164743 0.2007814311
1213950000.0 -0.2591284871 0.4577964623
1223900000.0 0.0783478914 0.5246741895
1233850000.0 0.3851666783 0.3839629154
1243800000.0 0.5535626934 0.1024047444
1253750000.0 0.5437712022 -0.2156115031
1263700000.0 0.3769188558 -0.4746791187
1273650000.0 0.1099433705 -0.6146810793
1283600000.0 -0.1885770263 -0.6092911222
1293550000.0 -0.4502988834 -0.4623846544
1303500000.0 -0.6138638623 -0.2052786264
1313450000.0 -0.6339386872 0.1066931936
1323400000.0 -0.4960787397 0.3947964032
1333350000.0 -0.2288084957 0.5806918371
1343300000.0 0.0973477928 0.6089118785
1353250000.0 0.3927858321 0.4738185595
1363200000.0 0.5828618478 0.2176634333
1373150000.0 0.6287341068 -0.0899906055
1383100000.0 0.5302094514 -0.3761505808
1393050000.0 0.3182301475 -0.5827400704
1403000000.0 0.0401732591 -0.6718200697
1412950000.0 -0.2466521626 -0.6269177101
1422900000.0 -0.4812310209 -0.4577641688
1432850000.0 -0.6117385175 -0.2010120468
1442800000.0 -0.6101407064 0.0856558227
1452750000.0 -0.4786220695 0.3403946358
1462700000.0 -0.2405201986 0.5083213149
1472650000.0 0.0531857947 0.5437163539
1482600000.0 0.3273899178 0.4300370403
1492550000.0 0.5086899727 0.198661123
1502500000.0 0.5518498708 -0.0871225076
1512450000.0 0.4519710078 -0.3513546719
1522400000.0 0.2403216943 -0.5303893364
1532350000.0 -0.0284312675 -0.5809155564
1542300000.0 -0.283600955 -0.4921692698
1552250000.0 -0.4571890566 -0.2873415574
1562200000.0 -0.5006844247 -0.0275209132
1572150000.0 -0.4067783321 0.2170822657
1582100000.0 -0.1992930249 0.3764932742
1592050000.0 0.0600191526 0.4012095112
1602000000.0 0.2926999377 0.2847336345
1611950000.0 0.4218891547 0.0614321085
1621900000.0 0.4098964407 -0.1948378551
1631850000.0 0.2635501535 -0.4025403669
1641800000.0 0.029140243 -0.4992205039
1651750000.0 -0.2204766113 -0.4574706112
1661700000.0 -0.4131928777 -0.2915549205
1671650000.0 -0.494004463 -0.0465391499
1681600000.0 -0.4268776273 0.2070946573
1691550000.0 -0.2884304175 0.3840318044
1701500000.0 -0.0114832471 0.4885489046
1711450000.0 0.2679116469 0.4214704459
1721400000.0 0.4741350392 0.2157620959
1731350000.0 0.542965568 -0.0661205284
1741300000.0 0.4596819169 -0.3427421572
1751250000.0 0.2529036682 -0.5387430396
1761200000.0 -0.0176710083 -0.6108748655
1771150000.0 -0.2858033994 -0.5497800078
1781100000.0 -0.4947571531 -0.3759821651
1791050000.0 -0.6039578879 -0.12921123
1801000000.0 -0.5914135853 0.1418676051
1810950000.0 -0.4567870517 0.3816540707
1820900000.0 -0.2232764983 0.5345698506
1830850000.0 0.0584294896 0.5591752347
1840800000.0 0.3197516867 0.4453270567
1850750000.0 0.4909907001 0.2206214875
1860700000.0 0.5305273592 -0.0520618124
1870650000.0 0.4386903457 -0.3012254091
1880600000.0 0.2513060786 -0.4700695296
1890550000.0 0.0222637664 -0.5331163379
1900500000.0 -0.1976542858 -0.491302805
1910450000.0 -0.368337734 -0.3660732386
1920400000.0 -0.4632043888 -0.1878775574
1930350000.0 -0.4702513433 0.0042245516
1940300000.0 -0.3919320456 0.1703536694
1950250000.0 -0.2532081018 0.2739322349
1960200000.0 -0.0948317085 0.293948601
1970150000.0 0.0363879219 0.2375475269
1980100000.0 0.1058628277 0.1384830351
1990050000.0 0.1077115077 0.043003522
2000000000.0 0.0677527263 -0.0083361949
