!Created with skrf (http://scikit-rf.org).
# GHz S RI R 50.0 
!freq ReS11 ImS11
10000000.0 -0.9746966643 0.0703824305
19950000.0 -0.9659494677 0.134624733
29900000.0 -0.9525908785 0.2015493687
39850000.0 -0.9325397276 0.2729183742
49800000.0 -0.9026533931 0.3519279446
59750000.0 -0.8598107982 0.440258614
69700000.0 -0.7990536056 0.5387172877
79650000.0 -0.7144600221 0.6479812853
89600000.0 -0.5947900153 0.7636513796
99550000.0 -0.428513533 0.8746348184
109500000.0 -0.2047865759 0.9594888738
119450000.0 0.0766144219 0.9831133221
129400000.0 0.3875343196 0.9093955013
139350000.0 0.6677749499 0.72948433
149300000.0 0.8708701052 0.4650237087
159250000.0 0.9686111436 0.1740890861
169200000.0 0.9729464188 -0.0944030323
179150000.0 0.9162495415 -0.3136656207
189100000.0 0.8288599221 -0.4812575121
199050000.0 0.7331236052 -0.6046909263
209000000.0 0.6393750524 -0.6939918843
218950000.0 0.5529571089 -0.7598015389
228900000.0 0.4749557245 -0.8080753095
238850000.0 0.4014354541 -0.8434203183
248800000.0 0.3266312356 -0.8395728515
258750000.0 0.2657029622 -0.8833384858
268700000.0 0.1954313184 -0.8949611835
278650000.0 0.1232727155 -0.9002091466
288600000.0 0.0485627397 -0.8993494538
298550000.0 -0.0291997248 -0.8897417469
308500000.0 -0.1124128714 -0.8682543197
318450000.0 -0.2005429382 -0.8287915353
328400000.0 -0.2912904373 -0.7648816519
338350000.0 -0.3784127108 -0.6713061218
348300000.0 -0.4487929329 -0.5462391068
358250000.0 -0.4862609612 -0.3973953944
368200000.0 -0.4792513275 -0.2409721127
378150000.0 -0.4278345883 -0.0993532235
388100000.0 -0.341806744 0.0113245458
398050000.0 -0.2394926281 0.0837665267
408000000.0 -0.1384456422 0.121761359
417950000.0 -0.0499580216 0.1335833345
427900000.0 0.0206996397 0.1288653038
437850000.0 0.0726069139 0.1135156664
447800000.0 0.1077369141 0.092160986
457750000.0 0.1286668239 0.0678600749
467700000.0 0.138094274 0.0433098347
477650000.0 0.1386004132 0.0208460557
487600000.0 0.1320997104 0.0022054569
497550000.0 0.1181633162 -0.0065838966
507500000.0 0.1061132865 -0.0185201193
517450000.0 0.0848427407 -0.0214751941
527400000.0 0.0604098703 -0.0203010514
537350000.0 0.0346948071 -0.0153091616
547300000.0 0.0095905735 -0.0072174913
557250000.0 -0.0148097113 0.0036483594
567200000.0 -0.0359075966 0.0183223104
577150000.0 -0.0536233184 0.0357694105
587100000.0 -0.0685137767 0.0554282336
597050000.0 -0.0802937701 0.0759324416
607000000.0 -0.0892665246 0.0964144735
616950000.0 -0.0955536828 0.1150208997
626900000.0 -0.0976693183 0.1315622096
636850000.0 -0.0957616392 0.1454857558
646800000.0 -0.0888879428 0.1570465095
656750000.0 -0.0787648453 0.1671166135
666700000.0 -0.0653027278 0.1756811818
676650000.0 -0.0508826447 0.1819046896
686600000.0 -0.0350629196 0.1847517129
696550000.0 -0.0180937987 0.182903516
706500000.0 7.13824e-05 0.1748927295
716450000.0 0.0203759654 0.1607824409
726400000.0 0.0429524879 0.1409061108
736350000.0 0.0667533132 0.1159896984
746300000.0 0.0900862141 0.0880012828
756250000.0 0.1108984355 0.0564963548
766200000.0 0.1265824831 0.0214394029
776150000.0 0.1357962372 -0.0179259511
786100000.0 0.1383073554 -0.0611032457
796050000.0 0.1340802993 -0.1082259155
806000000.0 0.1247436145 -0.1576773638
815950000.0 0.1104492337 -0.2059592122
825900000.0 0.0921186873 -0.2503769787
835850000.0 0.0690926961 -0.2887595717
845800000.0 0.0402842861 -0.3198523555
855750000.0 0.0045574044 -0.3432529088
865700000.0 -0.0378520451 -0.3607274883
875650000.0 -0.0857899473 -0.3715363638
885600000.0 -0.1379149224 -0.3753530841
895550000.0 -0.191327756 -0.3708271418
905500000.0 -0.2427743499 -0.3555551158
915450000.0 -0.2909524863 -0.3285725924
925400000.0 -0.3384179368 -0.288818985
935350000.0 -0.385932418 -0.2301270445
945300000.0 -0.4293777736 -0.1476677247
955250000.0 -0.459756146 -0.0397817921
965200000.0 -0.4606953957 0.0890239639
975150000.0 -0.4256149744 0.2164422964
985100000.0 -0.3720627953 0.3475085303
995050000.0 -0.266173262 0.4968539853
1005000000.0 -0.08494286 0.6230533052
1014950000.0 0.1539793649 0.6815302298
1024900000.0 0.4088944694 0.6462872025
1034850000.0 0.6296845847 0.5200285044
1044800000.0 0.7824350828 0.3299931066
1054750000.0 0.8547171322 0.1114734563
1064700000.0 0.8458590332 -0.0927800355
1074650000.0 0.8176196631 -0.2703946882
1084600000.0 0.7348457636 -0.4417522116
1094550000.0 0.6151382388 -0.5769278253
1104500000.0 0.4701713924 -0.6749462588
1114450000.0 0.3074433194 -0.7336436556
1124400000.0 0.1375246902 -0.7528678004
1134350000.0 -0.0278574746 -0.7340761546
1144300000.0 -0.1784971944 -0.6822984195
1154250000.0 -0.3050037082 -0.6043686886
1164200000.0 -0.4034290409 -0.5139895846
1174150000.0 -0.4830634126 -0.4162165533
1184100000.0 -0.5421324186 -0.3097583581
1194050000.0 -0.5805571862 -0.2036919186
1204000000.0 -0.6017455559 -0.1052831495
1213950000.0 -0.6099260944 -0.0184511398
1223900000.0 -0.6100062752 0.0546993152
1233850000.0 -0.6037639611 0.1158100731
1243800000.0 -0.5932165826 0.1676321315
1253750000.0 -0.5788807697 0.2142023882
1263700000.0 -0.562186888 0.256894509
1273650000.0 -0.5457414222 0.2951228089
1283600000.0 -0.5311926599 0.3295038071
1293550000.0 -0.5194176243 0.3576934875
1303500000.0 -0.5113227795 0.3789874917
1313450000.0 -0.5052173375 0.3939311448
1323400000.0 -0.5003387027 0.4036667937
1333350000.0 -0.4938305299 0.4111967461
1343300000.0 -0.4866512822 0.4193441576
1353250000.0 -0.478285741 0.429352887
1363200000.0 -0.4702698347 0.4412956902
1373150000.0 -0.4617990882 0.4528479655
1383100000.0 -0.4544958682 0.4627822465
1393050000.0 -0.4485590412 0.4692650886
1403000000.0 -0.4419930131 0.4716205991
1412950000.0 -0.4335879099 0.4706301723
1422900000.0 -0.4219136451 0.4688951327
1432850000.0 -0.4071538928 0.4684196569
1442800000.0 -0.3897923358 0.4712765213
1452750000.0 -0.3716100398 0.4775772278
1462700000.0 -0.3518630705 0.4862867838
1472650000.0 -0.3314941337 0.4949901838
1482600000.0 -0.3099238186 0.5023011938
1492550000.0 -0.2862631359 0.5069066001
1502500000.0 -0.2577722222 0.5089163276
1512450000.0 -0.2243303902 0.5090392342
1522400000.0 -0.1859731711 0.5087855089
1532350000.0 -0.1434829644 0.5081095425
1542300000.0 -0.0974958728 0.5075516138
1552250000.0 -0.0500156452 0.5055475275
1562200000.0 -0.0014297686 0.5014779672
1572150000.0 0.0469056285 0.4933540293
1582100000.0 0.0955934403 0.4814177854
1592050000.0 0.1441224864 0.4658748004
1602000000.0 0.1921499787 0.4478282576
1611950000.0 0.2386766779 0.4283573893
1621900000.0 0.2830856846 0.408208593
1631850000.0 0.3246223561 0.3867993697
1641800000.0 0.3629767493 0.3643387624
1651750000.0 0.3987603968 0.3395446846
1661700000.0 0.431734775 0.3135490179
1671650000.0 0.4620251003 0.2880864499
1681600000.0 0.4898979538 0.2647986719
1691550000.0 0.5147628478 0.2448413365
1701500000.0 0.5375263023 0.2290653878
1711450000.0 0.5565842399 0.2165034118
1721400000.0 0.5721587483 0.2059533092
1731350000.0 0.5841132178 0.1958699608
1741300000.0 0.5942635399 0.1860671699
1751250000.0 0.602706091 0.1769908207
1761200000.0 0.6101451902 0.1693620503
1771150000.0 0.6160793395 0.1648378464
1781100000.0 0.6204532418 0.1641587382
1791050000.0 0.6223983938 0.1683751737
1801000000.0 0.6222238277 0.175519811
1810950000.0 0.6192653876 0.1830230179
1820900000.0 0.6146386253 0.1894239159
1830850000.0 0.6099135085 0.1927379446
1840800000.0 0.6059540755 0.1944595957
1850750000.0 0.6013461105 0.1943264031
1860700000.0 0.5948705487 0.1942242996
1870650000.0 0.5857353059 0.1958958067
1880600000.0 0.572393016 0.1997846154
1890550000.0 0.5538853347 0.2056369924
1900500000.0 0.5306045341 0.2106965855
1910450000.0 0.5046088741 0.2128603552
1920400000.0 0.4776634093 0.2113510227
1930350000.0 0.4508340934 0.2056772934
1940300000.0 0.4231432882 0.1959877358
1950250000.0 0.3937195528 0.1831851037
1960200000.0 0.3600689508 0.1692632657
1970150000.0 0.3201869771 0.153712081
1980100000.0 0.2708648759 0.1375622634
1990050000.0 0.2096850031 0.1180134879
2000000000.0 0.132486243 0.0952650398
