!Created with skrf (http://scikit-rf.org).
# GHz S RI R 50.0 
!freq ReS11 ImS11
10000000.0 -0.978487169 0.0679771625
19950000.0 -0.9683782436 0.1316571083
29900000.0 -0.9533801027 0.1986796405
39850000.0 -0.9320830006 0.2705549058
49800000.0 -0.9017056721 0.3498499884
59750000.0 -0.8594255133 0.437850267
69700000.0 -0.799889163 0.5354233312
79650000.0 -0.7163937368 0.6430859797
89600000.0 -0.5976173418 0.7568096135
99550000.0 -0.4318891243 0.8659018744
109500000.0 -0.2091973818 0.9495319615
119450000.0 0.0695495122 0.9738199813
129400000.0 0.3765812417 0.9039142397
139350000.0 0.6544342243 0.730542789
149300000.0 0.8586189787 0.4724510731
159250000.0 0.9599279415 0.1857162394
169200000.0 0.9696168173 -0.0820385922
179150000.0 0.9173834813 -0.3031925431
189100000.0 0.8337274664 -0.4725679306
199050000.0 0.7404484964 -0.5974227409
209000000.0 0.647393234 -0.6871604652
218950000.0 0.5615932225 -0.7531377767
228900000.0 0.4830014555 -0.8015718988
238850000.0 0.4093231636 -0.8372134673
248800000.0 0.3279649701 -0.8588367623
258750000.0 0.2751193947 -0.8794478158
268700000.0 0.2075533952 -0.8921115759
278650000.0 0.1385344732 -0.8982267183
288600000.0 0.066857214 -0.8977261025
298550000.0 -0.0090597387 -0.8883881206
308500000.0 -0.0913791707 -0.8675906368
318450000.0 -0.1795850133 -0.8298883777
328400000.0 -0.2701196229 -0.7689786988
338350000.0 -0.3561059518 -0.6803784509
348300000.0 -0.4260471895 -0.5622301599
358250000.0 -0.4652574498 -0.4196149492
368200000.0 -0.461842533 -0.2663591116
378150000.0 -0.4140393117 -0.1238258238
388100000.0 -0.3323710066 -0.0094935063
398050000.0 -0.2337551219 0.0677700435
408000000.0 -0.1342364824 0.1101202174
417950000.0 -0.0457563345 0.1246135936
427900000.0 0.0258274532 0.1205812844
437850000.0 0.079911827 0.1050262484
447800000.0 0.1174422793 0.083566039
457750000.0 0.1407790685 0.0599420143
467700000.0 0.1524745119 0.0375269684
477650000.0 0.1544201457 0.0172685584
487600000.0 0.1489766113 0.0004579546
497550000.0 0.1381248934 -0.0100485828
507500000.0 0.1231084684 -0.0230373896
517450000.0 0.1023938424 -0.0268440741
527400000.0 0.0790060485 -0.0267434913
537350000.0 0.0544708078 -0.0223152722
547300000.0 0.0302179543 -0.0131101735
557250000.0 0.0068678628 -0.0013313424
567200000.0 -0.0149566814 0.0137693202
577150000.0 -0.0342037458 0.0314016451
587100000.0 -0.0506187523 0.0511052576
597050000.0 -0.0635766258 0.0712233466
607000000.0 -0.0731027261 0.0917577073
616950000.0 -0.0794019766 0.1110832975
626900000.0 -0.081641736 0.1294049331
636850000.0 -0.0804083229 0.1460307083
646800000.0 -0.0754246523 0.1600135473
656750000.0 -0.0674892078 0.1721426571
666700000.0 -0.0563288334 0.1818123254
676650000.0 -0.0436611876 0.1883975238
686600000.0 -0.028595186 0.1915228199
696550000.0 -0.0115091469 0.1906099558
706500000.0 0.0071796744 0.1847065772
716450000.0 0.027838406 0.1736557155
726400000.0 0.0501192145 0.1575486666
736350000.0 0.0726874681 0.1361295877
746300000.0 0.0941085647 0.1107830532
756250000.0 0.1142442404 0.0799723019
766200000.0 0.1304541078 0.04474341
776150000.0 0.1421074967 0.004677005
786100000.0 0.1484086857 -0.0390841551
796050000.0 0.1483078969 -0.0859718438
806000000.0 0.142072732 -0.134728256
815950000.0 0.1303890823 -0.1826087806
825900000.0 0.1128105637 -0.2279279362
835850000.0 0.0894279205 -0.2689983329
845800000.0 0.0602629403 -0.3043599536
855750000.0 0.0248046099 -0.3338209368
865700000.0 -0.0161787295 -0.3577234768
875650000.0 -0.0617199304 -0.3746892895
885600000.0 -0.1103183647 -0.3847551797
895550000.0 -0.1616590516 -0.3869170139
905500000.0 -0.2141466601 -0.3794568845
915450000.0 -0.2670396024 -0.360984367
925400000.0 -0.319559052 -0.329415897
935350000.0 -0.3708647101 -0.2823515739
945300000.0 -0.4183339709 -0.21886908
955250000.0 -0.4592639271 -0.1363844305
965200000.0 -0.487857759 -0.0333780475
975150000.0 -0.4965234684 0.0927920566
985100000.0 -0.4710008548 0.2408275159
995050000.0 -0.3952127506 0.4018397427
1005000000.0 -0.2545859402 0.5548546416
1014950000.0 -0.0474236376 0.6662375
1024900000.0 0.2069615442 0.6994602881
1034850000.0 0.4648593241 0.6334727005
1044800000.0 0.6785087073 0.475942191
1054750000.0 0.8149332809 0.2599177001
1064700000.0 0.8663974591 0.0246504585
1074650000.0 0.8357972222 -0.1993542588
1084600000.0 0.7098636102 -0.3580578908
1094550000.0 0.6853211291 -0.4678089382
1104500000.0 0.5585794815 -0.6138578546
1114450000.0 0.403701147 -0.7031023397
1124400000.0 0.239985418 -0.7491252877
1134350000.0 0.077978899 -0.7563228168
1144300000.0 -0.0733820877 -0.7294883407
1154250000.0 -0.2074583238 -0.6738078606
1164200000.0 -0.3193945014 -0.59804387
1174150000.0 -0.4073141807 -0.5117729078
1184100000.0 -0.4790882628 -0.4221090841
1194050000.0 -0.5353719363 -0.3276598001
1204000000.0 -0.5733764538 -0.2349040266
1213950000.0 -0.5956954633 -0.1480626853
1223900000.0 -0.6060025717 -0.0701161907
1233850000.0 -0.6078244892 -0.0014980113
1243800000.0 -0.6034904579 0.0586258613
1253750000.0 -0.595494085 0.1122987249
1263700000.0 -0.5847678506 0.1611996099
1273650000.0 -0.5738824015 0.2038537153
1283600000.0 -0.5628297415 0.2416692141
1293550000.0 -0.5525685315 0.2732572066
1303500000.0 -0.5432654508 0.2987668622
1313450000.0 -0.5349129637 0.319231737
1323400000.0 -0.5272935786 0.335524893
1333350000.0 -0.5194066499 0.3496911612
1343300000.0 -0.5115551327 0.3636424051
1353250000.0 -0.5039688222 0.3776496238
1363200000.0 -0.4963347825 0.3918141045
1373150000.0 -0.4874998503 0.4047006785
1383100000.0 -0.4782759752 0.4162392387
1393050000.0 -0.4690024229 0.4256830073
1403000000.0 -0.4589517894 0.4325321849
1412950000.0 -0.4482845424 0.4372458057
1422900000.0 -0.436741476 0.4414799714
1432850000.0 -0.4244326115 0.445941441
1442800000.0 -0.4107751297 0.4521941763
1452750000.0 -0.3963704408 0.4598898708
1462700000.0 -0.3793880195 0.4686103378
1472650000.0 -0.3601320656 0.4775099191
1482600000.0 -0.3386257362 0.4858586125
1492550000.0 -0.3143346316 0.4929234599
1502500000.0 -0.2869241091 0.4987912578
1512450000.0 -0.2570153077 0.5036609247
1522400000.0 -0.2245220819 0.508205826
1532350000.0 -0.1898812088 0.511845309
1542300000.0 -0.152323253 0.5148025605
1552250000.0 -0.1123235122 0.5165174751
1562200000.0 -0.0705405831 0.5166452839
1572150000.0 -0.0280482886 0.5144886536
1582100000.0 0.0155910075 0.5101767801
1592050000.0 0.0597919187 0.5044241056
1602000000.0 0.1038876617 0.4964941714
1611950000.0 0.148090019 0.48728109
1621900000.0 0.1915855332 0.4758543138
1631850000.0 0.2337278936 0.4617907602
1641800000.0 0.2735860802 0.4455115416
1651750000.0 0.3111947666 0.4269381643
1661700000.0 0.3463230789 0.4074197003
1671650000.0 0.3790138141 0.3884125417
1681600000.0 0.4083290313 0.3705805282
1691550000.0 0.4348741474 0.3542870626
1701500000.0 0.4588104311 0.3398560029
1711450000.0 0.4799160551 0.3266349215
1721400000.0 0.4982699223 0.3145164315
1731350000.0 0.5138322643 0.3024879948
1741300000.0 0.5273765692 0.2914684308
1751250000.0 0.5387177372 0.2818733496
1761200000.0 0.5474128201 0.273740151
1771150000.0 0.5534323508 0.2681589935
1781100000.0 0.5571631647 0.2643826658
1791050000.0 0.5585859552 0.2632001096
1801000000.0 0.558872979 0.2630858825
1810950000.0 0.5581537893 0.2630632472
1820900000.0 0.5569856363 0.2628252021
1830850000.0 0.5558087647 0.2614146045
1840800000.0 0.5539856628 0.2604084283
1850750000.0 0.5499289992 0.258860729
1860700000.0 0.5427974379 0.257116292
1870650000.0 0.5318984408 0.2555548466
1880600000.0 0.5172598183 0.2543469422
1890550000.0 0.4990786271 0.253520537
1900500000.0 0.4785279599 0.2518225257
1910450000.0 0.4566111058 0.2483358551
1920400000.0 0.4343949763 0.2433295538
1930350000.0 0.4117503992 0.2365966441
1940300000.0 0.3872652452 0.2281613337
1950250000.0 0.3599352199 0.2178107165
1960200000.0 0.3289021053 0.2059712352
1970150000.0 0.2930654869 0.1919953835
1980100000.0 0.2516648722 0.1770337851
1990050000.0 0.2044825872 0.1591771907
2000000000.0 0.1509524007 0.1391757268
