!Created with skrf (http://scikit-rf.org).
# GHz S RI R 50.0 
!freq ReS11 ImS11
10000000.0 -0.9122373895 0.4504875757
19950000.0 -0.6177452216 0.7862406774
29900000.0 -0.2066566156 0.9598262193
39850000.0 0.24720371 0.9368632276
49800000.0 0.6553155137 0.7101035568
59750000.0 0.9266793491 0.3074580893
69700000.0 0.9765859054 -0.1991392467
79650000.0 0.7535036014 -0.6864330552
89600000.0 0.2803794989 -0.9938722337
99550000.0 -0.3117962147 -0.9779869687
109500000.0 -0.8029279121 -0.5991851364
119450000.0 -0.9731363584 0.024159957
129400000.0 -0.7136681697 0.641504068
139350000.0 -0.112519948 0.9620998054
149300000.0 0.5607768421 0.8169464125
159250000.0 0.9687547997 0.2792462912
169200000.0 0.9390869592 -0.3621204311
179150000.0 0.5531646217 -0.8159311146
189100000.0 0.020666542 -0.9562549802
199050000.0 -0.4691080536 -0.8059398825
209000000.0 -0.8040947448 -0.4531416087
218950000.0 -0.9280990797 -0.0080127754
228900000.0 -0.8389043835 0.4354566858
238850000.0 -0.5611523194 0.7854486997
248800000.0 -0.1596894789 0.9356032373
258750000.0 0.2777694312 0.9375223953
268700000.0 0.6521658877 0.7054895614
278650000.0 0.8737112988 0.3270935975
288600000.0 0.8963938375 -0.1080507469
298550000.0 0.7204952361 -0.5022545615
308500000.0 0.386726235 -0.769417371
318450000.0 -0.0293161028 -0.8488413514
328400000.0 -0.4276765348 -0.7169152052
338350000.0 -0.6973805554 -0.4020150437
348300000.0 -0.747793262 -0.000799014
358250000.0 -0.5646788815 0.3375939874
368200000.0 -0.2426550025 0.4835373756
378150000.0 0.0610025565 0.4105359771
388100000.0 0.223545973 0.2023431555
398050000.0 0.2204918285 -0.0113893282
408000000.0 0.1113688239 -0.13823843
417950000.0 -0.0180865089 -0.154022232
427900000.0 -0.1028574674 -0.0882714918
437850000.0 -0.115718937 0.0068981637
447800000.0 -0.0647199583 0.0826492111
457750000.0 0.0188721794 0.1109479609
467700000.0 0.0997455149 0.087836662
477650000.0 0.15106458 0.0285844547
487600000.0 0.1608346811 -0.0425835418
497550000.0 0.1366901684 -0.1037123999
507500000.0 0.0806059581 -0.1335160069
517450000.0 0.0258143885 -0.1292230911
527400000.0 -0.0132126074 -0.0985230487
537350000.0 -0.0271200214 -0.0572451376
547300000.0 -0.0170416922 -0.0225798126
557250000.0 0.0077574758 -0.0057060941
567200000.0 0.0313060107 -0.0129900469
577150000.0 0.0386551976 -0.0370873623
587100000.0 0.0231479715 -0.0652147977
597050000.0 -0.0139209254 -0.0819636332
607000000.0 -0.0631608429 -0.0756217148
616950000.0 -0.108298269 -0.0403355288
626900000.0 -0.1314085674 0.0173509111
636850000.0 -0.1227349129 0.0834328646
646800000.0 -0.0799597076 0.1393217598
656750000.0 -0.0109487179 0.1680269508
666700000.0 0.068017008 0.1577606251
676650000.0 0.1342162506 0.109071512
686600000.0 0.1707348212 0.0336276333
696550000.0 0.1697752362 -0.0507973066
706500000.0 0.1295809518 -0.1240479952
716450000.0 0.0590099251 -0.1662346748
726400000.0 -0.0216822165 -0.1635100308
736350000.0 -0.0851482221 -0.115946518
746300000.0 -0.1098064702 -0.0382600436
756250000.0 -0.0849116203 0.0445980797
766200000.0 -0.0145656591 0.1033593721
776150000.0 0.0813481854 0.1156085455
786100000.0 0.17282554 0.0729941426
796050000.0 0.2282849017 -0.0158995979
806000000.0 0.2246930869 -0.1262787758
815950000.0 0.1533557617 -0.2221391802
825900000.0 0.0288720234 -0.2669033177
835850000.0 -0.1154766945 -0.2349416485
845800000.0 -0.2349151455 -0.1230054819
855750000.0 -0.2885472711 0.0460536608
865700000.0 -0.2519053402 0.2274621733
875650000.0 -0.1317946333 0.3737894439
885600000.0 0.0444813328 0.4454638326
895550000.0 0.2359985308 0.4219720242
905500000.0 0.3956781613 0.3020525969
915450000.0 0.4772297158 0.1062867371
925400000.0 0.4440032149 -0.1201631246
935350000.0 0.2849706414 -0.3105261821
945300000.0 0.0307729206 -0.3940087105
955250000.0 -0.2454232693 -0.321576253
965200000.0 -0.4427584392 -0.0944289944
975150000.0 -0.4709945026 0.2199184736
985100000.0 -0.2926099829 0.5021831421
995050000.0 0.0486954207 0.6188260225
1005000000.0 0.4267207098 0.4752801549
1014950000.0 0.6484147437 0.0656379617
1024900000.0 0.5210577441 -0.4494295558
1034850000.0 0.0335293161 -0.7573428441
1044800000.0 -0.539911225 -0.6356589786
1054750000.0 -0.8686033883 -0.1773238552
1064700000.0 -0.8330158163 0.3489110933
1074650000.0 -0.5046726927 0.7240954116
1084600000.0 -0.0760463595 0.8168334873
1094550000.0 0.3776291584 0.7116476361
1104500000.0 0.680711469 0.3313991491
1114450000.0 0.711421138 -0.1464678935
1124400000.0 0.4562652142 -0.5593472348
1134350000.0 0.018293826 -0.715671785
1144300000.0 -0.3827664024 -0.588356286
1154250000.0 -0.6143227891 -0.2921450964
1164200000.0 -0.6526244517 0.0472457865
1174150000.0 -0.5283089176 0.3435451778
1184100000.0 -0.27918603 0.5407665045
1194050000.0 0.0396360711 0.5877585295
1204000000.0 0.3427745539 0.4615964563
1213950000.0 0.535260194 0.1922276552
1223900000.0 0.5558615636 -0.1333104696
1233850000.0 0.4119321499 -0.410231156
1243800000.0 0.1674181829 -0.5708829444
1253750000.0 -0.1030569849 -0.601287001
1263700000.0 -0.3452509577 -0.5213826928
1273650000.0 -0.5282307939 -0.3612158283
1283600000.0 -0.6349755639 -0.1485480807
1293550000.0 -0.6538217759 0.090440821
1303500000.0 -0.5758908738 0.3251465532
1313450000.0 -0.4002864878 0.516158455
1323400000.0 -0.1466490887 0.6177094434
1333350000.0 0.1371834521 0.5942945749
1343300000.0 0.385072879 0.443825277
1353250000.0 0.5405478856 0.203707656
1363200000.0 0.5812999351 -0.0664962837
1373150000.0 0.5189442358 -0.3150739297
1383100000.0 0.3802837612 -0.510283865
1393050000.0 0.1936507064 -0.6364844634
1403000000.0 -0.0162551483 -0.6871290802
1412950000.0 -0.2270710877 -0.6585143556
1422900000.0 -0.4146060954 -0.5514605989
1432850000.0 -0.551141684 -0.3713147949
1442800000.0 -0.6068220781 -0.136067443
1452750000.0 -0.5553040436 0.1162518804
1462700000.0 -0.3922071358 0.3317718844
1472650000.0 -0.147631649 0.4571839859
1482600000.0 0.1220019878 0.4646924752
1492550000.0 0.3570919843 0.3629005778
1502500000.0 0.5167917942 0.1857184555
1512450000.0 0.58413435 -0.0249965617
1522400000.0 0.5600113882 -0.2314324726
1532350000.0 0.4540407038 -0.4013566329
1542300000.0 0.2852463986 -0.5078818404
1552250000.0 0.0800656748 -0.5286634408
1562200000.0 -0.122575838 -0.4513565595
1572150000.0 -0.2769024416 -0.2818812021
1582100000.0 -0.3399438757 -0.0513851058
1592050000.0 -0.2889781916 0.1852056337
1602000000.0 -0.1383883007 0.3689006501
1611950000.0 0.0728343606 0.4562490721
1621900000.0 0.2875457454 0.4364017691
1631850000.0 0.4601364941 0.3247717983
1641800000.0 0.5609520903 0.1513572465
1651750000.0 0.5754394148 -0.0500989073
1661700000.0 0.5004936622 -0.2458417691
1671650000.0 0.3423724788 -0.402307452
1681600000.0 0.1191464483 -0.4840387534
1691550000.0 -0.1328900257 -0.4631154201
1701500000.0 -0.3614605948 -0.3287956808
1711450000.0 -0.5098209097 -0.1037760609
1721400000.0 -0.5423005636 0.1612726471
1731350000.0 -0.4587484057 0.4021529435
1741300000.0 -0.2913702117 0.5740209606
1751250000.0 -0.0821773538 0.6587349193
1761200000.0 0.1325904126 0.658774167
1771150000.0 0.3277735124 0.5856804425
1781100000.0 0.4856112691 0.4519689074
1791050000.0 0.5919735592 0.2705551476
1801000000.0 0.6323762046 0.0554903658
1810950000.0 0.5924023293 -0.1723341585
1820900000.0 0.4622334286 -0.3802943348
1830850000.0 0.2495738576 -0.5241102032
1840800000.0 -0.0111705453 -0.5650259215
1850750000.0 -0.2632320996 -0.4885266082
1860700000.0 -0.4512619131 -0.3185620662
1870650000.0 -0.5476589791 -0.1025827495
1880600000.0 -0.5550025515 0.1132045316
1890550000.0 -0.4915807044 0.298234339
1900500000.0 -0.3807398536 0.433231759
1910450000.0 -0.2516883975 0.5169242228
1920400000.0 -0.1088304623 0.5584101239
1930350000.0 0.0355981211 0.545228869
1940300000.0 0.1604730358 0.4777871654
1950250000.0 0.2459336476 0.3672016928
1960200000.0 0.2777854218 0.2326932802
1970150000.0 0.2510120878 0.1017922602
1980100000.0 0.1767994883 0.0034327212
1990050000.0 0.082678228 -0.0445309956
2000000000.0 0.0018891321 -0.0430109458
