!Created with skrf (http://scikit-rf.org).
# GHz S RI R 50.0 
!freq ReS11 ImS11
10000000.0 -0.9864534255 0.0737989012
19950000.0 -0.9764256305 0.140758295
29900000.0 -0.9615219405 0.209444849
39850000.0 -0.940234174 0.2814137944
49800000.0 -0.9092667205 0.3598077157
59750000.0 -0.8662581318 0.446220974
69700000.0 -0.8068580885 0.5412661626
79650000.0 -0.7259436006 0.645494359
89600000.0 -0.6144282642 0.7550216369
99550000.0 -0.4631785915 0.8606552841
109500000.0 -0.2632672499 0.9464886044
119450000.0 -0.0108696362 0.9858254777
129400000.0 0.278536094 0.9469514202
139350000.0 0.5597656674 0.8156610155
149300000.0 0.7912562149 0.5947938992
159250000.0 0.9349593039 0.3238121703
169200000.0 0.9845193556 0.0490103399
179150000.0 0.9592442936 -0.1945406076
189100000.0 0.8861290623 -0.3928059695
199050000.0 0.7909493745 -0.5456165526
209000000.0 0.6885686674 -0.6590940423
218950000.0 0.5886024961 -0.7436914421
228900000.0 0.4940049689 -0.8057110366
238850000.0 0.3990231993 -0.8516260204
248800000.0 0.2481907983 -0.6741344875
258750000.0 0.255631667 -0.8908167749
268700000.0 0.1640041716 -0.9046426327
278650000.0 0.0744636414 -0.907635504
288600000.0 -0.0156309278 -0.9014112935
298550000.0 -0.1071341448 -0.8834855989
308500000.0 -0.2007276313 -0.8508686879
318450000.0 -0.2951970001 -0.7973961224
328400000.0 -0.3872357123 -0.7188500278
338350000.0 -0.4694915174 -0.6115533344
348300000.0 -0.5305163115 -0.4771396921
358250000.0 -0.5563400154 -0.3249608113
368200000.0 -0.5392057345 -0.1712272491
378150000.0 -0.4810499501 -0.0359324264
388100000.0 -0.3926981431 0.0673474719
398050000.0 -0.2898285703 0.1345750436
408000000.0 -0.1882827869 0.1686953295
417950000.0 -0.0987448315 0.1774065573
427900000.0 -0.0269962894 0.1693147202
437850000.0 0.0255625043 0.1496767347
447800000.0 0.0606755407 0.1235984859
457750000.0 0.0806200514 0.0942008562
467700000.0 0.0881180969 0.0653586321
477650000.0 0.0854307353 0.0386152961
487600000.0 0.0676357922 0.0147006145
497550000.0 0.0922596717 0.0415599279
507500000.0 0.064276743 0.0011455606
517450000.0 0.0396314382 -0.0067098915
527400000.0 0.0140489967 -0.0084319775
537350000.0 -0.0117558819 -0.0068058769
547300000.0 -0.0411307204 -0.0003646193
557250000.0 -0.0628242067 0.0114360388
567200000.0 -0.0807704121 0.0246001913
577150000.0 -0.0956672558 0.0398476614
587100000.0 -0.107654538 0.0580041792
597050000.0 -0.1174341231 0.0765577884
607000000.0 -0.1241536615 0.0948222689
616950000.0 -0.1281490565 0.1115498648
626900000.0 -0.128398218 0.1260480425
636850000.0 -0.1241169582 0.1378350183
646800000.0 -0.1149585148 0.1477387484
656750000.0 -0.1019864052 0.1559229149
666700000.0 -0.0855817757 0.1633198634
676650000.0 -0.0675287303 0.1684130362
686600000.0 -0.048795841 0.1701352537
696550000.0 -0.0285307452 0.1669714223
706500000.0 -0.0075052705 0.157595082
716450000.0 0.0158723178 0.1415110942
726400000.0 0.0418639375 0.1197093455
736350000.0 0.0689397322 0.0932191334
746300000.0 0.0955995609 0.0636637071
756250000.0 0.1195242775 0.0309275666
766200000.0 0.1382412013 -0.0049042226
776150000.0 0.1502390765 -0.0444690002
786100000.0 0.1552952936 -0.0874954063
796050000.0 0.153407902 -0.1342236492
806000000.0 0.1468703768 -0.1831362674
815950000.0 0.13569182 -0.2304306469
825900000.0 0.1211548669 -0.273898749
835850000.0 0.1024664839 -0.3114605354
845800000.0 0.0782588626 -0.3414759803
855750000.0 0.0470609569 -0.3642722056
865700000.0 0.0094417242 -0.3815315523
875650000.0 -0.0339317594 -0.3928464506
885600000.0 -0.0819161475 -0.3985440474
895550000.0 -0.1318365733 -0.3974290042
905500000.0 -0.1823940466 -0.3867732052
915450000.0 -0.2333315901 -0.3632619619
925400000.0 -0.2847003259 -0.3228176797
935350000.0 -0.335646782 -0.2612845735
945300000.0 -0.3832004838 -0.1746685449
955250000.0 -0.4198818891 -0.0592276868
965200000.0 -0.4306380517 0.0865728905
975150000.0 -0.3939057277 0.2569933179
985100000.0 -0.2893064628 0.4262349333
995050000.0 -0.120320374 0.571478403
1005000000.0 0.1207057755 0.6591979607
1014950000.0 0.3911451023 0.6430924213
1024900000.0 0.6295495129 0.5250127159
1034850000.0 0.7924118495 0.3381123771
1044800000.0 0.8691441435 0.1230190767
1054750000.0 0.8585453806 -0.0880869234
1064700000.0 0.8038261871 -0.2251599827
1074650000.0 0.7137939748 -0.3600405694
1084600000.0 0.6669842047 -0.4563577896
1094550000.0 0.5650209025 -0.5603067379
1104500000.0 0.4459188724 -0.6444225553
1114450000.0 0.2945427585 -0.6961639505
1124400000.0 0.1337051766 -0.707045629
1134350000.0 -0.022746654 -0.6817974653
1144300000.0 -0.1651290339 -0.6265814659
1154250000.0 -0.2871058036 -0.5467293913
1164200000.0 -0.382458903 -0.4498148793
1174150000.0 -0.4534658546 -0.3460933849
1184100000.0 -0.5045436895 -0.2387230998
1194050000.0 -0.5383348827 -0.1331792932
1204000000.0 -0.5570378943 -0.0354807447
1213950000.0 -0.5633747862 0.050601844
1223900000.0 -0.561820834 0.1222068836
1233850000.0 -0.5545858892 0.1818940992
1243800000.0 -0.542984146 0.2317046631
1253750000.0 -0.5277330902 0.2757594352
1263700000.0 -0.5108271167 0.315872065
1273650000.0 -0.4948196831 0.3517480457
1283600000.0 -0.4821075393 0.3833409476
1293550000.0 -0.4733248437 0.409086235
1303500000.0 -0.4688979959 0.4277943668
1313450000.0 -0.4671973422 0.4405676134
1323400000.0 -0.465847274 0.4485470904
1333350000.0 -0.4628127557 0.4543607225
1343300000.0 -0.4576002155 0.4613344894
1353250000.0 -0.4517110766 0.4701003967
1363200000.0 -0.4457947801 0.4803732608
1373150000.0 -0.4405453561 0.490167498
1383100000.0 -0.4374570869 0.4976223829
1393050000.0 -0.4360218669 0.5009638094
1403000000.0 -0.4345038324 0.4999877781
1412950000.0 -0.4308354195 0.4947048084
1422900000.0 -0.4239700676 0.4880779073
1432850000.0 -0.4140731825 0.481604913
1442800000.0 -0.4026116192 0.4777198956
1452750000.0 -0.3927497909 0.4779160391
1462700000.0 -0.383072529 0.4825506094
1472650000.0 -0.3737929487 0.4894150133
1482600000.0 -0.3624002775 0.4960436602
1492550000.0 -0.3481273276 0.5005300396
1502500000.0 -0.3291425404 0.5015742942
1512450000.0 -0.305737425 0.5021275478
1522400000.0 -0.276677945 0.5015911791
1532350000.0 -0.243443306 0.5030608019
1542300000.0 -0.2062966821 0.5046304197
1552250000.0 -0.1658989787 0.5070298404
1562200000.0 -0.1250035266 0.5079219165
1572150000.0 -0.0827959901 0.5056275537
1582100000.0 -0.0389108469 0.5000099749
1592050000.0 0.0057133752 0.4915457691
1602000000.0 0.0517133395 0.4802086138
1611950000.0 0.0972447928 0.4672117478
1621900000.0 0.1423802024 0.4521241031
1631850000.0 0.1872546719 0.4354766488
1641800000.0 0.2294470601 0.4168400447
1651750000.0 0.2717128803 0.3940047984
1661700000.0 0.3119202108 0.3696877009
1671650000.0 0.3501201391 0.3435068766
1681600000.0 0.3861212739 0.3183351651
1691550000.0 0.4192537805 0.2949307164
1701500000.0 0.4479078372 0.2730074187
1711450000.0 0.4718413698 0.2496789543
1721400000.0 0.4785046234 0.2163404568
1731350000.0 0.4511716383 0.2678729815
1741300000.0 0.5183136345 0.2451645669
1751250000.0 0.5383672521 0.2195972168
1761200000.0 0.552264609 0.2004741244
1771150000.0 0.5635296292 0.1874803978
1781100000.0 0.5720155741 0.1794629392
1791050000.0 0.5781237202 0.1767637846
1801000000.0 0.5810693645 0.1766349704
1810950000.0 0.5812706424 0.1772911414
1820900000.0 0.5796598935 0.1761525794
1830850000.0 0.5776707513 0.1719064608
1840800000.0 0.575741126 0.1659972399
1850750000.0 0.5728740312 0.1595417661
1860700000.0 0.568253161 0.1541134556
1870650000.0 0.5607651385 0.151817317
1880600000.0 0.5489655835 0.1527560331
1890550000.0 0.5319546775 0.1562488222
1900500000.0 0.5101296413 0.1594184968
1910450000.0 0.4859833905 0.1594609865
1920400000.0 0.4611305914 0.1552052642
1930350000.0 0.4356941264 0.1455141546
1940300000.0 0.4084913425 0.1320295445
1950250000.0 0.3783370311 0.1158102624
1960200000.0 0.342353744 0.0995045241
1970150000.0 0.2973446811 0.0836229167
1980100000.0 0.2406219358 0.0691375636
1990050000.0 0.1678915737 0.0550167591
2000000000.0 0.0738072022 0.0444452933
