!Created with skrf (http://scikit-rf.org).
# GHz S RI R 50.0 
!freq ReS11 ImS11
10000000.0 -0.7496967017 0.5787151353
19950000.0 -0.267858772 0.9118666542
29900000.0 0.3185297946 0.8956513211
39850000.0 0.7900929691 0.5264738995
49800000.0 0.9497367003 -0.0681063896
59750000.0 0.7068653907 -0.6524838349
69700000.0 0.1409407428 -0.9627151468
79650000.0 -0.5028094351 -0.8314102345
89600000.0 -0.91234144 -0.2906237389
99550000.0 -0.8561225131 0.4133905971
109500000.0 -0.3130603619 0.9072778731
119450000.0 0.4515467692 0.8632234685
129400000.0 0.9481451257 0.2474848139
139350000.0 0.8042244678 -0.5642468232
149300000.0 0.0912295948 -0.9623239163
159250000.0 -0.6542286148 -0.6772129148
169200000.0 -0.9265753274 0.0426812239
179150000.0 -0.6076625272 0.7027443744
189100000.0 0.0481889541 0.9290164267
199050000.0 0.6520723511 0.6478195069
209000000.0 0.9062521886 0.0493237533
218950000.0 0.7196430664 -0.5475473475
228900000.0 0.2090796552 -0.8759768126
238850000.0 -0.3871534969 -0.8032154517
248800000.0 -0.5840954081 -0.4554108839
258750000.0 -0.8680708281 0.1578384932
268700000.0 -0.5855758229 0.6705126069
278650000.0 -0.0588686466 0.8917674508
288600000.0 0.4832425642 0.734513692
298550000.0 0.8078741722 0.2697285355
308500000.0 0.7704589039 -0.2986824467
318450000.0 0.3833662119 -0.7102041695
328400000.0 -0.1695767253 -0.7686358935
338350000.0 -0.6074479561 -0.4469225417
348300000.0 -0.6989569767 0.0684889888
358250000.0 -0.4214399916 0.4732482207
368200000.0 0.017813991 0.5502636785
378150000.0 0.3369032983 0.3176971453
388100000.0 0.3813959893 -0.0192080925
398050000.0 0.200733129 -0.2393968477
408000000.0 -0.0344593678 -0.25105071
417950000.0 -0.1724916454 -0.1142516398
427900000.0 -0.1670008764 0.0439809274
437850000.0 -0.0681433694 0.124930827
447800000.0 0.0366583789 0.1061902874
457750000.0 0.0840887516 0.0281561582
467700000.0 0.0628849437 -0.046968258
477650000.0 0.0078405304 -0.0747151926
487600000.0 -0.0323577108 -0.0476199337
497550000.0 -0.0615463793 -0.0858241136
507500000.0 -0.0491536426 0.009594426
517450000.0 -0.0093855588 0.0207605808
527400000.0 0.0124021105 1.68062e-05
537350000.0 0.0014741429 -0.0272235187
547300000.0 -0.0358124498 -0.0318683293
557250000.0 -0.0673246851 -0.0004348382
567200000.0 -0.0679725103 0.0498352927
577150000.0 -0.0269301689 0.0912251355
587100000.0 0.040856982 0.0928452784
597050000.0 0.1031186849 0.0431156611
607000000.0 0.1235451621 -0.0429508212
616950000.0 0.0855744915 -0.1278554209
626900000.0 0.0014606414 -0.1713605511
636850000.0 -0.0932176896 -0.1506924966
646800000.0 -0.154199734 -0.072241645
656750000.0 -0.15469701 0.0310374398
666700000.0 -0.0922174339 0.1143866426
676650000.0 0.0069676689 0.1403796763
686600000.0 0.0988069098 0.0962913695
696550000.0 0.140247577 0.0033212401
706500000.0 0.1115559966 -0.0915487341
716450000.0 0.0302074251 -0.1413547418
726400000.0 -0.0596425849 -0.1204265106
736350000.0 -0.1048313573 -0.0409205931
746300000.0 -0.0761835039 0.0512064706
756250000.0 0.0167114497 0.0997380861
766200000.0 0.1231087007 0.0688799459
776150000.0 0.1810539422 -0.0325937647
786100000.0 0.1483898312 -0.1527661924
796050000.0 0.0301788467 -0.2222250663
806000000.0 -0.1209219732 -0.189267037
815950000.0 -0.2253543042 -0.0515633865
825900000.0 -0.2189598122 0.1359422354
835850000.0 -0.0896374253 0.2851837573
845800000.0 0.112180861 0.3202844231
855750000.0 0.3003182306 0.2156013635
865700000.0 0.3893366896 0.0062116064
875650000.0 0.3290205806 -0.2238344387
885600000.0 0.1284600885 -0.3716854264
895550000.0 -0.1323206652 -0.3557811246
905500000.0 -0.3322475515 -0.168467493
915450000.0 -0.3672185388 0.1141472932
925400000.0 -0.2101174538 0.3565011298
935350000.0 0.0675450743 0.4342739314
945300000.0 0.3276547338 0.2979340552
955250000.0 0.4243503254 0.0009757984
965200000.0 0.2674671358 -0.3010919426
975150000.0 -0.0937248589 -0.3945086951
985100000.0 -0.4193309607 -0.14847825
995050000.0 -0.4189318129 0.2808343302
1005000000.0 -0.0806720542 0.5466675407
1014950000.0 0.3716461926 0.4799858123
1024900000.0 0.650877651 0.0456512971
1034850000.0 0.4823072732 -0.5134857141
1044800000.0 -0.1015122577 -0.7441054923
1054750000.0 -0.6507147281 -0.4038010371
1064700000.0 -0.7567918875 0.1497527664
1074650000.0 -0.4803631502 0.6660018103
1084600000.0 0.0871073313 0.8146177947
1094550000.0 0.5894310888 0.5210703229
1104500000.0 0.7378835173 -0.0490980636
1114450000.0 0.4332451828 -0.551793841
1124400000.0 -0.1164206403 -0.6667418552
1134350000.0 -0.5429810789 -0.3630919014
1144300000.0 -0.6175800764 0.1166511836
1154250000.0 -0.3551021759 0.4825877643
1164200000.0 0.0610850967 0.5583333679
1174150000.0 0.4065070175 0.3340423707
1184100000.0 0.495821451 -0.0682102421
1194050000.0 0.2806788015 -0.4079345275
1204000000.0 -0.0928277442 -0.4987666667
1213950000.0 -0.4142391431 -0.3299140182
1223900000.0 -0.5526274377 -0.0120384692
1233850000.0 -0.473731553 0.3136931899
1243800000.0 -0.2161108033 0.5254083003
1253750000.0 0.1256782495 0.538080104
1263700000.0 0.4172438229 0.3339120116
1273650000.0 0.5307068245 -0.0106810959
1283600000.0 0.4199550841 -0.3512498255
1293550000.0 0.1451286289 -0.5568023799
1303500000.0 -0.1815531022 -0.572545801
1313450000.0 -0.4533222518 -0.4131206911
1323400000.0 -0.6001199324 -0.1367988618
1333350000.0 -0.585227598 0.1812304048
1343300000.0 -0.3989825845 0.4529420173
1353250000.0 -0.0791654885 0.57804238
1363200000.0 0.2678224126 0.4929902535
1373150000.0 0.5076486373 0.2212533709
1383100000.0 0.5525336757 -0.1302117348
1393050000.0 0.4055366765 -0.4347271696
1403000000.0 0.1375669682 -0.6061607516
1412950000.0 -0.1658221735 -0.605433278
1422900000.0 -0.4149929187 -0.4480125885
1432850000.0 -0.5462140335 -0.1793603507
1442800000.0 -0.5201106303 0.128244043
1452750000.0 -0.3298166842 0.3832353081
1462700000.0 -0.0226065038 0.4943959032
1472650000.0 0.2940074657 0.4122981662
1482600000.0 0.5026278186 0.1698168576
1492550000.0 0.5360877308 -0.1356240598
1502500000.0 0.3950774953 -0.3976289229
1512450000.0 0.1473530736 -0.5346869696
1522400000.0 -0.1355388961 -0.5063953238
1532350000.0 -0.3531961821 -0.3149871808
1542300000.0 -0.4186131595 -0.0228065458
1552250000.0 -0.2959017064 0.2542798263
1562200000.0 -0.0365026387 0.3978930615
1572150000.0 0.2441647495 0.3581150472
1582100000.0 0.4342587627 0.1662990117
1592050000.0 0.4689402725 -0.0926267121
1602000000.0 0.3415322176 -0.319213748
1611950000.0 0.0970895527 -0.4261265597
1621900000.0 -0.1738357867 -0.3615360795
1631850000.0 -0.3569439297 -0.1365677599
1641800000.0 -0.3638856189 0.1591551166
1651750000.0 -0.1876497469 0.3948255474
1661700000.0 0.0914558461 0.471188206
1671650000.0 0.3557509302 0.3683380446
1681600000.0 0.5103656099 0.1345417311
1691550000.0 0.506098665 -0.1485934731
1701500000.0 0.3390440137 -0.3859244655
1711450000.0 0.0575629596 -0.4904387666
1721400000.0 -0.245682798 -0.409793285
1731350000.0 -0.4546043264 -0.1612328573
1741300000.0 -0.4851710887 0.1616885228
1751250000.0 -0.3319326775 0.4344819505
1761200000.0 -0.0653493117 0.5677222576
1771150000.0 0.216797758 0.5384837734
1781100000.0 0.4381356387 0.3804664747
1791050000.0 0.5614283356 0.1204034377
1801000000.0 0.5239489899 -0.1815582608
1810950000.0 0.3252970032 -0.4219086099
1820900000.0 0.0272239671 -0.5106962547
1830850000.0 -0.2747648983 -0.4193587733
1840800000.0 -0.4777060223 -0.1741333647
1850750000.0 -0.51241581 0.1306520508
1860700000.0 -0.3878898612 0.3891413455
1870650000.0 -0.1621475701 0.5352163847
1880600000.0 0.0918973599 0.5426188609
1890550000.0 0.3047597207 0.418607656
1900500000.0 0.4190672621 0.2001803487
1910450000.0 0.4000896822 -0.0479562981
1920400000.0 0.2537903043 -0.2434705019
1930350000.0 0.0333894074 -0.3195029752
1940300000.0 -0.1725706252 -0.2617392333
1950250000.0 -0.296212492 -0.1154850175
1960200000.0 -0.3114467077 0.0457977437
1970150000.0 -0.2435129536 0.1605773157
1980100000.0 -0.1434885726 0.1944111164
1990050000.0 -0.0750480926 0.1526553473
2000000000.0 -0.0866906251 0.0890163386
