!Created with skrf (http://scikit-rf.org).
# GHz S RI R 50.0 
!freq ReS11 ImS11
10000000.0 -0.8083285806 0.6006178014
19950000.0 -0.297162744 0.9393666116
29900000.0 0.3130392502 0.9165417034
39850000.0 0.8019649063 0.5381312165
49800000.0 0.9770014771 -0.0698117381
59750000.0 0.7389737868 -0.6774187551
69700000.0 0.1513538897 -1.007726896
79650000.0 -0.5299313435 -0.86540607
89600000.0 -0.9500270586 -0.2816129971
99550000.0 -0.8507331524 0.4575365527
109500000.0 -0.2342618623 0.9311703581
119450000.0 0.5704160337 0.7969621082
129400000.0 1.004898127 0.0629809435
139350000.0 0.6937580317 -0.7364894449
149300000.0 -0.1209609335 -0.9763907175
159250000.0 -0.7928301174 -0.5212511849
169200000.0 -0.9042246167 0.2399375139
179150000.0 -0.4664414278 0.8257210446
189100000.0 0.2231148818 0.9441160938
199050000.0 0.7897779249 0.5807640111
209000000.0 0.969902394 -0.0456336471
218950000.0 0.7195883425 -0.6174737186
228900000.0 0.1853350168 -0.9059667746
238850000.0 -0.4035794233 -0.8184157262
248800000.0 -0.8013543751 -0.4161273367
258750000.0 -0.9192358488 0.1681525544
268700000.0 -0.6546776476 0.69030632
278650000.0 -0.1301064794 0.9440588251
288600000.0 0.4365189494 0.8243298444
298550000.0 0.8096844195 0.3868090279
308500000.0 0.839265018 -0.1857116941
318450000.0 0.5121687543 -0.6525671256
328400000.0 -0.0309250497 -0.8071855949
338350000.0 -0.5320988796 -0.5726945868
348300000.0 -0.7274262142 -0.0796947258
358250000.0 -0.5316623109 0.3712107984
368200000.0 -0.117308408 0.5214085194
378150000.0 0.2202786668 0.3499330851
388100000.0 0.3020923968 0.0457112275
398050000.0 0.162849171 -0.1625491849
408000000.0 -0.0334758675 -0.175656538
417950000.0 -0.130278179 -0.0565523788
427900000.0 -0.0919345071 0.0674381971
437850000.0 0.0180294415 0.1053133194
447800000.0 0.1144519047 0.0465825893
457750000.0 0.135917236 -0.0584496141
467700000.0 0.0758156645 -0.1423235735
477650000.0 -0.0214316478 -0.1611740952
487600000.0 -0.1016023707 -0.1076160568
497550000.0 -0.1243487161 -0.0243518086
507500000.0 -0.0939873393 0.0514255122
517450000.0 -0.0265653851 0.0839391458
527400000.0 0.0304620741 0.068306402
537350000.0 0.0514641953 0.0309982344
547300000.0 0.036445394 -0.0007794172
557250000.0 0.0039988787 -0.0027478796
567200000.0 -0.0127373931 0.0225878433
577150000.0 0.0034279069 0.0538350801
587100000.0 0.0474983177 0.0586689888
597050000.0 0.0895255247 0.0223096211
607000000.0 0.096907044 -0.045674128
616950000.0 0.0545500715 -0.1145755745
626900000.0 -0.0300692396 -0.1445468518
636850000.0 -0.1234464659 -0.1165602053
646800000.0 -0.1801910419 -0.0351159757
656750000.0 -0.1733246864 0.0695509007
666700000.0 -0.1007964051 0.1485583857
676650000.0 0.0093954486 0.1658808693
686600000.0 0.108932116 0.1104478866
696550000.0 0.1540406035 0.002175389
706500000.0 0.1246468858 -0.1067066807
716450000.0 0.0371104607 -0.168383497
726400000.0 -0.0626359268 -0.1566742159
736350000.0 -0.1244854092 -0.0792214769
746300000.0 -0.1106937336 0.0187624378
756250000.0 -0.0285673331 0.0811229965
766200000.0 0.075031847 0.067047224
776150000.0 0.1436337964 -0.0194694927
786100000.0 0.1276245088 -0.1292107835
796050000.0 0.0285071014 -0.1994013279
806000000.0 -0.1028502276 -0.1721431021
815950000.0 -0.1947317569 -0.0447332255
825900000.0 -0.1757702662 0.128523694
835850000.0 -0.0383665887 0.2630812807
845800000.0 0.1644523696 0.2793900264
855750000.0 0.3416002646 0.157237011
865700000.0 0.4017350137 -0.0630286906
875650000.0 0.2998463796 -0.2823522792
885600000.0 0.0659990917 -0.3930701514
895550000.0 -0.2007441025 -0.3261499895
905500000.0 -0.3733151522 -0.096345271
915450000.0 -0.3658463357 0.198627263
925400000.0 -0.1686613938 0.4271627416
935350000.0 0.1369091888 0.4718329547
945300000.0 0.4009934373 0.2932228127
955250000.0 0.4733217282 -0.0369896554
965200000.0 0.2819951166 -0.343036861
975150000.0 -0.0944532827 -0.4233295819
985100000.0 -0.4300384548 -0.1965071292
995050000.0 -0.4953206894 0.2375757668
1005000000.0 -0.1738074715 0.5955232454
1014950000.0 0.3536824418 0.5645562671
1024900000.0 0.6901942469 0.0857403821
1034850000.0 0.5071230072 -0.5341359478
1044800000.0 -0.1433319997 -0.7841788375
1054750000.0 -0.7492761263 -0.3998656534
1064700000.0 -0.8227597793 0.2705813233
1074650000.0 -0.3999354463 0.77406534
1084600000.0 0.2377422213 0.8084078005
1094550000.0 0.7064001217 0.3928519189
1104500000.0 0.7457578295 -0.2316714118
1114450000.0 0.326084415 -0.6900292823
1124400000.0 -0.2712585731 -0.6931745044
1134350000.0 -0.6551136992 -0.2906391503
1144300000.0 -0.6453555763 0.2214859867
1154250000.0 -0.3164384985 0.5644800884
1164200000.0 0.1318291267 0.6028279024
1174150000.0 0.4896501822 0.3442016856
1184100000.0 0.5810409957 -0.0910091646
1194050000.0 0.3501554545 -0.465131271
1204000000.0 -0.05861106 -0.5774618721
1213950000.0 -0.4209595606 -0.4051306072
1223900000.0 -0.5899577408 -0.0632543133
1233850000.0 -0.5247148183 0.2984307893
1243800000.0 -0.2611155019 0.552078656
1253750000.0 0.1082931235 0.600017566
1263700000.0 0.4395605173 0.4097372759
1273650000.0 0.5874050401 0.0509175025
1283600000.0 0.4900012665 -0.3207043083
1293550000.0 0.2057563502 -0.5583240444
1303500000.0 -0.1473884279 -0.5969869765
1313450000.0 -0.4547403435 -0.4468462995
1323400000.0 -0.6342265995 -0.1617802304
1333350000.0 -0.6358451267 0.1799765158
1343300000.0 -0.4422764297 0.4771652536
1353250000.0 -0.1005976149 0.615895536
1363200000.0 0.2695016586 0.5293472477
1373150000.0 0.5227617025 0.2442085735
1383100000.0 0.5717581063 -0.1233430944
1393050000.0 0.4205378901 -0.4437448402
1403000000.0 0.1366582998 -0.626118298
1412950000.0 -0.1892186727 -0.6315117848
1422900000.0 -0.4664991249 -0.4625025831
1432850000.0 -0.6079338596 -0.1632951183
1442800000.0 -0.557502151 0.1760546333
1452750000.0 -0.3169862019 0.4334504612
1462700000.0 0.0295653949 0.5106586107
1472650000.0 0.3523080112 0.380578126
1482600000.0 0.539406012 0.1042934131
1492550000.0 0.5398099194 -0.2138605665
1502500000.0 0.3667813032 -0.4673805827
1512450000.0 0.0852509083 -0.5735452127
1522400000.0 -0.2082241932 -0.494312551
1532350000.0 -0.4023486373 -0.2512556832
1542300000.0 -0.4162387695 0.0679725529
1552250000.0 -0.234194407 0.332664034
1562200000.0 0.0613846925 0.4315577437
1572150000.0 0.3459586433 0.3366134721
1582100000.0 0.507330393 0.0968613537
1592050000.0 0.4883703643 -0.1854031549
1602000000.0 0.2997385892 -0.4002189199
1611950000.0 0.0112049101 -0.4610883357
1621900000.0 -0.269020183 -0.3335441331
1631850000.0 -0.4240321076 -0.054128353
1641800000.0 -0.3775072741 0.2683185873
1651750000.0 -0.1468131809 0.4951305836
1661700000.0 0.1693978873 0.5351769068
1671650000.0 0.4429627916 0.3826666111
1681600000.0 0.5782595468 0.1019768647
1691550000.0 0.5345968847 -0.2107558787
1701500000.0 0.3218654794 -0.4555304722
1711450000.0 -0.0011788457 -0.5488385741
1721400000.0 -0.3358942189 -0.4413680206
1731350000.0 -0.5549817431 -0.1560019484
1741300000.0 -0.5694272121 0.2043265661
1751250000.0 -0.3790970402 0.5017498118
1761200000.0 -0.0660396892 0.6375476264
1771150000.0 0.2600587174 0.5878965216
1781100000.0 0.5100738373 0.3827990726
1791050000.0 0.6239994806 0.0798240941
1801000000.0 0.5678630544 -0.2465717052
1810950000.0 0.3424151656 -0.5052691055
1820900000.0 0.0015893131 -0.6018310941
1830850000.0 -0.3397189673 -0.4871710336
1840800000.0 -0.5531590019 -0.2047537671
1850750000.0 -0.5762846956 0.1325550588
1860700000.0 -0.4296287062 0.4128268143
1870650000.0 -0.1788682829 0.5721545521
1880600000.0 0.103682704 0.5867486705
1890550000.0 0.350223729 0.46179581
1900500000.0 0.496815738 0.2265294074
1910450000.0 0.4940795772 -0.055175463
1920400000.0 0.3334853028 -0.287641298
1930350000.0 0.0752673477 -0.3831528957
1940300000.0 -0.171373805 -0.3183732224
1950250000.0 -0.3152908857 -0.1479229429
1960200000.0 -0.3447224826 0.0176411263
1970150000.0 -0.307006205 0.1624670685
1980100000.0 -0.2072821525 0.2443829395
1990050000.0 -0.1074539225 0.2414769816
2000000000.0 -0.0644040153 0.1845700999
