!Created with skrf (http://scikit-rf.org).
# GHz S RI R 50.0 
!freq ReS11 ImS11
10000000.0 0.8849936412 -0.4732287001
19950000.0 0.5729522852 -0.8384931719
29900000.0 0.1275019668 -1.019869667
39850000.0 -0.3526405764 -0.9722489421
49800000.0 -0.7518149963 -0.70502124
59750000.0 -0.976744616 -0.2848730642
69700000.0 -0.9811064363 0.187341161
79650000.0 -0.772597568 0.6055854394
89600000.0 -0.4009618448 0.8851406154
99550000.0 0.0555951003 0.9703552893
109500000.0 0.5031532329 0.842751814
119450000.0 0.8472562958 0.5262787881
129400000.0 1.008513644 0.0854889894
139350000.0 0.9459405787 -0.3804913928
149300000.0 0.6715299304 -0.7614604453
159250000.0 0.2527133613 -0.9685039367
169200000.0 -0.2112751759 -0.9590908436
179150000.0 -0.6180753317 -0.7424276968
189100000.0 -0.8842853768 -0.3681922822
199050000.0 -0.9569370617 0.0856258372
209000000.0 -0.8178827664 0.528585371
218950000.0 -0.4949967784 0.8567385691
228900000.0 -0.0542186084 1.002022185
238850000.0 0.40403544 0.9241725046
248800000.0 0.7707047145 0.641166812
258750000.0 0.9617606491 0.2216907012
268700000.0 0.9394273665 -0.2357661275
278650000.0 0.7146968304 -0.6318714179
288600000.0 0.3376977922 -0.8857308893
298550000.0 -0.1136637227 -0.9456453856
308500000.0 -0.545237706 -0.7965565935
318450000.0 -0.8634013536 -0.4668195011
328400000.0 -0.9938294228 -0.02656598
338350000.0 -0.9034196648 0.423200068
348300000.0 -0.6146188516 0.7768924367
358250000.0 -0.1974162938 0.9561242758
368200000.0 0.2529626279 0.9259697741
378150000.0 0.6410540453 0.6976573194
388100000.0 0.8868049062 0.3196606118
398050000.0 0.9385469978 -0.1305425804
408000000.0 0.7808283207 -0.5577375831
417950000.0 0.443096177 -0.8665472818
427900000.0 7.41269e-05 -0.9821327845
437850000.0 -0.4437431003 -0.8770402465
447800000.0 -0.7849358509 -0.5790553237
457750000.0 -0.9496160765 -0.1613548374
467700000.0 -0.9082547624 0.2824470841
477650000.0 -0.674104507 0.6605436073
487600000.0 -0.2957415606 0.8957809644
497550000.0 0.1515672696 0.9373936533
507500000.0 0.5722417158 0.7698090814
517450000.0 0.8696191849 0.4240397546
527400000.0 0.9703688615 -0.021412001
537350000.0 0.8496211947 -0.460149887
547300000.0 0.5423396569 -0.7888419669
557250000.0 0.1241229733 -0.939455056
567200000.0 -0.3124506234 -0.8874695926
577150000.0 -0.6796367369 -0.6496456982
587100000.0 -0.9051534058 -0.2739993707
597050000.0 -0.9397347943 0.1668410612
607000000.0 -0.7683839835 0.5803005755
616950000.0 -0.4199467198 0.8705375928
626900000.0 0.0278237455 0.9619699498
636850000.0 0.4649711138 0.8298729188
646800000.0 0.7869575369 0.5117856512
656750000.0 0.9254734612 0.0870893644
666700000.0 0.8602846204 -0.3480914528
676650000.0 0.6129981279 -0.7054076618
686600000.0 0.2357942359 -0.9166246876
696550000.0 -0.1969291394 -0.9395141259
706500000.0 -0.5978169712 -0.7624340918
716450000.0 -0.8749313886 -0.4154541132
726400000.0 -0.9582380957 0.0260773593
736350000.0 -0.8224592069 0.4581256624
746300000.0 -0.5003874405 0.7765838661
756250000.0 -0.071626291 0.9103322637
766200000.0 0.3654686511 0.8371674445
776150000.0 0.7191002268 0.5800271701
786100000.0 0.9204155442 0.197396783
796050000.0 0.9305185841 -0.2326354905
806000000.0 0.7458155185 -0.6222004615
815950000.0 0.399258364 -0.8842581433
825900000.0 -0.0341062466 -0.9573561887
835850000.0 -0.457340038 -0.8181976395
845800000.0 -0.7708199118 -0.4956740626
855750000.0 -0.9015133799 -0.0631023997
865700000.0 -0.8198046692 0.3797888559
875650000.0 -0.5485726671 0.7342561407
885600000.0 -0.1518071203 0.9246925579
895550000.0 0.282664266 0.9141557806
905500000.0 0.6601724601 0.7092344433
915450000.0 0.9007462512 0.3571071578
925400000.0 0.9546250136 -0.0664137597
935350000.0 0.8089140377 -0.4718620964
945300000.0 0.4921220181 -0.7719151634
955250000.0 0.0671534489 -0.8987548535
965200000.0 -0.3745170409 -0.817282207
975150000.0 -0.7315127857 -0.5405489014
985100000.0 -0.9186674264 -0.1304458905
995050000.0 -0.8928983684 0.3134871877
1005000000.0 -0.6672556959 0.6867771548
1014950000.0 -0.3037413824 0.9090331337
1024900000.0 0.1139651807 0.9422366273
1034850000.0 0.5004557852 0.7883655907
1044800000.0 0.7824168615 0.4797046328
1054750000.0 0.9034066774 0.0718460415
1064700000.0 0.8294432276 -0.3582471948
1074650000.0 0.559857497 -0.7162142251
1084600000.0 0.1454480602 -0.9095414742
1094550000.0 -0.3131637008 -0.879070738
1104500000.0 -0.6946854823 -0.6334758635
1114450000.0 -0.9065406173 -0.2468458922
1124400000.0 -0.9153347291 0.1793308503
1134350000.0 -0.7396291971 0.5534361809
1144300000.0 -0.4261388465 0.811668295
1154250000.0 -0.0323311441 0.9131028082
1164200000.0 0.3749467708 0.8347455281
1174150000.0 0.7179631439 0.5758903248
1184100000.0 0.9099211636 0.1723686189
1194050000.0 0.8827660946 -0.2874054339
1204000000.0 0.6301007955 -0.6775698536
1213950000.0 0.2245457599 -0.8902245429
1223900000.0 -0.2187424834 -0.8836638518
1233850000.0 -0.5939363264 -0.6852789997
1243800000.0 -0.8359651041 -0.3567433913
1253750000.0 -0.9154062843 0.0345545351
1263700000.0 -0.8237459465 0.4236222851
1273650000.0 -0.5671453106 0.7435200845
1283600000.0 -0.1788367061 0.9213038213
1293550000.0 0.2676001611 0.8940331292
1303500000.0 0.6565329446 0.6436434939
1313450000.0 0.8721414688 0.2285213216
1323400000.0 0.8578513321 -0.2309546173
1333350000.0 0.6379117136 -0.615015942
1343300000.0 0.2873531723 -0.8481215642
1353250000.0 -0.1118461587 -0.9054756421
1363200000.0 -0.4893186821 -0.7924108074
1373150000.0 -0.7835112678 -0.5300727547
1383100000.0 -0.938642447 -0.1570906355
1393050000.0 -0.9071587642 0.2624860753
1403000000.0 -0.6713384016 0.6350566712
1412950000.0 -0.2704408764 0.8555478454
1422900000.0 0.1935735723 0.8530390271
1432850000.0 0.5947272311 0.6317167517
1442800000.0 0.8382835029 0.2618014568
1452750000.0 0.8864705181 -0.1596396136
1462700000.0 0.7501733964 -0.5440881273
1472650000.0 0.4676380581 -0.8236671766
1482600000.0 0.0933243863 -0.9519897636
1492550000.0 -0.3061624289 -0.900538519
1502500000.0 -0.6506007955 -0.6659707231
1512450000.0 -0.8558856045 -0.2832086492
1522400000.0 -0.857490891 0.1668551982
1532350000.0 -0.6419263407 0.5713339795
1542300000.0 -0.2613740717 0.8243849712
1552250000.0 0.1830047892 0.8673720953
1562200000.0 0.5829480426 0.7045849614
1572150000.0 0.8534016784 0.3894932227
1582100000.0 0.9503632492 -0.0011970014
1592050000.0 0.8651661471 -0.3878763654
1602000000.0 0.6178699266 -0.6992399591
1611950000.0 0.2506514913 -0.8740284325
1621900000.0 -0.1685921645 -0.8685129505
1631850000.0 -0.5541901926 -0.6686751699
1641800000.0 -0.8118497016 -0.3024022286
1651750000.0 -0.8665180871 0.1499903339
1661700000.0 -0.6968494648 0.5713584948
1671650000.0 -0.3518259131 0.8513431175
1681600000.0 0.0684072876 0.9303008763
1691550000.0 0.4616959542 0.8105478881
1701500000.0 0.7506482701 0.5375820302
1711450000.0 0.8922982483 0.1745087957
1721400000.0 0.8679522092 -0.2177391889
1731350000.0 0.6753365095 -0.5712063205
1741300000.0 0.3348410154 -0.8152304356
1751250000.0 -0.0990357405 -0.8803466186
1761200000.0 -0.5271687135 -0.7232052364
1771150000.0 -0.8257215425 -0.367659755
1781100000.0 -0.9041202652 0.0830630954
1791050000.0 -0.7572801404 0.4974759714
1801000000.0 -0.4517472397 0.7800716367
1810950000.0 -0.0736352995 0.8940173292
1820900000.0 0.3041021843 0.8419450235
1830850000.0 0.6251781473 0.6428402908
1840800000.0 0.8409668347 0.3221121048
1850750000.0 0.9011034455 -0.0801207426
1860700000.0 0.7610774165 -0.4906091649
1870650000.0 0.418604746 -0.7973951353
1880600000.0 -0.0463204584 -0.8888850619
1890550000.0 -0.4883108773 -0.7304640685
1900500000.0 -0.7797570843 -0.390884796
1910450000.0 -0.8748148816 0.0154865509
1920400000.0 -0.7921043429 0.3957254507
1930350000.0 -0.5736190664 0.6941297939
1940300000.0 -0.2592353563 0.8773837085
1950250000.0 0.1114950312 0.9184358324
1960200000.0 0.4863678279 0.7881397245
1970150000.0 0.7808633482 0.475552173
1980100000.0 0.8897036274 0.0268598304
1990050000.0 0.74657071 -0.4327249101
2000000000.0 0.3895661202 -0.7519024233
