!Created with skrf (http://scikit-rf.org).
# GHz S RI R 50.0 
!freq ReS11 ImS11
10000000.0 -0.7655253649 0.6778229497
19950000.0 -0.1323215935 0.9885526114
29900000.0 0.5428620637 0.8136279377
39850000.0 0.9450367535 0.2378658002
49800000.0 0.8676423198 -0.4729512933
59750000.0 0.3160749899 -0.9601028673
69700000.0 -0.4426291529 -0.9259467378
79650000.0 -0.961590817 -0.3424382095
89600000.0 -0.8877306457 0.4516286029
99550000.0 -0.2371731413 0.9389637942
109500000.0 0.5786420662 0.7631299092
119450000.0 0.9741661799 -0.0074960503
129400000.0 0.5821798861 -0.8146642926
139350000.0 -0.3306800235 -0.9545425008
149300000.0 -0.9463715621 -0.276937674
159250000.0 -0.7524934803 0.585587187
169200000.0 0.0151576001 0.9386734715
179150000.0 0.7505807132 0.5850760638
189100000.0 0.9618314275 -0.1793991869
199050000.0 0.5457754036 -0.8331069707
209000000.0 -0.197174764 -0.96882955
218950000.0 -0.7919088694 -0.5454478236
228900000.0 -0.9213716526 0.1512416423
238850000.0 -0.549282466 0.7368976019
248800000.0 0.0075545473 0.8886632338
258750000.0 0.6924895323 0.6396140932
268700000.0 0.9625147557 0.0146319986
278650000.0 0.7342906031 -0.6240604554
288600000.0 0.1337186145 -0.9301613333
298550000.0 -0.5041230033 -0.7418162119
308500000.0 -0.8338967135 -0.1745974868
318450000.0 -0.6835697242 0.4514019547
328400000.0 -0.1455975255 0.7830851102
338350000.0 0.4524400756 0.6278441103
348300000.0 0.7250354557 0.103641816
358250000.0 0.5166649633 -0.4043497043
368200000.0 0.0431047604 -0.547674923
378150000.0 -0.3127722633 -0.3027507356
388100000.0 -0.3364379654 0.0630174514
398050000.0 -0.1077225037 0.2620271369
408000000.0 0.1343011714 0.2078609102
417950000.0 0.2123721731 0.021279797
427900000.0 0.1219833376 -0.1197466617
437850000.0 -0.0211304438 -0.1266333488
447800000.0 -0.1007003018 -0.0300511518
457750000.0 -0.0763058048 0.0771059183
467700000.0 0.0111587744 0.1171901343
477650000.0 0.0851818362 0.0775868007
487600000.0 0.0897966755 0.0085178975
497550000.0 0.1004077873 -0.0507652333
507500000.0 0.0163393047 -0.0596359073
517450000.0 -0.018757761 -0.0232829482
527400000.0 -0.0104874794 0.0110725877
537350000.0 0.0175876664 0.0129020365
547300000.0 0.0276611399 -0.0201512595
557250000.0 -0.0050592832 -0.049952043
567200000.0 -0.0593887395 -0.0410547184
577150000.0 -0.0956954627 0.0142560716
587100000.0 -0.0773289931 0.0890805442
597050000.0 -0.0011697297 0.133558102
607000000.0 0.0961787279 0.1092960742
616950000.0 0.1571798645 0.0175153749
626900000.0 0.1408398267 -0.0988902547
636850000.0 0.0473254824 -0.1785340647
646800000.0 -0.0783188887 -0.1755108644
656750000.0 -0.1697192865 -0.0874023986
666700000.0 -0.1747417389 0.0384367974
676650000.0 -0.0887919778 0.1296827319
686600000.0 0.0397294332 0.127463286
696550000.0 0.1034170613 0.0167559623
706500000.0 0.0931029538 -0.0249788675
716450000.0 0.0611547147 -0.1084985345
726400000.0 -0.0291034223 -0.1232721391
736350000.0 -0.0894439463 -0.060057908
746300000.0 -0.0697234225 0.0252127522
756250000.0 0.0189019194 0.0583378989
766200000.0 0.1098339494 0.0004761074
776150000.0 0.1244220654 -0.121584164
786100000.0 0.0280098138 -0.2240597558
796050000.0 -0.1268123497 -0.2128438694
806000000.0 -0.2395195214 -0.0885319955
815950000.0 -0.2321561619 0.1034702181
825900000.0 -0.0754421423 0.2503981938
835850000.0 0.1612643395 0.2493435767
845800000.0 0.3493185734 0.0779854255
855750000.0 0.3745007658 -0.1883534704
865700000.0 0.20564234 -0.413154235
875650000.0 -0.0829674676 -0.4677688057
885600000.0 -0.343938328 -0.3064644908
895550000.0 -0.4303861432 -0.0001261938
905500000.0 -0.2811340415 0.2907599766
915450000.0 0.0357162782 0.4023343866
925400000.0 0.3479557617 0.2619808645
935350000.0 0.4748189972 -0.0578344054
945300000.0 0.3339712219 -0.3746838315
955250000.0 -5.23873e-05 -0.491082942
965200000.0 -0.3188692068 -0.3142774994
975150000.0 -0.3924485054 0.0599585285
985100000.0 -0.1243802734 0.3610088823
995050000.0 0.3090827436 0.310723053
1005000000.0 0.5231492965 -0.1101172093
1014950000.0 0.2607687613 -0.5547883263
1024900000.0 -0.3120803488 -0.5799385205
1034850000.0 -0.688920061 -0.0651675834
1044800000.0 -0.444884628 0.5908506792
1054750000.0 0.2906003472 0.7406414749
1064700000.0 0.8130700693 0.2396746104
1074650000.0 0.750960207 -0.482551545
1084600000.0 0.147567066 -0.8695380941
1094550000.0 -0.5175153244 -0.6634946932
1104500000.0 -0.7916727356 -0.0307808902
1114450000.0 -0.4758035705 0.573599957
1124400000.0 0.1825313903 0.6807248021
1134350000.0 0.6333196093 0.2458197395
1144300000.0 0.5643752253 -0.3201075341
1154250000.0 0.1231233269 -0.5968584684
1164200000.0 -0.3367224814 -0.4538037752
1174150000.0 -0.5287753296 -0.0415076117
1184100000.0 -0.3512517846 0.3743147742
1194050000.0 0.0855494062 0.5012690515
1204000000.0 0.4582470356 0.255889181
1213950000.0 0.5260635066 -0.164707871
1223900000.0 0.2862186527 -0.4981625274
1233850000.0 -0.106750321 -0.5841818204
1243800000.0 -0.460877311 -0.3934858558
1253750000.0 -0.6082971575 -0.0116225941
1263700000.0 -0.4646024956 0.3801065307
1273650000.0 -0.086761747 0.576632253
1283600000.0 0.3312451441 0.4721338488
1293550000.0 0.579955027 0.1316987114
1303500000.0 0.5597377128 -0.2745987135
1313450000.0 0.301602085 -0.5798211206
1323400000.0 -0.084986247 -0.6748136897
1333350000.0 -0.456924979 -0.5231785236
1343300000.0 -0.6702817533 -0.1697227115
1353250000.0 -0.6209826049 0.2510624535
1363200000.0 -0.3088149702 0.5482338981
1373150000.0 0.1282094324 0.57534148
1383100000.0 0.4840943504 0.3294030897
1393050000.0 0.6112511554 -0.0628452405
1403000000.0 0.4810932512 -0.4367764378
1412950000.0 0.1618966371 -0.6590783806
1422900000.0 -0.2232688296 -0.6575519575
1432850000.0 -0.5339214023 -0.4311863328
1442800000.0 -0.6486693041 -0.0602048631
1452750000.0 -0.5105998022 0.3058920878
1462700000.0 -0.1682807431 0.5040477245
1472650000.0 0.2260616789 0.4418516843
1482600000.0 0.4913038335 0.1551817241
1492550000.0 0.5161355013 -0.2165656202
1502500000.0 0.3076306297 -0.5121782984
1512450000.0 -0.0311586314 -0.614492205
1522400000.0 -0.3561807877 -0.4879635787
1532350000.0 -0.5273803724 -0.1871404062
1542300000.0 -0.4646208284 0.1521442612
1552250000.0 -0.1932439555 0.3633388074
1562200000.0 0.1486361372 0.3384993269
1572150000.0 0.3800929106 0.0995075463
1582100000.0 0.3864883436 -0.2181016784
1592050000.0 0.1792701442 -0.4475644802
1602000000.0 -0.1243456031 -0.4791873733
1611950000.0 -0.3702936674 -0.3001981912
1621900000.0 -0.4335256156 0.0007071522
1631850000.0 -0.2727569339 0.2713901532
1641800000.0 0.0378590123 0.3618544346
1651750000.0 0.333583103 0.2120556766
1661700000.0 0.4456258334 -0.1003939684
1671650000.0 0.3139660636 -0.405726359
1681600000.0 0.0112260502 -0.5477485604
1691550000.0 -0.3147078895 -0.4615235373
1701500000.0 -0.5171391521 -0.1849487583
1711450000.0 -0.5035058028 0.1661873279
1721400000.0 -0.2632288641 0.4399669408
1731350000.0 0.1104644378 0.498902303
1741300000.0 0.4436228829 0.299461186
1751250000.0 0.5689731995 -0.0655997109
1761200000.0 0.4322225487 -0.4206941054
1771150000.0 0.1098227123 -0.6117718754
1781100000.0 -0.2556936898 -0.5760635979
1791050000.0 -0.5294115888 -0.3393405172
1801000000.0 -0.6181140487 0.0131254869
1810950000.0 -0.481856326 0.3580879962
1820900000.0 -0.155706029 0.5554735094
1830850000.0 0.2326530165 0.5064710579
1840800000.0 0.5039927148 0.2260691564
1850750000.0 0.5351310869 -0.1500200048
1860700000.0 0.3353945157 -0.4504165065
1870650000.0 0.0130678334 -0.5707086732
1880600000.0 -0.3037188943 -0.4929165534
1890550000.0 -0.5144878171 -0.262246685
1900500000.0 -0.5575013014 0.0397057074
1910450000.0 -0.4202626537 0.3073214244
1920400000.0 -0.1515403033 0.4354882149
1930350000.0 0.1312859227 0.3703588202
1940300000.0 0.2996985919 0.1562012073
1950250000.0 0.2951316669 -0.0896997217
1960200000.0 0.1573236969 -0.2577908005
1970150000.0 -0.0233651142 -0.3041119412
1980100000.0 -0.1636514266 -0.2493493053
1990050000.0 -0.2243703102 -0.1557607111
2000000000.0 -0.2219602859 -0.0872229546
