!Created with skrf (http://scikit-rf.org).
# GHz S RI R 50.0 
!freq ReS11 ImS11
10000000.0 -0.7404724775 0.5695356072
19950000.0 -0.2691629 0.9045850571
29900000.0 0.3116761109 0.898410138
39850000.0 0.7851110787 0.5398024079
49800000.0 0.9506793174 -0.0485158552
59750000.0 0.7149206081 -0.6311928931
69700000.0 0.1550213156 -0.9451792107
79650000.0 -0.4888528329 -0.8215596352
89600000.0 -0.9050828042 -0.283365731
99550000.0 -0.8481188961 0.4283827384
109500000.0 -0.2840707634 0.9201803924
119450000.0 0.4954685989 0.8364782712
129400000.0 0.9566970828 0.1606742648
139350000.0 0.7261902974 -0.6332784058
149300000.0 -0.0309883819 -0.9503463135
159250000.0 -0.7332737627 -0.5796131912
169200000.0 -0.9130527333 0.1575989782
179150000.0 -0.5268701256 0.7601122099
189100000.0 0.1282640544 0.9077585058
199050000.0 0.6833978833 0.5860939854
209000000.0 0.8914205863 -0.0022870788
218950000.0 0.6920802149 -0.5682030873
228900000.0 0.1978215768 -0.8775496901
238850000.0 -0.3716820408 -0.8149026226
248800000.0 -0.7602668487 -0.3900769168
258750000.0 -0.8682406691 0.1296701516
268700000.0 -0.6138553022 0.6280093949
278650000.0 -0.1215604174 0.8722658219
288600000.0 0.4128361345 0.7696584871
298550000.0 0.7760425816 0.3597381567
308500000.0 0.8131407208 -0.1921637177
318450000.0 0.4984918578 -0.6457859386
328400000.0 -0.0264575172 -0.7893489818
338350000.0 -0.5022937415 -0.5538489144
348300000.0 -0.6827365124 -0.0767459399
358250000.0 -0.4934777836 0.3609372041
368200000.0 -0.0951589074 0.5166801884
378150000.0 0.2372574805 0.3573022271
388100000.0 0.3243299017 0.0626698102
398050000.0 0.1901256978 -0.1439027925
408000000.0 -0.0039546201 -0.1647212288
417950000.0 -0.1105115181 -0.0519635052
427900000.0 -0.0888443207 0.071228899
437850000.0 0.0068669382 0.1138078164
447800000.0 0.0925093248 0.063414471
457750000.0 0.1077385075 -0.03507089
467700000.0 0.0510789074 -0.115177056
477650000.0 -0.0399900728 -0.1335713441
487600000.0 -0.1143183125 -0.085836999
497550000.0 -0.1304377662 -0.0091493887
507500000.0 -0.1017644152 0.0630562493
517450000.0 -0.0357085188 0.0924865082
527400000.0 0.0221930111 0.0729273492
537350000.0 0.0449914037 0.0266736266
547300000.0 0.0298405604 -0.0139018607
557250000.0 -0.004802717 -0.0262357282
567200000.0 -0.0284831748 -0.0075390622
577150000.0 -0.0208348985 0.021052354
587100000.0 0.0157353673 0.0291167103
597050000.0 0.0559840016 0.0008882617
607000000.0 0.0701817376 -0.0573798844
616950000.0 0.0393207411 -0.1174437098
626900000.0 -0.0276357915 -0.1434947597
636850000.0 -0.1013215981 -0.1160920874
646800000.0 -0.1435202588 -0.039685385
656750000.0 -0.1294467961 0.0555927198
666700000.0 -0.058262426 0.1270797846
676650000.0 0.0436971681 0.1409628171
686600000.0 0.13348481 0.0868968833
696550000.0 0.1697858789 -0.0152928964
706500000.0 0.1345814217 -0.1174611655
716450000.0 0.0417550726 -0.172189141
726400000.0 -0.0622326769 -0.1530001904
736350000.0 -0.125914019 -0.067053945
746300000.0 -0.1129636378 0.0412770194
756250000.0 -0.0270266847 0.113232306
766200000.0 0.0859213376 0.1082554467
776150000.0 0.1636556831 0.0247166429
786100000.0 0.1593387533 -0.0909946617
796050000.0 0.0668600325 -0.1742506979
806000000.0 -0.0699072466 -0.1686214098
815950000.0 -0.176531487 -0.0606723105
825900000.0 -0.1868213442 0.102165917
835850000.0 -0.081327788 0.239459549
845800000.0 0.0974311824 0.2745531605
855750000.0 0.2658533164 0.1777236084
865700000.0 0.339046524 -0.0180593252
875650000.0 0.2679829241 -0.2275973992
885600000.0 0.0672095025 -0.3502872461
895550000.0 -0.18003318 -0.307826953
905500000.0 -0.3476386285 -0.0994072183
915450000.0 -0.3375616136 0.1804725289
925400000.0 -0.1406213803 0.392055122
935350000.0 0.1527862762 0.4182723543
945300000.0 0.3941012732 0.2276119297
955250000.0 0.4409652035 -0.1005811018
965200000.0 0.2225151344 -0.392438412
975150000.0 -0.1762905711 -0.4340132823
985100000.0 -0.4945252606 -0.1308168046
995050000.0 -0.4621392731 0.3441859801
1005000000.0 -0.0468287858 0.6413470368
1014950000.0 0.4845144098 0.4933036572
1024900000.0 0.7206051727 -0.0603437852
1034850000.0 0.4096443461 -0.624276257
1044800000.0 -0.2385409075 -0.7151439287
1054750000.0 -0.6985141636 -0.2772060198
1064700000.0 -0.6961805553 0.3080603269
1074650000.0 -0.2915914074 0.7223193355
1084600000.0 0.2010280295 0.7403519177
1094550000.0 0.6582739405 0.3993112511
1104500000.0 0.7046141963 -0.1865965279
1114450000.0 0.3200124594 -0.6197149422
1124400000.0 -0.2291214946 -0.6430130457
1134350000.0 -0.6061945088 -0.2948221039
1144300000.0 -0.6413228991 0.182932475
1154250000.0 -0.3662619972 0.5396880113
1164200000.0 0.0554974672 0.6208691145
1174150000.0 0.4206934822 0.4102540816
1184100000.0 0.5541327323 0.0057186263
1194050000.0 0.3825104229 -0.3808312633
1204000000.0 0.0126682907 -0.5483757275
1213950000.0 -0.3556558281 -0.4439005789
1223900000.0 -0.5687286015 -0.1508504924
1233850000.0 -0.5650502879 0.198084847
1243800000.0 -0.3587607965 0.4732850801
1253750000.0 -0.0259919898 0.5721657109
1263700000.0 0.3091349061 0.4480257409
1273650000.0 0.5079382042 0.1418299072
1283600000.0 0.4872074479 -0.2219636169
1293550000.0 0.2681090317 -0.4958607804
1303500000.0 -0.0498858235 -0.5898049529
1313450000.0 -0.3506860855 -0.4954838461
1323400000.0 -0.548607215 -0.258830659
1333350000.0 -0.5957234516 0.0502663574
1343300000.0 -0.4707280999 0.3474701441
1353250000.0 -0.1903186883 0.5321718226
1363200000.0 0.1577867865 0.5228595143
1373150000.0 0.4421574461 0.3086735718
1383100000.0 0.5505039989 -0.0258730213
1393050000.0 0.4568614239 -0.3497453062
1403000000.0 0.21554419 -0.5582308678
1412950000.0 -0.0807651635 -0.6001783469
1422900000.0 -0.3446715474 -0.4810704295
1432850000.0 -0.5085818522 -0.2344741444
1442800000.0 -0.5189726459 0.0752879719
1452750000.0 -0.352726046 0.3515252727
1462700000.0 -0.0517499654 0.4850849942
1472650000.0 0.2673123996 0.4184495102
1482600000.0 0.4804016684 0.1848298463
1492550000.0 0.5173518402 -0.1154274302
1502500000.0 0.3845813728 -0.3736520192
1512450000.0 0.137701404 -0.5093090693
1522400000.0 -0.1390732421 -0.4812348481
1532350000.0 -0.3515648295 -0.2926146603
1542300000.0 -0.4116809769 -0.003944208
1552250000.0 -0.2827206838 0.2686236076
1562200000.0 -0.0185231541 0.4017053021
1572150000.0 0.2602682642 0.3491828251
1582100000.0 0.443432254 0.1467314001
1592050000.0 0.4687278318 -0.1177888632
1602000000.0 0.3331181471 -0.346350851
1611950000.0 0.0813364551 -0.4542851517
1621900000.0 -0.1972084048 -0.3869507376
1631850000.0 -0.3877280886 -0.1535556469
1641800000.0 -0.3959561422 0.1556838281
1651750000.0 -0.2142190156 0.406288019
1661700000.0 0.075338318 0.4952018065
1671650000.0 0.3544762879 0.4012039211
1681600000.0 0.5296332312 0.170411459
1691550000.0 0.5482596982 -0.120546802
1701500000.0 0.4019590579 -0.3801567093
1711450000.0 0.1261255924 -0.5194463437
1721400000.0 -0.1928137808 -0.4740460119
1731350000.0 -0.4376468836 -0.2459221393
1741300000.0 -0.5131601322 0.0847829439
1751250000.0 -0.3948908252 0.392667627
1761200000.0 -0.1393782368 0.5766155777
1771150000.0 0.1612953534 0.5940192949
1781100000.0 0.420419258 0.4545562498
1791050000.0 0.5704416918 0.1999891417
1801000000.0 0.5666069007 -0.1038421948
1810950000.0 0.4035469198 -0.3700333913
1820900000.0 0.1181365183 -0.5109380825
1830850000.0 -0.203321263 -0.4648956628
1840800000.0 -0.4403328539 -0.2439520988
1850750000.0 -0.5048209879 0.0622853437
1860700000.0 -0.424862816 0.2743574508
1870650000.0 -0.2741174363 0.4872017018
1880600000.0 -0.023609916 0.5648592398
1890550000.0 0.2148442311 0.4958328467
1900500000.0 0.3771878192 0.3115931551
1910450000.0 0.4194899708 0.0664328577
1920400000.0 0.3294001267 -0.1651716652
1930350000.0 0.1363018663 -0.3065220273
1940300000.0 -0.086591219 -0.3162290888
1950250000.0 -0.2575209646 -0.2127003052
1960200000.0 -0.3323207852 -0.0568312687
1970150000.0 -0.3120214516 0.0877016461
1980100000.0 -0.2306936515 0.1739646912
1990050000.0 -0.1418986498 0.186545076
2000000000.0 -0.0958914627 0.1470315296
