!Created with skrf (http://scikit-rf.org).
# GHz S RI R 50.0 
!freq ReS11 ImS11
10000000.0 -0.9998354254 0.1610093411
19950000.0 -0.9463668735 0.3070509125
29900000.0 -0.8711393982 0.4478236186
39850000.0 -0.7733180633 0.587464035
49800000.0 -0.6541919075 0.7206726273
59750000.0 -0.5082225979 0.8412880896
69700000.0 -0.3266961526 0.9368072203
79650000.0 -0.1056898529 0.9876879746
89600000.0 0.1535493528 0.973965265
99550000.0 0.435323347 0.872524261
109500000.0 0.7108195096 0.6669189791
119450000.0 0.927191634 0.3458719111
129400000.0 1.010240655 -0.0658493954
139350000.0 0.904533255 -0.4808974542
149300000.0 0.6268881239 -0.7991986371
159250000.0 0.2667246279 -0.9593764372
169200000.0 -0.0875444298 -0.9785909689
179150000.0 -0.3893197878 -0.9000866139
189100000.0 -0.6231464394 -0.7639858184
199050000.0 -0.7871048767 -0.5971900977
209000000.0 -0.8849195496 -0.4166326466
218950000.0 -0.9332123553 -0.2363706188
228900000.0 -0.9433896304 -0.0629775218
238850000.0 -0.9276217289 0.1018647373
248800000.0 -0.8777775526 0.2509188199
258750000.0 -0.8441243954 0.4003332921
268700000.0 -0.7732816397 0.532518174
278650000.0 -0.6781788222 0.6451267308
288600000.0 -0.5567616361 0.7343207114
298550000.0 -0.4108923329 0.795795854
308500000.0 -0.2474707105 0.8291783978
318450000.0 -0.0805818479 0.8332389631
328400000.0 0.1112298702 0.8041650971
338350000.0 0.2912724376 0.7193984749
348300000.0 0.4344062465 0.5742976276
358250000.0 0.5092061182 0.3804089787
368200000.0 0.5006383613 0.1728179318
378150000.0 0.4183981303 -0.00729542
388100000.0 0.2934588901 -0.1319801975
398050000.0 0.1591575017 -0.1926302395
408000000.0 0.0423196166 -0.195794608
417950000.0 -0.0453415159 -0.1584947609
427900000.0 -0.1016472546 -0.0990685832
437850000.0 -0.1319477497 -0.0340064289
447800000.0 -0.1432077313 0.0253417377
457750000.0 -0.1400531389 0.0720735684
467700000.0 -0.1255875478 0.1017614253
477650000.0 -0.1027667416 0.114212253
487600000.0 -0.0740375304 0.1120874201
497550000.0 -0.0436593451 0.1033680711
507500000.0 -0.0115057763 0.0839688446
517450000.0 0.0118881569 0.0637658216
527400000.0 0.0247394332 0.0432737976
537350000.0 0.0231763188 0.0231332552
547300000.0 0.0088072525 0.0036480406
557250000.0 -0.0157011499 -0.0158267646
567200000.0 -0.0463245712 -0.0336993357
577150000.0 -0.0781757476 -0.0471104283
587100000.0 -0.1068993401 -0.0533358435
597050000.0 -0.129695925 -0.0484492819
607000000.0 -0.1417434123 -0.0316540626
616950000.0 -0.1467326967 -0.0121906273
626900000.0 -0.1542481484 0.016387074
636850000.0 -0.158279568 0.0488355878
646800000.0 -0.1580303875 0.0800537673
656750000.0 -0.1526379103 0.1057761885
666700000.0 -0.1393710069 0.1238024422
676650000.0 -0.116707622 0.1329136985
686600000.0 -0.0849507369 0.1349091938
696550000.0 -0.0468291368 0.1313943437
706500000.0 -0.0062314848 0.1227124119
716450000.0 0.0328785696 0.1088228603
726400000.0 0.0645098866 0.0876774583
736350000.0 0.0851444238 0.0568423043
746300000.0 0.0925974737 0.0157570375
756250000.0 0.08722171 -0.033628268
766200000.0 0.0702150037 -0.0889231665
776150000.0 0.0436704983 -0.1447020006
786100000.0 0.0079566493 -0.1938022425
796050000.0 -0.0363717826 -0.2299985359
806000000.0 -0.0880740329 -0.2485786355
815950000.0 -0.1473729842 -0.247016463
825900000.0 -0.2114178933 -0.227285634
835850000.0 -0.27671462 -0.1929166475
845800000.0 -0.3386020187 -0.1476594078
855750000.0 -0.3909987203 -0.0940219417
865700000.0 -0.4277319936 -0.0333115034
875650000.0 -0.4442966436 0.0335499728
885600000.0 -0.437628961 0.1061400332
895550000.0 -0.4090077387 0.183754647
905500000.0 -0.3599956377 0.263936848
915450000.0 -0.2936610953 0.3413528187
925400000.0 -0.2099048439 0.4087294487
935350000.0 -0.1089891941 0.4562271452
945300000.0 0.0082342473 0.4717645345
955250000.0 0.1394038237 0.4442988836
965200000.0 0.2758918339 0.3641211916
975150000.0 0.4021358785 0.227096368
985100000.0 0.4920084558 0.0326732011
995050000.0 0.5104564484 -0.2036032515
1005000000.0 0.4273100008 -0.4456199261
1014950000.0 0.2302173593 -0.640747109
1024900000.0 -0.0524716825 -0.7328183469
1034850000.0 -0.361264772 -0.6975554855
1044800000.0 -0.6330964516 -0.5451720341
1054750000.0 -0.8213179649 -0.3059713158
1064700000.0 -0.8878494749 -0.0316951681
1074650000.0 -0.8646317343 0.235447982
1084600000.0 -0.7390298862 0.4753708136
1094550000.0 -0.5380136154 0.6670275053
1104500000.0 -0.286743349 0.7836059875
1114450000.0 -0.0132728315 0.8165596242
1124400000.0 0.2511193885 0.7540292172
1134350000.0 0.466366539 0.6014929209
1144300000.0 0.6043651348 0.3843831242
1154250000.0 0.6572104806 0.1438712117
1164200000.0 0.6382715983 -0.0842135398
1174150000.0 0.5721053128 -0.2808788216
1184100000.0 0.4679704972 -0.441290906
1194050000.0 0.3367488374 -0.5535816543
1204000000.0 0.1935888729 -0.6155798652
1213950000.0 0.0505187325 -0.6355887739
1223900000.0 -0.0839339331 -0.6268813663
1233850000.0 -0.2063270448 -0.6014583127
1243800000.0 -0.3135177182 -0.5667595057
1253750000.0 -0.4056225679 -0.5247063604
1263700000.0 -0.4805770052 -0.474616814
1273650000.0 -0.5390277371 -0.4173233353
1283600000.0 -0.5809145022 -0.3512328834
1293550000.0 -0.6105515957 -0.2783406898
1303500000.0 -0.6332228892 -0.2021622587
1313450000.0 -0.6515619317 -0.1262066835
1323400000.0 -0.6682508529 -0.0536561995
1333350000.0 -0.6810081457 0.0142919782
1343300000.0 -0.6868238396 0.0782586461
1353250000.0 -0.6818960587 0.1365267758
1363200000.0 -0.6643499189 0.1920616804
1373150000.0 -0.633573649 0.2469167182
1383100000.0 -0.5941349593 0.3023603192
1393050000.0 -0.5491598806 0.3587897195
1403000000.0 -0.5036859138 0.4142501538
1412950000.0 -0.4574555673 0.4659751662
1422900000.0 -0.4102615643 0.5113827771
1432850000.0 -0.3600706877 0.5462289869
1442800000.0 -0.3039245766 0.5699900598
1452750000.0 -0.2398248839 0.5817635158
1462700000.0 -0.166815725 0.5838178415
1472650000.0 -0.0869157321 0.5790483727
1482600000.0 -0.0031438599 0.5698162459
1492550000.0 0.0804306722 0.5545163092
1502500000.0 0.161044439 0.5304030156
1512450000.0 0.2346740561 0.4931435922
1522400000.0 0.2980389908 0.4390401566
1532350000.0 0.3496479117 0.3664647009
1542300000.0 0.3901920155 0.2780699407
1552250000.0 0.4201882381 0.1780472479
1562200000.0 0.4394986251 0.0729201488
1572150000.0 0.4447440911 -0.0328135649
1582100000.0 0.4326308331 -0.1342702461
1592050000.0 0.4006263284 -0.2264385975
1602000000.0 0.3475192613 -0.3071058157
1611950000.0 0.2774313281 -0.3744502222
1621900000.0 0.1950373605 -0.4298644248
1631850000.0 0.10624865 -0.4755997522
1641800000.0 0.0157989098 -0.5116463233
1651750000.0 -0.0727758603 -0.5356214965
1661700000.0 -0.1568111786 -0.5451091896
1671650000.0 -0.2346254144 -0.5369280205
1681600000.0 -0.3057314024 -0.512052144
1691550000.0 -0.3719291978 -0.475579058
1701500000.0 -0.4348405533 -0.4306494433
1711450000.0 -0.494237038 -0.3836152125
1721400000.0 -0.5493337919 -0.336610142
1731350000.0 -0.5987809997 -0.2920239001
1741300000.0 -0.6375843555 -0.2463440884
1751250000.0 -0.6628795769 -0.1982263999
1761200000.0 -0.6747348807 -0.147035707
1771150000.0 -0.675984455 -0.0921836708
1781100000.0 -0.6722810523 -0.0347106123
1791050000.0 -0.6683097905 0.0224826943
1801000000.0 -0.6666895042 0.0773735605
1810950000.0 -0.6681179251 0.1287165643
1820900000.0 -0.6696450937 0.1752746756
1830850000.0 -0.6640525147 0.2162649744
1840800000.0 -0.6490516687 0.252329918
1850750000.0 -0.6221232568 0.2849938915
1860700000.0 -0.5842241085 0.3152407052
1870650000.0 -0.5412578292 0.3452978269
1880600000.0 -0.4981878707 0.3735996277
1890550000.0 -0.4593835387 0.4000170929
1900500000.0 -0.4251831742 0.4224646415
1910450000.0 -0.3946369756 0.4379585983
1920400000.0 -0.365053963 0.4431419408
1930350000.0 -0.3314232616 0.4386552726
1940300000.0 -0.2939750819 0.4239178007
1950250000.0 -0.2518720275 0.4010250885
1960200000.0 -0.2080481437 0.3744047585
1970150000.0 -0.1689773209 0.3441429528
1980100000.0 -0.1390984587 0.3109900939
1990050000.0 -0.1240190682 0.2737869464
2000000000.0 -0.1254157244 0.2267921718
