!Created with skrf (http://scikit-rf.org).
# GHz S RI R 50.0 
!freq ReS11 ImS11
10000000.0 -0.8099789569 0.0548229981
14975000.0 -0.8131713593 0.0848890535
19950000.0 -0.8165982663 0.117711016
24925000.0 -0.8187715311 0.1538783342
29900000.0 -0.8190774337 0.1926842863
34875000.0 -0.8157855654 0.2344843093
39850000.0 -0.8085581375 0.2788311407
44825000.0 -0.7971515888 0.3252463709
49800000.0 -0.8139812405 0.3716673602
54775000.0 -0.7940949811 0.4203697678
59750000.0 -0.7697529873 0.4704696157
64725000.0 -0.7408568178 0.5215698822
69700000.0 -0.7066972478 0.5735742173
74675000.0 -0.6666059147 0.6263922584
79650000.0 -0.6199106392 0.6801055659
84625000.0 -0.5655879625 0.7343341679
89600000.0 -0.5021751861 0.7887117379
94575000.0 -0.428067913 0.8419862985
99550000.0 -0.3411952182 0.8919777493
104525000.0 -0.2402104759 0.9352717578
109500000.0 -0.1102425871 0.9636922725
114475000.0 0.0152271023 0.9799398764
119450000.0 0.1501772776 0.9759202912
124425000.0 0.289348527 0.9484270273
129400000.0 0.4273785705 0.8951937763
134375000.0 0.5518256925 0.8213640455
139350000.0 0.6681539359 0.7222253621
144325000.0 0.7638984696 0.6062203175
149300000.0 0.8373003967 0.4781122177
154275000.0 0.8869989936 0.3441843094
159250000.0 0.9136316743 0.2100760234
164225000.0 0.9187208836 0.0812989005
169200000.0 0.9056322898 -0.0383846347
174175000.0 0.8781227181 -0.1461280815
179150000.0 0.8410651306 -0.2405779605
184125000.0 0.7986414268 -0.3218835884
189100000.0 0.7544199827 -0.3915042291
194075000.0 0.7106195068 -0.451441822
199050000.0 0.6681792275 -0.5037333554
204025000.0 0.6270482459 -0.5502450133
209000000.0 0.5866187668 -0.5922950893
213975000.0 0.5463049337 -0.6306646037
218950000.0 0.5054469019 -0.6654956936
223925000.0 0.4638988857 -0.6971081964
228900000.0 0.4213409847 -0.7253264089
233875000.0 0.3778585709 -0.750001905
238850000.0 0.3332357581 -0.7712147729
243825000.0 0.2858418574 -0.7890729079
248800000.0 0.2684636183 -0.7708964072
253775000.0 0.2120217109 -0.8098035744
258750000.0 0.1682924213 -0.818562512
263725000.0 0.1276126144 -0.8239444507
268700000.0 0.0890926831 -0.826999839
273675000.0 0.0521033547 -0.8283411519
278650000.0 0.0165407029 -0.8281791262
283625000.0 -0.0183731934 -0.8272446589
288600000.0 -0.0535007903 -0.8255897192
293575000.0 -0.0897408061 -0.8229797065
298550000.0 -0.1279588831 -0.818640001
303525000.0 -0.1684681253 -0.8119611952
308500000.0 -0.2112806185 -0.8016023069
313475000.0 -0.2559173137 -0.7863351353
318450000.0 -0.3018398597 -0.7651565375
323425000.0 -0.3476745599 -0.7372793491
328400000.0 -0.3925592632 -0.7028158667
333375000.0 -0.4349424608 -0.661071614
338350000.0 -0.4734361632 -0.6124194433
343325000.0 -0.506347972 -0.5571037763
348300000.0 -0.5319454413 -0.4957576431
353275000.0 -0.5489530183 -0.4302103157
358250000.0 -0.5559689213 -0.3611751735
363225000.0 -0.5526617047 -0.2913806405
368200000.0 -0.5388524145 -0.2227698563
373175000.0 -0.5152277603 -0.1581911971
378150000.0 -0.4828014658 -0.0993887985
383125000.0 -0.4434347283 -0.0477225083
388100000.0 -0.3989850457 -0.0042315544
393075000.0 -0.351263583 0.0306026829
398050000.0 -0.302215379 0.0570899739
403025000.0 -0.2533441094 0.0752502173
408000000.0 -0.2127271099 0.082573896
412975000.0 -0.1679627591 0.0862927845
417950000.0 -0.1264085585 0.0844238804
422925000.0 -0.08847203 0.0782803602
427900000.0 -0.0546539406 0.0689411219
432875000.0 -0.0247894447 0.0566212471
437850000.0 0.000360358 0.0424010831
442825000.0 0.0214079835 0.0271050114
447800000.0 0.0388348011 0.0115447563
452775000.0 0.0526955726 -0.0040679911
457750000.0 0.0631458124 -0.0190005271
462725000.0 0.070875785 -0.0331366811
467700000.0 0.0763475037 -0.0463157346
472675000.0 0.0796068512 -0.0585007449
477650000.0 0.0808214297 -0.0695672259
482625000.0 0.0806524483 -0.0795260509
487600000.0 0.0788488725 -0.0883459008
492575000.0 0.0742707459 -0.0952075714
497550000.0 0.0783925031 -0.0972337193
502525000.0 0.073362031 -0.1068110173
507500000.0 0.0682093647 -0.1115421355
512475000.0 0.0627159013 -0.1149718362
517450000.0 0.057101798 -0.1171776353
522425000.0 0.0510573052 -0.1182100169
527400000.0 0.0447702713 -0.1179644165
532375000.0 0.0382466486 -0.116399236
537350000.0 0.0317880274 -0.1137348559
542325000.0 0.0254482237 -0.1099629494
547300000.0 0.0187832777 -0.1053654284
552275000.0 0.0119518078 -0.0996976773
557250000.0 0.005640973 -0.0928042917
562225000.0 -0.0004126603 -0.0848897386
567200000.0 -0.0061825734 -0.075984617
572175000.0 -0.0113182841 -0.066216851
577150000.0 -0.0158179518 -0.0559884159
582125000.0 -0.0197552196 -0.0451904426
587100000.0 -0.0225393893 -0.033923518
592075000.0 -0.0241761954 -0.0225782815
597050000.0 -0.0248140091 -0.0109582423
602025000.0 -0.0242453642 0.0008097197
607000000.0 -0.0224377659 0.0124674881
611975000.0 -0.0195480698 0.0239667118
616950000.0 -0.0158599385 0.0351202689
621925000.0 -0.0110498952 0.0457603333
626900000.0 -0.0056214187 0.0560090315
631875000.0 0.0004634733 0.0655407521
636850000.0 0.0070496419 0.0743600131
641825000.0 0.0142647962 0.0824008798
646800000.0 0.0213851916 0.0899689067
651775000.0 0.028461851 0.0968797838
656750000.0 0.0302754427 0.1080609428
661725000.0 0.0425324489 0.1088911507
666700000.0 0.0454288774 0.1180839868
671675000.0 0.0503112558 0.1249286923
676650000.0 0.0581734445 0.1288607084
681625000.0 0.0667962828 0.1320021767
686600000.0 0.0765400161 0.1340381422
691575000.0 0.0867685274 0.1354196702
696550000.0 0.0963859768 0.1366951745
701525000.0 0.1066913758 0.1368105693
706500000.0 0.1175038013 0.1350857586
711475000.0 0.1286646307 0.1321181548
716450000.0 0.1399468538 0.1279115089
721425000.0 0.1512827118 0.122149448
726400000.0 0.162305497 0.1150405027
731375000.0 0.1730700285 0.106987354
736350000.0 0.1830981054 0.0974448953
741325000.0 0.1919731326 0.0866628799
746300000.0 0.2001477888 0.0744539545
751275000.0 0.2071140966 0.0609177304
756250000.0 0.2129154391 0.0461850779
761225000.0 0.2174053145 0.0304942332
766200000.0 0.2206218105 0.0138138771
771175000.0 0.2223041961 -0.0034600662
776150000.0 0.2225695134 -0.0212766915
781125000.0 0.2212460252 -0.0397236746
786100000.0 0.2181771239 -0.0583070919
791075000.0 0.2132962834 -0.0773251025
796050000.0 0.2069092127 -0.0965282104
801025000.0 0.1989955802 -0.1155417449
806000000.0 0.1820876217 -0.1382258257
810975000.0 0.1699085306 -0.1577707664
815950000.0 0.1569384552 -0.1752056729
820925000.0 0.142377704 -0.1918744025
825900000.0 0.1263323213 -0.2077800993
830875000.0 0.1093024378 -0.2225448018
835850000.0 0.0912380008 -0.2359258528
840825000.0 0.0724124644 -0.2482301214
845800000.0 0.0530115791 -0.2594798545
850775000.0 0.0328643733 -0.2696433669
855750000.0 0.0116690793 -0.2788065769
860725000.0 -0.0105358182 -0.2870897662
865700000.0 -0.0337242343 -0.294482878
870675000.0 -0.0585415537 -0.3005207957
875650000.0 -0.0845120199 -0.3048928745
880625000.0 -0.1121637123 -0.3070378924
885600000.0 -0.1407715305 -0.3068356417
890575000.0 -0.170480129 -0.3037133092
895550000.0 -0.2009589505 -0.2973262093
900525000.0 -0.2315367574 -0.2876954071
905500000.0 -0.2618795076 -0.274511604
910475000.0 -0.2914424878 -0.2577283315
915450000.0 -0.3195291881 -0.2375049937
920425000.0 -0.3454440968 -0.2139841931
925400000.0 -0.3696926 -0.1875247887
930375000.0 -0.3920898268 -0.1588607966
935350000.0 -0.4129994461 -0.1277467085
940325000.0 -0.4327971368 -0.093009346
945300000.0 -0.4503243203 -0.0542340359
950275000.0 -0.4644777869 -0.0117022059
955250000.0 -0.4755582657 0.0350858151
960225000.0 -0.4817217574 0.0863287025
965200000.0 -0.4824994732 0.1410379038
970175000.0 -0.4775940427 0.1993061013
975150000.0 -0.4654651931 0.2610365024
980125000.0 -0.4445944829 0.3249902003
985100000.0 -0.4135269898 0.3901512116
990075000.0 -0.3709708515 0.4538758077
995050000.0 -0.3167969933 0.513761219
1000025000.0 -0.2513587443 0.5682971312
1005000000.0 -0.1742474533 0.6153115572
1009975000.0 -0.0864753516 0.6520381867
1014950000.0 0.0112351923 0.6756070527
1019925000.0 0.1169525082 0.6832493452
1024900000.0 0.2279276126 0.672230357
1029875000.0 0.3397107825 0.6404922811
1034850000.0 0.4468148363 0.5874316707
1039825000.0 0.544420156 0.5137380028
1044800000.0 0.6287717039 0.4223182293
1049775000.0 0.6965098101 0.3163993681
1054750000.0 0.7449064429 0.1996687506
1059725000.0 0.7705045103 0.0764570028
1064700000.0 0.7742407468 -0.0403621882
1069675000.0 0.7720382559 -0.1552255284
1074650000.0 0.7498192822 -0.2762275058
1079625000.0 0.703122812 -0.3911020201
1084600000.0 0.6362023818 -0.4865550649
1089575000.0 0.5688575624 -0.5709929189
1094550000.0 0.4850229097 -0.6483334132
1099525000.0 0.3913281339 -0.7082196072
1104500000.0 0.2932757974 -0.7502807476
1109475000.0 0.194211169 -0.7767680599
1114450000.0 0.0967189582 -0.7885949465
1119425000.0 0.0026584741 -0.7878630168
1124400000.0 -0.0864730919 -0.7757216046
1129375000.0 -0.1696674735 -0.7543228518
1134350000.0 -0.2465573582 -0.7244112965
1139325000.0 -0.3163853198 -0.6868953649
1144300000.0 -0.3789329718 -0.6431356071
1149275000.0 -0.4336976828 -0.5948480345
1154250000.0 -0.4805950376 -0.5430007643
1159225000.0 -0.5185323907 -0.4894585696
1164200000.0 -0.5490802311 -0.436645434
1169175000.0 -0.5734829841 -0.3863381907
1174150000.0 -0.5945658397 -0.3379382157
1179125000.0 -0.6128186206 -0.28937652
1184100000.0 -0.6267150984 -0.2399921196
1189075000.0 -0.6358250847 -0.1915686503
1194050000.0 -0.6408233033 -0.1449955338
1199025000.0 -0.6418208856 -0.1004792886
1204000000.0 -0.6393928333 -0.0589827048
1208975000.0 -0.6338558949 -0.0200286513
1213950000.0 -0.6263347387 0.0164379113
1218925000.0 -0.6172123914 0.0500936107
1223900000.0 -0.6071636564 0.0808392074
1228875000.0 -0.5971229829 0.1090289984
1233850000.0 -0.5870110915 0.1350744678
1238825000.0 -0.5770974749 0.1594711549
1243800000.0 -0.567633859 0.1829316425
1248775000.0 -0.558401984 0.205353278
1253750000.0 -0.5485737574 0.2268038796
1258725000.0 -0.5389435811 0.2478614035
1263700000.0 -0.5285060656 0.2683127624
1268675000.0 -0.5176478253 0.28727731
1273650000.0 -0.5066645157 0.3052037595
1278625000.0 -0.4945534888 0.3217472192
1283600000.0 -0.4818309821 0.3367859762
1288575000.0 -0.468711997 0.3502584867
1293550000.0 -0.4548322807 0.36261206
1298525000.0 -0.4404727017 0.3733742066
1303500000.0 -0.4263862597 0.3821698397
1308475000.0 -0.4127441598 0.3892827517
1313450000.0 -0.3997426653 0.3944677353
1318425000.0 -0.3885686843 0.3979481347
1323400000.0 -0.3797100114 0.4003223788
1328375000.0 -0.3734190466 0.4023739732
1333350000.0 -0.3697391739 0.4050697858
1338325000.0 -0.3682581323 0.4094238923
1343300000.0 -0.3673775722 0.4161767371
1348275000.0 -0.3661443408 0.4248891258
1353250000.0 -0.3637403379 0.4354597643
1358225000.0 -0.3595579592 0.4471577963
1363200000.0 -0.3530992933 0.4591990581
1368175000.0 -0.3448293411 0.4703507071
1373150000.0 -0.3346384698 0.4812437631
1378125000.0 -0.3227097193 0.4915071422
1383100000.0 -0.3094447625 0.5001967337
1388075000.0 -0.2953243059 0.5080426911
1393050000.0 -0.2800189146 0.5143291741
1398025000.0 -0.264373695 0.5188990775
1403000000.0 -0.2486916485 0.5216640461
1407975000.0 -0.233166307 0.5230442506
1412950000.0 -0.2187031023 0.5221590393
1417925000.0 -0.2062422179 0.5197133971
1422900000.0 -0.1962120352 0.5163880724
1427875000.0 -0.1891499333 0.5132258554
1432850000.0 -0.1846626613 0.5107913297
1437825000.0 -0.1825282495 0.510405335
1442800000.0 -0.1814544631 0.5126750927
1447775000.0 -0.1790647959 0.5173576746
1452750000.0 -0.174614784 0.523881949
1457725000.0 -0.1677645139 0.5315248468
1462700000.0 -0.1581155059 0.5397179557
1467675000.0 -0.1459899934 0.5471253852
1472650000.0 -0.1317519035 0.5539360163
1477625000.0 -0.116367419 0.5599069492
1482600000.0 -0.0993100498 0.5645774812
1487575000.0 -0.0812010772 0.5674794943
1492550000.0 -0.0625346797 0.5693043923
1497525000.0 -0.0433859146 0.5699853319
1502500000.0 -0.023262808 0.5695955383
1507475000.0 -0.0034705732 0.5681206993
1512450000.0 0.0156872492 0.5658096124
1517425000.0 0.0344879699 0.562315409
1522400000.0 0.0523008295 0.5579751953
1527375000.0 0.0687742723 0.5532732958
1532350000.0 0.0848464235 0.5482090946
1537325000.0 0.1006908402 0.5425933976
1542300000.0 0.1162895241 0.5374017544
1547275000.0 0.1323725126 0.5321753316
1552250000.0 0.1491250531 0.5263848087
1557225000.0 0.1660607946 0.5202497146
1562200000.0 0.1836070155 0.5136190015
1567175000.0 0.2012435186 0.505597655
1572150000.0 0.2189259544 0.4967018701
1577125000.0 0.2366895755 0.4872215444
1582100000.0 0.254327065 0.4761768634
1587075000.0 0.2700166129 0.4643029331
1592050000.0 0.2881505156 0.4526854991
1597025000.0 0.3014748172 0.4392034799
1602000000.0 0.3169639869 0.4256280458
1606975000.0 0.3328712088 0.4125983729
1611950000.0 0.3481640924 0.3993906817
1616925000.0 0.3631332542 0.3865866868
1621900000.0 0.3780241911 0.3736765177
1626875000.0 0.3923169221 0.3608411385
1631850000.0 0.4064894664 0.3476980674
1636825000.0 0.4201057063 0.3351712192
1641800000.0 0.433863466 0.3220978789
1646775000.0 0.4470108675 0.3088265888
1651750000.0 0.4595256411 0.2956298474
1656725000.0 0.4714744024 0.2823088399
1661700000.0 0.482848273 0.2687931135
1666675000.0 0.4931637287 0.2555379107
1671650000.0 0.5022841712 0.2422912385
1676625000.0 0.5107378854 0.2289935044
1681600000.0 0.5180276708 0.2156807768
1686575000.0 0.5238163211 0.2026601189
1691550000.0 0.5289982002 0.1898017011
1696525000.0 0.533084013 0.1774672611
1701500000.0 0.5360436288 0.1656029268
1706475000.0 0.5379703327 0.1541343344
1711450000.0 0.539010743 0.1440549662
1716425000.0 0.5396110792 0.1351663478
1721400000.0 0.5398707084 0.1271103445
1726375000.0 0.5409486587 0.1203160813
1731350000.0 0.5425797651 0.1145605982
1736325000.0 0.5456412287 0.1088638262
1741300000.0 0.5494887856 0.1030979687
1746275000.0 0.5540382958 0.0970291913
1751250000.0 0.5587095687 0.0907122884
1756225000.0 0.5581405901 0.0871804952
1761200000.0 0.5575298487 0.0842053761
1766175000.0 0.5602821307 0.0761832168
1771150000.0 0.5620452409 0.0679977906
1776125000.0 0.5629186315 0.0597561919
1781100000.0 0.5621876541 0.0517185763
1786075000.0 0.560480164 0.0441418599
1791050000.0 0.5574106605 0.037470318
1796025000.0 0.5533644469 0.0321242678
1801000000.0 0.5481239297 0.0278207945
1805975000.0 0.5420405476 0.0252728528
1810950000.0 0.5371846886 0.028047422
1815925000.0 0.5328855331 0.0259145716
1820900000.0 0.5309646287 0.0317376732
1825875000.0 0.5285971602 0.0316955082
1830850000.0 0.5287087878 0.036052952
1835825000.0 0.5309258411 0.0358942224
1840800000.0 0.5320137948 0.0366461959
1845775000.0 0.5324905704 0.0381448527
1850750000.0 0.5346900252 0.0383083824
1855725000.0 0.5367713742 0.0359080526
1860700000.0 0.5364417032 0.0322870872
1865675000.0 0.5339303473 0.0282157968
1870650000.0 0.5293800271 0.0234024373
1875625000.0 0.5237349595 0.0184629648
1880600000.0 0.5154714078 0.0135207279
1885575000.0 0.5056916361 0.0092155003
1890550000.0 0.494533586 0.0053206625
1895525000.0 0.4814392743 0.0025424808
1900500000.0 0.4680165417 0.001967426
1905475000.0 0.4537234983 0.0023732774
1910450000.0 0.4397722716 0.0047496895
1915425000.0 0.4271619244 0.0095133497
1920400000.0 0.4165278924 0.0148145368
1925375000.0 0.4078032565 0.0203872458
1930350000.0 0.4004514921 0.0251510694
1935325000.0 0.3936676908 0.0282124346
1940300000.0 0.3862915192 0.0297879271
1945275000.0 0.3780076946 0.0300967404
1950250000.0 0.3680869567 0.0293642681
1955225000.0 0.3564271631 0.0282828155
1960200000.0 0.3431155844 0.0260147802
1965175000.0 0.3276045659 0.0241022946
1970150000.0 0.3104871206 0.0216726698
1975125000.0 0.2912720906 0.0189780698
1980100000.0 0.2697182967 0.0166897635
1985075000.0 0.2462463461 0.0142722855
1990050000.0 0.2202504135 0.0115723346
1995025000.0 0.1918405914 0.0099687406
2000000000.0 0.1606358315 0.0089082622
