!Created with skrf (http://scikit-rf.org).
# GHz S RI R 50.0 
!freq ReS11 ImS11
10000000.0 -0.761241204 0.5808996743
19950000.0 -0.2771966365 0.9145289317
29900000.0 0.3106431712 0.8989690182
39850000.0 0.7856524815 0.531507623
49800000.0 0.951725715 -0.0641136263
59750000.0 0.713039466 -0.6558119841
69700000.0 0.1410722667 -0.9739372183
79650000.0 -0.5151737641 -0.8370448191
89600000.0 -0.9245856951 -0.274155239
99550000.0 -0.8398403107 0.4490734174
109500000.0 -0.2484346696 0.9264312393
119450000.0 0.5396822529 0.8133458876
129400000.0 0.9832312292 0.1088667737
139350000.0 0.7114824927 -0.6883549967
149300000.0 -0.0738088199 -0.9639587532
159250000.0 -0.7581149794 -0.5479054223
169200000.0 -0.9011923356 0.1996934508
179150000.0 -0.492544517 0.7890338545
189100000.0 0.1710838177 0.9202196093
199050000.0 0.7251198273 0.5800411317
209000000.0 0.9182122904 -0.0235014658
218950000.0 0.6964886461 -0.5887149186
228900000.0 0.1873161101 -0.8844347612
238850000.0 -0.3853963029 -0.8073478248
248800000.0 -0.7596615419 -0.4024327651
258750000.0 -0.8797982647 0.1545752082
268700000.0 -0.619772779 0.6593003153
278650000.0 -0.1163120313 0.9034945186
288600000.0 0.4261658609 0.7893588399
298550000.0 0.7862595083 0.3647291453
308500000.0 0.8134324586 -0.195918784
318450000.0 0.4890348667 -0.6513432566
328400000.0 -0.0430664368 -0.7944400108
338350000.0 -0.5252194525 -0.5561613551
348300000.0 -0.706553159 -0.0714138785
358250000.0 -0.5105401247 0.3707017315
368200000.0 -0.1020836353 0.5207047764
378150000.0 0.233251404 0.3526861664
388100000.0 0.31736176 0.0517928854
398050000.0 0.1805085285 -0.1565616318
408000000.0 -0.0142196684 -0.1744537388
417950000.0 -0.1189289617 -0.0607352603
427900000.0 -0.0929526173 0.0632868967
437850000.0 0.0081657827 0.1053339123
447800000.0 0.0959390085 0.0513878978
457750000.0 0.1142215562 -0.0477867366
467700000.0 0.0572886286 -0.1281746574
477650000.0 -0.0332547555 -0.1447955594
487600000.0 -0.1056638089 -0.0954548322
497550000.0 -0.1261301633 -0.0178192437
507500000.0 -0.0924147227 0.0587743439
517450000.0 -0.0270007384 0.0876389402
527400000.0 0.030768219 0.0698817154
537350000.0 0.0523286279 0.0264955254
547300000.0 0.036803682 -0.0087128573
557250000.0 0.0028978584 -0.0158967718
567200000.0 -0.0190288225 0.0060802235
577150000.0 -0.0093401038 0.034603507
587100000.0 0.0274682674 0.040903191
597050000.0 0.0662848163 0.0086011853
607000000.0 0.0760839699 -0.0530386489
616950000.0 0.0392802637 -0.1141723875
626900000.0 -0.0345255492 -0.1394590035
636850000.0 -0.1124413196 -0.1086314673
646800000.0 -0.1566685988 -0.0289371059
656750000.0 -0.1426507177 0.0682736013
666700000.0 -0.0687035788 0.1397097173
676650000.0 0.0360664841 0.15005226
686600000.0 0.1270012417 0.0896555972
696550000.0 0.1625588104 -0.0161491156
706500000.0 0.1236535062 -0.1213334477
716450000.0 0.0289960895 -0.1784733019
726400000.0 -0.0766283011 -0.1581415231
736350000.0 -0.1377325351 -0.0716755262
746300000.0 -0.119911116 0.0359267859
756250000.0 -0.0296110737 0.1058017419
766200000.0 0.0858099953 0.0958992658
776150000.0 0.163960673 0.0091587796
786100000.0 0.1569530751 -0.1092660552
796050000.0 0.0612843674 -0.1910740933
806000000.0 -0.0762054607 -0.1783557551
815950000.0 -0.178972609 -0.0636548956
825900000.0 -0.1812509458 0.1045565559
835850000.0 -0.0665343994 0.2430214922
845800000.0 0.1181655951 0.2743816218
855750000.0 0.289043941 0.1723767094
865700000.0 0.3602146451 -0.0284137273
875650000.0 0.2832719002 -0.2406212732
885600000.0 0.0751011875 -0.3598633711
895550000.0 -0.1770844426 -0.3108693038
905500000.0 -0.3474191599 -0.0983251116
915450000.0 -0.341040758 0.1873215938
925400000.0 -0.1480991932 0.4056674702
935350000.0 0.1438264813 0.4415376784
945300000.0 0.3894345329 0.2637712807
955250000.0 0.450844525 -0.0546489488
965200000.0 0.2607822897 -0.3514160454
975150000.0 -0.1136385849 -0.4317227572
985100000.0 -0.4538182661 -0.189323959
995050000.0 -0.4955345135 0.2619005347
1005000000.0 -0.1526816703 0.6061390098
1014950000.0 0.3705422709 0.5548644669
1024900000.0 0.6902045307 0.071718267
1034850000.0 0.4978533561 -0.5336052449
1044800000.0 -0.1335237752 -0.7607082268
1054750000.0 -0.7057708073 -0.3844763025
1064700000.0 -0.7770726086 0.2810486775
1074650000.0 -0.3441081749 0.7492234662
1084600000.0 0.2023954421 0.7443633671
1094550000.0 0.6649213513 0.3972718802
1104500000.0 0.71284515 -0.2092149275
1114450000.0 0.310275797 -0.6543947207
1124400000.0 -0.259223876 -0.6632237128
1134350000.0 -0.6330705854 -0.2859682624
1144300000.0 -0.6415743753 0.2069529373
1154250000.0 -0.3386202174 0.5566942468
1164200000.0 0.1004760003 0.6152325045
1174150000.0 0.4615937019 0.3752071948
1184100000.0 0.5733565861 -0.044665459
1194050000.0 0.3738644723 -0.4249784739
1204000000.0 -0.0135793129 -0.5677341217
1213950000.0 -0.37920354 -0.4329481386
1223900000.0 -0.575858511 -0.1187028037
1233850000.0 -0.5504836614 0.2359732073
1243800000.0 -0.325143972 0.5047993754
1253750000.0 0.0200722732 0.5882659129
1263700000.0 0.3557778957 0.4416832549
1273650000.0 0.5388766695 0.115013831
1283600000.0 0.4912343994 -0.2528845188
1293550000.0 0.2478365271 -0.5136878375
1303500000.0 -0.0809161917 -0.5873423064
1313450000.0 -0.3817887574 -0.4733556458
1323400000.0 -0.5732337508 -0.2213263191
1333350000.0 -0.6070646092 0.0974887058
1343300000.0 -0.4617992197 0.3948265801
1353250000.0 -0.1634358463 0.5638972085
1363200000.0 0.1923238062 0.5253290385
1373150000.0 0.4628602288 0.2834749325
1383100000.0 0.5464125721 -0.0640565703
1393050000.0 0.429279892 -0.3851464814
1403000000.0 0.1732699283 -0.5808399324
1412950000.0 -0.1307036718 -0.6072215829
1422900000.0 -0.3932519202 -0.4671907155
1432850000.0 -0.5424460285 -0.2014782496
1442800000.0 -0.5250333179 0.1187893632
1452750000.0 -0.3238128388 0.3831541508
1462700000.0 -0.002877466 0.4850037455
1472650000.0 0.3133441765 0.3827099615
1482600000.0 0.5042231711 0.1260135748
1492550000.0 0.5143751344 -0.1791269781
1502500000.0 0.3564370035 -0.4272193543
1512450000.0 0.0923439628 -0.5389249254
1522400000.0 -0.186367452 -0.4755738624
1532350000.0 -0.3786114677 -0.2542683523
1542300000.0 -0.4030234641 0.0497588583
1552250000.0 -0.2375143768 0.3110940762
1562200000.0 0.04576782 0.4160894525
1572150000.0 0.3244721527 0.3293741565
1582100000.0 0.4873810176 0.1018442822
1592050000.0 0.4791519081 -0.1718157945
1602000000.0 0.3082855952 -0.3873617857
1611950000.0 0.0331105411 -0.4623018655
1621900000.0 -0.246486787 -0.3550033222
1631850000.0 -0.4145196118 -0.0914673029
1641800000.0 -0.3895678241 0.2278318384
1651750000.0 -0.1779964995 0.4642941518
1661700000.0 0.1268349521 0.5259047811
1671650000.0 0.4039936785 0.4000887818
1681600000.0 0.5599944406 0.1428090349
1691550000.0 0.5500112049 -0.1613990961
1701500000.0 0.3715476807 -0.4171035093
1711450000.0 0.0723878131 -0.53815402
1721400000.0 -0.2570596792 -0.4662816549
1731350000.0 -0.4948348155 -0.2114373037
1741300000.0 -0.5478638356 0.1345026242
1751250000.0 -0.4015248891 0.4415008116
1761200000.0 -0.1227964574 0.6086466693
1771150000.0 0.1848235888 0.5991941
1781100000.0 0.4425659441 0.4372520141
1791050000.0 0.5897467714 0.1647858664
1801000000.0 0.5680484971 -0.145993736
1810950000.0 0.3916045507 -0.4138946286
1820900000.0 0.0933069408 -0.5468673312
1830850000.0 -0.2338347323 -0.4876010795
1840800000.0 -0.4721926577 -0.2541198821
1850750000.0 -0.5424592658 0.0599793073
1860700000.0 -0.4429172151 0.3447796025
1870650000.0 -0.2278315652 0.5254948119
1880600000.0 0.0322233846 0.5691636629
1890550000.0 0.2674066537 0.4765324055
1900500000.0 0.4173675682 0.275349035
1910450000.0 0.4415908385 0.0221807398
1920400000.0 0.3300382751 -0.2057144936
1930350000.0 0.1181756517 -0.3290099529
1940300000.0 -0.1110391638 -0.3119916547
1950250000.0 -0.273833894 -0.1822265245
1960200000.0 -0.3234474446 -0.0060069492
1970150000.0 -0.2655340346 0.1148192136
1980100000.0 -0.2109863253 0.1736037706
1990050000.0 -0.1359874329 0.1935484432
2000000000.0 -0.0971547446 0.1615214525
