!Created with skrf (http://scikit-rf.org).
# GHz S RI R 50.0 
!freq ReS11 ImS11
10000000.0 -0.7471505586 0.6723438292
19950000.0 -0.1152047419 0.980911967
29900000.0 0.5632959725 0.7980817218
39850000.0 0.9555328339 0.2023341061
49800000.0 0.8419053092 -0.5146696988
59750000.0 0.2552417962 -0.9678530181
69700000.0 -0.4952740162 -0.878129825
79650000.0 -0.9648357648 -0.2661647443
89600000.0 -0.8377135995 0.5129081843
99550000.0 -0.1507893753 0.95176417
109500000.0 0.6589939198 0.6957887077
119450000.0 0.9604095255 -0.140295901
129400000.0 0.4270906585 -0.8898247292
139350000.0 -0.4966065382 -0.8530375718
149300000.0 -0.9637464992 -0.0721700282
159250000.0 -0.5991757164 0.7282521735
169200000.0 0.2312246199 0.9066404287
179150000.0 0.8656767799 0.3819725413
189100000.0 0.86765195 -0.4159600735
199050000.0 0.2899845232 -0.9245981062
209000000.0 -0.4463403968 -0.8499273866
218950000.0 -0.8929659982 -0.2977670484
228900000.0 -0.8385255648 0.389461245
238850000.0 -0.342506304 0.8511422535
248800000.0 0.319749443 0.8408760628
258750000.0 0.8347116775 0.4209544332
268700000.0 0.9098470247 -0.2478275148
278650000.0 0.5123027651 -0.7857732684
288600000.0 -0.1364114818 -0.9087880526
298550000.0 -0.6866499482 -0.5649319859
308500000.0 -0.8553741151 0.0532020873
318450000.0 -0.5598843486 0.612604303
328400000.0 0.0364282524 0.8012777102
338350000.0 0.5772782575 0.50380005
348300000.0 0.7106616598 -0.0689939028
358250000.0 0.3814327001 -0.5006854546
368200000.0 -0.1043294503 -0.5163125653
378150000.0 -0.3671050004 -0.2044106113
388100000.0 -0.2885248555 0.1229481741
398050000.0 -0.0431112161 0.2270533457
408000000.0 0.1239374882 0.1118704597
417950000.0 0.1110859861 -0.0488688965
427900000.0 -0.0093186901 -0.1045120134
437850000.0 -0.1053990468 -0.0336006326
447800000.0 -0.0970869116 0.0817231387
457750000.0 0.0013860458 0.1431186113
467700000.0 0.1107768701 0.1049066882
477650000.0 0.1502500858 -0.0010607203
487600000.0 0.0985707438 -0.1022783892
497550000.0 0.0025432399 -0.1332644657
507500000.0 -0.0777227588 -0.0934920697
517450000.0 -0.099001178 -0.0127742366
527400000.0 -0.0687189876 0.0439789325
537350000.0 -0.0249626042 0.0473746673
547300000.0 -0.0024910323 0.0180913876
557250000.0 -0.0086152676 -0.0034301912
567200000.0 -0.0288231323 0.008752274
577150000.0 -0.0316566306 0.0445162174
587100000.0 0.0015620113 0.0667005074
597050000.0 0.0597277953 0.0447065884
607000000.0 0.1008438119 -0.0229057262
616950000.0 0.0816040437 -0.1047409504
626900000.0 -0.0042681068 -0.1540659178
636850000.0 -0.1161177549 -0.1367850713
646800000.0 -0.1876986385 -0.0499484349
656750000.0 -0.1728992009 0.0682478312
666700000.0 -0.0747773511 0.1543596637
676650000.0 0.0543597873 0.1546472528
686600000.0 0.1449243736 0.062935147
696550000.0 0.1491674268 -0.070971758
706500000.0 0.0664251917 -0.1695423311
716450000.0 -0.0548499861 -0.1777971048
726400000.0 -0.1417631236 -0.0950470195
736350000.0 -0.1393406199 0.0219077069
746300000.0 -0.0513164081 0.0907740505
756250000.0 0.0578638776 0.0634946245
766200000.0 0.1056894206 -0.0410617222
776150000.0 0.050795234 -0.1455985941
786100000.0 -0.0714603505 -0.1659518857
796050000.0 -0.1735376925 -0.0741855696
806000000.0 -0.1700834515 0.0786455498
815950000.0 -0.0417762675 0.1885752929
825900000.0 0.1464720581 0.1666135091
835850000.0 0.2761250656 0.0030049793
845800000.0 0.2489728177 -0.2177668669
855750000.0 0.059629915 -0.3632876506
865700000.0 -0.1953947615 -0.3342705288
875650000.0 -0.3661388836 -0.1252039783
885600000.0 -0.3382048189 0.15933394
895550000.0 -0.1049628935 0.3549214528
905500000.0 0.2095365019 0.3304019609
915450000.0 0.4155954928 0.0805025686
925400000.0 0.3769758556 -0.2524462879
935350000.0 0.105453643 -0.4580839907
945300000.0 -0.2333986255 -0.3937227282
955250000.0 -0.4149120595 -0.0875007624
965200000.0 -0.3001620086 0.2531337667
975150000.0 0.0283185921 0.3849128101
985100000.0 0.3676047049 0.2131711228
995050000.0 0.4500246128 -0.2013447478
1005000000.0 0.1175884322 -0.5351154087
1014950000.0 -0.3987468074 -0.4377734641
1024900000.0 -0.6282112693 0.0951923219
1034850000.0 -0.2749997791 0.6336292547
1044800000.0 0.4235529347 0.62995156
1054750000.0 0.815770546 0.0150330771
1064700000.0 0.5244243349 -0.6545280221
1074650000.0 -0.1537504042 -0.8196733775
1084600000.0 -0.7164478138 -0.4043584104
1094550000.0 -0.7513886138 0.2795860939
1104500000.0 -0.2396242782 0.7460208813
1114450000.0 0.433645456 0.624796401
1124400000.0 0.7325623121 0.0403737458
1134350000.0 0.472032857 -0.5162020131
1144300000.0 -0.0832319776 -0.6591204478
1154250000.0 -0.5240662718 -0.353361711
1164200000.0 -0.577186403 0.1526164737
1174150000.0 -0.2441320783 0.5121639853
1184100000.0 0.2326941933 0.5016040021
1194050000.0 0.5241214615 0.1392850587
1204000000.0 0.4520526736 -0.3061118807
1213950000.0 0.0977932652 -0.552142141
1223900000.0 -0.3153346348 -0.4800042108
1233850000.0 -0.5640916822 -0.1473015981
1243800000.0 -0.5213592606 0.2654249548
1253750000.0 -0.2064912344 0.5400838853
1263700000.0 0.213954291 0.5269373848
1273650000.0 0.5148785492 0.2356317221
1283600000.0 0.5497662118 -0.1752185085
1293550000.0 0.3192169218 -0.5055687249
1303500000.0 -0.0605671977 -0.6166581871
1313450000.0 -0.426448734 -0.4707829148
1323400000.0 -0.6271467001 -0.1288084147
1333350000.0 -0.5686594103 0.2683989647
1343300000.0 -0.2637066794 0.5443086258
1353250000.0 0.1534159812 0.5626646894
1363200000.0 0.4836961343 0.3109859006
1373150000.0 0.5763361094 -0.0874333616
1383100000.0 0.4049582815 -0.449568215
1393050000.0 0.059154438 -0.6271558971
1403000000.0 -0.3143775447 -0.5583310152
1412950000.0 -0.5685818046 -0.2769230078
1422900000.0 -0.5996532868 0.1037094954
1432850000.0 -0.3853694226 0.4226063832
1442800000.0 -0.0128658957 0.5321185754
1452750000.0 0.3453426359 0.3776406641
1462700000.0 0.5197415087 0.0360974181
1472650000.0 0.435175574 -0.3251310994
1482600000.0 0.1451988999 -0.5424989409
1492550000.0 -0.208126825 -0.5276920522
1502500000.0 -0.4633083427 -0.2953683142
1512450000.0 -0.5031603981 0.0449806958
1522400000.0 -0.3089271955 0.329195345
1532350000.0 0.0222493656 0.4127375325
1542300000.0 0.314613297 0.2515720016
1552250000.0 0.4147921435 -0.0606853254
1562200000.0 0.2845430951 -0.3494644219
1572150000.0 0.0049906622 -0.469197483
1582100000.0 -0.2791843934 -0.3669785019
1592050000.0 -0.4253103017 -0.0976924023
1602000000.0 -0.3524932514 0.2041164194
1611950000.0 -0.08442978 0.3724528946
1621900000.0 0.238743641 0.307441144
1631850000.0 0.4293822143 0.0370715284
1641800000.0 0.3747968965 -0.288036563
1651750000.0 0.1091845953 -0.4919834296
1661700000.0 -0.2253088873 -0.4717404931
1671650000.0 -0.4649176901 -0.2370114468
1681600000.0 -0.4964047384 0.1074234637
1691550000.0 -0.2961021821 0.4049049639
1701500000.0 0.0552333861 0.505847246
1711450000.0 0.3940122428 0.3460705114
1721400000.0 0.5516235762 -0.0033865439
1731350000.0 0.4478191403 -0.3696310458
1741300000.0 0.1392485243 -0.5820226934
1751250000.0 -0.2335863181 -0.5585948647
1761200000.0 -0.5178708815 -0.3192603586
1771150000.0 -0.6050215184 0.042324829
1781100000.0 -0.4556179199 0.3891599769
1791050000.0 -0.1185634459 0.5801912686
1801000000.0 0.2716245852 0.5224726883
1810950000.0 0.539294956 0.229953651
1820900000.0 0.5616376642 -0.1640864023
1830850000.0 0.3393467303 -0.4811028333
1840800000.0 -0.0178329938 -0.5946615419
1850750000.0 -0.3612759672 -0.4776946763
1860700000.0 -0.5680413874 -0.1886981439
1870650000.0 -0.5693995542 0.1620420386
1880600000.0 -0.3648782501 0.4432970335
1890550000.0 -0.0331103085 0.5443299125
1900500000.0 0.2880347622 0.4217897601
1910450000.0 0.4606129304 0.1337052454
1920400000.0 0.4202336266 -0.1849714827
1930350000.0 0.2063974175 -0.4009344988
1940300000.0 -0.0739420237 -0.4450805598
1950250000.0 -0.307372229 -0.3253061464
1960200000.0 -0.416251294 -0.1089089954
1970150000.0 -0.3771163458 0.1091288596
1980100000.0 -0.2305396378 0.2426386769
1990050000.0 -0.0604730265 0.2534025461
2000000000.0 0.0519893506 0.1724780874
