!Created with skrf (http://scikit-rf.org).
# GHz S RI R 50.0 
!freq ReS11 ImS11
10000000.0 -0.9982216232 0.1633492882
19950000.0 -0.9433871543 0.311735748
29900000.0 -0.8665258492 0.4532988629
39850000.0 -0.7669166831 0.592627464
49800000.0 -0.6466008401 0.7241956888
59750000.0 -0.50101621 0.8417467187
69700000.0 -0.3230986789 0.9337346342
79650000.0 -0.11003485 0.9830572847
89600000.0 0.1360229724 0.9728130295
99550000.0 0.4020234767 0.8854249708
109500000.0 0.6657914834 0.7081380056
119450000.0 0.88809928 0.4284715077
129400000.0 1.004949868 0.0675512254
139350000.0 0.963001581 -0.3445513144
149300000.0 0.7453522311 -0.6932078286
159250000.0 0.4125698181 -0.9086985277
169200000.0 0.0520430534 -0.9802152446
179150000.0 -0.2767681334 -0.9360272881
189100000.0 -0.545205826 -0.8140635435
199050000.0 -0.7407578496 -0.645799333
209000000.0 -0.862445727 -0.4530455047
218950000.0 -0.9242949175 -0.2550078278
228900000.0 -0.9375399171 -0.0614814368
238850000.0 -0.9123686505 0.1274037661
248800000.0 -0.7882242246 0.1243581996
258750000.0 -0.7235408146 0.4241389377
268700000.0 -0.7427854217 0.5691463665
278650000.0 -0.6518476042 0.6855597378
288600000.0 -0.5146358182 0.7716063704
298550000.0 -0.3515795809 0.8250541731
308500000.0 -0.1699100223 0.8460653709
318450000.0 0.0229346631 0.829403901
328400000.0 0.2164975502 0.767892677
338350000.0 0.389209979 0.6542624803
348300000.0 0.5163656191 0.4885848351
358250000.0 0.5721627945 0.2881233558
368200000.0 0.547292579 0.0856017745
378150000.0 0.4549681164 -0.0834354783
388100000.0 0.3254905374 -0.1970380586
398050000.0 0.1895906189 -0.2504135974
408000000.0 0.0708409795 -0.252027727
417950000.0 -0.0191969003 -0.2136445504
427900000.0 -0.0789768486 -0.15415071
437850000.0 -0.1126568605 -0.0878713651
447800000.0 -0.1254731891 -0.0275374287
457750000.0 -0.1224043884 0.0183085469
467700000.0 -0.1075159128 0.0407291255
477650000.0 -0.0823540475 -0.0325203573
487600000.0 -0.0450656701 0.0592129599
497550000.0 -0.1159574448 -0.0092854092
507500000.0 -0.0303362063 0.0413355914
517450000.0 -0.0016571743 0.0219820463
527400000.0 0.0093186288 0.0029370139
537350000.0 0.0004430324 -0.0152177462
547300000.0 -0.0788891351 -0.0427135888
557250000.0 -0.0496050967 -0.0566438601
567200000.0 -0.0705610235 -0.0677862974
577150000.0 -0.0995511775 -0.0759611878
587100000.0 -0.1262604986 -0.0786562812
597050000.0 -0.1470710232 -0.0734250342
607000000.0 -0.1615936453 -0.0578220892
616950000.0 -0.1718246298 -0.0328000072
626900000.0 -0.1777907608 -0.0011922388
636850000.0 -0.1804309333 0.0329218444
646800000.0 -0.1787649693 0.0654632779
656750000.0 -0.1723865968 0.0929811844
666700000.0 -0.1576623765 0.1133888626
676650000.0 -0.1332684511 0.1253552241
686600000.0 -0.0992571266 0.1300217758
696550000.0 -0.0584364698 0.128325012
706500000.0 -0.0152282294 0.1205243427
716450000.0 0.0261489816 0.1067593363
726400000.0 0.0600779649 0.0851733317
736350000.0 0.0833231855 0.0534461091
746300000.0 0.0927040259 0.0118285306
756250000.0 0.0899333011 -0.0404942185
766200000.0 0.0751090433 -0.0983576494
776150000.0 0.0501299824 -0.1562216178
786100000.0 0.0150252747 -0.207824573
796050000.0 -0.0285905878 -0.2465382237
806000000.0 -0.0800772766 -0.2644067374
815950000.0 -0.1396907034 -0.265617726
825900000.0 -0.2045092188 -0.249136226
835850000.0 -0.2720547076 -0.2182460328
845800000.0 -0.3364205864 -0.1763107271
855750000.0 -0.393161785 -0.1268692087
865700000.0 -0.4358366402 -0.0712315192
875650000.0 -0.4602601943 -0.0084686355
885600000.0 -0.4637447898 0.060523732
895550000.0 -0.446767114 0.1353120362
905500000.0 -0.4109606606 0.2147891028
915450000.0 -0.3590704542 0.2948966485
925400000.0 -0.2916582139 0.3682226453
935350000.0 -0.2070781783 0.4281406651
945300000.0 -0.1043763196 0.4634586908
955250000.0 0.0166139473 0.4645411152
965200000.0 0.1516643391 0.4214449514
975150000.0 0.2907620096 0.3276429039
985100000.0 0.410632602 0.1775089849
995050000.0 0.4746269675 -0.0287044487
1005000000.0 0.4641728341 -0.2728620653
1014950000.0 0.3407446747 -0.5079108884
1024900000.0 0.1109823663 -0.6701881804
1034850000.0 -0.1943511633 -0.710874223
1044800000.0 -0.5031836089 -0.6148835624
1054750000.0 -0.739487928 -0.395561518
1064700000.0 -0.7987100285 -0.1552880573
1074650000.0 -0.8705368495 0.0810570754
1084600000.0 -0.7635082459 0.3602415146
1094550000.0 -0.66754995 0.4671931786
1104500000.0 -0.5065180701 0.6642152671
1114450000.0 -0.2632822011 0.7645191585
1124400000.0 0.0008875468 0.7693420403
1134350000.0 0.2478647799 0.6765900778
1144300000.0 0.4407809665 0.5015792589
1154250000.0 0.5545153311 0.2799428653
1164200000.0 0.586577354 0.0504370019
1174150000.0 0.5580621715 -0.1477091999
1184100000.0 0.4833707865 -0.2973229414
1194050000.0 0.3658676513 -0.4347031962
1204000000.0 0.2253777649 -0.5240776415
1213950000.0 0.0793773389 -0.5612886573
1223900000.0 -0.060499804 -0.5620325522
1233850000.0 -0.1875541507 -0.5400510331
1243800000.0 -0.2996093361 -0.5059340929
1253750000.0 -0.3951023731 -0.4630909901
1263700000.0 -0.4717097415 -0.4121022815
1273650000.0 -0.5311009714 -0.3532032597
1283600000.0 -0.5728952299 -0.2872980294
1293550000.0 -0.6022904721 -0.2151965497
1303500000.0 -0.6236447799 -0.1404708848
1313450000.0 -0.6406158411 -0.0666578441
1323400000.0 -0.6557872367 0.0031297772
1333350000.0 -0.6670510547 0.0691670383
1343300000.0 -0.6708419586 0.1305805753
1353250000.0 -0.6653654937 0.1872657004
1363200000.0 -0.6462508616 0.2416965617
1373150000.0 -0.6139097959 0.2943382346
1383100000.0 -0.5732066804 0.3463861518
1393050000.0 -0.5279325574 0.398656895
1403000000.0 -0.4821330471 0.4497965135
1412950000.0 -0.4364065928 0.4957624954
1422900000.0 -0.3914182119 0.534108525
1432850000.0 -0.3455839586 0.5606357941
1442800000.0 -0.2980142461 0.5768111326
1452750000.0 -0.2479688642 0.5859145891
1462700000.0 -0.1915321719 0.5927389158
1472650000.0 -0.1257708545 0.5988633161
1482600000.0 -0.0528204339 0.603315355
1492550000.0 0.02270158 0.6035041985
1502500000.0 0.0972770887 0.595456344
1512450000.0 0.16784358 0.5754472361
1522400000.0 0.2326770609 0.5401115278
1532350000.0 0.2902097776 0.4873037957
1542300000.0 0.3414804514 0.4182353857
1552250000.0 0.3856654642 0.3363720576
1562200000.0 0.4228778368 0.2503833887
1572150000.0 0.454555411 0.1651260138
1582100000.0 0.4791302291 0.0771358045
1592050000.0 0.4872144213 -0.0125593093
1602000000.0 0.4727513298 -0.1010452028
1611950000.0 0.4354718291 -0.1845098054
1621900000.0 0.378354722 -0.2624242193
1631850000.0 0.3081519223 -0.3356554909
1641800000.0 0.230087772 -0.4013345847
1651750000.0 0.1486851149 -0.4563627517
1661700000.0 0.0660402411 -0.4964242557
1671650000.0 -0.015849615 -0.5168875818
1681600000.0 -0.0969429442 -0.5172736621
1691550000.0 -0.1762909553 -0.5000486088
1701500000.0 -0.2547348807 -0.4701786192
1711450000.0 -0.3308057456 -0.432232631
1721400000.0 -0.4027602192 -0.3905945463
1731350000.0 -0.4672913153 -0.3480188933
1741300000.0 -0.5206451039 -0.3019898601
1751250000.0 -0.561106184 -0.2503694536
1761200000.0 -0.5859199129 -0.1924826923
1771150000.0 -0.5962804675 -0.124683258
1781100000.0 -0.5717182496 -0.0390764488
1791050000.0 -0.5700550402 -0.0553392321
1801000000.0 -0.5996003896 0.0183085539
1810950000.0 -0.6075426974 0.0834951361
1820900000.0 -0.6102777313 0.1399717546
1830850000.0 -0.6054202866 0.188349228
1840800000.0 -0.5892169904 0.2311505526
1850750000.0 -0.5608857314 0.2689286588
1860700000.0 -0.5213882404 0.3024934095
1870650000.0 -0.4772771051 0.3340638293
1880600000.0 -0.4329182104 0.3629317689
1890550000.0 -0.3931505265 0.3893466537
1900500000.0 -0.3578102716 0.4096289253
1910450000.0 -0.3264839832 0.423632347
1920400000.0 -0.2954514683 0.4282261169
1930350000.0 -0.2608550606 0.4236698252
1940300000.0 -0.2211413683 0.409282962
1950250000.0 -0.1765040183 0.3864873684
1960200000.0 -0.130620418 0.358140348
1970150000.0 -0.0905245103 0.3247175482
1980100000.0 -0.0602587096 0.2871807472
1990050000.0 -0.04607032 0.2446842435
2000000000.0 -0.0502075818 0.1947336009
