!Created with skrf (http://scikit-rf.org).
# GHz S RI R 50.0 
!freq ReS11 ImS11
10000000.0 -0.7238086401 0.5518974989
19950000.0 -0.2658288507 0.8699165542
29900000.0 0.2955872825 0.8511546404
39850000.0 0.7499982964 0.4891018005
49800000.0 0.901873881 -0.0954717812
59750000.0 0.6557327329 -0.6715309296
69700000.0 0.0872816848 -0.9681673571
79650000.0 -0.5469566337 -0.8082578502
89600000.0 -0.9199143321 -0.2361966645
99550000.0 -0.8034076993 0.474343891
109500000.0 -0.1993116265 0.9261741033
119450000.0 0.5824189572 0.7883657078
129400000.0 1.006442143 0.070188002
139350000.0 0.7123453158 -0.721378504
149300000.0 -0.0740514063 -0.9722315492
159250000.0 -0.738972348 -0.5451047751
169200000.0 -0.8703110856 0.1896879845
179150000.0 -0.4753278936 0.7618543412
189100000.0 0.1589768356 0.8925229463
199050000.0 0.6901314555 0.5711506584
209000000.0 0.881098911 -0.0069268029
218950000.0 0.6751077336 -0.5513753262
228900000.0 0.1900765988 -0.8376590638
238850000.0 -0.3591637397 -0.763457061
248800000.0 -0.7283404251 -0.357140643
258750000.0 -0.8288530297 0.1715126447
268700000.0 -0.571438185 0.6572554349
278650000.0 -0.0848518479 0.8823644536
288600000.0 0.4283389712 0.7575158978
298550000.0 0.7589497854 0.3364018036
308500000.0 0.767518118 -0.2095826432
318450000.0 0.4385390649 -0.6482542117
328400000.0 -0.0905222755 -0.7767552232
338350000.0 -0.5622281806 -0.5236743542
348300000.0 -0.7225546278 -0.0283301848
358250000.0 -0.4987311526 0.4079054362
368200000.0 -0.0771883706 0.5364318326
378150000.0 0.2569425411 0.3495184486
388100000.0 0.3370043325 0.0370690217
398050000.0 0.1960581189 -0.178926021
408000000.0 -0.0047213105 -0.2040349632
417950000.0 -0.1175417146 -0.0935290056
427900000.0 -0.1028122634 0.0291840918
437850000.0 -0.014563286 0.0753346212
447800000.0 0.0641129641 0.0317573138
457750000.0 0.076902984 -0.0511334728
467700000.0 0.0294647967 -0.1135875874
477650000.0 -0.0430478968 -0.1184356524
487600000.0 -0.0941440798 -0.0656618566
497550000.0 -0.0913646365 0.0096934314
507500000.0 -0.0446902052 0.0694639558
517450000.0 0.0255508823 0.0812463361
527400000.0 0.0757899073 0.0485220473
537350000.0 0.0819838544 -0.0046889954
547300000.0 0.045295522 -0.0409739905
557250000.0 -0.007840363 -0.0403727439
567200000.0 -0.0451613421 -0.0037333405
577150000.0 -0.0429577594 0.043834065
587100000.0 -0.0031514659 0.0680281076
597050000.0 0.0464038792 0.0477585433
607000000.0 0.0691946513 -0.0095568667
616950000.0 0.0472788467 -0.0720987623
626900000.0 -0.0110845392 -0.1057437044
636850000.0 -0.0795222901 -0.0898629777
646800000.0 -0.121864789 -0.0283547616
656750000.0 -0.1149064169 0.0506889778
666700000.0 -0.060452058 0.1089193106
676650000.0 0.0201836447 0.1173115722
686600000.0 0.0899131595 0.0716570346
696550000.0 0.1140288411 -0.0200467568
706500000.0 0.0740130782 -0.1084548346
716450000.0 -0.0103166223 -0.1493629488
726400000.0 -0.0977729101 -0.1216403631
736350000.0 -0.1359333893 -0.0367499931
746300000.0 -0.0966661606 0.0557388924
756250000.0 0.0046569798 0.1014710433
766200000.0 0.1183818763 0.0669900908
776150000.0 0.1815234438 -0.0390126028
786100000.0 0.1523395945 -0.1615289504
796050000.0 0.036893987 -0.2305337699
806000000.0 -0.1077439736 -0.1969255972
815950000.0 -0.2053727144 -0.0613078134
825900000.0 -0.1942728847 0.1208886859
835850000.0 -0.0631575048 0.2609024988
845800000.0 0.132987233 0.284977163
855750000.0 0.3052304357 0.1733042816
865700000.0 0.371968248 -0.0312304888
875650000.0 0.2969652182 -0.2370292819
885600000.0 0.1022672789 -0.3558705408
895550000.0 -0.1419267254 -0.3217497892
905500000.0 -0.3201876324 -0.1267569075
915450000.0 -0.3367311714 0.1523318413
925400000.0 -0.1684631212 0.3826134324
935350000.0 0.1071794372 0.4457572608
945300000.0 0.3560657391 0.3014172934
955250000.0 0.4447836881 0.0050975721
965200000.0 0.2943373378 -0.2970256115
975150000.0 -0.0508124616 -0.4175239621
985100000.0 -0.4008873083 -0.236460749
995050000.0 -0.5071747928 0.1752961647
1005000000.0 -0.2451376314 0.5461432955
1014950000.0 0.236936407 0.5865273573
1024900000.0 0.6096426843 0.2145689811
1034850000.0 0.5701512291 -0.3572048998
1044800000.0 0.0781946267 -0.7172497976
1054750000.0 -0.5367337149 -0.5471681438
1064700000.0 -0.7905579181 0.0452150519
1074650000.0 -0.5461206804 0.608547819
1084600000.0 0.0353709874 0.807700946
1094550000.0 0.5491705282 0.5293532182
1104500000.0 0.7387896456 -0.0561010487
1114450000.0 0.4223550522 -0.6003833951
1124400000.0 -0.1745180023 -0.7124318852
1134350000.0 -0.618909693 -0.3489168784
1144300000.0 -0.649600924 0.1854949297
1154250000.0 -0.320147715 0.5589230302
1164200000.0 0.1498495991 0.5984335527
1174150000.0 0.5075693026 0.3155008898
1184100000.0 0.5747414732 -0.135358198
1194050000.0 0.3106007806 -0.4941797836
1204000000.0 -0.1048836499 -0.5678445582
1213950000.0 -0.4462057572 -0.3646573339
1223900000.0 -0.5851808443 -0.0157909153
1233850000.0 -0.5012355755 0.3333927488
1243800000.0 -0.2318596872 0.5661054895
1253750000.0 0.1296799143 0.5914756402
1263700000.0 0.4438033268 0.3853708513
1273650000.0 0.5705411836 0.0247192357
1283600000.0 0.4598588411 -0.3335903986
1293550000.0 0.1774728461 -0.5504256443
1303500000.0 -0.1560331698 -0.5711995354
1313450000.0 -0.4329809393 -0.4179576043
1323400000.0 -0.5908169435 -0.1489120577
1333350000.0 -0.5960577794 0.1693613066
1343300000.0 -0.4285228438 0.4534478995
1353250000.0 -0.1150867334 0.5965181704
1363200000.0 0.2378134965 0.5237967895
1373150000.0 0.4863660565 0.2544443323
1383100000.0 0.5391384923 -0.1014651454
1393050000.0 0.3980685277 -0.4138159045
1403000000.0 0.1322033354 -0.592409603
1412950000.0 -0.1662613624 -0.6016326833
1422900000.0 -0.4139900602 -0.453045546
1432850000.0 -0.5497673009 -0.1864845146
1442800000.0 -0.5229479332 0.1303434214
1452750000.0 -0.3154427979 0.3890930854
1462700000.0 0.006892469 0.481688007
1472650000.0 0.319068995 0.3712060656
1482600000.0 0.5028583118 0.1112184036
1492550000.0 0.5038804637 -0.1952108076
1502500000.0 0.3364765851 -0.4383341785
1512450000.0 0.0675303784 -0.5356942036
1522400000.0 -0.2029190529 -0.4526161679
1532350000.0 -0.3701444924 -0.21820858
1542300000.0 -0.3632246137 0.079636362
1552250000.0 -0.1779770471 0.3162172448
1562200000.0 0.1067446271 0.3881430309
1572150000.0 0.3643423393 0.2723249854
1582100000.0 0.4869894276 0.0306591065
1592050000.0 0.432282956 -0.2324289933
1602000000.0 0.2210011373 -0.4076586944
1611950000.0 -0.0657319242 -0.4174188903
1621900000.0 -0.3119910391 -0.2466311703
1631850000.0 -0.4122823744 0.0473940028
1641800000.0 -0.313649546 0.345599625
1651750000.0 -0.0536336446 0.5184917723
1661700000.0 0.255428982 0.4964645973
1671650000.0 0.4908794821 0.296540459
1681600000.0 0.5707358775 -0.0015922915
1691550000.0 0.4717560339 -0.2965136839
1701500000.0 0.2262915931 -0.4934197047
1711450000.0 -0.0922369687 -0.5250292532
1721400000.0 -0.3872003144 -0.3693199721
1731350000.0 -0.5544635346 -0.0661169603
1741300000.0 -0.5265356941 0.2792967177
1751250000.0 -0.3149746827 0.5410279922
1761200000.0 -0.0036728511 0.6366202062
1771150000.0 0.3017782759 0.5535105334
1781100000.0 0.518706258 0.3297787277
1791050000.0 0.5969236124 0.0269228218
1801000000.0 0.5165019413 -0.2799477539
1810950000.0 0.2923665027 -0.5091498567
1820900000.0 -0.0246030207 -0.5844405372
1830850000.0 -0.3397241021 -0.4641759691
1840800000.0 -0.5380459829 -0.1840199726
1850750000.0 -0.5533987469 0.1483618218
1860700000.0 -0.4034775393 0.4223864139
1870650000.0 -0.1545059889 0.5735853356
1880600000.0 0.118273825 0.5804488495
1890550000.0 0.3463024639 0.4542515149
1900500000.0 0.4777395374 0.2304353239
1910450000.0 0.4833775248 -0.0365086543
1920400000.0 0.3521550772 -0.2733477429
1930350000.0 0.1157813036 -0.3974504455
1940300000.0 -0.1386968334 -0.3691109097
1950250000.0 -0.3222936567 -0.2190716658
1960200000.0 -0.38945239 -0.0195287134
1970150000.0 -0.3480959785 0.1527449516
1980100000.0 -0.2601425643 0.2595982946
1990050000.0 -0.1470007977 0.306974689
2000000000.0 -0.054507641 0.2853408474
