!Created with skrf (http://scikit-rf.org).
# GHz S RI R 50.0 
!freq ReS11 ImS11
10000000.0 -0.9909470868 0.1646458745
19950000.0 -0.9357682863 0.3144262604
29900000.0 -0.8578925061 0.4576336125
39850000.0 -0.756669229 0.5981370071
49800000.0 -0.6337231888 0.7304574791
59750000.0 -0.4845535305 0.8478977445
69700000.0 -0.3027462742 0.9385385773
79650000.0 -0.0855586599 0.9842281298
89600000.0 0.1643614257 0.9678159768
99550000.0 0.4322195033 0.87099076
109500000.0 0.6938572652 0.6820935006
119450000.0 0.9072267435 0.3901580772
129400000.0 1.006741132 0.0034686554
139350000.0 0.9466838274 -0.388378125
149300000.0 0.7150035178 -0.7233444733
159250000.0 0.378812163 -0.9215809434
169200000.0 0.0230290369 -0.9800405692
179150000.0 -0.297344918 -0.9288443625
189100000.0 -0.5563059465 -0.8048434702
199050000.0 -0.7437296513 -0.6378745422
209000000.0 -0.8603058557 -0.4480475396
218950000.0 -0.9199897783 -0.2529496215
228900000.0 -0.9340409854 -0.0624840013
238850000.0 -0.9145628615 0.1226114413
248800000.0 -0.695194344 0.2411788293
258750000.0 -0.8175019244 0.4260896041
268700000.0 -0.7294048703 0.5699916827
278650000.0 -0.6152352545 0.6860494677
288600000.0 -0.4740062223 0.7721899819
298550000.0 -0.3106197815 0.8253644747
308500000.0 -0.1294997991 0.845361931
318450000.0 0.0619332355 0.8267395786
328400000.0 0.2530528755 0.7615427808
338350000.0 0.4205352934 0.642920091
348300000.0 0.5390788218 0.4726681463
358250000.0 0.5847236877 0.2686553916
368200000.0 0.5502246504 0.0645477935
378150000.0 0.4513953664 -0.1038502213
388100000.0 0.319009096 -0.2160418316
398050000.0 0.1828457134 -0.2679476205
408000000.0 0.0651889754 -0.2672653812
417950000.0 -0.0236280304 -0.2287571698
427900000.0 -0.0816995697 -0.1692330674
437850000.0 -0.1147644559 -0.1042291039
447800000.0 -0.1277544122 -0.044998757
457750000.0 -0.1253842966 0.0014451245
467700000.0 -0.1121637963 0.0306209052
477650000.0 -0.0908366444 0.0410336353
487600000.0 -0.0634890407 0.0334335734
497550000.0 -0.046469459 -0.0243928339
507500000.0 -0.0321622407 0.0209359168
517450000.0 -0.010123464 -0.0041662797
527400000.0 -0.004416418 -0.0259244864
537350000.0 -0.0105678739 -0.0448989816
547300000.0 -0.0256225915 -0.0647958336
557250000.0 -0.0521445329 -0.0774245976
567200000.0 -0.0798735625 0.0050813635
577150000.0 -0.1077701949 -0.0661254244
587100000.0 -0.1323097412 -0.0823614841
597050000.0 -0.1509527251 -0.0808417214
607000000.0 -0.163109681 -0.0664681191
616950000.0 -0.1713927938 -0.0421749339
626900000.0 -0.1759981073 -0.0108894322
636850000.0 -0.1777036059 0.0229575426
646800000.0 -0.1755904684 0.0548022269
656750000.0 -0.1685723653 0.0814423728
666700000.0 -0.1543116612 0.1009543513
676650000.0 -0.1303111415 0.1118225461
686600000.0 -0.0973116986 0.1146829708
696550000.0 -0.0575615777 0.1112497478
706500000.0 -0.0158080183 0.1016300818
716450000.0 0.0237029995 0.0861728469
726400000.0 0.0554260802 0.0627719944
736350000.0 0.0758224014 0.0301216771
746300000.0 0.082895893 -0.0126623896
756250000.0 0.0764515005 -0.0646181509
766200000.0 0.0577790024 -0.1218925035
776150000.0 0.0289246979 -0.1780093944
786100000.0 -0.0091632416 -0.2273463404
796050000.0 -0.0554474462 -0.2632151906
806000000.0 -0.1084475495 -0.281689321
815950000.0 -0.1683105183 -0.2807140299
825900000.0 -0.232472587 -0.262420599
835850000.0 -0.2983093368 -0.2303695522
845800000.0 -0.3604892366 -0.1883618855
855750000.0 -0.4146548079 -0.1386592506
865700000.0 -0.4544804647 -0.083068923
875650000.0 -0.4771765049 -0.0207730151
885600000.0 -0.479325052 0.0474333555
895550000.0 -0.4620398018 0.1217668412
905500000.0 -0.4274320886 0.2006640956
915450000.0 -0.3783129096 0.2808435757
925400000.0 -0.3140112428 0.3547675007
935350000.0 -0.2346515129 0.4163741576
945300000.0 -0.1376653688 0.4553523085
955250000.0 -0.0220336643 0.4627306562
965200000.0 0.1092533563 0.4273586203
975150000.0 0.2475014772 0.3421668799
985100000.0 0.3715556986 0.2020140663
995050000.0 0.4554331753 0.014069725
1005000000.0 0.466192007 -0.2183390387
1014950000.0 0.3609949941 -0.4569509648
1024900000.0 0.136794216 -0.6344748762
1034850000.0 -0.1624489098 -0.6973342571
1044800000.0 -0.4676342564 -0.6283400601
1054750000.0 -0.7140149237 -0.4437274399
1064700000.0 -0.8424622507 -0.1794597839
1074650000.0 -0.8593418453 0.0473881754
1084600000.0 -0.8134673441 0.3025046565
1094550000.0 -0.6652076992 0.5255003955
1104500000.0 -0.4510866083 0.6897736254
1114450000.0 -0.1935187269 0.7778065959
1124400000.0 0.0787153295 0.7681886802
1134350000.0 0.3212632002 0.6540373163
1144300000.0 0.4937814622 0.4555405003
1154250000.0 0.5772680628 0.2148816457
1164200000.0 0.5742509581 -0.0255789013
1174150000.0 0.5084664563 -0.2294881364
1184100000.0 0.4064554423 -0.3917006043
1194050000.0 0.2722820042 -0.5043281601
1204000000.0 0.125255205 -0.5617114201
1213950000.0 -0.0192009626 -0.5741411983
1223900000.0 -0.152067607 -0.5568942071
1233850000.0 -0.2697788549 -0.5231622709
1243800000.0 -0.371013514 -0.4800841834
1253750000.0 -0.4559721009 -0.4311824992
1263700000.0 -0.5220793246 -0.3763594765
1273650000.0 -0.5711049402 -0.3149666984
1283600000.0 -0.603287693 -0.247528535
1293550000.0 -0.623754912 -0.1755823861
1303500000.0 -0.6382413961 -0.1013487862
1313450000.0 -0.6487806179 -0.0290942722
1323400000.0 -0.658247912 0.0397408002
1333350000.0 -0.6649803929 0.1037317118
1343300000.0 -0.6651574212 0.1631764998
1353250000.0 -0.6556329211 0.2171546308
1363200000.0 -0.6338823228 0.267944461
1373150000.0 -0.5996521563 0.3166733917
1383100000.0 -0.557587832 0.3654045163
1393050000.0 -0.5120394477 0.4137735748
1403000000.0 -0.4658826142 0.4613147593
1412950000.0 -0.4206571065 0.505105541
1422900000.0 -0.3753596858 0.5425385141
1432850000.0 -0.3291969934 0.5695234558
1442800000.0 -0.2788436512 0.5860383895
1452750000.0 -0.2242843718 0.5938174574
1462700000.0 -0.163573826 0.5963156668
1472650000.0 -0.0953741714 0.5970273117
1482600000.0 -0.021771238 0.5963039318
1492550000.0 0.0536245357 0.5910729032
1502500000.0 0.1273765359 0.5773014974
1512450000.0 0.1961430152 0.5523603123
1522400000.0 0.2576208175 0.5125005125
1532350000.0 0.3114341891 0.4550681183
1542300000.0 0.357744206 0.3823547378
1552250000.0 0.3970247008 0.2973607906
1562200000.0 0.4310236368 0.2057487546
1572150000.0 0.4549865847 0.1115000003
1582100000.0 0.4646599157 0.0168821047
1592050000.0 0.4554501804 -0.075129417
1602000000.0 0.4238016833 -0.1622300586
1611950000.0 0.3707417053 -0.2412641265
1621900000.0 0.3004417062 -0.3125860201
1631850000.0 0.2190412735 -0.3758426871
1641800000.0 0.1323037734 -0.4300368406
1651750000.0 0.0444047636 -0.4715375127
1661700000.0 -0.0417539616 -0.4964873262
1671650000.0 -0.1242973398 -0.5018344012
1681600000.0 -0.2026067761 -0.4875752153
1691550000.0 -0.2766132273 -0.4584371009
1701500000.0 -0.3477400573 -0.4187841091
1711450000.0 -0.4153990856 -0.3732791878
1721400000.0 -0.4776295054 -0.325577459
1731350000.0 -0.5316665287 -0.2773066807
1741300000.0 -0.5707537159 -0.2274663712
1751250000.0 -0.5574041856 -0.1729163438
1761200000.0 -0.5727492499 -0.112120149
1771150000.0 -0.6147836097 -0.0402979631
1781100000.0 -0.6202971573 -0.0333105623
1791050000.0 -0.6195438157 -0.0019425474
1801000000.0 -0.6185615438 0.0715513938
1810950000.0 -0.6187838533 0.1332816329
1820900000.0 -0.6171709814 0.1858603386
1830850000.0 -0.6087957061 0.230981538
1840800000.0 -0.5906854293 0.2705174876
1850750000.0 -0.5610080237 0.3048491692
1860700000.0 -0.5210725401 0.3352698466
1870650000.0 -0.4771050546 0.3641803857
1880600000.0 -0.4334704929 0.3908701337
1890550000.0 -0.3946336764 0.4158008201
1900500000.0 -0.3612434862 0.4349946368
1910450000.0 -0.3313037441 0.4487415596
1920400000.0 -0.3019857795 0.4530804339
1930350000.0 -0.2702334682 0.4477163575
1940300000.0 -0.2347110443 0.4329267203
1950250000.0 -0.195282366 0.410971252
1960200000.0 -0.1546729824 0.3853790233
1970150000.0 -0.1197110332 0.3572928066
1980100000.0 -0.0938334949 0.3284666692
1990050000.0 -0.0804089661 0.2971736092
2000000000.0 -0.0830995967 0.2611181873
