!Created with skrf (http://scikit-rf.org).
# GHz S RI R 50.0 
!freq ReS11 ImS11
10000000.0 -0.9987405208 0.1661380455
19950000.0 -0.9421356761 0.3175940109
29900000.0 -0.8623495152 0.4619256326
39850000.0 -0.7593450111 0.6034586542
49800000.0 -0.6350636104 0.7365600741
59750000.0 -0.4847266104 0.8542647467
69700000.0 -0.3019012137 0.9447345831
79650000.0 -0.0841408441 0.989258195
89600000.0 0.1658737989 0.9712841857
99550000.0 0.4329545167 0.8730786136
109500000.0 0.6933288656 0.6836295602
119450000.0 0.9064873493 0.3928546309
129400000.0 1.010109896 0.0208148502
139350000.0 0.9498506888 -0.3837523625
149300000.0 0.7200253721 -0.7200977812
159250000.0 0.3838352788 -0.9213554071
169200000.0 0.0269168611 -0.982741562
179150000.0 -0.2964029661 -0.9341190673
189100000.0 -0.5584504996 -0.8110256484
199050000.0 -0.7485575029 -0.6430884294
209000000.0 -0.8663733063 -0.4514947154
218950000.0 -0.9261599595 -0.2551997493
228900000.0 -0.9401021214 -0.0631304618
238850000.0 -0.9201202525 0.1226274849
248800000.0 -0.7081142794 0.2436741454
258750000.0 -0.8240335219 0.4276161281
268700000.0 -0.7378376787 0.5710190717
278650000.0 -0.6265086242 0.6867358584
288600000.0 -0.4891198149 0.7727527779
298550000.0 -0.3300210283 0.8264672222
308500000.0 -0.1534897002 0.8490649522
318450000.0 0.0333629051 0.8358052588
328400000.0 0.2210813521 0.780273216
338350000.0 0.3894842131 0.6745710514
348300000.0 0.5151483126 0.5173371455
358250000.0 0.5730454895 0.3224022849
368200000.0 0.5534742143 0.1202033806
378150000.0 0.4680873227 -0.0536934531
388100000.0 0.3449439814 -0.1762063961
398050000.0 0.2123511132 -0.2396697883
408000000.0 0.0942335774 -0.2483525293
417950000.0 0.0022332218 -0.2171663122
427900000.0 -0.0607901271 -0.162822392
437850000.0 -0.0992545866 -0.0992321501
447800000.0 -0.1169000134 -0.0385544559
457750000.0 -0.118105726 0.0104990745
467700000.0 -0.1071203125 0.0431240185
477650000.0 -0.0863687237 0.0567408515
487600000.0 -0.0574292745 0.0533095328
497550000.0 -0.0190779789 0.0114892239
507500000.0 -0.0273273902 0.0393426448
517450000.0 0.0020859051 0.0188742502
527400000.0 0.0139745814 0.0003486092
537350000.0 0.0117950005 -0.0160407106
547300000.0 0.000346154 -0.0361435368
557250000.0 -0.0306484512 -0.0530431345
567200000.0 -0.0625270218 -0.0649941072
577150000.0 -0.0938066797 -0.0739040853
587100000.0 -0.1214851152 -0.0770305202
597050000.0 -0.142722077 -0.0717205678
607000000.0 -0.1574281508 -0.0557028526
616950000.0 -0.1671822886 -0.0297954286
626900000.0 -0.1736252662 0.0033090564
636850000.0 -0.1755896365 0.0390484992
646800000.0 -0.1729358897 0.0734981718
656750000.0 -0.1647773005 0.1007752811
666700000.0 -0.1493476935 0.1162912724
676650000.0 -0.1310732703 0.1281822049
686600000.0 -0.0995326404 0.1349099945
696550000.0 -0.0590756075 0.1355150994
706500000.0 -0.0151787038 0.1301886446
716450000.0 0.027766837 0.1190114173
726400000.0 0.0633308851 0.0993899566
736350000.0 0.0885726245 0.0700327004
746300000.0 0.1000663571 0.0289364451
756250000.0 0.1004166054 -0.0222261667
766200000.0 0.0883284265 -0.0811898594
776150000.0 0.0655241355 -0.1407991582
786100000.0 0.0331399706 -0.1959124165
796050000.0 -0.0090836981 -0.2387688598
806000000.0 -0.0600518534 -0.2648222326
815950000.0 -0.1201206195 -0.2711610942
825900000.0 -0.1865637263 -0.2588990284
835850000.0 -0.2561794125 -0.23050837
845800000.0 -0.3234012239 -0.1903128326
855750000.0 -0.382407469 -0.1420847686
865700000.0 -0.4282716799 -0.0894245837
875650000.0 -0.4572001101 -0.0296223198
885600000.0 -0.4653171626 0.0378180986
895550000.0 -0.4540011161 0.1127147975
905500000.0 -0.4252552732 0.1938356543
915450000.0 -0.3818967488 0.2768139941
925400000.0 -0.3242961488 0.3554809788
935350000.0 -0.2521031344 0.4236718101
945300000.0 -0.1635642506 0.4717629305
955250000.0 -0.0566747608 0.4920051835
965200000.0 0.0666370092 0.4765566934
975150000.0 0.2021129955 0.4212348615
985100000.0 0.3384302963 0.3200728048
995050000.0 0.4555081288 0.1674032161
1005000000.0 0.5229275455 -0.0355210081
1014950000.0 0.5030593162 -0.27099079
1024900000.0 0.3670419048 -0.5002808423
1034850000.0 0.1173299923 -0.6645672766
1044800000.0 -0.2026960826 -0.7118632142
1054750000.0 -0.5234104803 -0.6163442462
1064700000.0 -0.7586967251 -0.3814954119
1074650000.0 -0.8472634459 -0.1269255197
1084600000.0 -0.8561379407 0.1688477586
1094550000.0 -0.6873111598 0.4249151143
1104500000.0 -0.569820717 0.600741552
1114450000.0 -0.3244617831 0.7541589704
1124400000.0 -0.0505209788 0.7989756804
1134350000.0 0.2081246427 0.7370921151
1144300000.0 0.4139980964 0.5824687153
1154250000.0 0.5428802907 0.3711097846
1164200000.0 0.5922029372 0.1408406051
1174150000.0 0.57532732 -0.071430884
1184100000.0 0.5162577943 -0.2542026641
1194050000.0 0.4135772891 -0.4022223318
1204000000.0 0.2807875927 -0.4995343667
1213950000.0 0.1363427298 -0.5482643711
1223900000.0 -0.0055304149 -0.5604503076
1233850000.0 -0.137059432 -0.5483480732
1243800000.0 -0.2538850291 -0.5210464785
1253750000.0 -0.3548385711 -0.4832627411
1263700000.0 -0.436945584 -0.4348989483
1273650000.0 -0.5011515267 -0.3769929455
1283600000.0 -0.54670368 -0.3095006315
1293550000.0 -0.5790402897 -0.2344448851
1303500000.0 -0.6028000541 -0.1554457671
1313450000.0 -0.6211463796 -0.0772659864
1323400000.0 -0.6367640191 -0.0018722644
1333350000.0 -0.6485309758 0.0685684289
1343300000.0 -0.6522026786 0.1345265205
1353250000.0 -0.6452233527 0.19447887
1363200000.0 -0.6246788112 0.2511605119
1373150000.0 -0.5901143123 0.305654778
1383100000.0 -0.5469113022 0.3593955745
1393050000.0 -0.4991757539 0.4123454358
1403000000.0 -0.4507141546 0.4636124277
1412950000.0 -0.4028195449 0.5104387955
1422900000.0 -0.3553172492 0.5493579166
1432850000.0 -0.3073983324 0.5762142174
1442800000.0 -0.257537783 0.5919553826
1452750000.0 -0.2052509906 0.5994069182
1462700000.0 -0.1475093818 0.6031364861
1472650000.0 -0.0810132745 0.6069464608
1482600000.0 -0.0075707687 0.6094158994
1492550000.0 0.0679373018 0.608130129
1502500000.0 0.1419586096 0.5995135688
1512450000.0 0.2116309978 0.5792020389
1522400000.0 0.2743132121 0.5450974018
1532350000.0 0.3299517919 0.4938875368
1542300000.0 0.3795653876 0.4277179728
1552250000.0 0.4242972184 0.3497975122
1562200000.0 0.465390166 0.2655191522
1572150000.0 0.4989639811 0.1797258885
1582100000.0 0.5216472267 0.0933141765
1592050000.0 0.529095674 0.0072718312
1602000000.0 0.5162931112 -0.0782297122
1611950000.0 0.4830509602 -0.1599603101
1621900000.0 0.43259938 -0.2386375644
1631850000.0 0.3693453232 -0.3135642563
1641800000.0 0.2990030318 -0.3837155224
1651750000.0 0.2247536147 -0.4451503433
1661700000.0 0.1476548556 -0.4930740616
1671650000.0 0.0693502865 -0.52310493
1681600000.0 -0.0108655516 -0.5330771844
1691550000.0 -0.0920537706 -0.5255324714
1701500000.0 -0.1744504697 -0.503812761
1711450000.0 -0.2556119647 -0.4728125285
1721400000.0 -0.3330243294 -0.4370999377
1731350000.0 -0.4036908523 -0.3989306252
1741300000.0 -0.4634129752 -0.3561996485
1751250000.0 -0.5089965877 -0.3063721268
1761200000.0 -0.5373014122 -0.2469365727
1771150000.0 -0.5425341611 -0.1765626048
1781100000.0 -0.5127828809 -0.1237947783
1791050000.0 -0.5402630641 -0.1161748851
1801000000.0 -0.5733151817 -0.0465103032
1810950000.0 -0.5907036522 0.0221622886
1820900000.0 -0.5990401737 0.083024622
1830850000.0 -0.5988900863 0.1362710869
1840800000.0 -0.5858692381 0.1837833007
1850750000.0 -0.5596837855 0.2267655597
1860700000.0 -0.5211744971 0.2656773874
1870650000.0 -0.4766899965 0.3030879524
1880600000.0 -0.4313640911 0.3374244213
1890550000.0 -0.390052182 0.3692287988
1900500000.0 -0.3536165466 0.3941950982
1910450000.0 -0.3212787709 0.4127206305
1920400000.0 -0.2888989567 0.4210095389
1930350000.0 -0.2536215793 0.4193250479
1940300000.0 -0.2128840916 0.4077560065
1950250000.0 -0.1671574298 0.3882293255
1960200000.0 -0.1193968458 0.3649884663
1970150000.0 -0.0764716886 0.33827539
1980100000.0 -0.0425684342 0.3096993503
1990050000.0 -0.0213224164 0.2765753969
2000000000.0 -0.0162963476 0.2363734739
