!Created with skrf (http://scikit-rf.org).
# GHz S RI R 50.0 
!freq ReS11 ImS11
10000000.0 -0.8240876473 0.6107319707
19950000.0 -0.3047801003 0.9523137216
29900000.0 0.3107444648 0.930260055
39850000.0 0.8049968319 0.5547001003
49800000.0 0.9901929172 -0.0509344875
59750000.0 0.7666923138 -0.6642009636
69700000.0 0.1885734901 -1.012747262
79650000.0 -0.4990804106 -0.8952320062
89600000.0 -0.9435690977 -0.3303600321
99550000.0 -0.8817394656 0.4076750419
109500000.0 -0.302600072 0.9119391
119450000.0 0.4980365479 0.8417112417
129400000.0 0.9931019554 0.1617137706
139350000.0 0.7658831095 -0.6650753664
149300000.0 -0.025385253 -0.9888674191
159250000.0 -0.7471974696 -0.5942366347
169200000.0 -0.9260780384 0.1672591808
179150000.0 -0.5265804814 0.7968847605
189100000.0 0.1693337471 0.9661610952
199050000.0 0.7717818285 0.6289643697
209000000.0 0.9871934265 -0.0035129776
218950000.0 0.7526025841 -0.5981880404
228900000.0 0.2157474312 -0.9095539302
238850000.0 -0.3864268571 -0.8368158616
248800000.0 -0.7800067896 -0.4296093114
258750000.0 -0.9354880622 0.147498361
268700000.0 -0.6811983467 0.6830929445
278650000.0 -0.1547957677 0.9527356798
288600000.0 0.4238267179 0.8430447846
298550000.0 0.8103984973 0.4051789109
308500000.0 0.8481884767 -0.1734145377
318450000.0 0.5242613431 -0.6469267084
328400000.0 -0.017388408 -0.8092229424
338350000.0 -0.5218034627 -0.5849328926
348300000.0 -0.7286569095 -0.0993801676
358250000.0 -0.5475819808 0.3544882823
368200000.0 -0.1408107645 0.5188566408
378150000.0 0.2031382379 0.3613733632
388100000.0 0.3001788901 0.0611255792
398050000.0 0.170816778 -0.1554476663
408000000.0 -0.0230431765 -0.1813212261
417950000.0 -0.1282366854 -0.0699439892
427900000.0 -0.0993386755 0.0567239686
437850000.0 0.0098914258 0.1024044399
447800000.0 0.1086626241 0.0496782443
457750000.0 0.1363991462 -0.0530787652
467700000.0 0.081937413 -0.1402285572
477650000.0 -0.0138610344 -0.1627027155
487600000.0 -0.0961662059 -0.1149633113
497550000.0 -0.1222699474 -0.0325128702
507500000.0 -0.0976875716 0.0479607244
517450000.0 -0.0348713838 0.0840077268
527400000.0 0.0240468953 0.0729702003
537350000.0 0.0495515848 0.0348223362
547300000.0 0.0396584515 0.0023300567
557250000.0 0.0106269654 -0.0034147922
567200000.0 -0.0067512267 0.019272504
577150000.0 0.0064195342 0.048154442
587100000.0 0.0453599872 0.054180796
597050000.0 0.0845665324 0.020650741
607000000.0 0.0926141236 -0.0435753008
616950000.0 0.0513450721 -0.109298311
626900000.0 -0.030780119 -0.1406244766
636850000.0 -0.121081838 -0.1127884684
646800000.0 -0.1782225277 -0.0324254917
656750000.0 -0.172804816 0.0702965068
666700000.0 -0.0992545445 0.1493940097
676650000.0 0.0126263645 0.165129873
686600000.0 0.113846796 0.1058266382
696550000.0 0.1595006288 -0.0026670668
706500000.0 0.1288563826 -0.1141536968
716450000.0 0.0378092427 -0.1798212381
726400000.0 -0.0693998165 -0.1672873542
736350000.0 -0.1358938989 -0.0858224791
746300000.0 -0.1248225196 0.0208946653
756250000.0 -0.0385191567 0.0933229543
766200000.0 0.0767380612 0.0861292517
776150000.0 0.157808695 0.0001343876
786100000.0 0.1540465176 -0.1203322999
796050000.0 0.0602729576 -0.2058419964
806000000.0 -0.0773119147 -0.1976995878
815950000.0 -0.1847568649 -0.0844094267
825900000.0 -0.1921589331 0.0895736171
835850000.0 -0.076197076 0.2417716379
845800000.0 0.1204898504 0.2888866728
855750000.0 0.3111713712 0.1954663802
865700000.0 0.4004440877 -0.0085695645
875650000.0 0.3320084138 -0.2339189723
885600000.0 0.1202604206 -0.3714237687
895550000.0 -0.1488727768 -0.3397524061
905500000.0 -0.3472139352 -0.1348071295
915450000.0 -0.3709023865 0.160994489
925400000.0 -0.1938322028 0.4066771555
935350000.0 0.1074664065 0.4737130806
945300000.0 0.3820835044 0.3132361209
955250000.0 0.4742814315 -0.0098778024
965200000.0 0.3019977523 -0.3286987112
975150000.0 -0.0768862373 -0.4390054241
985100000.0 -0.4450061751 -0.2183553402
995050000.0 -0.5256187543 0.236000467
1005000000.0 -0.2057032172 0.6141024239
1014950000.0 0.3295320436 0.6069039178
1024900000.0 0.6980435603 0.1524449451
1034850000.0 0.5750091485 -0.4781223135
1044800000.0 -0.0376843171 -0.8017571841
1054750000.0 -0.6900333487 -0.505426858
1064700000.0 -0.832197174 0.1592822016
1074650000.0 -0.5381441567 0.6698132817
1084600000.0 0.0722842849 0.8464675114
1094550000.0 0.6203852759 0.5314217673
1104500000.0 0.7845249173 -0.0763040039
1114450000.0 0.4618550808 -0.613714094
1124400000.0 -0.1308490801 -0.7371829776
1134350000.0 -0.5919681162 -0.4116825742
1144300000.0 -0.678728978 0.0973421507
1154250000.0 -0.4188307771 0.4970299143
1164200000.0 0.0147632909 0.6179029234
1174150000.0 0.4124107136 0.4328609135
1184100000.0 0.5872996674 0.026358692
1194050000.0 0.4339104229 -0.3869962141
1204000000.0 0.0517082919 -0.5772633138
1213950000.0 -0.3388394856 -0.4736627371
1223900000.0 -0.5686312618 -0.1664532346
1233850000.0 -0.5701407632 0.2014703558
1243800000.0 -0.3583770679 0.4986300867
1253750000.0 -0.0080229571 0.6167411191
1263700000.0 0.3523235201 0.4970436165
1273650000.0 0.5696995694 0.176817258
1283600000.0 0.5489113695 -0.2092822811
1293550000.0 0.3128734294 -0.5028718714
1303500000.0 -0.0323997754 -0.609888475
1313450000.0 -0.3687027051 -0.5191379582
1323400000.0 -0.6017122129 -0.2708025886
1333350000.0 -0.6671311704 0.0643684454
1343300000.0 -0.5358545264 0.3904998091
1353250000.0 -0.2333961978 0.5927726567
1363200000.0 0.143693951 0.5849266021
1373150000.0 0.4499470092 0.3609835795
1383100000.0 0.576273391 0.0099238823
1393050000.0 0.4954301088 -0.3381868986
1403000000.0 0.2541305633 -0.5790249421
1412950000.0 -0.0666253531 -0.6543840136
1422900000.0 -0.3743847023 -0.5477577971
1432850000.0 -0.5759739683 -0.28807197
1442800000.0 -0.5981124616 0.0507339531
1452750000.0 -0.4177121745 0.3500807953
1462700000.0 -0.0957743043 0.4960074367
1472650000.0 0.247336607 0.4356142156
1482600000.0 0.4870000801 0.2029583942
1492550000.0 0.5526982568 -0.1063576079
1502500000.0 0.4383456319 -0.3859310402
1512450000.0 0.1909820995 -0.5447246947
1522400000.0 -0.1027536507 -0.5280431691
1532350000.0 -0.3350180122 -0.3370765172
1542300000.0 -0.4101905617 -0.0368583092
1552250000.0 -0.2884576128 0.2505437976
1562200000.0 -0.022322651 0.4032186881
1572150000.0 0.2688282295 0.3629381164
1582100000.0 0.4657145496 0.162860458
1592050000.0 0.4954570992 -0.1087924342
1602000000.0 0.3526087999 -0.3426422907
1611950000.0 0.0877735896 -0.4458981562
1621900000.0 -0.2001913026 -0.3668110221
1631850000.0 -0.3917622367 -0.1220773649
1641800000.0 -0.396970402 0.1977768705
1651750000.0 -0.2074125933 0.4549535833
1661700000.0 0.0948065951 0.5439363577
1671650000.0 0.3853602935 0.4370915031
1681600000.0 0.5599566075 0.1842032254
1691550000.0 0.565110075 -0.1281997925
1701500000.0 0.3941049965 -0.4013095366
1711450000.0 0.0901258147 -0.5451575316
1721400000.0 -0.2590679812 -0.4933751767
1731350000.0 -0.5242796057 -0.2461288315
1741300000.0 -0.598724835 0.1101660919
1751250000.0 -0.4576265815 0.4383114733
1761200000.0 -0.1691005179 0.6255963759
1771150000.0 0.1627073419 0.6312934407
1781100000.0 0.4448424592 0.4724736589
1791050000.0 0.6120278745 0.1956539678
1801000000.0 0.61916546 -0.1347654599
1810950000.0 0.4489756783 -0.4334247318
1820900000.0 0.1325773875 -0.5993975127
1830850000.0 -0.2299313753 -0.5585615803
1840800000.0 -0.5030139074 -0.3224286447
1850750000.0 -0.5961580392 0.0106125633
1860700000.0 -0.5056561911 0.3222365608
1870650000.0 -0.2866349131 0.5326504869
1880600000.0 -0.0081958052 0.6062148129
1890550000.0 0.2632019061 0.5372882747
1900500000.0 0.4622145073 0.3403936875
1910450000.0 0.5280275881 0.0643018047
1920400000.0 0.4295054386 -0.204262395
1930350000.0 0.2005603657 -0.368136203
1940300000.0 -0.0649894126 -0.3763406904
1950250000.0 -0.2722396314 -0.2531807698
1960200000.0 -0.3714850721 -0.0678847955
1970150000.0 -0.3630933401 0.1116074257
1980100000.0 -0.2763431383 0.2344583518
1990050000.0 -0.1584821926 0.2744593522
2000000000.0 -0.0668567316 0.228797987
