!Created with skrf (http://scikit-rf.org).
# GHz S RI R 50.0 
!freq ReS11 ImS11
10000000.0 -0.8177549645 0.6082424476
19950000.0 -0.2998546143 0.9511428694
29900000.0 0.3166963024 0.9289810933
39850000.0 0.8101579881 0.5501200691
49800000.0 0.9894918845 -0.0575633822
59750000.0 0.7597537475 -0.6658583515
69700000.0 0.1844619681 -1.00613939
79650000.0 -0.4923220589 -0.8910462849
89600000.0 -0.9353990094 -0.3443769971
99550000.0 -0.8970101214 0.3772469387
109500000.0 -0.3580213757 0.8945918055
119450000.0 0.4215588646 0.8806768541
129400000.0 0.9566560718 0.2832784852
139350000.0 0.8446326474 -0.5533909271
149300000.0 0.1235218394 -0.9837577613
159250000.0 -0.6496546942 -0.7083572079
169200000.0 -0.9447342837 0.0259160097
179150000.0 -0.6269202465 0.7182227941
189100000.0 0.0630848141 0.9724539639
199050000.0 0.7125734028 0.6851181864
209000000.0 0.9812085027 0.0524301479
218950000.0 0.7719528593 -0.5712414826
228900000.0 0.2287746298 -0.9081709661
238850000.0 -0.3950714938 -0.8349730795
248800000.0 -0.7046787632 -0.4649527308
258750000.0 -0.9262281726 0.1745559843
268700000.0 -0.6359781563 0.7134458414
278650000.0 -0.0779256238 0.9496127015
288600000.0 0.4991060573 0.7846202753
298550000.0 0.8419094699 0.3012071647
308500000.0 0.8081593155 -0.2844826808
318450000.0 0.4174736149 -0.7140044165
328400000.0 -0.1507937991 -0.7906945224
338350000.0 -0.6156009102 -0.4771012702
348300000.0 -0.7297867283 0.0468353758
358250000.0 -0.4588674081 0.4670619783
368200000.0 -0.0150863455 0.556368223
378150000.0 0.3140217369 0.3290426256
388100000.0 0.3675904383 -0.0114474121
398050000.0 0.1899614916 -0.2388550912
408000000.0 -0.0457757699 -0.2545763588
417950000.0 -0.1814753506 -0.1171115194
427900000.0 -0.1682322937 0.0417972547
437850000.0 -0.0583509497 0.1228755196
447800000.0 0.0562628757 0.099646239
457750000.0 0.1097577577 0.0147583287
467700000.0 0.087271111 -0.0675573945
477650000.0 0.0225064222 -0.0987824137
487600000.0 -0.0288125959 -0.0696660469
497550000.0 -0.07820319 -0.0569157364
507500000.0 -0.049950722 0.0123627289
517450000.0 -0.0101596664 0.0255336726
527400000.0 0.0130464331 0.0073217956
537350000.0 0.00547273 -0.0169762799
547300000.0 -0.0281535227 -0.0217100032
557250000.0 -0.0565394651 0.0108352191
567200000.0 -0.0530997257 0.0629664684
577150000.0 -0.0082569392 0.1042746668
587100000.0 0.0617888677 0.1049398796
597050000.0 0.1234182801 0.0517304838
607000000.0 0.1394376859 -0.0372835249
616950000.0 0.0925723272 -0.1257975758
626900000.0 -0.0021821567 -0.1700376173
636850000.0 -0.1089887093 -0.1484836866
646800000.0 -0.1816849071 -0.0656460268
656750000.0 -0.1864534774 0.0446547725
666700000.0 -0.1196603338 0.1337849368
676650000.0 -0.0110682048 0.1600788315
686600000.0 0.0905700046 0.1133527846
696550000.0 0.1388722969 0.0133902459
706500000.0 0.1150969638 -0.0900075005
716450000.0 0.0333546555 -0.145726409
726400000.0 -0.0592016532 -0.1306106364
736350000.0 -0.1086778415 -0.0533383071
746300000.0 -0.0847380705 0.0390254621
756250000.0 0.0042968721 0.0883273016
766200000.0 0.1091786921 0.0592904277
776150000.0 0.1679233277 -0.0414359914
786100000.0 0.1370942924 -0.1627535025
796050000.0 0.0197611688 -0.2332780517
806000000.0 -0.1310389318 -0.200205415
815950000.0 -0.2340271506 -0.0591334641
825900000.0 -0.2214277867 0.1339112925
835850000.0 -0.0806701388 0.2886976394
845800000.0 0.1377578475 0.3250507477
855750000.0 0.3383090918 0.2132544553
865700000.0 0.4291004472 -0.0085948303
875650000.0 0.3550539143 -0.2476735918
885600000.0 0.134808639 -0.395293927
895550000.0 -0.1402657225 -0.3693360228
905500000.0 -0.3474032158 -0.1713637096
915450000.0 -0.386817772 0.1190726482
925400000.0 -0.228064678 0.3708441174
935350000.0 0.0601887637 0.4564435653
945300000.0 0.334608499 0.3208643405
955250000.0 0.4397798054 0.016654918
965200000.0 0.2864410117 -0.2904391549
975150000.0 -0.073058998 -0.3949264528
985100000.0 -0.4184672084 -0.1710703431
995050000.0 -0.4608438718 0.2757011587
1005000000.0 -0.1044040993 0.6105226739
1014950000.0 0.4235771771 0.5265114738
1024900000.0 0.7143841835 0.0159268732
1034850000.0 0.4852229314 -0.5838681549
1044800000.0 -0.1662706444 -0.7961040253
1054750000.0 -0.7394513261 -0.4070579115
1064700000.0 -0.8335689987 0.1936809159
1074650000.0 -0.4940073802 0.7178676719
1084600000.0 0.1084134268 0.8442121821
1094550000.0 0.6265951688 0.525695885
1104500000.0 0.7813517949 -0.0645856616
1114450000.0 0.4693528553 -0.5894276605
1124400000.0 -0.1101911338 -0.7149444416
1134350000.0 -0.5627938733 -0.396021419
1144300000.0 -0.6389753734 0.1049020005
1154250000.0 -0.3669779271 0.4819142576
1164200000.0 0.0613672412 0.564121873
1174150000.0 0.4212526522 0.3392175054
1184100000.0 0.5193630804 -0.0720164954
1194050000.0 0.3010167841 -0.4255476069
1204000000.0 -0.0871420743 -0.5219660299
1213950000.0 -0.4218953764 -0.343920034
1223900000.0 -0.5633350006 -0.0104071786
1233850000.0 -0.4742268484 0.3317686406
1243800000.0 -0.1980999062 0.5536610937
1253750000.0 0.1643957227 0.5654483274
1263700000.0 0.4680363245 0.3493223714
1273650000.0 0.5796674902 -0.0125415007
1283600000.0 0.4538643516 -0.3671450474
1293550000.0 0.1563999222 -0.5795290442
1303500000.0 -0.1951191708 -0.5941862812
1313450000.0 -0.4927612138 -0.4247406474
1323400000.0 -0.6562471364 -0.126462937
1333350000.0 -0.6359914274 0.2190475821
1343300000.0 -0.4219181388 0.5080512705
1353250000.0 -0.0687184172 0.6313104145
1363200000.0 0.3013848943 0.5290862171
1373150000.0 0.5484555392 0.2350433411
1383100000.0 0.5912761777 -0.1352148996
1393050000.0 0.4371249565 -0.4564078091
1403000000.0 0.1510761109 -0.6414867994
1412950000.0 -0.1799306825 -0.6503322018
1422900000.0 -0.4641921036 -0.4852113162
1432850000.0 -0.6160175326 -0.1892529551
1442800000.0 -0.5815480346 0.1491022478
1452750000.0 -0.3628503502 0.4192662646
1462700000.0 -0.0281977591 0.5272345371
1472650000.0 0.3080919232 0.4351009748
1482600000.0 0.5310238703 0.1814039032
1492550000.0 0.5763548286 -0.1387946468
1502500000.0 0.4424121006 -0.4197249091
1512450000.0 0.1796671966 -0.5740555382
1522400000.0 -0.1254647156 -0.5515026543
1532350000.0 -0.3661879438 -0.3516440488
1542300000.0 -0.4460122489 -0.0423396336
1552250000.0 -0.3276042491 0.2556582937
1562200000.0 -0.0603045241 0.4206012114
1572150000.0 0.2388418379 0.3928983977
1582100000.0 0.4496050872 0.2002117854
1592050000.0 0.4975739624 -0.0705483378
1602000000.0 0.3716044429 -0.3122375325
1611950000.0 0.1195979977 -0.4303615308
1621900000.0 -0.1619541731 -0.3701346772
1631850000.0 -0.3561213965 -0.1446510362
1641800000.0 -0.3724165384 0.1579967472
1651750000.0 -0.1979426598 0.4073582386
1661700000.0 0.0883176041 0.4940776213
1671650000.0 0.3632395659 0.3899942688
1681600000.0 0.522903736 0.1451085472
1691550000.0 0.5125389852 -0.1516765136
1701500000.0 0.3309438325 -0.3987922465
1711450000.0 0.0287006116 -0.5038367649
1721400000.0 -0.2912778431 -0.4048828138
1731350000.0 -0.4584583807 -0.1376200312
1741300000.0 -0.5223953167 0.122336622
1751250000.0 -0.3862466615 0.4424180342
1761200000.0 -0.0904782591 0.6028618231
1771150000.0 0.2316975426 0.5730630312
1781100000.0 0.4843934074 0.3830974475
1791050000.0 0.6043266911 0.0901031202
1801000000.0 0.5544810338 -0.2306411298
1810950000.0 0.333401281 -0.4851014126
1820900000.0 -0.0024485494 -0.5783063817
1830850000.0 -0.3350947544 -0.4630564705
1840800000.0 -0.5401728235 -0.1858178595
1850750000.0 -0.5586630589 0.1420086459
1860700000.0 -0.4119832903 0.4125997884
1870650000.0 -0.1645193188 0.5637916416
1880600000.0 0.1124260804 0.5716714671
1890550000.0 0.3519333605 0.4420599656
1900500000.0 0.4892341089 0.2051236231
1910450000.0 0.4757872168 -0.0717240646
1920400000.0 0.3087474428 -0.293199368
1930350000.0 0.0543021005 -0.3779704166
1940300000.0 -0.1859865772 -0.312509698
1950250000.0 -0.3336382098 -0.1461569559
1960200000.0 -0.3654318699 0.0423620322
1970150000.0 -0.3023698766 0.1909899338
1980100000.0 -0.1890028237 0.2609637667
1990050000.0 -0.0835738643 0.2454046346
2000000000.0 -0.0385762696 0.1779877557
