!Created with skrf (http://scikit-rf.org).
# GHz S RI R 50.0 
!freq ReS11 ImS11
10000000.0 -0.7814009669 0.5863421813
19950000.0 -0.2885282668 0.9206206831
29900000.0 0.306207547 0.9016037589
39850000.0 0.7858945567 0.5303166696
49800000.0 0.9561854563 -0.0695839935
59750000.0 0.7193967179 -0.6682448472
69700000.0 0.1422603175 -0.9925716837
79650000.0 -0.5230739789 -0.8539640792
89600000.0 -0.9355745121 -0.2832731762
99550000.0 -0.8462721834 0.4454241911
109500000.0 -0.2508953454 0.9246456926
119450000.0 0.5463012153 0.8128209484
129400000.0 0.9987796427 0.1024730073
139350000.0 0.7208739632 -0.7063536232
149300000.0 -0.0766112617 -0.9786075305
159250000.0 -0.7645383435 -0.5530935107
169200000.0 -0.9055571545 0.2022219534
179150000.0 -0.4911958782 0.8000978273
189100000.0 0.1859188859 0.9372312227
199050000.0 0.7535706079 0.592176248
209000000.0 0.947875929 -0.0234990906
218950000.0 0.716096493 -0.5958285762
228900000.0 0.1955639721 -0.8921469482
238850000.0 -0.3868506996 -0.8134417572
248800000.0 -0.7574016579 -0.3987131935
258750000.0 -0.8994650911 0.1589317677
268700000.0 -0.639631815 0.6763079351
278650000.0 -0.1252651205 0.9281529614
288600000.0 0.4298073147 0.8113128024
298550000.0 0.7960047451 0.379760313
308500000.0 0.8244673435 -0.1868815222
318450000.0 0.4998249964 -0.6494146266
328400000.0 -0.0384199723 -0.8003850034
338350000.0 -0.5318959259 -0.5643692679
348300000.0 -0.7205043049 -0.0741073991
358250000.0 -0.5227903281 0.372187297
368200000.0 -0.1108427591 0.5199801016
378150000.0 0.2241965518 0.3496693094
388100000.0 0.3066394646 0.047240592
398050000.0 0.1691956138 -0.1606421252
408000000.0 -0.0261280802 -0.1745492299
417950000.0 -0.1244118401 -0.0571723683
427900000.0 -0.0897363403 0.0646789192
437850000.0 0.0153899034 0.1026163711
447800000.0 0.1074367894 0.0452894678
457750000.0 0.1266736611 -0.057810261
467700000.0 0.0673388661 -0.1403892222
477650000.0 -0.0278032444 -0.1582110528
487600000.0 -0.1050437357 -0.1048678334
497550000.0 -0.1299606763 -0.0205608796
507500000.0 -0.094530219 0.0569010203
517450000.0 -0.0248341417 0.0899003847
527400000.0 0.0352324458 0.0747761207
537350000.0 0.0593549964 0.0354181145
547300000.0 0.0454474068 0.000696721
557250000.0 0.0132568292 -0.0066747106
567200000.0 -0.0074850591 0.012804214
577150000.0 0.0018696392 0.0401890803
587100000.0 0.03825839 0.0443200065
597050000.0 0.0738138613 0.0114134173
607000000.0 0.07830967 -0.0500256095
616950000.0 0.037644559 -0.1102515264
626900000.0 -0.0399643379 -0.1330988564
636850000.0 -0.122479503 -0.1004648035
646800000.0 -0.1667968904 -0.0189593133
656750000.0 -0.1509070499 0.0788695638
666700000.0 -0.0753630729 0.1481157402
676650000.0 0.0309550058 0.1554003558
686600000.0 0.1212347129 0.0925386965
696550000.0 0.1544795181 -0.0184295966
706500000.0 0.1133315777 -0.1248409679
716450000.0 0.0168964648 -0.1785409113
726400000.0 -0.0858833374 -0.1555969636
736350000.0 -0.1438046048 -0.0672577208
746300000.0 -0.1210217749 0.0384545552
756250000.0 -0.0265658911 0.1028846175
766200000.0 0.088421016 0.0852269041
776150000.0 0.1639226644 -0.0091024023
786100000.0 0.149391767 -0.1286418502
796050000.0 0.0465241933 -0.2070082647
806000000.0 -0.0922167156 -0.1847863767
815950000.0 -0.1926599073 -0.0590187839
825900000.0 -0.1828018644 0.11650326
835850000.0 -0.0529556799 0.2557903242
845800000.0 0.1451744841 0.2784857206
855750000.0 0.3219207111 0.1626820689
865700000.0 0.3867268275 -0.0528976571
875650000.0 0.2919659139 -0.2712476444
885600000.0 0.0647616485 -0.383513021
895550000.0 -0.1974457472 -0.318654942
905500000.0 -0.3678319097 -0.087312518
915450000.0 -0.3505188676 0.2120163597
925400000.0 -0.1382641206 0.4330750097
935350000.0 0.1723093287 0.4567921492
945300000.0 0.4227661734 0.2520968634
955250000.0 0.4623411742 -0.0943397892
965200000.0 0.2263941635 -0.3916637162
975150000.0 -0.1886709107 -0.4269489981
985100000.0 -0.5161392235 -0.1071818811
995050000.0 -0.4710998842 0.3866967066
1005000000.0 -0.0174995572 0.6775435328
1014950000.0 0.5309050689 0.4739395434
1024900000.0 0.7192201285 -0.1326423553
1034850000.0 0.3352861981 -0.6816037559
1044800000.0 -0.3386669855 -0.7139363345
1054750000.0 -0.7922748445 -0.2313692163
1064700000.0 -0.735199615 0.4131078872
1074650000.0 -0.2335009637 0.7838834741
1084600000.0 0.2928853327 0.7405534286
1094550000.0 0.7122499075 0.3198684132
1104500000.0 0.7022589037 -0.2798029144
1114450000.0 0.2755158715 -0.6921934178
1124400000.0 -0.2925570348 -0.6729337695
1134350000.0 -0.6532022977 -0.2808183684
1144300000.0 -0.647413166 0.216260863
1154250000.0 -0.3339592157 0.5618389042
1164200000.0 0.1093904874 0.6182012758
1174150000.0 0.4777624225 0.3750617492
1184100000.0 0.5900992075 -0.0520140011
1194050000.0 0.385844339 -0.4366697089
1204000000.0 -0.0096586276 -0.5779775084
1213950000.0 -0.3811071105 -0.4359054273
1223900000.0 -0.5764210892 -0.1119557399
1233850000.0 -0.5430510143 0.2494903126
1243800000.0 -0.3067949198 0.5199698095
1253750000.0 0.0491302499 0.5971423315
1263700000.0 0.3882190571 0.4384016893
1273650000.0 0.5635019059 0.0990513139
1283600000.0 0.4988891535 -0.2732278438
1293550000.0 0.239626445 -0.5279993133
1303500000.0 -0.101266226 -0.5902640163
1313450000.0 -0.407923714 -0.4635438733
1323400000.0 -0.5995096045 -0.1980521956
1333350000.0 -0.6246660662 0.1335108287
1343300000.0 -0.4612769372 0.4356011811
1353250000.0 -0.1419031476 0.5962797585
1363200000.0 0.2245192713 0.537842704
1373150000.0 0.4920392924 0.2747656483
1383100000.0 0.5629380515 -0.0852803024
1393050000.0 0.4315029798 -0.4109286797
1403000000.0 0.1623914937 -0.6060385707
1412950000.0 -0.15337276 -0.6283435056
1422900000.0 -0.4286639047 -0.4793710073
1432850000.0 -0.5825315046 -0.1977857481
1442800000.0 -0.5575147064 0.1371032975
1452750000.0 -0.3416666451 0.4082832452
1462700000.0 -0.0062292022 0.5095862319
1472650000.0 0.3218869851 0.4032850184
1482600000.0 0.52490356 0.1410276187
1492550000.0 0.545185906 -0.1753920028
1502500000.0 0.3907245703 -0.4389703902
1512450000.0 0.121966248 -0.5662215899
1522400000.0 -0.1712903248 -0.5144212005
1532350000.0 -0.3824558442 -0.2953839534
1542300000.0 -0.4274568568 0.0159668813
1552250000.0 -0.2767959113 0.2971859018
1562200000.0 0.0046336765 0.4292871485
1572150000.0 0.2987742227 0.3689564865
1582100000.0 0.4866204227 0.1513527702
1592050000.0 0.502872997 -0.1276047705
1602000000.0 0.3472462197 -0.3599947952
1611950000.0 0.0758969629 -0.4560755346
1621900000.0 -0.2115532797 -0.3691760469
1631850000.0 -0.3977603125 -0.1192619492
1641800000.0 -0.3950335812 0.1985600976
1651750000.0 -0.2003320304 0.4476847316
1661700000.0 0.1012557769 0.5247865783
1671650000.0 0.383886805 0.4080161904
1681600000.0 0.5448105538 0.1515688139
1691550000.0 0.5335817052 -0.1535470104
1701500000.0 0.3531990896 -0.4066297871
1711450000.0 0.0545387928 -0.522946236
1721400000.0 -0.2721399784 -0.447712971
1731350000.0 -0.504531123 -0.1912065302
1741300000.0 -0.5474592869 0.1546922707
1751250000.0 -0.3859904743 0.4557222952
1761200000.0 -0.0915934269 0.6054175938
1771150000.0 0.2278423166 0.5687272414
1781100000.0 0.4704691559 0.3648196865
1791050000.0 0.5186822238 0.0695316183
1801000000.0 0.5462410885 -0.1559964523
1810950000.0 0.3660851945 -0.4434458466
1820900000.0 0.0486582269 -0.5669189348
1830850000.0 -0.2844206429 -0.4819064445
1840800000.0 -0.5075821499 -0.2235525547
1850750000.0 -0.5493817408 0.1007313035
1860700000.0 -0.4214842504 0.3785482226
1870650000.0 -0.1868188184 0.5412991708
1880600000.0 0.0816863939 0.5624805643
1890550000.0 0.3145535336 0.4479058782
1900500000.0 0.4522993659 0.2287189563
1910450000.0 0.4528765812 -0.0330522403
1920400000.0 0.3112891558 -0.2512334095
1930350000.0 0.0791521234 -0.3462701541
1940300000.0 -0.1485306092 -0.2974999617
1950250000.0 -0.2931156687 -0.1500322409
1960200000.0 -0.329145567 0.0249337784
1970150000.0 -0.2723943519 0.1615828584
1980100000.0 -0.1696910041 0.2193347171
1990050000.0 -0.0846405949 0.1915571612
2000000000.0 -0.0795900304 0.1183314755
