!Created with skrf (http://scikit-rf.org).
# GHz S RI R 50.0 
!freq ReS11 ImS11
10000000.0 -1.02839823 -0.0663882214
19950000.0 -1.010700254 -0.139735778
29900000.0 -0.9853820373 -0.207349879
39850000.0 -0.9605925589 -0.2693814088
49800000.0 -0.9384486854 -0.3294321523
59750000.0 -0.9187404055 -0.3910990218
69700000.0 -0.898169653 -0.4568246075
79650000.0 -0.8712002398 -0.5266129682
89600000.0 -0.833330089 -0.596417464
99550000.0 -0.7823095243 -0.6601051911
109500000.0 -0.7213929504 -0.7128756756
119450000.0 -0.6571615898 -0.755802557
129400000.0 -0.594331856 -0.7917267749
139350000.0 -0.5359386118 -0.82507739
149300000.0 -0.4798691095 -0.8583280005
159250000.0 -0.4238743948 -0.894166995
169200000.0 -0.3633407797 -0.9310478119
179150000.0 -0.2949800445 -0.9645047628
189100000.0 -0.2189214835 -0.9880990913
199050000.0 -0.1387321833 -0.9981276891
209000000.0 -0.0594987475 -0.9949777953
218950000.0 0.0158085198 -0.9840693598
228900000.0 0.0856507905 -0.9711813425
238850000.0 0.1514722502 -0.9589489563
248800000.0 0.2174711923 -0.9494690913
258750000.0 0.2857311199 -0.9396082726
268700000.0 0.3577639877 -0.9253513412
278650000.0 0.4309917063 -0.9014568202
288600000.0 0.5010308703 -0.8649190249
298550000.0 0.5636330015 -0.8164093289
308500000.0 0.6173214033 -0.7615692772
318450000.0 0.6641055915 -0.7057159422
328400000.0 0.7073474561 -0.652567046
338350000.0 0.7507368915 -0.6019298104
348300000.0 0.7955614464 -0.55090346
358250000.0 0.8419630465 -0.4964025501
368200000.0 0.8855911062 -0.4347872723
378150000.0 0.921074185 -0.3659420045
388100000.0 0.9439770908 -0.2909386567
398050000.0 0.9543345017 -0.2149487475
408000000.0 0.9560351536 -0.1419566013
417950000.0 0.95440958 -0.0731411877
427900000.0 0.9535222933 -0.0070066924
437850000.0 0.9546036318 0.0591479563
447800000.0 0.9556984264 0.1285987158
457750000.0 0.9531964024 0.2025888498
467700000.0 0.9407260843 0.2795991758
477650000.0 0.9163433505 0.3552906088
487600000.0 0.8793624254 0.4245408528
497550000.0 0.8342768918 0.4858361048
507500000.0 0.7876118053 0.5390417259
517450000.0 0.7425714764 0.58790919
527400000.0 0.7007400291 0.6366042279
537350000.0 0.6586313085 0.6875300376
547300000.0 0.6124887967 0.741465138
557250000.0 0.5588319804 0.7937450936
567200000.0 0.4951982503 0.8407973516
577150000.0 0.4238754159 0.8761247649
587100000.0 0.3490512868 0.8989930069
597050000.0 0.2761600495 0.9125307954
607000000.0 0.2079607165 0.9209145896
616950000.0 0.1443044295 0.9289090098
626900000.0 0.0819974947 0.9388593033
636850000.0 0.016457549 0.9503487668
646800000.0 -0.0551871133 0.9587266958
656750000.0 -0.1308922221 0.9590581727
666700000.0 -0.2089037696 0.9475064309
676650000.0 -0.2842207123 0.9227849691
686600000.0 -0.3537087629 0.8879118627
696550000.0 -0.4155060624 0.8491706119
706500000.0 -0.4708983966 0.8103954482
716450000.0 -0.5247354842 0.7761526731
726400000.0 -0.5795681464 0.742592192
736350000.0 -0.6367576161 0.7068778996
746300000.0 -0.6944246522 0.6638510366
756250000.0 -0.7486216708 0.6116243046
766200000.0 -0.7946987392 0.5491332421
776150000.0 -0.8293129937 0.4800092634
786100000.0 -0.8548075956 0.4092904841
796050000.0 -0.8741015052 0.341435663
806000000.0 -0.8921374938 0.2782809282
815950000.0 -0.9106224166 0.2163343873
825900000.0 -0.9319394039 0.1527795698
835850000.0 -0.9512413585 0.0852670782
845800000.0 -0.963777958 0.01266778
855750000.0 -0.9651006443 -0.062740047
865700000.0 -0.9533910471 -0.1380935208
875650000.0 -0.9311344105 -0.2092653213
885600000.0 -0.9024476686 -0.2752403558
895550000.0 -0.8730254797 -0.3369813753
905500000.0 -0.8455307012 -0.3972212032
915450000.0 -0.8193793257 -0.4589575285
925400000.0 -0.7911614343 -0.5243607522
935350000.0 -0.7566232228 -0.590091502
945300000.0 -0.7127927779 -0.6522206729
955250000.0 -0.6586905592 -0.7066264309
965200000.0 -0.5975394007 -0.7502787744
975150000.0 -0.5350078218 -0.7831700897
985100000.0 -0.4730964322 -0.8103856505
995050000.0 -0.4135596127 -0.8363178203
1005000000.0 -0.3554445088 -0.8639803895
1014950000.0 -0.2941902162 -0.8952208269
1024900000.0 -0.2276246068 -0.925959319
1034850000.0 -0.1536596125 -0.9516355957
1044800000.0 -0.0750769939 -0.9649015215
1054750000.0 0.0044589113 -0.9647007851
1064700000.0 0.0785385373 -0.952351796
1074650000.0 0.1461515675 -0.9324514433
1084600000.0 0.2078419049 -0.9114518746
1094550000.0 0.2672048455 -0.8929565513
1104500000.0 0.3279344479 -0.8768762186
1114450000.0 0.3937016956 -0.8612183713
1124400000.0 0.4641890535 -0.8392664494
1134350000.0 0.5356632308 -0.8073543326
1144300000.0 0.6017466066 -0.7614285945
1154250000.0 0.6589370307 -0.7053728982
1164200000.0 0.7044797913 -0.643624398
1174150000.0 0.7415935736 -0.5822861732
1184100000.0 0.7741129675 -0.5246127126
1194050000.0 0.8077904225 -0.4702304812
1204000000.0 0.8443118318 -0.4162653061
1213950000.0 0.8831704481 -0.35856087
1223900000.0 0.9191735597 -0.2945713732
1233850000.0 0.9465065756 -0.222462246
1243800000.0 0.9613568682 -0.1467268289
1253750000.0 0.9619921179 -0.0705767484
1263700000.0 0.953284561 0.0022350835
1273650000.0 0.9409732423 0.0707202836
1283600000.0 0.9289535474 0.1361013922
1293550000.0 0.9193713056 0.2017338896
1303500000.0 0.9106893303 0.2705027989
1313450000.0 0.8988343472 0.3434598491
1323400000.0 0.8791177038 0.4167944493
1333350000.0 0.846155084 0.4883811122
1343300000.0 0.8021397177 0.5514983358
1353250000.0 0.7509396247 0.6049249291
1363200000.0 0.6980960549 0.6494764247
1373150000.0 0.6457699346 0.6911399026
1383100000.0 0.5957228685 0.7328276859
1393050000.0 0.5453619492 0.7792466345
1403000000.0 0.4905208781 0.8268877748
1412950000.0 0.4286175249 0.8734367111
1422900000.0 0.3607759356 0.9123225924
1432850000.0 0.2859339331 0.9387382134
1442800000.0 0.2109169344 0.9516361333
1452750000.0 0.1393186818 0.9536068943
1462700000.0 0.0725628866 0.951602865
1472650000.0 0.0082107249 0.9498537301
1482600000.0 -0.0572492404 0.9515321953
1492550000.0 -0.1272089194 0.9530998642
1502500000.0 -0.2023863748 0.9517422527
1512450000.0 -0.2815174749 0.9423421827
1522400000.0 -0.3599376721 0.920226892
1532350000.0 -0.4325035964 0.884714365
1542300000.0 -0.495422183 0.8395824513
1552250000.0 -0.548697559 0.7909619748
1562200000.0 -0.5964690523 0.7447490622
1572150000.0 -0.6453776298 0.7021439276
1582100000.0 -0.6970937745 0.6600700282
1592050000.0 -0.7522411713 0.6151349237
1602000000.0 -0.8061805451 0.564931995
1611950000.0 -0.8553890918 0.5040130945
1621900000.0 -0.8944024446 0.4340792678
1631850000.0 -0.9181286511 0.3606499812
1641800000.0 -0.9307870129 0.2868019014
1651750000.0 -0.9376104837 0.2163344246
1661700000.0 -0.9439363427 0.1477630646
1671650000.0 -0.9531062044 0.0799089076
1681600000.0 -0.9653352448 0.0093192934
1691550000.0 -0.9762147062 -0.066531952
1701500000.0 -0.9803699414 -0.145365029
1711450000.0 -0.9724657112 -0.2265140018
1721400000.0 -0.948932965 -0.3014109824
1731350000.0 -0.9149621851 -0.3674884844
1741300000.0 -0.874484786 -0.4266758729
1751250000.0 -0.8332877699 -0.4799689214
1761200000.0 -0.7943436147 -0.5337214834
1771150000.0 -0.7571176889 -0.5908661266
1781100000.0 -0.7182649869 -0.6534979295
1791050000.0 -0.673208612 -0.7181419557
1801000000.0 -0.6195708572 -0.7807163755
1810950000.0 -0.5563372071 -0.8322994453
1820900000.0 -0.4881335571 -0.8694876839
1830850000.0 -0.419099611 -0.8920777669
1840800000.0 -0.3532386865 -0.9068665857
1850750000.0 -0.2905820267 -0.9189325122
1860700000.0 -0.2278545101 -0.934551253
1870650000.0 -0.1598642919 -0.9540754204
1880600000.0 -0.0855596045 -0.9750227391
1890550000.0 -0.0024999278 -0.9923386252
1900500000.0 0.0835738523 -0.9979020871
1910450000.0 0.1687813538 -0.9901820122
1920400000.0 0.2459919337 -0.9677251475
1930350000.0 0.3121329839 -0.9368472977
1940300000.0 0.3694281294 -0.9035660408
1950250000.0 0.4231967599 -0.872786923
1960200000.0 0.4804196643 -0.844105827
1970150000.0 0.5440194079 -0.8151295074
1980100000.0 0.6130552649 -0.7795555759
1990050000.0 0.6827098408 -0.73420231
2000000000.0 0.7462347649 -0.6792667483
