!Created with skrf (http://scikit-rf.org).
# GHz S RI R 50.0 
!freq ReS11 ImS11
10000000.0 -0.9996402721 0.1632408107
19950000.0 -0.9446456336 0.3121645157
29900000.0 -0.8673875694 0.4546680194
39850000.0 -0.7674814227 0.5948290642
49800000.0 -0.6466898482 0.7273421017
59750000.0 -0.5009641387 0.8457578548
69700000.0 -0.3231771991 0.9383250479
79650000.0 -0.1101697728 0.9875040643
89600000.0 0.1354269458 0.9767788088
99550000.0 0.40078451 0.8883955516
109500000.0 0.6638028956 0.711175916
119450000.0 0.8860325676 0.4331678469
129400000.0 1.007122238 0.0660454357
139350000.0 0.9671266921 -0.3373497439
149300000.0 0.754337323 -0.6858938307
159250000.0 0.4262692167 -0.9052279929
169200000.0 0.0674622106 -0.9828554461
179150000.0 -0.2623178975 -0.9458160436
189100000.0 -0.5325708531 -0.8300201636
199050000.0 -0.7310555569 -0.6663055464
209000000.0 -0.8564555968 -0.4760696264
218950000.0 -0.922577323 -0.2788716183
228900000.0 -0.941253052 -0.0852926054
238850000.0 -0.9254255595 0.1029761228
248800000.0 -0.7529919143 0.1489484264
258750000.0 -0.8350320643 0.4112882397
268700000.0 -0.7508607591 0.5573396535
278650000.0 -0.6407837529 0.6759309964
288600000.0 -0.5039710741 0.7649238912
298550000.0 -0.3444469281 0.8213520368
308500000.0 -0.1670698609 0.8466374652
318450000.0 0.0214361155 0.8359642669
328400000.0 0.2116210132 0.7824405379
338350000.0 0.3830094635 0.6778483224
348300000.0 0.5118124161 0.5203335808
358250000.0 0.5718586302 0.3244239253
368200000.0 0.5535715774 0.1208427391
378150000.0 0.4680649593 -0.0549038409
388100000.0 0.3439345223 -0.1792757461
398050000.0 0.2094844155 -0.2446055458
408000000.0 0.0897499519 -0.2544863992
417950000.0 -0.0034215958 -0.2227304405
427900000.0 -0.0667737491 -0.1670401528
437850000.0 -0.1047515973 -0.1025445101
447800000.0 -0.1218139351 -0.0418317354
457750000.0 -0.1227371548 0.0067693266
467700000.0 -0.1114503238 0.0391062813
477650000.0 -0.090227925 0.0526107382
487600000.0 -0.0603845345 0.0483176215
497550000.0 -0.0416496796 -0.0225698266
507500000.0 -0.0276325966 0.0348069637
517450000.0 -0.0005496461 0.014436861
527400000.0 0.0109997536 -0.0041480409
537350000.0 0.0091927628 -0.020537194
547300000.0 -0.0035255966 -0.0412890441
557250000.0 -0.0341465897 -0.0574178919
567200000.0 -0.0658355202 -0.0696812395
577150000.0 -0.0970792061 -0.0788040737
587100000.0 -0.1245909666 -0.0822272923
597050000.0 -0.1455022037 -0.0771595699
607000000.0 -0.160087247 -0.0615630318
616950000.0 -0.1697306066 -0.0363168802
626900000.0 -0.1754815514 -0.0038247761
636850000.0 -0.178281246 0.0311354371
646800000.0 -0.1767714807 0.0644749066
656750000.0 -0.1699215867 0.092740267
666700000.0 -0.1551357924 0.1135908241
676650000.0 -0.1303029247 0.1258675764
686600000.0 -0.0954479014 0.1302897948
696550000.0 -0.0538667849 0.1283574626
706500000.0 -0.0096900178 0.1195149302
716450000.0 0.0298557051 0.102673447
726400000.0 0.0580362536 0.0752543713
736350000.0 0.0748122534 0.0456018791
746300000.0 0.0845456296 0.0153180396
756250000.0 0.0865330003 -0.0295695804
766200000.0 0.0772614687 -0.0862323337
776150000.0 0.0571040759 -0.1457607512
786100000.0 0.0261490477 -0.2005549939
796050000.0 -0.0147825029 -0.2437195782
806000000.0 -0.0644297251 -0.2700682579
815950000.0 -0.1232924553 -0.276775519
825900000.0 -0.18895301 -0.2655925148
835850000.0 -0.2579666005 -0.2394836203
845800000.0 -0.3251543671 -0.2022218299
855750000.0 -0.3852775107 -0.1565109389
865700000.0 -0.432017942 -0.1029464561
875650000.0 -0.4613460581 -0.0421544253
885600000.0 -0.4701519023 0.0264564026
895550000.0 -0.4591593744 0.1026150734
905500000.0 -0.4299016406 0.1850797503
915450000.0 -0.386038118 0.2689453679
925400000.0 -0.3275619331 0.3485719228
935350000.0 -0.2536338647 0.4167465711
945300000.0 -0.1625764576 0.4644276624
955250000.0 -0.0523843458 0.4834468531
965200000.0 0.0747074048 0.464562567
975150000.0 0.2129736354 0.4031175717
985100000.0 0.3490872285 0.2928515851
995050000.0 0.4613930137 0.1315445838
1005000000.0 0.5181006753 -0.0761698684
1014950000.0 0.486760429 -0.3091587708
1024900000.0 0.3419560239 -0.5273605108
1034850000.0 0.0937741085 -0.6759972307
1044800000.0 -0.2134178914 -0.7129718249
1054750000.0 -0.5178691283 -0.6218237227
1064700000.0 -0.7317686152 -0.4086551858
1074650000.0 -0.8545081793 -0.1858583607
1084600000.0 -0.8726656617 0.1084894667
1094550000.0 -0.698833119 0.3801377307
1104500000.0 -0.6359955162 0.5112212388
1114450000.0 -0.4128669456 0.7113791092
1124400000.0 -0.1413272129 0.7966119365
1134350000.0 0.1313680956 0.7675466831
1144300000.0 0.3618867888 0.6312325824
1154250000.0 0.5167571698 0.4218555277
1164200000.0 0.5856119381 0.1871972203
1174150000.0 0.5902336165 -0.0375398641
1184100000.0 0.5352174917 -0.2402919268
1194050000.0 0.4307011172 -0.3991435326
1204000000.0 0.296392182 -0.5033593496
1213950000.0 0.1500456952 -0.5576458294
1223900000.0 0.0065057939 -0.5738685895
1233850000.0 -0.1265197637 -0.5650953826
1243800000.0 -0.2453974621 -0.5409914116
1253750000.0 -0.3472380937 -0.5064894951
1263700000.0 -0.4311489802 -0.4614930571
1273650000.0 -0.4971719379 -0.406806611
1283600000.0 -0.5454989441 -0.341833403
1293550000.0 -0.5802433642 -0.2688487002
1303500000.0 -0.6064893268 -0.1921457218
1313450000.0 -0.6277774483 -0.1155110087
1323400000.0 -0.6469581331 -0.0418833809
1333350000.0 -0.6621949943 0.0276361771
1343300000.0 -0.6699869034 0.0927853696
1353250000.0 -0.6669956597 0.1525482803
1363200000.0 -0.6501383689 0.2094478174
1373150000.0 -0.6195236657 0.2650783787
1383100000.0 -0.5798560914 0.3199590248
1393050000.0 -0.5351991189 0.3752734463
1403000000.0 -0.4894981118 0.4284895252
1412950000.0 -0.444198973 0.4782922795
1422900000.0 -0.3991432393 0.5200496094
1432850000.0 -0.3527621694 0.5502833807
1442800000.0 -0.3044619109 0.5690912424
1452750000.0 -0.2531549944 0.5797282597
1462700000.0 -0.1960929109 0.58706963
1472650000.0 -0.1294344055 0.594336372
1482600000.0 -0.0556871034 0.6006034417
1492550000.0 0.0210679123 0.6029064708
1502500000.0 0.0969485417 0.5971372921
1512450000.0 0.1693051392 0.5802473091
1522400000.0 0.234943341 0.5485786202
1532350000.0 0.2942858559 0.4986503811
1542300000.0 0.3475245377 0.4325203102
1552250000.0 0.395060795 0.3534169629
1562200000.0 0.4384935692 0.2680156751
1572150000.0 0.4740930918 0.1816393774
1582100000.0 0.4991005156 0.0938426168
1592050000.0 0.5077298575 0.0045722477
1602000000.0 0.495182478 -0.0838583465
1611950000.0 0.4613436129 -0.1678958629
1621900000.0 0.4093622997 -0.2479196088
1631850000.0 0.3450576964 -0.3240780549
1641800000.0 0.273348477 -0.3943202207
1651750000.0 0.197506668 -0.4555561133
1661700000.0 0.1193896924 -0.502897111
1671650000.0 0.0406767213 -0.5316165643
1681600000.0 -0.03912451 -0.5404454715
1691550000.0 -0.1189944239 -0.5316143991
1701500000.0 -0.1995997715 -0.5097900973
1711450000.0 -0.2786075297 -0.479649759
1721400000.0 -0.3539554497 -0.4456286883
1731350000.0 -0.4226651594 -0.410417659
1741300000.0 -0.4814871937 -0.371444791
1751250000.0 -0.52769182 -0.3272587414
1761200000.0 -0.5597597195 -0.2763838055
1771150000.0 -0.5787140227 -0.2191591787
1781100000.0 -0.5902649476 -0.1567098981
1791050000.0 -0.5985194246 -0.0931905967
1801000000.0 -0.606251798 -0.0307418364
1810950000.0 -0.614901307 0.0279111266
1820900000.0 -0.6211746675 0.0816662714
1830850000.0 -0.6206937931 0.1297954107
1840800000.0 -0.6092228881 0.173365961
1850750000.0 -0.5846853214 0.2136159389
1860700000.0 -0.5483010442 0.2508534815
1870650000.0 -0.5060679341 0.2874190391
1880600000.0 -0.4630493567 0.3211186228
1890550000.0 -0.4239077795 0.3525752372
1900500000.0 -0.3896887707 0.3790066044
1910450000.0 -0.3587910075 0.397354017
1920400000.0 -0.3285826903 0.4075104832
1930350000.0 -0.2947044739 0.4073623898
1940300000.0 -0.2543985101 0.3976480379
1950250000.0 -0.2083083338 0.3797309932
1960200000.0 -0.1599605704 0.3569954734
1970150000.0 -0.1164327942 0.3307155246
1980100000.0 -0.0816197316 0.3020695313
1990050000.0 -0.0603520741 0.2692174148
2000000000.0 -0.0542878631 0.2297183023
