!Created with skrf (http://scikit-rf.org).
# GHz S RI R 50.0 
!freq ReS11 ImS11
10000000.0 -0.89220496 0.4454827518
19950000.0 -0.6046613177 0.7836618315
29900000.0 -0.1984403469 0.965493284
39850000.0 0.2532755714 0.9518950565
49800000.0 0.6606054426 0.7329377695
59750000.0 0.9301626019 0.3393642328
69700000.0 0.9821872444 -0.1513824633
79650000.0 0.7785643884 -0.6208707265
89600000.0 0.3473730143 -0.9317395854
99550000.0 -0.2053740774 -0.9670561136
109500000.0 -0.7073455406 -0.6787355776
119450000.0 -0.9640363752 -0.1298572457
129400000.0 -0.8339340448 0.493265732
139350000.0 -0.3342009889 0.9107714724
149300000.0 0.3355577669 0.9135115092
159250000.0 0.8436360561 0.4886295246
169200000.0 0.9613614707 -0.138557339
179150000.0 0.6863432208 -0.6759286085
189100000.0 0.1820918896 -0.9363128056
199050000.0 -0.3503632885 -0.879438105
209000000.0 -0.7553453604 -0.5650768321
218950000.0 -0.9364083328 -0.1089844497
228900000.0 -0.8704149498 0.3668736765
238850000.0 -0.5821847856 0.7458007345
248800000.0 -0.039746753 0.8632854299
258750000.0 0.2608504666 0.9043392152
268700000.0 0.6518691787 0.6678028514
278650000.0 0.875890963 0.2831025361
288600000.0 0.8910862074 -0.1564140424
298550000.0 0.6972948491 -0.5479182542
308500000.0 0.338865284 -0.7964328655
318450000.0 -0.095723782 -0.8341372835
328400000.0 -0.4861030118 -0.6438548171
338350000.0 -0.7106653558 -0.2791153033
348300000.0 -0.6941172291 0.1349643967
358250000.0 -0.4561293903 0.4454819766
368200000.0 -0.1120438888 0.5468568845
378150000.0 0.1875928464 0.4365601694
388100000.0 0.3382793354 0.2039071714
398050000.0 0.3217038228 -0.0325684165
408000000.0 0.190417279 -0.1818865215
417950000.0 0.02808401 -0.2158721501
427900000.0 -0.0973814267 -0.1565255819
437850000.0 -0.1510939986 -0.05416632
447800000.0 -0.1361181815 0.0417605437
457750000.0 -0.0776208929 0.0986406843
467700000.0 -0.0106984782 0.1072177156
477650000.0 0.0370954877 0.0790731665
487600000.0 0.0503949886 0.0368591908
497550000.0 0.0095711284 0.0334841803
507500000.0 0.0488001302 -0.0168810465
517450000.0 0.0128631789 -0.0159315873
527400000.0 -0.0003385251 0.0034429867
537350000.0 0.0090962945 0.0238447781
547300000.0 0.0392188923 0.031679114
557250000.0 0.0724345329 0.0103676673
567200000.0 0.0911778421 -0.0320150429
577150000.0 0.0849636685 -0.0860794501
587100000.0 0.0489209606 -0.1367667711
597050000.0 -0.0126991094 -0.1668019835
607000000.0 -0.086439706 -0.1642497519
616950000.0 -0.1543261985 -0.1249707306
626900000.0 -0.1972401341 -0.0554180976
636850000.0 -0.2027503976 0.0295271797
646800000.0 -0.1667461208 0.1090854067
656750000.0 -0.0962668231 0.1637823216
666700000.0 -0.007459923 0.1795079673
676650000.0 0.0779543517 0.1519291057
686600000.0 0.1390083105 0.0886970674
696550000.0 0.1612717637 0.0070386543
706500000.0 0.1403006852 -0.0704068755
716450000.0 0.084837533 -0.1218983778
726400000.0 0.0128736924 -0.1327497359
736350000.0 -0.0495027724 -0.0999569753
746300000.0 -0.0805334594 -0.0349479008
756250000.0 -0.065164471 0.0396462845
766200000.0 -0.005238131 0.0946220068
776150000.0 0.0820985304 0.1062293338
786100000.0 0.1674910899 0.0636870091
796050000.0 0.2194557433 -0.0258540828
806000000.0 0.2152323134 -0.1379741702
815950000.0 0.1453305822 -0.2401166183
825900000.0 0.0223288215 -0.2972034953
835850000.0 -0.1253434527 -0.2840090421
845800000.0 -0.2580794001 -0.1934392989
855750000.0 -0.3361602809 -0.0400733998
865700000.0 -0.331153882 0.1407745214
875650000.0 -0.2369855621 0.3038038471
885600000.0 -0.0718453973 0.4038659905
895550000.0 0.1259559746 0.4114018491
905500000.0 0.3053583348 0.3181946397
915450000.0 0.4162096537 0.1417361529
925400000.0 0.4194398977 -0.075639609
935350000.0 0.2984814308 -0.2711591077
945300000.0 0.0735520449 -0.3724196864
955250000.0 -0.1883670912 -0.3170000013
965200000.0 -0.3759934178 -0.0917755888
975150000.0 -0.3717098213 0.2325425622
985100000.0 -0.1258298848 0.4960547692
995050000.0 0.2740724846 0.523448524
1005000000.0 0.6190719683 0.2424612543
1014950000.0 0.6885130273 -0.2404329667
1024900000.0 0.3985112671 -0.674595261
1034850000.0 -0.1243445486 -0.8172312955
1044800000.0 -0.6175814868 -0.5916736653
1054750000.0 -0.8573897087 -0.1221538478
1064700000.0 -0.7610603467 0.3533340262
1074650000.0 -0.4730043234 0.6681859817
1084600000.0 -0.095869578 0.8178488454
1094550000.0 0.3377220158 0.7322956183
1104500000.0 0.6435499421 0.4187292904
1114450000.0 0.7183839406 -0.0085858375
1124400000.0 0.5358624949 -0.3937850944
1134350000.0 0.1750739069 -0.5907674769
1144300000.0 -0.2093260313 -0.5392908959
1154250000.0 -0.469164929 -0.2925815036
1164200000.0 -0.5361463241 0.0272808954
1174150000.0 -0.4314069015 0.3092383756
1184100000.0 -0.2015522305 0.4885072062
1194050000.0 0.0843562169 0.5153480706
1204000000.0 0.3387218119 0.3879993318
1213950000.0 0.489434876 0.1477209768
1223900000.0 0.4973003474 -0.1343301386
1233850000.0 0.367089182 -0.3804471203
1243800000.0 0.1417780109 -0.5319866429
1253750000.0 -0.1197197372 -0.5645006015
1263700000.0 -0.3609508816 -0.4835657406
1273650000.0 -0.5410396636 -0.3153865546
1283600000.0 -0.6355687543 -0.0942494783
1293550000.0 -0.635046783 0.1448994996
1303500000.0 -0.5399469424 0.3657402271
1313450000.0 -0.3626839969 0.5348274058
1323400000.0 -0.1267278882 0.6224262655
1333350000.0 0.1312437471 0.6086290786
1343300000.0 0.367103271 0.4905039895
1353250000.0 0.5376872856 0.286524879
1363200000.0 0.613770858 0.0341369752
1373150000.0 0.5864811931 -0.2225252989
1383100000.0 0.4669074031 -0.4420480957
1393050000.0 0.2806752751 -0.594754067
1403000000.0 0.0584221077 -0.6652065276
1412950000.0 -0.1687379469 -0.6485726039
1422900000.0 -0.3711472038 -0.5500932196
1432850000.0 -0.5209452307 -0.3823017103
1442800000.0 -0.5973169276 -0.1688563108
1452750000.0 -0.5878945459 0.0609624449
1462700000.0 -0.4893933111 0.2763586452
1472650000.0 -0.3095847797 0.4411002066
1482600000.0 -0.0744504152 0.5204508559
1492550000.0 0.1707574069 0.4956995413
1502500000.0 0.3780168934 0.3737875792
1512450000.0 0.5100266516 0.183786702
1522400000.0 0.5489811508 -0.0343294249
1532350000.0 0.4942179256 -0.2403046336
1542300000.0 0.3607239595 -0.3992036939
1552250000.0 0.1731198146 -0.4840012056
1562200000.0 -0.0337423378 -0.4780884482
1572150000.0 -0.219443338 -0.3794030483
1582100000.0 -0.3430317667 -0.2039697601
1592050000.0 -0.3723826185 0.0108235941
1602000000.0 -0.3000442092 0.2145562262
1611950000.0 -0.1406489469 0.3577341896
1621900000.0 0.0618714254 0.407747135
1631850000.0 0.2593130963 0.3589937931
1641800000.0 0.4090933235 0.226363553
1651750000.0 0.4816153645 0.0409162846
1661700000.0 0.4630730366 -0.1596570823
1671650000.0 0.3547442614 -0.3358347713
1681600000.0 0.1736534169 -0.4490464178
1691550000.0 -0.0454107916 -0.4695676634
1701500000.0 -0.2461997923 -0.3882983166
1711450000.0 -0.3923425011 -0.2546950081
1721400000.0 -0.5030241097 -0.0568975961
1731350000.0 -0.5061258853 0.1849372263
1741300000.0 -0.4020124502 0.4000790591
1751250000.0 -0.2229173068 0.5477872227
1761200000.0 -0.0061876183 0.6104250112
1771150000.0 0.2129119557 0.5863622453
1781100000.0 0.4044087894 0.4838541332
1791050000.0 0.5447873998 0.3190386028
1801000000.0 0.6153651924 0.1121137972
1810950000.0 0.6041434298 -0.1102228387
1820900000.0 0.5077384514 -0.3164550635
1830850000.0 0.3353170248 -0.4729098288
1840800000.0 0.1135802533 -0.5504094143
1850750000.0 -0.1213016469 -0.5345652137
1860700000.0 -0.3269870742 -0.4291651518
1870650000.0 -0.4708757275 -0.2582418095
1880600000.0 -0.5360367563 -0.0558520262
1890550000.0 -0.5223792997 0.1440907635
1900500000.0 -0.4420589456 0.3137984126
1910450000.0 -0.313754735 0.4347661817
1920400000.0 -0.1596143537 0.496358918
1930350000.0 -0.0018761163 0.4951948326
1940300000.0 0.1358889982 0.4346088925
1950250000.0 0.232081826 0.328061638
1960200000.0 0.2707054514 0.1988377925
1970150000.0 0.2490950337 0.0775142686
1980100000.0 0.1822841766 -0.0062789432
1990050000.0 0.1011058424 -0.0352004041
2000000000.0 0.044121097 -0.0104244577
