!Created with skrf (http://scikit-rf.org).
# GHz S RI R 50.0 
!freq ReS11 ImS11
10000000.0 -1.001011193 0.1584544202
19950000.0 -0.9480278393 0.302726898
29900000.0 -0.8738858689 0.4418292177
39850000.0 -0.7779474348 0.5802445609
49800000.0 -0.6620346534 0.7127434969
59750000.0 -0.5204413838 0.8333484229
69700000.0 -0.345178313 0.9305023823
79650000.0 -0.1310772677 0.9853394573
89600000.0 0.1213078833 0.9788689072
99550000.0 0.3985830783 0.8893331682
109500000.0 0.675166346 0.7003376643
119450000.0 0.9036540002 0.3971434558
129400000.0 1.010578968 -0.0056960852
139350000.0 0.9324732686 -0.4250499225
149300000.0 0.6721272092 -0.7635967617
159250000.0 0.3129895802 -0.9461794954
169200000.0 -0.0502132559 -0.9809355284
179150000.0 -0.3635366133 -0.9101413027
189100000.0 -0.60768406 -0.7760118401
199050000.0 -0.7789840531 -0.6081568862
209000000.0 -0.8812084315 -0.425032076
218950000.0 -0.9317303446 -0.2419147389
228900000.0 -0.9424948777 -0.0664092062
238850000.0 -0.9265558147 0.1006533905
248800000.0 -0.8529493075 0.2517833835
258750000.0 -0.845271882 0.3970737806
268700000.0 -0.7764803358 0.5291274472
278650000.0 -0.6842505584 0.6411264592
288600000.0 -0.5672938739 0.7297225035
298550000.0 -0.4279086651 0.7924538194
308500000.0 -0.2696978591 0.8306120877
318450000.0 -0.0968281693 0.8401424553
328400000.0 0.0844999831 0.8138410159
338350000.0 0.2582672765 0.740119414
348300000.0 0.4020516424 0.6101781554
358250000.0 0.4860121895 0.4312416637
368200000.0 0.4931231112 0.2324877259
378150000.0 0.4284934439 0.0519379872
388100000.0 0.316719404 -0.0808460378
398050000.0 0.1895970288 -0.1519995195
408000000.0 0.0745210893 -0.1659727835
417950000.0 -0.0146900181 -0.136532655
427900000.0 -0.0738869339 -0.0823855734
437850000.0 -0.1074956555 -0.0199036588
447800000.0 -0.1217757128 0.0382842124
457750000.0 -0.1216365331 0.0846639942
467700000.0 -0.1095828407 0.1152754114
477650000.0 -0.0880724762 0.128702056
487600000.0 -0.0597888822 0.1273732633
497550000.0 -0.0315167464 0.1140552964
507500000.0 0.0020567685 0.1021927659
517450000.0 0.0272115111 0.082081924
527400000.0 0.0416736747 0.0618140403
537350000.0 0.0419434682 0.0414730539
547300000.0 0.0299633394 0.0210641865
557250000.0 0.0063144311 -0.0001788245
567200000.0 -0.023714224 -0.0197548505
577150000.0 -0.0553116697 -0.03520391
587100000.0 -0.0837014645 -0.0441724578
597050000.0 -0.1066489432 -0.0432422495
607000000.0 -0.1235160346 -0.0307865662
616950000.0 -0.1357652175 -0.0078698864
626900000.0 -0.1447223842 0.0232301255
636850000.0 -0.150468235 0.0577902162
646800000.0 -0.152542049 0.0909966618
656750000.0 -0.1489150608 0.1193445929
666700000.0 -0.1372655524 0.1404219299
676650000.0 -0.115084873 0.1534537554
686600000.0 -0.0829126251 0.1576536489
696550000.0 -0.045528237 0.1580992965
706500000.0 -0.0035717142 0.1544760128
716450000.0 0.0378436228 0.1459686373
726400000.0 0.0732493851 0.1294747397
736350000.0 0.099125951 0.1029272882
746300000.0 0.1122813087 0.0655125816
756250000.0 0.1138369477 0.0158005484
766200000.0 0.1038588717 -0.0411566361
776150000.0 0.0840190813 -0.1006231189
786100000.0 0.0539772134 -0.1560273495
796050000.0 0.013017142 -0.1998940277
806000000.0 -0.0391800278 -0.2262847005
815950000.0 -0.1041412785 -0.2296132801
825900000.0 -0.1766612431 -0.2051991121
835850000.0 -0.2286263142 -0.1495302677
845800000.0 -0.2605244693 -0.1175566349
855750000.0 -0.3168046598 -0.0928228108
865700000.0 -0.3671586382 -0.0483538212
875650000.0 -0.3971637308 0.0125077287
885600000.0 -0.4024641222 0.0839787553
895550000.0 -0.3835262616 0.1635549823
905500000.0 -0.3425723261 0.2474912095
915450000.0 -0.2834316211 0.3305195811
925400000.0 -0.206601915 0.4040842351
935350000.0 -0.1126293036 0.4596549997
945300000.0 -0.0019735719 0.4864203558
955250000.0 0.1238943428 0.4739784418
965200000.0 0.2591819965 0.4139824826
975150000.0 0.3926113421 0.3020960528
985100000.0 0.5042963741 0.1355635751
995050000.0 0.5654732319 -0.0805338042
1005000000.0 0.5390589664 -0.3267639439
1014950000.0 0.3961438263 -0.5595948329
1024900000.0 0.1410701232 -0.7190749992
1034850000.0 -0.1811615951 -0.7574572136
1044800000.0 -0.50159901 -0.6595644988
1054750000.0 -0.7540806133 -0.4424978858
1064700000.0 -0.8867356817 -0.1502652579
1074650000.0 -0.884470665 0.1552523809
1084600000.0 -0.739730255 0.4153061921
1094550000.0 -0.595709944 0.596523061
1104500000.0 -0.3562477849 0.7509644705
1114450000.0 -0.0898671824 0.8132266527
1124400000.0 0.1715894523 0.7834050058
1134350000.0 0.3935140154 0.6668747913
1144300000.0 0.5520803944 0.4838001124
1154250000.0 0.6355059076 0.2690605413
1164200000.0 0.6576538299 0.0580143298
1174150000.0 0.6366834664 -0.1419280896
1184100000.0 0.5702709611 -0.3176548353
1194050000.0 0.4692080978 -0.4548535611
1204000000.0 0.3445731549 -0.5478503396
1213950000.0 0.2081371835 -0.5990790512
1223900000.0 0.0709719441 -0.6185233296
1233850000.0 -0.0597620424 -0.6163517921
1243800000.0 -0.1789286689 -0.5998105008
1253750000.0 -0.2843619401 -0.5725922805
1263700000.0 -0.3737115019 -0.5336987493
1273650000.0 -0.4472159487 -0.4841394285
1283600000.0 -0.5033284473 -0.4223555604
1293550000.0 -0.5461626226 -0.3506920092
1303500000.0 -0.5805084623 -0.2731562805
1313450000.0 -0.6092316143 -0.1948849808
1323400000.0 -0.6352749486 -0.119256968
1333350000.0 -0.6569257023 -0.0473376682
1343300000.0 -0.6708941473 0.0207377419
1353250000.0 -0.673112176 0.0843288919
1363200000.0 -0.6616308316 0.1454531182
1373150000.0 -0.6345293009 0.2062887812
1383100000.0 -0.5973546046 0.2667656334
1393050000.0 -0.5544144969 0.3278049431
1403000000.0 -0.510616209 0.3877649581
1412950000.0 -0.466197463 0.4440273486
1422900000.0 -0.4207806153 0.4939380994
1432850000.0 -0.3722559993 0.5334084789
1442800000.0 -0.317357997 0.5618909071
1452750000.0 -0.2549909345 0.578630205
1462700000.0 -0.1835045879 0.5866781892
1472650000.0 -0.1046086495 0.5893376767
1482600000.0 -0.0220372417 0.5889599879
1492550000.0 0.0610120418 0.5836529634
1502500000.0 0.1419058116 0.570636511
1512450000.0 0.2170903139 0.5455150042
1522400000.0 0.2845205709 0.503668746
1532350000.0 0.3426442105 0.4435896124
1542300000.0 0.39251165 0.3671628558
1552250000.0 0.4352902127 0.2783580217
1562200000.0 0.4716534911 0.1829883276
1572150000.0 0.497884214 0.0853805122
1582100000.0 0.5097360762 -0.0113061842
1592050000.0 0.5040773186 -0.1038985328
1602000000.0 0.476212726 -0.191047521
1611950000.0 0.428312295 -0.2708722771
1621900000.0 0.363866198 -0.3445451666
1631850000.0 0.2893050125 -0.4125153871
1641800000.0 0.2089064489 -0.4739246364
1651750000.0 0.1260867927 -0.5253875559
1661700000.0 0.0433088106 -0.5626415283
1671650000.0 -0.0377733274 -0.5815611877
1681600000.0 -0.1175713984 -0.5798002925
1691550000.0 -0.1955024103 -0.5617449326
1701500000.0 -0.2719058341 -0.5313948692
1711450000.0 -0.3459948079 -0.495345811
1721400000.0 -0.4166252699 -0.456624932
1731350000.0 -0.4804820364 -0.4186000132
1741300000.0 -0.5349240747 -0.378408935
1751250000.0 -0.5763620552 -0.3332014329
1761200000.0 -0.6044991655 -0.2824147761
1771150000.0 -0.6199175601 -0.2254427616
1781100000.0 -0.6290129127 -0.1636090193
1791050000.0 -0.6355665583 -0.1010873331
1801000000.0 -0.6430714266 -0.0406956289
1810950000.0 -0.652979832 0.0163770492
1820900000.0 -0.6619812839 0.0693693367
1830850000.0 -0.6640752506 0.1166965759
1840800000.0 -0.6553731091 0.1605704181
1850750000.0 -0.6337963277 0.202008885
1860700000.0 -0.6000084057 0.2417440245
1870650000.0 -0.5597806861 0.2813128328
1880600000.0 -0.5184130236 0.3188165972
1890550000.0 -0.4802429787 0.3544441103
1900500000.0 -0.4472928705 0.3857810593
1910450000.0 -0.4172085483 0.409924886
1920400000.0 -0.3860283926 0.4241944069
1930350000.0 -0.3505286192 0.4281441106
1940300000.0 -0.3091559682 0.4221884668
1950250000.0 -0.2610557416 0.4082891398
1960200000.0 -0.2092632914 0.3901195063
1970150000.0 -0.1599870966 0.368528111
1980100000.0 -0.1171278603 0.3437081714
1990050000.0 -0.0855656028 0.3128730718
2000000000.0 -0.0668413627 0.2712271692
