!Created with skrf (http://scikit-rf.org).
# GHz S RI R 50.0 
!freq ReS11 ImS11
10000000.0 -0.8090546053 0.6059738576
19950000.0 -0.2925861754 0.9502143005
29900000.0 0.3243619682 0.9284491056
39850000.0 0.8168184525 0.5465247986
49800000.0 0.9895638984 -0.0647489524
59750000.0 0.7485962041 -0.6704568694
69700000.0 0.1646340565 -0.9990563254
79650000.0 -0.5110197005 -0.8676897554
89600000.0 -0.941340006 -0.307521661
99550000.0 -0.879314571 0.4166994764
109500000.0 -0.3141039995 0.9145564883
119450000.0 0.4698176283 0.8564688484
129400000.0 0.969744135 0.2130223135
139350000.0 0.7928179583 -0.6056215216
149300000.0 0.048691165 -0.9806471296
159250000.0 -0.6963961412 -0.6599038864
169200000.0 -0.9452354102 0.0807058256
179150000.0 -0.5952614976 0.7465041438
189100000.0 0.0967297339 0.9646147154
199050000.0 0.7257370163 0.6565750919
209000000.0 0.9729366194 0.0256969711
218950000.0 0.7552755041 -0.5868200248
228900000.0 0.2132245096 -0.9139238728
238850000.0 -0.4065419454 -0.8340465334
248800000.0 -0.7098483816 -0.4818823441
258750000.0 -0.9230063762 0.1693330371
268700000.0 -0.6315970026 0.7051157061
278650000.0 -0.0758290859 0.9397138129
288600000.0 0.4993496653 0.7770400815
298550000.0 0.8427231828 0.2959644867
308500000.0 0.8093745396 -0.2889267756
318450000.0 0.416116442 -0.7157642337
328400000.0 -0.1531395856 -0.7848876927
338350000.0 -0.6109162549 -0.4624278096
348300000.0 -0.712682835 0.0624038829
358250000.0 -0.4324939365 0.4727193718
368200000.0 0.0102821436 0.5475066695
378150000.0 0.3265515099 0.3101309458
388100000.0 0.3637241269 -0.0286270031
398050000.0 0.1745348949 -0.2450843309
408000000.0 -0.0632081726 -0.2471807337
417950000.0 -0.193433242 -0.1009609764
427900000.0 -0.1727522394 0.0613671212
437850000.0 -0.0579087363 0.1406457161
447800000.0 0.0600688667 0.1142822127
457750000.0 0.1147007081 0.025060095
467700000.0 0.0921782909 -0.0613743536
477650000.0 0.0271447006 -0.0970136014
487600000.0 -0.0235083999 -0.0714899539
497550000.0 -0.0819374447 -0.0690922311
507500000.0 -0.0602325331 -0.0001536387
517450000.0 -0.025575483 0.0151681423
527400000.0 -0.0049934311 0.0007848476
537350000.0 -0.0128458713 -0.0200590677
547300000.0 -0.0450305424 -0.0193815238
557250000.0 -0.0673169511 0.0166649453
567200000.0 -0.0561569633 0.0678488649
577150000.0 -0.0048564621 0.1057748426
587100000.0 0.0689054364 0.1006864269
597050000.0 0.1304053629 0.0433974571
607000000.0 0.1448198001 -0.0489829767
616950000.0 0.0966568071 -0.1373429111
626900000.0 0.0005148724 -0.1814410288
636850000.0 -0.10615224 -0.1581183665
646800000.0 -0.1772156213 -0.0736121878
656750000.0 -0.1815306589 0.0371826318
666700000.0 -0.1152848567 0.1263237249
676650000.0 -0.0085231156 0.1538881949
686600000.0 0.0899788461 0.1086116757
696550000.0 0.1357861788 0.0142478748
706500000.0 0.1104912075 -0.081196647
716450000.0 0.0323568373 -0.1305619036
726400000.0 -0.0531872354 -0.1099731275
736350000.0 -0.0939054376 -0.0333252426
746300000.0 -0.0622966323 0.0514873174
756250000.0 0.0284300333 0.0890546564
766200000.0 0.1269565762 0.046825175
776150000.0 0.1707303884 -0.0623426956
786100000.0 0.121477335 -0.1826368585
796050000.0 -0.0108920237 -0.2426093583
806000000.0 -0.1673909528 -0.1923901563
815950000.0 -0.2645532607 -0.0353392217
825900000.0 -0.2387170098 0.1663476532
835850000.0 -0.0822851007 0.3198608903
845800000.0 0.147198266 0.3464725251
855750000.0 0.3535415147 0.2213166764
865700000.0 0.4421190994 -0.01285411
875650000.0 0.3641270599 -0.2611648348
885600000.0 0.138979206 -0.4146573983
895550000.0 -0.1446154008 -0.3958604848
905500000.0 -0.363367615 -0.1980486247
915450000.0 -0.4107054161 0.1004135323
925400000.0 -0.254206314 0.3635778808
935350000.0 0.0386337132 0.4596892124
945300000.0 0.3229373606 0.3300973593
955250000.0 0.4401975791 0.0292299565
965200000.0 0.2964706611 -0.2818871018
975150000.0 -0.0597766978 -0.3919648007
985100000.0 -0.4025051727 -0.1658275055
995050000.0 -0.432406158 0.2856976944
1005000000.0 -0.0510505019 0.6037470985
1014950000.0 0.4774785051 0.4730318191
1024900000.0 0.7120070153 -0.0758072782
1034850000.0 0.399122834 -0.6297245512
1044800000.0 -0.2440018634 -0.7308149128
1054750000.0 -0.7008392759 -0.3226134637
1064700000.0 -0.7851362176 0.1982009104
1074650000.0 -0.474936138 0.7153005056
1084600000.0 0.1161829027 0.8405806356
1094550000.0 0.6319942174 0.5303807834
1104500000.0 0.7857028609 -0.0600368105
1114450000.0 0.4687452629 -0.583846996
1124400000.0 -0.1135876777 -0.7034115134
1134350000.0 -0.562482545 -0.3797216766
1144300000.0 -0.6322736635 0.1191725425
1154250000.0 -0.3549909128 0.488062084
1164200000.0 0.0710266447 0.5556192602
1174150000.0 0.4164953907 0.3187777979
1184100000.0 0.4942790518 -0.0943064049
1194050000.0 0.2572001387 -0.4324865507
1204000000.0 -0.1316892285 -0.5047034798
1213950000.0 -0.451247201 -0.310188716
1223900000.0 -0.5697219882 0.0264527851
1233850000.0 -0.4611250063 0.3582720055
1243800000.0 -0.1725301089 0.561330374
1253750000.0 0.1908687837 0.5510447046
1263700000.0 0.4827921984 0.3162721757
1273650000.0 0.575609195 -0.0527193859
1283600000.0 0.4330299565 -0.4010360729
1293550000.0 0.1272566317 -0.5998873237
1303500000.0 -0.2237475795 -0.5985330358
1313450000.0 -0.512922256 -0.4164653386
1323400000.0 -0.6630831002 -0.1105435323
1333350000.0 -0.6281655297 0.2352057644
1343300000.0 -0.4018829801 0.5178287461
1353250000.0 -0.0428504837 0.6307986792
1363200000.0 0.3254980659 0.5183413439
1373150000.0 0.5658935221 0.2194213602
1383100000.0 0.600493334 -0.150897968
1393050000.0 0.439501319 -0.4676468566
1403000000.0 0.1490252256 -0.6461339585
1412950000.0 -0.1831877597 -0.6473746012
1422900000.0 -0.4659921557 -0.4760449337
1432850000.0 -0.6161232744 -0.1762303232
1442800000.0 -0.5796535904 0.1652403211
1452750000.0 -0.3576170284 0.4371369906
1462700000.0 -0.0193164417 0.5431092519
1472650000.0 0.316275831 0.4460084472
1482600000.0 0.535089884 0.188708468
1492550000.0 0.5746529321 -0.131831779
1502500000.0 0.4370032908 -0.4108147733
1512450000.0 0.1725341081 -0.5625370717
1522400000.0 -0.1322837957 -0.5366731197
1532350000.0 -0.3688475867 -0.3348524723
1542300000.0 -0.4392673752 -0.0272016649
1552250000.0 -0.3132696541 0.2526190733
1562200000.0 -0.0573877984 0.4023178379
1572150000.0 0.2278454687 0.3700060505
1582100000.0 0.4255008811 0.1805320313
1592050000.0 0.4654474985 -0.0808520227
1602000000.0 0.3388771523 -0.3100283347
1611950000.0 0.0940967738 -0.4168105731
1621900000.0 -0.1742824131 -0.3505192451
1631850000.0 -0.3516149598 -0.1254672803
1641800000.0 -0.3526987448 0.168252071
1651750000.0 -0.1705129517 0.4003824386
1661700000.0 0.1129520828 0.4697651159
1671650000.0 0.3766206298 0.3550798936
1681600000.0 0.521347268 0.1082850259
1691550000.0 0.4983060041 -0.1811913188
1701500000.0 0.3096638595 -0.4149031174
1711450000.0 0.0095259818 -0.5060652641
1721400000.0 -0.3036577978 -0.4039556749
1731350000.0 -0.505321011 -0.1319558362
1741300000.0 -0.5105683131 0.2076570879
1751250000.0 -0.3239119188 0.482919558
1761200000.0 -0.0261155973 0.6035874851
1771150000.0 0.2804443172 0.548256274
1781100000.0 0.5101359327 0.3453922177
1791050000.0 0.6043645036 0.0510732012
1801000000.0 0.5295918814 -0.2586853847
1810950000.0 0.2911039609 -0.4901362582
1820900000.0 -0.0465663773 -0.5531491015
1830850000.0 -0.3627261746 -0.413492388
1840800000.0 -0.5411921907 -0.1285099246
1850750000.0 -0.5357029737 0.1898296173
1860700000.0 -0.3756777973 0.4402057084
1870650000.0 -0.1268844956 0.5675102068
1880600000.0 0.1405055817 0.5535471965
1890550000.0 0.360418642 0.4080694856
1900500000.0 0.4725634691 0.1669805583
1910450000.0 0.4347155332 -0.0983279027
1920400000.0 0.2562601845 -0.2943068353
1930350000.0 0.0104691767 -0.3522682721
1940300000.0 -0.2048752508 -0.2714920656
1950250000.0 -0.3231104136 -0.1094242035
1960200000.0 -0.3316305869 0.0588770365
1970150000.0 -0.2591626785 0.175951466
1980100000.0 -0.1576174646 0.2119304654
1990050000.0 -0.0869445176 0.1757747149
2000000000.0 -0.0886756514 0.1186974137
