!Created with skrf (http://scikit-rf.org).
# GHz S RI R 50.0 
!freq ReS11 ImS11
10000000.0 -0.9994324043 0.1611029393
19950000.0 -0.9461687635 0.307954948
29900000.0 -0.8707294235 0.4491098187
39850000.0 -0.7726208303 0.58906143
49800000.0 -0.6530808579 0.7223136539
59750000.0 -0.5065917579 0.8423832282
69700000.0 -0.3253189945 0.9372960302
79650000.0 -0.1051975184 0.9875796223
89600000.0 0.1524421428 0.9740733978
99550000.0 0.4320861336 0.8743176699
109500000.0 0.7058227779 0.6721397665
119450000.0 0.9233689793 0.3555703994
129400000.0 1.010426815 -0.0533928377
139350000.0 0.9104219918 -0.468068258
149300000.0 0.6367169886 -0.791367471
159250000.0 0.2760134482 -0.9570924802
169200000.0 -0.0817160182 -0.9790442505
179150000.0 -0.3869581393 -0.9009983949
189100000.0 -0.6233889166 -0.7634309148
199050000.0 -0.7887868544 -0.5943700043
209000000.0 -0.8867291656 -0.4118456993
218950000.0 -0.9347324079 -0.2299042299
228900000.0 -0.9440716026 -0.0555054855
238850000.0 -0.9270716877 0.1102685539
248800000.0 -0.8543604825 0.2549286743
258750000.0 -0.8427865613 0.4037857567
268700000.0 -0.7722451676 0.5343173998
278650000.0 -0.6796423922 0.6452628649
288600000.0 -0.5619474887 0.7332584456
298550000.0 -0.4220617028 0.7957217094
308500000.0 -0.2640001039 0.8332091262
318450000.0 -0.0913929837 0.8415004704
328400000.0 0.089446512 0.8138259766
338350000.0 0.2622132633 0.7380158093
348300000.0 0.4051041495 0.6066589244
358250000.0 0.488566246 0.4266722202
368200000.0 0.4950027934 0.2269524732
378150000.0 0.4284418164 0.0455510694
388100000.0 0.3143922635 -0.0865845752
398050000.0 0.184307678 -0.1565531962
408000000.0 0.0672851661 -0.1679739454
417950000.0 -0.0224675448 -0.1362462559
427900000.0 -0.0816919257 -0.0800941506
437850000.0 -0.1142619607 -0.0161305592
447800000.0 -0.1268352775 0.0432026194
457750000.0 -0.1245617538 0.0901237011
467700000.0 -0.1107470661 0.120525465
477650000.0 -0.0883098103 0.1333320631
487600000.0 -0.0596739964 0.1312003331
497550000.0 -0.0310982941 0.1153623935
507500000.0 -0.0012091707 0.105669762
517450000.0 0.0226450301 0.0854508357
527400000.0 0.0363837647 0.0655041814
537350000.0 0.0363338822 0.0461907335
547300000.0 0.0254740324 0.0275528373
557250000.0 0.003658515 0.0079186479
567200000.0 -0.0244515831 -0.010382066
577150000.0 -0.0537699709 -0.0251667903
587100000.0 -0.0810596024 -0.0337715423
597050000.0 -0.1031682116 -0.0334563129
607000000.0 -0.1202622143 -0.022140428
616950000.0 -0.1329429013 -0.0002642865
626900000.0 -0.1418095277 0.0299302445
636850000.0 -0.1471809935 0.0633141059
646800000.0 -0.1480905097 0.0963199959
656750000.0 -0.1434578381 0.1248372414
666700000.0 -0.1299704445 0.1445258747
676650000.0 -0.107116086 0.1570817382
686600000.0 -0.0748391974 0.1625765425
696550000.0 -0.0356719869 0.1622014993
706500000.0 0.0067252659 0.1566292869
716450000.0 0.0475475686 0.1454384527
726400000.0 0.0821291822 0.1265281272
736350000.0 0.106926975 0.0973221141
746300000.0 0.1189733662 0.0575183578
756250000.0 0.1191126556 0.0061981204
766200000.0 0.1072599212 -0.0515016252
776150000.0 0.0855205964 -0.1116591334
786100000.0 0.0525437754 -0.1671033358
796050000.0 0.0076541879 -0.2110770688
806000000.0 -0.0508777982 -0.236742122
815950000.0 -0.1243348786 -0.2344725558
825900000.0 -0.1772183106 -0.1875183884
835850000.0 -0.2127320377 -0.1646051024
845800000.0 -0.2785162929 -0.1449345549
855750000.0 -0.3415972036 -0.1041526328
865700000.0 -0.3894405051 -0.0502598714
875650000.0 -0.4173661888 0.0145677245
885600000.0 -0.4221247032 0.0876510361
895550000.0 -0.4043960605 0.1671916758
905500000.0 -0.3664926395 0.251188827
915450000.0 -0.3117890177 0.3343484863
925400000.0 -0.2409898963 0.4094869347
935350000.0 -0.1544527212 0.4691722534
945300000.0 -0.0521086521 0.5035327186
955250000.0 0.0657746064 0.504568091
965200000.0 0.1953196194 0.4651711445
975150000.0 0.3290271592 0.3817389323
985100000.0 0.453499723 0.2505935406
995050000.0 0.5465172069 0.0703496289
1005000000.0 0.5761910084 -0.1519084721
1014950000.0 0.5079027092 -0.3914535114
1024900000.0 0.3232759366 -0.601108565
1034850000.0 0.0386570837 -0.7255629144
1044800000.0 -0.2947152814 -0.7223069906
1054750000.0 -0.6058005578 -0.5772831438
1064700000.0 -0.8206026289 -0.3130992716
1074650000.0 -0.8920321826 0.0120843229
1084600000.0 -0.8005713721 0.3334286914
1094550000.0 -0.5212351575 0.4587643463
1104500000.0 -0.4947134178 0.6668759629
1114450000.0 -0.2127874763 0.8089107759
1124400000.0 0.0740730752 0.821493492
1134350000.0 0.3263379359 0.7305144037
1144300000.0 0.5160806386 0.5597864076
1154250000.0 0.6299903167 0.3456663604
1164200000.0 0.6720601834 0.1207878267
1174150000.0 0.6566851108 -0.0846156582
1184100000.0 0.6036102047 -0.2632028333
1194050000.0 0.5131282974 -0.4122134452
1204000000.0 0.3918617319 -0.5192796997
1213950000.0 0.2539947239 -0.5829151126
1223900000.0 0.1125658089 -0.6117764497
1233850000.0 -0.0226155928 -0.6160419788
1243800000.0 -0.1469078085 -0.6040496526
1253750000.0 -0.2574909161 -0.5790053734
1263700000.0 -0.3516534753 -0.5406339246
1273650000.0 -0.4294571608 -0.4906882338
1283600000.0 -0.4891388477 -0.4273086495
1293550000.0 -0.5351127451 -0.3540816163
1303500000.0 -0.5710841261 -0.2748358407
1313450000.0 -0.6006303743 -0.1946552246
1323400000.0 -0.626610887 -0.1168948127
1333350000.0 -0.6472182338 -0.0426360104
1343300000.0 -0.6595848688 0.0280629077
1353250000.0 -0.6603262584 0.0942162087
1363200000.0 -0.6465365419 0.1577611487
1373150000.0 -0.6181252306 0.2201893845
1383100000.0 -0.5795414334 0.2821276412
1393050000.0 -0.5355495459 0.3438061823
1403000000.0 -0.4896720591 0.403742163
1412950000.0 -0.4425497105 0.4595258292
1422900000.0 -0.3940522353 0.5086871249
1432850000.0 -0.3410808849 0.5474421174
1442800000.0 -0.2807568473 0.5755075563
1452750000.0 -0.2101153754 0.5915283351
1462700000.0 -0.124217721 0.5948570323
1472650000.0 -0.0232796273 0.5320920301
1482600000.0 -0.0006911591 0.5757665281
1492550000.0 0.0903234772 0.5765621854
1502500000.0 0.1733024878 0.5620148584
1512450000.0 0.2473784559 0.5334342531
1522400000.0 0.310787723 0.4889432309
1532350000.0 0.3643215895 0.4262658154
1542300000.0 0.4093625816 0.3486020211
1552250000.0 0.4481703254 0.2598375571
1562200000.0 0.4821529497 0.1659110962
1572150000.0 0.5074761917 0.0701389082
1582100000.0 0.5202942648 -0.024346893
1592050000.0 0.5159941849 -0.114298729
1602000000.0 0.4913750946 -0.1987199205
1611950000.0 0.4455957509 -0.2761014507
1621900000.0 0.3826570895 -0.3478205448
1631850000.0 0.309453216 -0.4141376314
1641800000.0 0.2296759305 -0.4742380251
1651750000.0 0.1474175285 -0.5254690031
1661700000.0 0.0656974165 -0.5635542971
1671650000.0 -0.0150102604 -0.584393986
1681600000.0 -0.0938192697 -0.5863207014
1691550000.0 -0.170824023 -0.5717141878
1701500000.0 -0.246371685 -0.5449066896
1711450000.0 -0.319301304 -0.5113697269
1721400000.0 -0.3890299871 -0.4740046195
1731350000.0 -0.452936255 -0.4365603679
1741300000.0 -0.5078521117 -0.3960642143
1751250000.0 -0.5512549347 -0.3506954593
1761200000.0 -0.5815504057 -0.2991700564
1771150000.0 -0.5998309994 -0.2415184587
1781100000.0 -0.6118222185 -0.1799043456
1791050000.0 -0.6209431142 -0.1173300594
1801000000.0 -0.6303519961 -0.056745146
1810950000.0 -0.641129893 0.0005049027
1820900000.0 -0.6494403392 0.0536174387
1830850000.0 -0.6512722996 0.1009042313
1840800000.0 -0.6417714811 0.1453942973
1850750000.0 -0.6196233535 0.1866433045
1860700000.0 -0.5853486772 0.2263873309
1870650000.0 -0.5444584389 0.2651023645
1880600000.0 -0.5025182774 0.3020260718
1890550000.0 -0.4632110994 0.3369717818
1900500000.0 -0.4287043465 0.3664043107
1910450000.0 -0.3966393617 0.3884453919
1920400000.0 -0.3651198966 0.4014381837
1930350000.0 -0.3306243576 0.4034986214
1940300000.0 -0.2909799601 0.3949907926
1950250000.0 -0.2462349155 0.3789512813
1960200000.0 -0.1984929359 0.3587415435
1970150000.0 -0.154360674 0.3355619818
1980100000.0 -0.1173584809 0.3102146073
1990050000.0 -0.0918654581 0.2809787587
2000000000.0 -0.0802378643 0.2435815971
