!Created with skrf (http://scikit-rf.org).
# GHz S RI R 50.0 
!freq ReS11 ImS11
10000000.0 -0.769990328 0.6797770798
19950000.0 -0.1349771868 0.9903375235
29900000.0 0.5413171407 0.8144460831
39850000.0 0.9440133265 0.2372550582
49800000.0 0.8670560025 -0.4746515652
59750000.0 0.3156204205 -0.9636022414
69700000.0 -0.4448238868 -0.9312848422
79650000.0 -0.9670789872 -0.346959123
89600000.0 -0.8928587398 0.4512026913
99550000.0 -0.236223082 0.9398266006
109500000.0 0.5837117437 0.7579577384
119450000.0 0.9743412673 -0.0208117584
129400000.0 0.5711325828 -0.8269667917
139350000.0 -0.3466685571 -0.9556570186
149300000.0 -0.9554099484 -0.2677929221
159250000.0 -0.7467737181 0.595645874
169200000.0 0.0309357607 0.9380016446
179150000.0 0.7623041915 0.570504614
189100000.0 0.9608633174 -0.1989570247
199050000.0 0.534692728 -0.8460380836
209000000.0 -0.2092252801 -0.9727393779
218950000.0 -0.8004346235 -0.544841196
228900000.0 -0.9255766935 0.1538297075
238850000.0 -0.5470318659 0.7406433583
248800000.0 0.0250666539 0.9001688786
258750000.0 0.7020360521 0.6344922825
268700000.0 0.9666287325 0.0038169635
278650000.0 0.7309827562 -0.6340096796
288600000.0 0.126866696 -0.9352198542
298550000.0 -0.5106663369 -0.7436411573
308500000.0 -0.8389361729 -0.1751353289
318450000.0 -0.6836275329 0.4546364541
328400000.0 -0.1372433895 0.7872335145
338350000.0 0.4649859864 0.6233344453
348300000.0 0.7276904944 0.0893231332
358250000.0 0.5051086175 -0.4157603803
368200000.0 0.0273406783 -0.546951553
378150000.0 -0.3212045319 -0.2926951834
388100000.0 -0.3337484996 0.0748214557
398050000.0 -0.0967584651 0.2687223706
408000000.0 0.1457323237 0.2045795318
417950000.0 0.2165523578 0.01170833
427900000.0 0.1182011166 -0.1301186882
437850000.0 -0.0301055734 -0.1331370995
447800000.0 -0.111165612 -0.0312227884
457750000.0 -0.0850266946 0.0809493491
467700000.0 0.0060449219 0.1239681049
477650000.0 0.0829984443 0.0843580214
487600000.0 0.0832259324 0.0174821268
497550000.0 0.0911409126 -0.0481266319
507500000.0 0.0187144481 -0.0577929252
517450000.0 -0.01653517 -0.0256140232
527400000.0 -0.0112866202 0.0055001828
537350000.0 0.0124514486 0.0067449748
547300000.0 0.0175484813 -0.0250983741
557250000.0 -0.0184511949 -0.0496338299
567200000.0 -0.0722200341 -0.034957385
577150000.0 -0.1035090163 0.0246133433
587100000.0 -0.0786508494 0.0991959049
597050000.0 0.0023704887 0.1397351522
607000000.0 0.1002923945 0.1098741522
616950000.0 0.1573426923 0.0130881148
626900000.0 0.1349365374 -0.1049064513
636850000.0 0.0369410735 -0.1822636987
646800000.0 -0.089564033 -0.1749029814
656750000.0 -0.1780901815 -0.0848487182
666700000.0 -0.1805719686 0.0386034913
676650000.0 -0.0974208086 0.1280706498
686600000.0 0.0219021962 0.1336872601
696550000.0 0.1068058816 0.054614906
706500000.0 0.1110803322 -0.0538100336
716450000.0 0.0406893138 -0.1263105368
726400000.0 -0.052597596 -0.1196455019
736350000.0 -0.0996016332 -0.0431187928
746300000.0 -0.0650919244 0.0390056799
756250000.0 0.0303288664 0.0590255932
766200000.0 0.1158323456 -0.0113425312
776150000.0 0.117393476 -0.1365014814
786100000.0 0.012710709 -0.2316296368
796050000.0 -0.1480612359 -0.2180385746
806000000.0 -0.2626267838 -0.0758766498
815950000.0 -0.2395881019 0.1273873653
825900000.0 -0.0637676266 0.2722250188
835850000.0 0.1837994394 0.2566111019
845800000.0 0.367738476 0.0665248094
855750000.0 0.3765525565 -0.2115487887
865700000.0 0.1890602226 -0.4328407508
875650000.0 -0.1101981004 -0.4725794806
885600000.0 -0.3678629991 -0.2937591797
895550000.0 -0.4389923694 0.0238166035
905500000.0 -0.2698033836 0.3149149823
915450000.0 0.0605839332 0.4129599086
925400000.0 0.3700290471 0.2506767411
935350000.0 0.4761411519 -0.0844377591
945300000.0 0.3082890264 -0.3940501741
955250000.0 -0.0382598823 -0.4806939437
965200000.0 -0.3414239582 -0.2700683156
975150000.0 -0.3706321841 0.1150122031
985100000.0 -0.0538510118 0.3824781911
995050000.0 0.3793244633 0.2583729226
1005000000.0 0.5153219629 -0.2110029559
1014950000.0 0.1534570939 -0.611814411
1024900000.0 -0.4372333352 -0.5146751216
1034850000.0 -0.7118919093 0.0890276818
1044800000.0 -0.3197634455 0.7045545297
1054750000.0 0.4415417196 0.6943422069
1064700000.0 0.8684747458 0.115111826
1074650000.0 0.6660334637 -0.5880043222
1084600000.0 0.0463700059 -0.8619789814
1094550000.0 -0.5881549465 -0.586912599
1104500000.0 -0.782521674 0.0683973774
1114450000.0 -0.3977545581 0.6323772375
1124400000.0 0.2683543796 0.6647132378
1134350000.0 0.6595529517 0.1792015234
1144300000.0 0.5228197147 -0.3719580407
1154250000.0 0.0573965496 -0.5944479388
1164200000.0 -0.3804420902 -0.4060346194
1174150000.0 -0.5319210174 0.0274596307
1184100000.0 -0.3030154564 0.4274398685
1194050000.0 0.1500656177 0.505102974
1204000000.0 0.4946532059 0.2181291242
1213950000.0 0.5164602843 -0.2113952001
1223900000.0 0.2430272454 -0.5230748745
1233850000.0 -0.1585531245 -0.5743340102
1243800000.0 -0.4981814268 -0.3534634184
1253750000.0 -0.6171844622 0.0432749204
1263700000.0 -0.4404248275 0.4328538745
1273650000.0 -0.0395112009 0.6099474367
1283600000.0 0.3782288505 0.47475287
1293550000.0 0.6035770772 0.1061145078
1303500000.0 0.5504944579 -0.3097885137
1313450000.0 0.266945104 -0.6015811135
1323400000.0 -0.1291294859 -0.6709487158
1333350000.0 -0.4939498655 -0.4944353759
1343300000.0 -0.687795907 -0.1260487345
1353250000.0 -0.612838367 0.2974467886
1363200000.0 -0.2777314256 0.5864954119
1373150000.0 0.1689739796 0.5959844364
1383100000.0 0.5155768845 0.3264870325
1393050000.0 0.619797006 -0.0842443627
1403000000.0 0.4648360363 -0.4610752602
1412950000.0 0.129839971 -0.6704187079
1422900000.0 -0.2573807812 -0.6480986788
1432850000.0 -0.5582502961 -0.4034985703
1442800000.0 -0.6541107589 -0.022972886
1452750000.0 -0.49413492 0.3436238468
1462700000.0 -0.13383889 0.5319194402
1472650000.0 0.2627300544 0.4491115785
1482600000.0 0.5112279956 0.1401256242
1492550000.0 0.5103064974 -0.2427943201
1502500000.0 0.28076223 -0.5300094896
1512450000.0 -0.0651653448 -0.6096921623
1522400000.0 -0.3797670025 -0.4603240223
1532350000.0 -0.5276664787 -0.1479189474
1542300000.0 -0.4387694116 0.1864452572
1552250000.0 -0.1509666445 0.3782640955
1562200000.0 0.1866683148 0.3276654308
1572150000.0 0.3937563498 0.0679484016
1582100000.0 0.3681386214 -0.2512165872
1592050000.0 0.1393415845 -0.459890673
1602000000.0 -0.1642419098 -0.4593089636
1611950000.0 -0.3875022359 -0.253752007
1621900000.0 -0.4149450883 0.0541531362
1631850000.0 -0.2214982196 0.3068996143
1641800000.0 0.1014896731 0.3610499547
1651750000.0 0.3789387808 0.1726951059
1661700000.0 0.4494223478 -0.1585001172
1671650000.0 0.2758797038 -0.4498384765
1681600000.0 -0.04635349 -0.5531099614
1691550000.0 -0.3618035695 -0.4246011158
1701500000.0 -0.531306989 -0.1214206494
1711450000.0 -0.4762245842 0.2316091807
1721400000.0 -0.2018311036 0.4832421672
1731350000.0 0.1843885102 0.5029485444
1741300000.0 0.4991072137 0.2635213946
1751250000.0 0.5827297587 -0.1246218638
1761200000.0 0.4028424907 -0.4711641165
1771150000.0 0.0570362311 -0.6288445733
1781100000.0 -0.3057991396 -0.5538691884
1791050000.0 -0.5564629199 -0.2879560085
1801000000.0 -0.6117072176 0.0759455633
1810950000.0 -0.4418557144 0.4125780563
1820900000.0 -0.0929112975 0.5846227978
1830850000.0 0.295749681 0.4993026662
1840800000.0 0.5407899288 0.1865393294
1850750000.0 0.532367328 -0.1997774283
1860700000.0 0.3007697229 -0.4841820079
1870650000.0 -0.0325598878 -0.5735431643
1880600000.0 -0.3397359927 -0.4654553239
1890550000.0 -0.5270932085 -0.2160501171
1900500000.0 -0.5423923013 0.0878094098
1910450000.0 -0.3817888694 0.3413723301
1920400000.0 -0.1048980721 0.4440751793
1930350000.0 0.1648581161 0.3527247732
1940300000.0 0.3058681172 0.1254206133
1950250000.0 0.276183616 -0.1125144619
1960200000.0 0.128689792 -0.2591848619
1970150000.0 -0.0439039531 -0.2820493821
1980100000.0 -0.1618826653 -0.2155836162
1990050000.0 -0.1966037911 -0.1372991036
2000000000.0 -0.190700839 -0.1016561847
