!Created with skrf (http://scikit-rf.org).
# GHz S RI R 50.0 
!freq ReS11 ImS11
10000000.0 -0.9767601465 0.0710528448
19950000.0 -0.9667502019 0.1379726874
29900000.0 -0.9512446506 0.2075537989
39850000.0 -0.9290299535 0.2811941267
49800000.0 -0.8971035909 0.3610496376
59750000.0 -0.8531784742 0.4483203299
69700000.0 -0.7930804204 0.5432998798
79650000.0 -0.7115195298 0.6467419414
89600000.0 -0.5989901697 0.7547589442
99550000.0 -0.4458736745 0.8584558152
109500000.0 -0.243672319 0.9410618072
119450000.0 0.0093032883 0.9754553339
129400000.0 0.2984300117 0.9290472555
139350000.0 0.5680129963 0.7977854321
149300000.0 0.7908477395 0.578415068
159250000.0 0.9279755701 0.3121359491
169200000.0 0.9745097297 0.0426025672
179150000.0 0.9483561094 -0.1960848323
189100000.0 0.8768594288 -0.38953257
199050000.0 0.7845094021 -0.5383751222
209000000.0 0.6849629094 -0.6493301366
218950000.0 0.586998209 -0.7326798964
228900000.0 0.4925310172 -0.7947623778
238850000.0 0.3965871504 -0.841253022
248800000.0 0.1880718211 -0.7048702552
258750000.0 0.2501293139 -0.881883653
268700000.0 0.1572917349 -0.8960023774
278650000.0 0.0668753232 -0.8985959732
288600000.0 -0.0249750748 -0.8910621538
298550000.0 -0.1194234988 -0.8706236585
308500000.0 -0.2172889893 -0.8338980556
318450000.0 -0.3159869897 -0.7752046155
328400000.0 -0.4099654107 -0.6900571433
338350000.0 -0.4908488635 -0.5767543397
348300000.0 -0.5462410913 -0.4377021572
358250000.0 -0.5642645798 -0.2833330534
368200000.0 -0.538067309 -0.1302128175
378150000.0 -0.4727887435 0.001509775
388100000.0 -0.3808039357 0.1004839742
398050000.0 -0.2794277985 0.162395887
408000000.0 -0.1812780923 0.1925891673
417950000.0 -0.0961778033 0.1979985378
427900000.0 -0.0277852955 0.1869702292
437850000.0 0.0226793667 0.1652235966
447800000.0 0.0566285932 0.1381523309
457750000.0 0.0759677658 0.1088904669
467700000.0 0.0832157562 0.0808053822
477650000.0 0.0799986578 0.0550035787
487600000.0 0.0654699736 0.0323314287
497550000.0 0.009619588 0.0792291119
507500000.0 0.0552416761 0.0213145588
517450000.0 0.0290154763 0.0109765419
527400000.0 0.0038197362 0.0082241239
537350000.0 -0.0210322686 0.0091081554
547300000.0 -0.049046183 0.0154450921
557250000.0 -0.0698485588 0.0285867966
567200000.0 -0.087378807 0.0418261163
577150000.0 -0.1020062936 0.0570308618
587100000.0 -0.1136692932 0.0736857883
597050000.0 -0.1220998166 0.0904618131
607000000.0 -0.1273724661 0.1069755465
616950000.0 -0.1297302072 0.1218692937
626900000.0 -0.1282960271 0.1353059611
636850000.0 -0.1230769604 0.1467880568
646800000.0 -0.1133087941 0.1559565608
656750000.0 -0.1002124743 0.1630220894
666700000.0 -0.0838518263 0.1676124409
676650000.0 -0.0660163425 0.1691503618
686600000.0 -0.0462268852 0.1672388802
696550000.0 -0.024714143 0.1611297381
706500000.0 -0.0015400763 0.1494181852
716450000.0 0.0231832057 0.1321689631
726400000.0 0.0492385121 0.1096795239
736350000.0 0.0751493884 0.0820294173
746300000.0 0.0996965975 0.0507133281
756250000.0 0.1215992557 0.0150878335
766200000.0 0.1384864852 -0.0242669876
776150000.0 0.1496304905 -0.0671602042
786100000.0 0.1545539436 -0.1121983406
796050000.0 0.1530165818 -0.1590142128
806000000.0 0.146295422 -0.2066237776
815950000.0 0.13461085 -0.2520956822
825900000.0 0.1182144673 -0.2933877095
835850000.0 0.0972277565 -0.329377883
845800000.0 0.0712731887 -0.3585837124
855750000.0 0.0400740574 -0.3815402207
865700000.0 0.0042246058 -0.3990992266
875650000.0 -0.0360047244 -0.4105997109
885600000.0 -0.079863364 -0.4153755229
895550000.0 -0.1265048459 -0.4124299641
905500000.0 -0.1748414594 -0.3996671245
915450000.0 -0.2245254221 -0.3746685487
925400000.0 -0.2753222226 -0.3340718792
935350000.0 -0.325700853 -0.273763473
945300000.0 -0.372371604 -0.1906292983
955250000.0 -0.408081028 -0.0793660891
965200000.0 -0.4188630943 0.0623943691
975150000.0 -0.3860979979 0.231841146
985100000.0 -0.2852329709 0.410665459
995050000.0 -0.105844893 0.5627300076
1005000000.0 0.138667184 0.6436624409
1014950000.0 0.4010170523 0.6216257422
1024900000.0 0.6274356721 0.5040584665
1034850000.0 0.7809296962 0.3239713797
1044800000.0 0.8537306195 0.1183643927
1054750000.0 0.8420944732 -0.0867257902
1064700000.0 0.7263550428 -0.1890429873
1074650000.0 0.7817319173 -0.2724660145
1084600000.0 0.7158067089 -0.4326042366
1094550000.0 0.6070715431 -0.5468808043
1104500000.0 0.4767972407 -0.626261004
1114450000.0 0.3332038339 -0.6766710721
1124400000.0 0.1772479264 -0.696951428
1134350000.0 0.0194598802 -0.6808836328
1144300000.0 -0.1277400263 -0.6304114834
1154250000.0 -0.2540168238 -0.5507437296
1164200000.0 -0.3516761694 -0.4532293865
1174150000.0 -0.4265321378 -0.3519016129
1184100000.0 -0.485429363 -0.2438464528
1194050000.0 -0.523596432 -0.1342950134
1204000000.0 -0.5427293451 -0.0331139565
1213950000.0 -0.5480498219 0.0556509978
1223900000.0 -0.5443097404 0.130445214
1233850000.0 -0.5353583232 0.1925613697
1243800000.0 -0.5229269402 0.2443156621
1253750000.0 -0.5093579611 0.2886793232
1263700000.0 -0.4950656724 0.3278925017
1273650000.0 -0.4827538184 0.361246519
1283600000.0 -0.4724200956 0.3900123252
1293550000.0 -0.464605329 0.4130022851
1303500000.0 -0.4594231416 0.4301664778
1313450000.0 -0.4564808583 0.4424755414
1323400000.0 -0.4544597994 0.4507720742
1333350000.0 -0.4518906289 0.4569594265
1343300000.0 -0.4494645233 0.4635566535
1353250000.0 -0.4471511408 0.4703782679
1363200000.0 -0.4447108058 0.4775872843
1373150000.0 -0.4412795089 0.4838130436
1383100000.0 -0.4373490714 0.4884774359
1393050000.0 -0.4332886419 0.4904524416
1403000000.0 -0.4281902285 0.4897754382
1412950000.0 -0.4221198816 0.4862534739
1422900000.0 -0.4150751741 0.4817763878
1432850000.0 -0.407549297 0.4769426496
1442800000.0 -0.3998350664 0.4733227886
1452750000.0 -0.3933385101 0.4718897341
1462700000.0 -0.3857183417 0.4731391961
1472650000.0 -0.3751936474 0.4766204436
1482600000.0 -0.3607627929 0.4810358988
1492550000.0 -0.3421623961 0.4844183046
1502500000.0 -0.3191436986 0.4868422846
1512450000.0 -0.2924479574 0.4880916904
1522400000.0 -0.2628659048 0.4890984044
1532350000.0 -0.2309549663 0.4895297186
1542300000.0 -0.1956582869 0.4892356779
1552250000.0 -0.1570577494 0.4876802907
1562200000.0 -0.1156677044 0.4842126268
1572150000.0 -0.0723111099 0.4783784996
1582100000.0 -0.026652449 0.4706095262
1592050000.0 0.0203914118 0.4614212871
1602000000.0 0.0670378917 0.4507512336
1611950000.0 0.1137395742 0.439237732
1621900000.0 0.1593784277 0.4257355909
1631850000.0 0.2035558212 0.4089659106
1641800000.0 0.245941476 0.3888479952
1651750000.0 0.2868136376 0.3649965793
1661700000.0 0.3261533686 0.3392123446
1671650000.0 0.3634815998 0.3135260095
1681600000.0 0.398402654 0.2891835394
1691550000.0 0.4301727529 0.2668700346
1701500000.0 0.4581240252 0.247222246
1711450000.0 0.4818977021 0.229640419
1721400000.0 0.5017662108 0.2137676416
1731350000.0 0.5182618996 0.198146548
1741300000.0 0.532540222 0.1830213836
1751250000.0 0.5447991558 0.1691213227
1761200000.0 0.5549801138 0.1564004623
1771150000.0 0.5630169165 0.1463565583
1781100000.0 0.56885314 0.1389967423
1791050000.0 0.572585529 0.1347818187
1801000000.0 0.5745835908 0.13190062
1810950000.0 0.5745405833 0.1286014029
1820900000.0 0.5732959224 0.1238371514
1830850000.0 0.5703469959 0.1153745699
1840800000.0 0.5620064239 0.1014325609
1850750000.0 0.5308664479 0.0810549469
1860700000.0 0.4661347212 0.1280753816
1870650000.0 0.4999020139 0.1697291477
1880600000.0 0.5086531474 0.1613915639
1890550000.0 0.4978107986 0.1546182397
1900500000.0 0.4797196695 0.1494768394
1910450000.0 0.4587840389 0.1438006499
1920400000.0 0.4356928571 0.1364993865
1930350000.0 0.4094700333 0.1268747912
1940300000.0 0.3781805466 0.1149982541
1950250000.0 0.3401113426 0.1014923622
1960200000.0 0.2939726671 0.0868888406
1970150000.0 0.2380276475 0.0719459898
1980100000.0 0.171078058 0.0588401143
1990050000.0 0.0914752828 0.0494110458
2000000000.0 -0.0029076052 0.0486230811
