!Created with skrf (http://scikit-rf.org).
# GHz S RI R 50.0 
!freq ReS11 ImS11
10000000.0 -0.7660151152 0.6762156426
19950000.0 -0.1348324699 0.9883900562
29900000.0 0.54055824 0.8165066741
39850000.0 0.9451921447 0.243072115
49800000.0 0.8718903846 -0.4673326087
59750000.0 0.3252107942 -0.9572562634
69700000.0 -0.4310003059 -0.9315029668
79650000.0 -0.9564683058 -0.359144488
89600000.0 -0.8983583235 0.4326636428
99550000.0 -0.2619167551 0.9337442766
109500000.0 0.5548521277 0.7818662152
119450000.0 0.9729058744 0.0280257274
129400000.0 0.6151178413 -0.787655291
139350000.0 -0.2853322291 -0.9688484114
149300000.0 -0.9339576739 -0.3257447294
159250000.0 -0.7817850066 0.5488862676
169200000.0 -0.0240476523 0.9406090334
179150000.0 0.7304210182 0.6117792005
189100000.0 0.9663592021 -0.153293155
199050000.0 0.5629907465 -0.8217620749
209000000.0 -0.1819350136 -0.9746975792
218950000.0 -0.788252015 -0.5604898121
228900000.0 -0.9276351356 0.1397762611
238850000.0 -0.5566508076 0.7353348585
248800000.0 0.142012862 0.7278170458
258750000.0 0.6933526064 0.6420179578
268700000.0 0.962488851 0.0088756158
278650000.0 0.7267180563 -0.6313756898
288600000.0 0.1211713279 -0.9319413256
298550000.0 -0.5158681473 -0.7371923495
308500000.0 -0.8390117752 -0.165926453
318450000.0 -0.6774383162 0.4613365341
328400000.0 -0.1302621954 0.7864698645
338350000.0 0.4660814312 0.6172446968
348300000.0 0.7241865244 0.0844549332
358250000.0 0.5021677279 -0.4176834279
368200000.0 0.0262584087 -0.5500944916
378150000.0 -0.3248549258 -0.2987852349
388100000.0 -0.3425176938 0.0694216042
398050000.0 -0.1087627896 0.2695122461
408000000.0 0.1375060147 0.2131251033
417950000.0 0.2179893483 0.0219850069
427900000.0 0.1273970302 -0.1254406307
437850000.0 -0.0193716914 -0.1369685862
447800000.0 -0.1046453306 -0.0414508624
457750000.0 -0.0848416446 0.0686259628
467700000.0 0.0012928303 0.1134983713
477650000.0 0.0774479054 0.0775848031
487600000.0 0.0876834518 0.0051940718
497550000.0 0.091467382 0.0460969836
507500000.0 0.033074896 -0.0568408162
517450000.0 -0.0074605487 -0.0311053286
527400000.0 -0.0062521856 -0.0028860036
537350000.0 0.0131268772 -0.0009424922
547300000.0 0.0194466486 -0.0306079184
557250000.0 -0.0196268903 -0.055183502
567200000.0 -0.072874474 -0.0368400015
577150000.0 -0.1012448985 0.0254872891
587100000.0 -0.0736112584 0.1001594633
597050000.0 0.0087985947 0.1352165465
607000000.0 0.1054529394 0.1036930437
616950000.0 0.1599490232 0.0094317002
626900000.0 0.1367683878 -0.1068731199
636850000.0 0.0392702654 -0.1841688089
646800000.0 -0.0869506346 -0.1772176701
656750000.0 -0.1763426353 -0.0867916201
666700000.0 -0.1791882674 0.0400787008
676650000.0 -0.0949430591 0.1333787442
686600000.0 0.0288222822 0.1409116631
696550000.0 0.1203473559 0.0611359406
706500000.0 0.1284263335 -0.0554277825
716450000.0 0.0549422589 -0.1372803985
726400000.0 -0.0486152284 -0.1360766771
736350000.0 -0.1094516682 -0.0576380963
746300000.0 -0.0829867635 0.0376311038
756250000.0 0.016122055 0.0749068934
766200000.0 0.1140190493 0.0147464831
776150000.0 0.1323500304 -0.1124438762
786100000.0 0.039603968 -0.2207895481
796050000.0 -0.1199092026 -0.2248369645
806000000.0 -0.2448191048 -0.0961319368
815950000.0 -0.2397531284 0.1041130608
825900000.0 -0.0806317585 0.2555294313
835850000.0 0.1589040499 0.2540860726
845800000.0 0.3460012849 0.0822973335
855750000.0 0.3671548561 -0.1819366478
865700000.0 0.1958751312 -0.4032440372
875650000.0 -0.0894715362 -0.4561063431
885600000.0 -0.3431100177 -0.2947557409
895550000.0 -0.4216575489 0.0094887436
905500000.0 -0.2659285483 0.2967160466
915450000.0 0.0516508842 0.3995545845
925400000.0 0.3537145262 0.2458570897
935350000.0 0.4585592274 -0.0817731982
945300000.0 0.2925585564 -0.3871777052
955250000.0 -0.0510615105 -0.4694690134
965200000.0 -0.3474984844 -0.2521047228
975150000.0 -0.3625245318 0.1394171298
985100000.0 -0.0281662211 0.400650822
995050000.0 0.411926803 0.2496983719
1005000000.0 0.5254031586 -0.2529053946
1014950000.0 0.1219608529 -0.650755188
1024900000.0 -0.4870418842 -0.5138475054
1034850000.0 -0.7331002237 0.1291333307
1044800000.0 -0.2952767594 0.7381217512
1054750000.0 0.4836417361 0.6829864989
1064700000.0 0.7949859775 0.08836474
1074650000.0 0.6746738742 -0.5563340115
1084600000.0 0.0529717991 -0.8560476005
1094550000.0 -0.564441949 -0.5979640652
1104500000.0 -0.775031483 0.0331509011
1114450000.0 -0.4265560964 0.5972755703
1124400000.0 0.2144388174 0.6670750609
1134350000.0 0.6287798602 0.2254969392
1144300000.0 0.54500307 -0.3216194611
1154250000.0 0.1152451604 -0.5822257566
1164200000.0 -0.3275785691 -0.4441204372
1174150000.0 -0.5185323476 -0.0472301492
1184100000.0 -0.353357569 0.3636075829
1194050000.0 0.0701699596 0.502476384
1204000000.0 0.4418338556 0.271460335
1213950000.0 0.5194018771 -0.1434114303
1223900000.0 0.2915502818 -0.4805457571
1233850000.0 -0.0936976538 -0.5745897888
1243800000.0 -0.4464325731 -0.3942577161
1253750000.0 -0.6003615474 -0.020815224
1263700000.0 -0.466910472 0.3727765571
1273650000.0 -0.0962112446 0.5825527386
1283600000.0 0.3228750385 0.4904822575
1293550000.0 0.5764717438 0.1517311272
1303500000.0 0.5602176299 -0.2601820097
1313450000.0 0.3042011614 -0.5699024708
1323400000.0 -0.0803042746 -0.6666775934
1333350000.0 -0.4501440826 -0.5182068418
1343300000.0 -0.6639003838 -0.1697623147
1353250000.0 -0.6179291755 0.2494252798
1363200000.0 -0.309527303 0.5543054628
1373150000.0 0.1268228038 0.5928176761
1383100000.0 0.4840640757 0.3502564878
1393050000.0 0.6111093297 -0.0473460759
1403000000.0 0.480064048 -0.4272501421
1412950000.0 0.1615119862 -0.6503652696
1422900000.0 -0.2199892531 -0.6473480886
1432850000.0 -0.5249362493 -0.4225349743
1442800000.0 -0.6378815252 -0.0585740081
1452750000.0 -0.5058818552 0.3030706267
1462700000.0 -0.1731089457 0.5091181878
1472650000.0 0.2185045014 0.4611874568
1482600000.0 0.4874714897 0.179528398
1492550000.0 0.517315814 -0.1971894418
1502500000.0 0.3128989049 -0.498814065
1512450000.0 -0.0227282591 -0.6063106695
1522400000.0 -0.346012817 -0.4853307066
1532350000.0 -0.5200003776 -0.1901698219
1542300000.0 -0.4644680785 0.1488310003
1552250000.0 -0.2004590517 0.3680900519
1562200000.0 0.138830598 0.3546998959
1572150000.0 0.3744558039 0.1218408496
1582100000.0 0.3886498945 -0.1986793723
1592050000.0 0.1881116907 -0.4348157103
1602000000.0 -0.11206856 -0.4731793788
1611950000.0 -0.3588526297 -0.3010327417
1621900000.0 -0.4275973119 -0.0046087372
1631850000.0 -0.2752237986 0.2679759378
1641800000.0 0.0305213637 0.3658561821
1651750000.0 0.3262127873 0.2221184955
1661700000.0 0.4394593382 -0.0895635442
1671650000.0 0.3066113505 -0.39312219
1681600000.0 0.0284700541 -0.5062028864
1691550000.0 -0.2967779099 -0.4648336554
1701500000.0 -0.5085330192 -0.1906532211
1711450000.0 -0.5012991758 0.1613571844
1721400000.0 -0.2655850724 0.4404562926
1731350000.0 0.1069955458 0.507188579
1741300000.0 0.4424575963 0.3112172868
1751250000.0 0.5698006014 -0.0580104273
1761200000.0 0.4325190921 -0.4179330223
1771150000.0 0.1098234034 -0.609214953
1781100000.0 -0.2541562473 -0.5710716686
1791050000.0 -0.5250753118 -0.3333614352
1801000000.0 -0.6108696091 0.018208816
1810950000.0 -0.4733951743 0.3613200779
1820900000.0 -0.1478813809 0.55916277
1830850000.0 0.238146464 0.5097592156
1840800000.0 0.5056532909 0.2252548573
1850750000.0 0.5310443518 -0.1545090788
1860700000.0 0.3267784425 -0.4531591605
1870650000.0 0.0046968673 -0.5661669405
1880600000.0 -0.3062991472 -0.4806303829
1890550000.0 -0.5079482956 -0.2472406458
1900500000.0 -0.5420780296 0.0502612157
1910450000.0 -0.3992669947 0.3090311063
1920400000.0 -0.1330149626 0.4277987485
1930350000.0 0.1387410337 0.354551934
1940300000.0 0.2886679371 0.1382866966
1950250000.0 0.2679113149 -0.0971570165
1960200000.0 0.1276465654 -0.2438184676
1970150000.0 -0.0370723415 -0.2658077549
1980100000.0 -0.1438031347 -0.1999377387
1990050000.0 -0.1641154743 -0.1255231511
2000000000.0 -0.1416613414 -0.1155748463
