!Created with skrf (http://scikit-rf.org).
# GHz S RI R 50.0 
!freq ReS11 ImS11
10000000.0 -0.7761515061 0.0564862815
14975000.0 -0.780375388 0.0873464851
19950000.0 -0.7849293726 0.1210838357
24925000.0 -0.788365477 0.1580345541
29900000.0 -0.7897769353 0.1975483261
34875000.0 -0.7871100876 0.2399910157
39850000.0 -0.7803435796 0.2845966952
44825000.0 -0.7690216933 0.3310845754
49800000.0 -0.7535239905 0.378972328
54775000.0 -0.733437418 0.427784697
59750000.0 -0.7090112348 0.4771680235
64725000.0 -0.6803740843 0.526768698
69700000.0 -0.6473689184 0.576509131
74675000.0 -0.6097757716 0.626260912
79650000.0 -0.567325501 0.6762095105
84625000.0 -0.5195331881 0.7264250577
89600000.0 -0.4650189823 0.7767879775
94575000.0 -0.4024872061 0.8267853346
99550000.0 -0.329733161 0.8748404424
104525000.0 -0.2449241532 0.9183290525
109500000.0 -0.1473259068 0.9535697199
114475000.0 -0.0373185724 0.9761203648
119450000.0 0.0825338724 0.9825026031
124425000.0 0.2084275864 0.9696962404
129400000.0 0.3375960288 0.922703476
134375000.0 0.4575118842 0.8809666074
139350000.0 0.5728907878 0.8044248879
144325000.0 0.6751314661 0.7092195613
149300000.0 0.7606649759 0.5984619645
154275000.0 0.8267825118 0.4771318222
159250000.0 0.8721545647 0.3500115858
164225000.0 0.8961332189 0.2222957283
169200000.0 0.9005423014 0.0985756593
174175000.0 0.8875347456 -0.0173127521
179150000.0 0.8613811532 -0.1223308439
184125000.0 0.8265441588 -0.2155265375
189100000.0 0.7871809436 -0.2972390024
194075000.0 0.7461181914 -0.3689777825
199050000.0 0.7047582273 -0.4322671558
204025000.0 0.6635597984 -0.4889968482
209000000.0 0.6218678859 -0.5405806224
213975000.0 0.5791126901 -0.5878309646
218950000.0 0.5346618547 -0.6308769421
223925000.0 0.487901392 -0.6698696961
228900000.0 0.4388869557 -0.704902665
233875000.0 0.3871568123 -0.7358536608
238850000.0 0.331868735 -0.7626725689
243825000.0 0.2669002919 -0.7861176294
248800000.0 0.199422865 -0.5749820702
253775000.0 0.213437986 -0.7981068475
258750000.0 0.1523534511 -0.8135940299
263725000.0 0.100287137 -0.8212980306
268700000.0 0.0519833149 -0.8248475063
273675000.0 0.0064366265 -0.8257956649
278650000.0 -0.0372664265 -0.824544365
283625000.0 -0.0798916487 -0.8211695116
288600000.0 -0.1223932286 -0.8167576863
293575000.0 -0.1659743171 -0.8102938602
298550000.0 -0.2113583801 -0.8010203759
303525000.0 -0.2585920566 -0.7878629085
308500000.0 -0.3075223913 -0.7700254155
313475000.0 -0.3571132161 -0.7463015124
318450000.0 -0.4065682791 -0.7156583455
323425000.0 -0.4543653834 -0.677935108
328400000.0 -0.4988325399 -0.6336247153
333375000.0 -0.5389424628 -0.5822102373
338350000.0 -0.5738538796 -0.5246886232
343325000.0 -0.6015452113 -0.4621622361
348300000.0 -0.6198036142 -0.395246736
353275000.0 -0.629954758 -0.3257390059
358250000.0 -0.6298320835 -0.2556527794
363225000.0 -0.6190751153 -0.185825002
368200000.0 -0.5995354222 -0.1185122013
373175000.0 -0.5712988047 -0.0573903041
378150000.0 -0.5351306708 -0.0031696599
383125000.0 -0.493825073 0.0437361115
388100000.0 -0.4491746181 0.0821588818
393075000.0 -0.4017292629 0.1120346928
398050000.0 -0.3537742762 0.1341511238
403025000.0 -0.3075087988 0.1485335183
408000000.0 -0.2623290338 0.1557104073
412975000.0 -0.2187215705 0.1574206848
417950000.0 -0.1789418493 0.1544723228
422925000.0 -0.1432445957 0.1469592412
427900000.0 -0.1110025592 0.1364063994
432875000.0 -0.0826373566 0.1229959956
437850000.0 -0.0584360935 0.106945092
442825000.0 -0.0376560156 0.090350176
447800000.0 -0.0208363597 0.0740772084
452775000.0 -0.0078281813 0.0568810003
457750000.0 0.0019048937 0.0401579256
462725000.0 0.00829486 0.0248603159
467700000.0 0.0119996089 0.0102100741
472675000.0 0.0135298297 -0.0037351322
477650000.0 0.0122581496 -0.0164127712
482625000.0 0.0090604214 -0.0280105192
487600000.0 0.0028499745 -0.0375534158
492575000.0 -0.0129718187 -0.0409714268
497550000.0 0.0275889618 0.0043078487
502525000.0 0.0200779075 -0.0521180722
507500000.0 0.008024855 -0.0611563621
512475000.0 -0.0008442716 -0.0664707554
517450000.0 -0.0086050355 -0.0698325034
522425000.0 -0.0159680674 -0.0717080254
527400000.0 -0.0227111141 -0.0725545568
532375000.0 -0.0291762497 -0.0721900206
537350000.0 -0.0358990867 -0.0708078686
542325000.0 -0.0425740299 -0.0682587353
547300000.0 -0.0492487669 -0.0636983122
552275000.0 -0.0549153004 -0.058102142
557250000.0 -0.0601060369 -0.0520143395
562225000.0 -0.0647596528 -0.0450089464
567200000.0 -0.0694203299 -0.0375373315
572175000.0 -0.0734614705 -0.0299761482
577150000.0 -0.0767098648 -0.0213913391
582125000.0 -0.0790416408 -0.0122688948
587100000.0 -0.0802985913 -0.0028619561
592075000.0 -0.0809137104 0.0063057654
597050000.0 -0.080346907 0.0167226045
602025000.0 -0.0787482449 0.0265368494
607000000.0 -0.0759033513 0.0359884459
611975000.0 -0.0718417696 0.0452528646
616950000.0 -0.066772772 0.0542124865
621925000.0 -0.0603964357 0.0627452609
626900000.0 -0.0535987683 0.0708792577
631875000.0 -0.0462072179 0.078228744
636850000.0 -0.0383127691 0.0847597782
641825000.0 -0.0298476265 0.0905291802
646800000.0 -0.021366353 0.0959214867
651775000.0 -0.0130587878 0.1004265325
656750000.0 -0.0046321486 0.1042237967
661725000.0 0.0042934081 0.1075307799
666700000.0 0.0133382567 0.1109029255
671675000.0 0.0220801752 0.1138983522
676650000.0 0.0311582524 0.1160930682
681625000.0 0.041113887 0.1175525689
686600000.0 0.0516853503 0.1182400413
691575000.0 0.0632148284 0.1178877356
696550000.0 0.0756415312 0.1169607134
701525000.0 0.0884187771 0.115071576
706500000.0 0.1011393344 0.1114389956
711475000.0 0.1142811464 0.1064742295
716450000.0 0.1276106775 0.1004654344
721425000.0 0.1404577696 0.0929619688
726400000.0 0.1532494549 0.0837321696
731375000.0 0.1654916522 0.0733290788
736350000.0 0.1770800153 0.0617604515
741325000.0 0.1876392106 0.0488637126
746300000.0 0.1969855257 0.0347026195
751275000.0 0.2053639755 0.0192381276
756250000.0 0.2124547785 0.0028177056
761225000.0 0.2178692936 -0.0145994108
766200000.0 0.2218209521 -0.032521294
771175000.0 0.2245862021 -0.0515396168
776150000.0 0.2258069049 -0.070569098
781125000.0 0.2252711586 -0.0897804619
786100000.0 0.2230426545 -0.1090280238
791075000.0 0.2192176876 -0.1286856925
796050000.0 0.2137066487 -0.1478751613
801025000.0 0.206581687 -0.1669061643
806000000.0 0.1980925968 -0.1853615518
810975000.0 0.1881758285 -0.2028986375
815950000.0 0.1766748819 -0.2188647223
820925000.0 0.1637153986 -0.2339727845
825900000.0 0.1495371812 -0.24835914
830875000.0 0.1349003632 -0.2618651806
835850000.0 0.1199254587 -0.2734928333
840825000.0 0.1040971405 -0.2838682062
845800000.0 0.088195421 -0.2940697868
850775000.0 0.072058245 -0.3030879956
855750000.0 0.055316143 -0.311284073
860725000.0 0.0378534747 -0.3191447368
865700000.0 0.0192319468 -0.326445635
870675000.0 -0.0012087352 -0.3329449796
875650000.0 -0.0231718847 -0.3383615652
880625000.0 -0.0466088181 -0.3419234275
885600000.0 -0.0717368593 -0.3434899667
890575000.0 -0.0982906541 -0.3425192167
895550000.0 -0.126193558 -0.3387363485
900525000.0 -0.1548894195 -0.3322680678
905500000.0 -0.1838551886 -0.3226050108
910475000.0 -0.2129219989 -0.3094603421
915450000.0 -0.2413808345 -0.2930643428
920425000.0 -0.2690965833 -0.2728619119
925400000.0 -0.2961753018 -0.2488992384
930375000.0 -0.3215567216 -0.2216618719
935350000.0 -0.3456493946 -0.1910140193
940325000.0 -0.3678494111 -0.1559031313
945300000.0 -0.3877431628 -0.1165979583
950275000.0 -0.4054997385 -0.0730193309
955250000.0 -0.4205747473 -0.0242116514
960225000.0 -0.4313669424 0.0299703383
965200000.0 -0.4367054329 0.0896154005
970175000.0 -0.4351073219 0.1547735615
975150000.0 -0.4245872221 0.2245592692
980125000.0 -0.4032529878 0.2974043625
985100000.0 -0.3688357426 0.3712460381
990075000.0 -0.320725941 0.4422257356
995050000.0 -0.259192168 0.507846933
1000025000.0 -0.1846725865 0.5653415006
1005000000.0 -0.097808763 0.6119793864
1009975000.0 0.0004881264 0.6435215723
1014950000.0 0.1064198897 0.6557356726
1019925000.0 0.2154182627 0.6474327984
1024900000.0 0.3226944235 0.6179143293
1029875000.0 0.4231557506 0.5682777256
1034850000.0 0.5122193834 0.5005863761
1039825000.0 0.5874272007 0.4182162404
1044800000.0 0.6468356396 0.32429786
1049775000.0 0.6893740168 0.2214113894
1054750000.0 0.711635671 0.1115754205
1059725000.0 0.7039274317 0.0020993787
1064700000.0 0.6713012016 -0.0642357475
1069675000.0 0.6881360312 -0.1191312661
1074650000.0 0.6921300307 -0.2171028252
1079625000.0 0.6642063675 -0.3149114406
1084600000.0 0.622095826 -0.3939342106
1089575000.0 0.5792496958 -0.4798135282
1094550000.0 0.5101639264 -0.55841062
1099525000.0 0.4301554377 -0.6192408435
1104500000.0 0.3449900262 -0.6641073251
1109475000.0 0.2578306002 -0.6949225081
1114450000.0 0.1711457028 -0.7128473268
1119425000.0 0.0869021971 -0.7199676659
1124400000.0 0.0051896862 -0.7183734236
1129375000.0 -0.0752265849 -0.7088938317
1134350000.0 -0.1540493997 -0.689913245
1139325000.0 -0.2298449878 -0.6607244479
1144300000.0 -0.3001331672 -0.6211175602
1149275000.0 -0.3630668923 -0.5737986703
1154250000.0 -0.417773957 -0.5199909577
1159225000.0 -0.4625894395 -0.4622445547
1164200000.0 -0.4983733437 -0.4033366679
1169175000.0 -0.5259665119 -0.3459818292
1174150000.0 -0.5488112416 -0.2910671187
1179125000.0 -0.5674337615 -0.2356011084
1184100000.0 -0.5806583344 -0.1800214924
1189075000.0 -0.5880291392 -0.1256950389
1194050000.0 -0.5901212127 -0.0741180029
1199025000.0 -0.5878468433 -0.0258259605
1204000000.0 -0.581244865 0.0193114715
1208975000.0 -0.5719248441 0.0602019274
1213950000.0 -0.5603622581 0.0976830155
1218925000.0 -0.5477252389 0.1314360614
1223900000.0 -0.53481851 0.1618951919
1228875000.0 -0.5228483269 0.1891334819
1233850000.0 -0.5111901088 0.2134506548
1238825000.0 -0.5007560271 0.2364520059
1243800000.0 -0.4911625648 0.2587908888
1248775000.0 -0.481757058 0.2797455792
1253750000.0 -0.4721895839 0.3001013928
1258725000.0 -0.4625487333 0.3206082579
1263700000.0 -0.4516295246 0.3395900977
1268675000.0 -0.4406129053 0.3577421532
1273650000.0 -0.4289382473 0.3745202732
1278625000.0 -0.4156596226 0.3898109059
1283600000.0 -0.401837224 0.4037939787
1288575000.0 -0.3875867936 0.4154136315
1293550000.0 -0.3724726487 0.4253540731
1298525000.0 -0.3569607128 0.4340742668
1303500000.0 -0.3422334377 0.4396198249
1308475000.0 -0.3279076025 0.4436012377
1313450000.0 -0.3155604474 0.4456113272
1318425000.0 -0.3061408745 0.445498638
1323400000.0 -0.2994277632 0.444417263
1328375000.0 -0.2967511123 0.4434376219
1333350000.0 -0.2972712777 0.4435491491
1338325000.0 -0.3001584001 0.4462627925
1343300000.0 -0.3039119795 0.4516054394
1348275000.0 -0.3069024524 0.4593301328
1353250000.0 -0.3080021184 0.4693671293
1358225000.0 -0.3067403931 0.4802510584
1363200000.0 -0.3023957906 0.4914516093
1368175000.0 -0.295666881 0.5024195433
1373150000.0 -0.2869240556 0.5124617583
1378125000.0 -0.2756672914 0.5215821246
1383100000.0 -0.2632035815 0.5290955599
1388075000.0 -0.2496812089 0.5352552035
1393050000.0 -0.2347251186 0.5389154166
1398025000.0 -0.2198346998 0.541774011
1403000000.0 -0.2051185646 0.5423308107
1407975000.0 -0.1905212215 0.5402195088
1412950000.0 -0.1773436143 0.5366080294
1417925000.0 -0.1668786677 0.5311047559
1422900000.0 -0.1597304166 0.5238411068
1427875000.0 -0.1565207462 0.516845818
1432850000.0 -0.1571238836 0.5103202755
1437825000.0 -0.1609611667 0.5062725649
1442800000.0 -0.1661782421 0.5050156892
1447775000.0 -0.171247984 0.507602706
1452750000.0 -0.1738766541 0.5122691921
1457725000.0 -0.1741875636 0.5186488915
1462700000.0 -0.170811901 0.5269862339
1467675000.0 -0.1644755066 0.5361581629
1472650000.0 -0.155029484 0.5438025673
1477625000.0 -0.1428347247 0.5509202899
1482600000.0 -0.1294940642 0.5586184208
1487575000.0 -0.114260677 0.5632399432
1492550000.0 -0.0973883242 0.5659346584
1497525000.0 -0.0797490443 0.568346182
1502500000.0 -0.0621605079 0.5701912126
1507475000.0 -0.0431888092 0.569497918
1512450000.0 -0.0258883588 0.5677674439
1517425000.0 -0.0097221561 0.5649329094
1522400000.0 0.0067954833 0.5615452839
1527375000.0 0.0210006936 0.5567663207
1532350000.0 0.0337130761 0.5511348649
1537325000.0 0.0463061324 0.5472884313
1542300000.0 0.0583735844 0.5426463436
1547275000.0 0.0714051082 0.537083698
1552250000.0 0.0850373269 0.5334177216
1557225000.0 0.0988423332 0.5291657515
1562200000.0 0.1144295757 0.5227333794
1567175000.0 0.1306433909 0.5169718698
1572150000.0 0.1461518536 0.5095740178
1577125000.0 0.162996289 0.5009150895
1582100000.0 0.1800465594 0.492571159
1587075000.0 0.1959468198 0.4821972343
1592050000.0 0.212536222 0.4715786256
1597025000.0 0.2289944338 0.4609761678
1602000000.0 0.2450833086 0.4497712363
1606975000.0 0.2612402526 0.4376723873
1611950000.0 0.2768085767 0.4256715748
1616925000.0 0.2926105607 0.4132404052
1621900000.0 0.307878026 0.4002839747
1626875000.0 0.3232745812 0.3865029768
1631850000.0 0.3384927375 0.3734746715
1636825000.0 0.3525120792 0.3595748674
1641800000.0 0.366505422 0.3447763542
1646775000.0 0.3809168323 0.3301015897
1651750000.0 0.3940940784 0.3153422201
1656725000.0 0.4065855253 0.2995464519
1661700000.0 0.4189606819 0.2841408556
1666675000.0 0.4293269216 0.2682000493
1671650000.0 0.439279092 0.251561125
1676625000.0 0.4487102516 0.2362333365
1681600000.0 0.4550806487 0.2196111769
1686575000.0 0.4606910702 0.2020061062
1691550000.0 0.4652198506 0.1861333362
1696525000.0 0.4669218949 0.1704563133
1701500000.0 0.4672474326 0.1541039164
1706475000.0 0.4658527959 0.1393435291
1711450000.0 0.4617289273 0.1256712354
1716425000.0 0.4545959653 0.1137164463
1721400000.0 0.4456625738 0.1065767206
1726375000.0 0.4372231893 0.1118070905
1731350000.0 0.4438618112 0.1260178664
1736325000.0 0.4609146041 0.121900196
1741300000.0 0.4727458224 0.1113835196
1746275000.0 0.4815881751 0.1006637545
1751250000.0 0.4889903366 0.0894793804
1756225000.0 0.4954502308 0.0786426514
1761200000.0 0.5008104306 0.0682276997
1766175000.0 0.5047270674 0.0570072012
1771150000.0 0.507297956 0.0458590542
1776125000.0 0.5081322384 0.0352013897
1781100000.0 0.5074662124 0.0252921837
1786075000.0 0.5053962756 0.0159738913
1791050000.0 0.5007189182 0.0072655625
1796025000.0 0.4955895794 0.0008834013
1801000000.0 0.4891645683 -0.0035457716
1805975000.0 0.482226266 -0.0068797214
1810950000.0 0.4761237437 -0.0076581518
1815925000.0 0.4711329428 -0.0060276929
1820900000.0 0.4687866027 -0.0040647989
1825875000.0 0.4689943475 -0.0012724324
1830850000.0 0.4703705303 0.0010882681
1835825000.0 0.4742011532 0.002339119
1840800000.0 0.4790175844 0.0021206188
1845775000.0 0.4829795933 0.0003612652
1850750000.0 0.4859626329 -0.0029300322
1855725000.0 0.4878085257 -0.0070819314
1860700000.0 0.4876326867 -0.0123487387
1865675000.0 0.4852715189 -0.0181558367
1870650000.0 0.4810242398 -0.0238531998
1875625000.0 0.4750676187 -0.029743573
1880600000.0 0.4663017646 -0.0356869295
1885575000.0 0.4559936862 -0.040640047
1890550000.0 0.4434982752 -0.0447501013
1895525000.0 0.4296743524 -0.0475422463
1900500000.0 0.4145757234 -0.0483077001
1905475000.0 0.3998376749 -0.0473949499
1910450000.0 0.3853346873 -0.0442122043
1915425000.0 0.3732558915 -0.0389026531
1920400000.0 0.3633226661 -0.0331129617
1925375000.0 0.3557665943 -0.0270069865
1930350000.0 0.3503172072 -0.0218881968
1935325000.0 0.345527545 -0.018998378
1940300000.0 0.3399592112 -0.0175343942
1945275000.0 0.3336231104 -0.0175720956
1950250000.0 0.3243310669 -0.0187680162
1955225000.0 0.3134699717 -0.0199843536
1960200000.0 0.3007296678 -0.022166096
1965175000.0 0.2847585449 -0.0233220753
1970150000.0 0.2671490424 -0.0247298944
1975125000.0 0.2470787217 -0.0260252954
1980100000.0 0.2244441449 -0.0257936058
1985075000.0 0.2005282162 -0.0252894163
1990050000.0 0.1734162133 -0.0249127441
1995025000.0 0.1441956626 -0.0211725572
2000000000.0 0.1121172527 -0.0172393733
