!Created with skrf (http://scikit-rf.org).
# GHz S RI R 50.0 
!freq ReS11 ImS11
10000000.0 -0.9800119027 0.0763415184
19950000.0 -0.9692959526 0.1457284745
29900000.0 -0.9534588639 0.2169399766
39850000.0 -0.9306516302 0.2917117724
49800000.0 -0.8976964532 0.3729834558
59750000.0 -0.8519065814 0.4620766839
69700000.0 -0.7885134719 0.5595101192
79650000.0 -0.7023126938 0.665393094
89600000.0 -0.5838161707 0.7751253032
99550000.0 -0.4236575264 0.8787603873
109500000.0 -0.2135021573 0.958297995
119450000.0 0.0476409803 0.98515969
129400000.0 0.3378822295 0.9293397958
139350000.0 0.6134412545 0.7770026984
149300000.0 0.8275552553 0.5421493547
159250000.0 0.9501971941 0.2672023376
169200000.0 0.981630841 -0.00269924
179150000.0 0.9434552544 -0.2366174554
189100000.0 0.8637519683 -0.4237291601
199050000.0 0.7662216405 -0.5665364144
209000000.0 0.6640304768 -0.6722775576
218950000.0 0.5648186717 -0.7512099511
228900000.0 0.4705482184 -0.8094246181
238850000.0 0.3739089416 -0.8528889283
248800000.0 0.2373063627 -0.6046134683
258750000.0 0.2383930405 -0.8863386139
268700000.0 0.1438119933 -0.8992952781
278650000.0 0.052525847 -0.9008192928
288600000.0 -0.0393314514 -0.892658927
298550000.0 -0.1326743892 -0.8720134358
308500000.0 -0.2284351703 -0.8357814406
318450000.0 -0.3248795787 -0.7774510571
328400000.0 -0.4177195626 -0.6923192929
338350000.0 -0.4983577934 -0.5774052099
348300000.0 -0.5542248064 -0.4359919615
358250000.0 -0.5719522378 -0.2796213143
368200000.0 -0.5455748344 -0.1257931227
378150000.0 -0.4795133238 0.0054642069
388100000.0 -0.3861916857 0.1023719835
398050000.0 -0.281844764 0.1627036812
408000000.0 -0.1814681236 0.190805333
417950000.0 -0.0944825407 0.1949863174
427900000.0 -0.0261566735 0.1837780707
437850000.0 0.023123841 0.1622408458
447800000.0 0.0550101334 0.1349769893
457750000.0 0.0721324985 0.1049890558
467700000.0 0.0771546631 0.0757324463
477650000.0 0.0729844131 0.0487760511
487600000.0 0.0582454218 0.0249272433
497550000.0 -0.0079782679 0.0312093943
507500000.0 0.0524797353 0.0187115458
517450000.0 0.0246503003 0.0065251979
527400000.0 -0.0015028803 0.0043466985
537350000.0 -0.0272488348 0.0062860417
547300000.0 -0.0560668386 0.0125528216
557250000.0 -0.077118143 0.0244862215
567200000.0 -0.094399718 0.0368726374
577150000.0 -0.1083262972 0.0509156312
587100000.0 -0.1191950712 0.0672702792
597050000.0 -0.1275689991 0.0837674197
607000000.0 -0.1326604312 0.0998844922
616950000.0 -0.1347644681 0.114189714
626900000.0 -0.1332434886 0.1261983025
636850000.0 -0.1276565381 0.135451931
646800000.0 -0.1173349118 0.1427369139
656750000.0 -0.1032937739 0.1480842329
666700000.0 -0.0856686192 0.1522209065
676650000.0 -0.0664841148 0.1538879271
686600000.0 -0.0464317727 0.151741427
696550000.0 -0.0245562838 0.144699172
706500000.0 -0.0020121166 0.1314231812
716450000.0 0.0228868948 0.1114641846
726400000.0 0.0495601386 0.0857319492
736350000.0 0.0767958995 0.0553343436
746300000.0 0.1027673006 0.021922145
756250000.0 0.1252944623 -0.0148212294
766200000.0 0.1415740626 -0.0545484546
776150000.0 0.1495983487 -0.097614125
786100000.0 0.1502892318 -0.1415612254
796050000.0 0.1457440058 -0.1871962446
806000000.0 0.1379121439 -0.2349955192
815950000.0 0.1260872581 -0.2808560195
825900000.0 0.1113853559 -0.3221732986
835850000.0 0.0933101246 -0.3575227474
845800000.0 0.0703559384 -0.3854151695
855750000.0 0.0415154543 -0.4063441637
865700000.0 0.0070193753 -0.422410811
875650000.0 -0.0324159499 -0.433274167
885600000.0 -0.0759858537 -0.4396490345
895550000.0 -0.1213842416 -0.4401153252
905500000.0 -0.1680888737 -0.4322400049
915450000.0 -0.2166206053 -0.4124294424
925400000.0 -0.2679372605 -0.3749295444
935350000.0 -0.3202271675 -0.3088769393
945300000.0 -0.3344001439 -0.2047050815
955250000.0 -0.3360547955 -0.1642753395
965200000.0 -0.3879177013 -0.0760680426
975150000.0 -0.4110732303 0.0604641182
985100000.0 -0.3850056958 0.2251380436
995050000.0 -0.2920179892 0.3992154254
1005000000.0 -0.1223476275 0.5509416533
1014950000.0 0.1121836291 0.6377313557
1024900000.0 0.3705279884 0.6289727663
1034850000.0 0.5997539947 0.5237156285
1044800000.0 0.7625683758 0.3472493366
1054750000.0 0.8388197801 0.1295905502
1064700000.0 0.7843585483 -0.0769168942
1074650000.0 0.7831334025 -0.1368719225
1084600000.0 0.7564916038 -0.291530823
1094550000.0 0.6872241406 -0.4561461468
1104500000.0 0.5536603732 -0.5828749885
1114450000.0 0.3868390502 -0.6633510275
1124400000.0 0.2017880272 -0.6950473065
1134350000.0 0.0157907181 -0.6773785573
1144300000.0 -0.1546258734 -0.615398438
1154250000.0 -0.2963476274 -0.5183854222
1164200000.0 -0.3996691812 -0.4002725003
1174150000.0 -0.4675396572 -0.279726876
1184100000.0 -0.51495002 -0.1619981337
1194050000.0 -0.5415423048 -0.0456619212
1204000000.0 -0.5492211984 0.0578899371
1213950000.0 -0.545016626 0.1452457541
1223900000.0 -0.5350209279 0.2151639354
1233850000.0 -0.5217189952 0.2714817442
1243800000.0 -0.5062800654 0.3168032176
1253750000.0 -0.4890364844 0.355674602
1263700000.0 -0.4716305483 0.3898293565
1273650000.0 -0.4562670388 0.4195128192
1283600000.0 -0.4448111081 0.4452478437
1293550000.0 -0.4376073749 0.4656603069
1303500000.0 -0.435039786 0.4799040295
1313450000.0 -0.435252101 0.4886753658
1323400000.0 -0.4360439691 0.4929225462
1333350000.0 -0.4355203659 0.4951175418
1343300000.0 -0.4332075954 0.4982017877
1353250000.0 -0.4304278164 0.5031255998
1363200000.0 -0.4272880726 0.5090995802
1373150000.0 -0.4244388224 0.5145113624
1383100000.0 -0.4229047832 0.5180182488
1393050000.0 -0.4227249358 0.5179150012
1403000000.0 -0.4218559892 0.5139257587
1412950000.0 -0.4186907729 0.505892446
1422900000.0 -0.4125782579 0.4966622528
1432850000.0 -0.4036758604 0.4870710118
1442800000.0 -0.3941575061 0.4794188931
1452750000.0 -0.3870287605 0.4754479958
1462700000.0 -0.3804369077 0.4762018771
1472650000.0 -0.3735775119 0.4803510495
1482600000.0 -0.3634370483 0.4849727177
1492550000.0 -0.3487690192 0.4879404037
1502500000.0 -0.3283324482 0.4878303883
1512450000.0 -0.3028603973 0.4873320469
1522400000.0 -0.2710784112 0.4858609986
1532350000.0 -0.2351192378 0.4858373081
1542300000.0 -0.1949448866 0.4852479604
1552250000.0 -0.1513971639 0.4848198899
1562200000.0 -0.1067150421 0.4818648757
1572150000.0 -0.060510375 0.4747755536
1582100000.0 -0.0123414511 0.4643198109
1592050000.0 0.0379219662 0.4507015577
1602000000.0 0.0897618233 0.4337910434
1611950000.0 0.1409866408 0.4147717447
1621900000.0 0.190632137 0.3938361019
1631850000.0 0.2386614704 0.3712259536
1641800000.0 0.2821363973 0.3470891
1651750000.0 0.3240641191 0.3187543926
1661700000.0 0.3631060203 0.2893878991
1671650000.0 0.3989721991 0.2587354076
1681600000.0 0.432665008 0.229403584
1691550000.0 0.4634045411 0.2029674096
1701500000.0 0.4897243566 0.1798262251
1711450000.0 0.5112946152 0.1583048873
1721400000.0 0.522133936 0.1357390809
1731350000.0 0.5007522433 0.1314228423
1741300000.0 0.5437593267 0.1575652894
1751250000.0 0.569421165 0.1344075772
1761200000.0 0.581911515 0.1169958698
1771150000.0 0.5910959668 0.1061438288
1781100000.0 0.5982845708 0.1006108709
1791050000.0 0.6036036339 0.1006164348
1801000000.0 0.6063549118 0.1043426498
1810950000.0 0.6066458623 0.1096415053
1820900000.0 0.6048344641 0.1146341005
1830850000.0 0.6022786313 0.1175716246
1840800000.0 0.5988202589 0.1193457876
1850750000.0 0.5939769094 0.1201089974
1860700000.0 0.5869500509 0.1214231946
1870650000.0 0.5771760927 0.1250159341
1880600000.0 0.5635278237 0.1314311222
1890550000.0 0.5451233028 0.1400886793
1900500000.0 0.5230509585 0.1488300441
1910450000.0 0.4984195813 0.1553094801
1920400000.0 0.4724558211 0.158209138
1930350000.0 0.4455635863 0.1573243182
1940300000.0 0.4168635367 0.1535372254
1950250000.0 0.3849085038 0.1483440575
1960200000.0 0.3482139648 0.1432865322
1970150000.0 0.3041103527 0.1391872642
1980100000.0 0.2513771012 0.1379581937
1990050000.0 0.1889795176 0.1400627201
2000000000.0 0.1167787604 0.1461644412
