!Created with skrf (http://scikit-rf.org).
# GHz S RI R 50.0 
!freq ReS11 ImS11
10000000.0 -0.7673925736 0.6764984368
19950000.0 -0.1361862471 0.9882845595
29900000.0 0.5385697433 0.8164438221
39850000.0 0.9432476159 0.2439517523
49800000.0 0.8713594237 -0.4652711266
59750000.0 0.3278294673 -0.9558834812
69700000.0 -0.4269178047 -0.9342444924
79650000.0 -0.9552991073 -0.3657515946
89600000.0 -0.9033557536 0.4260097401
99550000.0 -0.2709468793 0.9316736673
109500000.0 0.5467931998 0.7868923195
119450000.0 0.9725374902 0.0388806931
129400000.0 0.6083828679 -0.7843041592
139350000.0 -0.2711759552 -0.9763015873
149300000.0 -0.9314527763 -0.3437052203
159250000.0 -0.7954373443 0.5349763568
169200000.0 -0.0434486257 0.9401085267
179150000.0 0.7176626163 0.6245400991
189100000.0 0.9681995705 -0.1352920216
199050000.0 0.5788937626 -0.8110327314
209000000.0 -0.1619558003 -0.9791586743
218950000.0 -0.7768547749 -0.5773835807
228900000.0 -0.9318816008 0.1199290381
238850000.0 -0.5730222858 0.723192125
248800000.0 0.0300434835 0.7017271027
258750000.0 0.6817488261 0.6516503933
268700000.0 0.9613117322 0.0233031003
278650000.0 0.7355278654 -0.6206805671
288600000.0 0.1343706554 -0.9301260492
298550000.0 -0.5064347283 -0.7437563488
308500000.0 -0.837707136 -0.1747721755
318450000.0 -0.6822566505 0.4558275727
328400000.0 -0.1341768231 0.785526006
338350000.0 0.4660093074 0.6169268398
348300000.0 0.7250105201 0.0813929684
358250000.0 0.4990200895 -0.4219589116
368200000.0 0.0193797323 -0.5515527549
378150000.0 -0.333006722 -0.2953355716
388100000.0 -0.3482880669 0.0782898658
398050000.0 -0.108334349 0.2813972017
408000000.0 0.1457244998 0.2229404176
417950000.0 0.2312720695 0.0249887314
427900000.0 0.1401291971 -0.1315430886
437850000.0 -0.0132754602 -0.1501000178
447800000.0 -0.1087759604 -0.0561975736
457750000.0 -0.0981984883 0.0588176933
467700000.0 -0.0161185925 0.1134920847
477650000.0 0.0628803944 0.088830723
487600000.0 0.0835787877 0.0247755951
497550000.0 0.0682006701 0.0561121572
507500000.0 0.0371928456 -0.0456899579
517450000.0 0.0034417068 -0.0236862781
527400000.0 0.0070817718 -0.0034424118
537350000.0 0.0237647538 -0.0100546056
547300000.0 0.0222183483 -0.0445459086
557250000.0 -0.0254251946 -0.0694316062
567200000.0 -0.087338604 -0.0472709835
577150000.0 -0.1217126089 0.0228845381
587100000.0 -0.0936726295 0.1087342006
597050000.0 -0.0035730684 0.1573473099
607000000.0 0.1067105741 0.1288824528
616950000.0 0.1753305161 0.0259269121
626900000.0 0.159028409 -0.1041719906
636850000.0 0.058333528 -0.1954701803
646800000.0 -0.0795133303 -0.1982687597
656750000.0 -0.1841437237 -0.108609836
666700000.0 -0.1994158037 0.0264543517
676650000.0 -0.1187802684 0.1326068604
686600000.0 0.0107868084 0.150918834
696550000.0 0.1112307738 0.0724818539
706500000.0 0.1132271857 -0.046006501
716450000.0 0.0547449102 -0.0936599615
726400000.0 -0.0130998729 -0.1201719488
736350000.0 -0.0797719556 -0.0719124818
746300000.0 -0.0719186652 0.0101664402
756250000.0 0.0068569689 0.0488630184
766200000.0 0.0937837427 0.0007893244
776150000.0 0.1105563331 -0.1123826868
786100000.0 0.0242107095 -0.2108622619
796050000.0 -0.1268070003 -0.2121099818
806000000.0 -0.2455126471 -0.0860606335
815950000.0 -0.2369557759 0.1110667932
825900000.0 -0.0761725758 0.2610687294
835850000.0 0.1643681082 0.260362396
845800000.0 0.3545053997 0.0850282691
855750000.0 0.3789901569 -0.1871267371
865700000.0 0.206751345 -0.4164327019
875650000.0 -0.0860309714 -0.4730669997
885600000.0 -0.3517058763 -0.3116399614
895550000.0 -0.4420046371 -0.0012477761
905500000.0 -0.2921485606 0.2984795757
915450000.0 0.0306896838 0.4169611868
925400000.0 0.3496359032 0.2748595535
935350000.0 0.476091761 -0.053825038
945300000.0 0.3267999215 -0.3748831873
955250000.0 -0.0158459979 -0.4833681664
965200000.0 -0.3319285546 -0.2890961186
975150000.0 -0.3808326981 0.099964116
985100000.0 -0.0701870789 0.3879432341
995050000.0 0.3782347055 0.2746976989
1005000000.0 0.5285268614 -0.2114697071
1014950000.0 0.1561035323 -0.631582697
1024900000.0 -0.455240202 -0.5322674598
1034850000.0 -0.7358252854 0.0901755213
1044800000.0 -0.3394308723 0.7184433246
1054750000.0 0.4394025224 0.7233452442
1064700000.0 0.8212484164 0.1219112358
1074650000.0 0.6975793816 -0.5346742877
1084600000.0 0.1060708018 -0.8003766708
1094550000.0 -0.4919358573 -0.6632124345
1104500000.0 -0.7878742491 -0.0637827744
1114450000.0 -0.5166366388 0.5462120079
1124400000.0 0.11910956 0.7079859358
1134350000.0 0.6037483963 0.3198335081
1144300000.0 0.5930374518 -0.2478357156
1154250000.0 0.1891803354 -0.5665668398
1164200000.0 -0.2746290146 -0.478611287
1174150000.0 -0.5067835231 -0.0974762948
1184100000.0 -0.3751276416 0.3271547744
1194050000.0 0.03621033 0.4934006204
1204000000.0 0.4181353025 0.2840952032
1213950000.0 0.5108673117 -0.1254139291
1223900000.0 0.2925833622 -0.4653298264
1233850000.0 -0.088864632 -0.5639152743
1243800000.0 -0.4411757001 -0.3874798637
1253750000.0 -0.5952399412 -0.0165170975
1263700000.0 -0.4618741528 0.37580625
1273650000.0 -0.0900215993 0.5833618755
1283600000.0 0.3284465713 0.4883351335
1293550000.0 0.5791800353 0.1469354547
1303500000.0 0.5585808885 -0.2652528927
1313450000.0 0.2995347727 -0.5723622368
1323400000.0 -0.0855761124 -0.6667612864
1333350000.0 -0.4553931292 -0.5171283216
1343300000.0 -0.6692683159 -0.1676713234
1353250000.0 -0.6241862427 0.254249088
1363200000.0 -0.3149009198 0.5632455262
1373150000.0 0.125632797 0.6048631788
1383100000.0 0.4891027728 0.3612665188
1393050000.0 0.6216152289 -0.0411940969
1403000000.0 0.4922351467 -0.4272302876
1412950000.0 0.1717546834 -0.6570366539
1422900000.0 -0.2149623264 -0.6598568664
1432850000.0 -0.5297562851 -0.4380599891
1442800000.0 -0.6530250926 -0.0705097367
1452750000.0 -0.5266166887 0.3028991101
1462700000.0 -0.1908296723 0.5236228824
1472650000.0 0.2110784423 0.4852303617
1482600000.0 0.4943562318 0.2043962731
1492550000.0 0.5375278854 -0.1809229208
1502500000.0 0.3405773381 -0.4980073127
1512450000.0 0.0021238304 -0.6221251126
1522400000.0 -0.3346193851 -0.5129638597
1532350000.0 -0.5283137604 -0.2198863632
1542300000.0 -0.4914892127 0.1290095481
1552250000.0 -0.2349341688 0.3698708489
1562200000.0 0.1135747382 0.3798238856
1572150000.0 0.3712910203 0.1588538912
1582100000.0 0.4097424951 -0.1665271679
1592050000.0 0.224546321 -0.4226618866
1602000000.0 -0.0753640756 -0.4865144095
1611950000.0 -0.3384883508 -0.3343033366
1621900000.0 -0.4331098631 -0.0420329076
1631850000.0 -0.3021921662 0.2448402782
1641800000.0 -0.0037150836 0.3681096467
1651750000.0 0.3035741568 0.2472542873
1661700000.0 0.4412613147 -0.0563189977
1671650000.0 0.3329415897 -0.3722023875
1681600000.0 0.0415483937 -0.5316802172
1691550000.0 -0.284715338 -0.4615683976
1701500000.0 -0.4957518492 -0.1969000011
1711450000.0 -0.4946437085 0.1508608043
1721400000.0 -0.2637468027 0.4300037699
1731350000.0 0.1070235015 0.4954209853
1741300000.0 0.4333356638 0.29237125
1751250000.0 0.5232938849 -0.0688054552
1761200000.0 0.4033480403 -0.3406143162
1771150000.0 0.1631693075 -0.5690329219
1781100000.0 -0.2059411407 -0.5814735218
1791050000.0 -0.5010030068 -0.3649152806
1801000000.0 -0.6124231798 -0.0162252416
1810950000.0 -0.4960568063 0.3388029909
1820900000.0 -0.1799125329 0.5589233357
1830850000.0 0.2139665922 0.5329535925
1840800000.0 0.502790596 0.260153737
1850750000.0 0.5502470259 -0.1261167481
1860700000.0 0.3573870159 -0.443039871
1870650000.0 0.0337580426 -0.5753111834
1880600000.0 -0.2887306006 -0.5036932551
1890550000.0 -0.5077543808 -0.2755355064
1900500000.0 -0.5604582277 0.0277869441
1910450000.0 -0.4314000988 0.3034425009
1920400000.0 -0.1653263861 0.4463160927
1930350000.0 0.1254901875 0.3948151536
1940300000.0 0.3088416542 0.181762047
1950250000.0 0.3148004578 -0.0769311561
1960200000.0 0.1776562613 -0.2618166313
1970150000.0 -0.0118972508 -0.3182086163
1980100000.0 -0.1648183256 -0.2621241598
1990050000.0 -0.233301868 -0.1564381048
2000000000.0 -0.2244812337 -0.0756270172
