!Created with skrf (http://scikit-rf.org).
# GHz S RI R 50.0 
!freq ReS11 ImS11
10000000.0 -0.7679095915 0.674069333
19950000.0 -0.140196015 0.9875960281
29900000.0 0.5345757412 0.820319442
39850000.0 0.9428314286 0.2501258817
49800000.0 0.874379364 -0.461018085
59750000.0 0.3290627914 -0.9555889237
69700000.0 -0.432114318 -0.9309062654
79650000.0 -0.9606345121 -0.3479282755
89600000.0 -0.8857062213 0.4584888263
99550000.0 -0.2115343026 0.9460789945
109500000.0 0.6204841399 0.7310606335
119450000.0 0.9712756183 -0.0911166859
129400000.0 0.4819397729 -0.8786112415
139350000.0 -0.4550209733 -0.9002006244
149300000.0 -0.9744571599 -0.1370914955
159250000.0 -0.6583340851 0.6888851329
169200000.0 0.147310275 0.9304108285
179150000.0 0.8216236672 0.4896228624
189100000.0 0.9407539596 -0.2797220139
199050000.0 0.4763110341 -0.8756512079
209000000.0 -0.2533892266 -0.9574961007
218950000.0 -0.8142114495 -0.52194035
228900000.0 -0.927675288 0.1594221721
238850000.0 -0.5677683766 0.7326355154
248800000.0 0.0607779289 0.9256611121
258750000.0 0.6782057119 0.6622075123
268700000.0 0.9637728652 0.0601337988
278650000.0 0.7770027147 -0.5789612782
288600000.0 0.2130467203 -0.9263980968
298550000.0 -0.4310022687 -0.8068332728
308500000.0 -0.8229089217 -0.2903438226
318450000.0 -0.7594603217 0.347330585
328400000.0 -0.2777594545 0.756633058
338350000.0 0.3365351085 0.6993651679
348300000.0 0.6893600022 0.2292465916
358250000.0 0.569769457 -0.2978796965
368200000.0 0.1414555534 -0.5078172106
378150000.0 -0.2213542472 -0.3316591915
388100000.0 -0.2829889747 -0.0089400834
398050000.0 -0.1023774892 0.176059984
408000000.0 0.0931252251 0.1327855698
417950000.0 0.1376332402 -0.0195611193
427900000.0 0.0393547199 -0.1144796982
437850000.0 -0.0844231968 -0.0812653321
447800000.0 -0.127242566 0.037245854
457750000.0 -0.0607530301 0.1441201374
467700000.0 0.0618162304 0.1628151986
477650000.0 0.1553441331 0.0865337544
487600000.0 0.1641727447 -0.0312951539
497550000.0 0.0971302024 -0.1080400364
507500000.0 -0.0003370678 -0.1223771123
517450000.0 -0.0687654947 -0.0714941444
527400000.0 -0.079305701 -0.0026409715
537350000.0 -0.0461953 0.0377793217
547300000.0 -0.0073967501 0.0359436497
557250000.0 0.00031194 0.0089551716
567200000.0 -0.0233743986 -0.0010656622
577150000.0 -0.0461127661 0.0238942077
587100000.0 -0.0338421022 0.0682473274
597050000.0 0.021822647 0.0929266806
607000000.0 0.0928519187 0.0641667281
616950000.0 0.1303017536 -0.017757963
626900000.0 0.1006862411 -0.1147351491
636850000.0 0.0064139788 -0.1728460887
646800000.0 -0.1084835602 -0.1529569984
656750000.0 -0.1828210011 -0.0577847609
666700000.0 -0.1717203341 0.0652003006
676650000.0 -0.07818684 0.1484357823
686600000.0 0.0485351258 0.1442656285
696550000.0 0.1373705815 0.0545110175
706500000.0 0.1384384796 -0.0686426594
716450000.0 0.0579227747 -0.1510740067
726400000.0 -0.049735966 -0.1519269181
736350000.0 -0.118707659 -0.0756984665
746300000.0 -0.1026708075 0.0239370301
756250000.0 -0.0120057818 0.0725179527
766200000.0 0.0866559427 0.0279668417
776150000.0 0.1148095138 -0.0848372711
786100000.0 0.0392814334 -0.1875075419
796050000.0 -0.1024095232 -0.1971002615
806000000.0 -0.2153836536 -0.0834108154
815950000.0 -0.2073033076 0.098272772
825900000.0 -0.0544450289 0.23383297
835850000.0 0.1702782954 0.2205781883
845800000.0 0.3355706944 0.0416610722
855750000.0 0.3322474342 -0.2180979319
865700000.0 0.1417796058 -0.4155407002
875650000.0 -0.1467050981 -0.4296748507
885600000.0 -0.3782222459 -0.2316749998
895550000.0 -0.412125034 0.0865217751
905500000.0 -0.2074860971 0.3514333569
915450000.0 0.1358026013 0.4011645569
925400000.0 0.4211884649 0.1896462761
935350000.0 0.4728904787 -0.1680636542
945300000.0 0.247176289 -0.4592916907
955250000.0 -0.1309346026 -0.4939742818
965200000.0 -0.4220630114 -0.22311631
975150000.0 -0.4003393919 0.2003825882
985100000.0 -0.023571873 0.4612206014
995050000.0 0.4430045718 0.2913016431
1005000000.0 0.5687087319 -0.2309029982
1014950000.0 0.1717673405 -0.6545706623
1024900000.0 -0.4511524521 -0.5510139802
1034850000.0 -0.7377850439 0.080926922
1044800000.0 -0.3263743889 0.7171812004
1054750000.0 0.4557072774 0.6865185192
1064700000.0 0.8702655155 0.0814285459
1074650000.0 0.6293756977 -0.6336376836
1084600000.0 -0.0436136148 -0.8616730441
1094550000.0 -0.6451689875 -0.5200042115
1104500000.0 -0.7742988935 0.1555137007
1114450000.0 -0.334673679 0.6820827778
1124400000.0 0.3345318161 0.6570885323
1134350000.0 0.6997148656 0.1437284364
1144300000.0 0.546682778 -0.4132787493
1154250000.0 0.0709089153 -0.6476232086
1164200000.0 -0.394538233 -0.4782093658
1174150000.0 -0.5981063427 -0.0399426422
1184100000.0 -0.415827657 0.4135030222
1194050000.0 0.0449890559 0.5794321706
1204000000.0 0.4661536243 0.3517233065
1213950000.0 0.584974634 -0.0918869626
1223900000.0 0.3729013103 -0.4760022429
1233850000.0 -0.02498673 -0.6178262485
1243800000.0 -0.4148007437 -0.4714839854
1253750000.0 -0.6224352041 -0.1044284702
1263700000.0 -0.5397364991 0.319991849
1273650000.0 -0.1878548662 0.5881143722
1283600000.0 0.2563026349 0.5513405604
1293550000.0 0.5620842952 0.2347297638
1303500000.0 0.5942336278 -0.1904084309
1313450000.0 0.3660532743 -0.5337054145
1323400000.0 -0.0140858108 -0.6703717146
1333350000.0 -0.4010876642 -0.5561085741
1343300000.0 -0.6479699472 -0.2275683353
1353250000.0 -0.6408170259 0.1956211166
1363200000.0 -0.359652567 0.5284482539
1373150000.0 0.0754284069 0.6040957908
1383100000.0 0.4535495246 0.3866528589
1393050000.0 0.6074856123 -0.0066978954
1403000000.0 0.4947520506 -0.3968528627
1412950000.0 0.1830252323 -0.6361427526
1422900000.0 -0.2020984399 -0.6470392115
1432850000.0 -0.5172775952 -0.4272537935
1442800000.0 -0.6359322548 -0.0558930019
1452750000.0 -0.4952097442 0.3155219114
1462700000.0 -0.1460891788 0.5135014268
1472650000.0 0.2463396508 0.4381802174
1482600000.0 0.4916232773 0.1338079803
1492550000.0 0.4856148119 -0.2415594847
1502500000.0 0.25357421 -0.5157374737
1512450000.0 -0.0888430885 -0.5795789354
1522400000.0 -0.390000032 -0.4151689145
1532350000.0 -0.5138557011 -0.0972951268
1542300000.0 -0.3961721109 0.2238545693
1552250000.0 -0.0905358493 0.383590764
1562200000.0 0.2389338049 0.2938158915
1572150000.0 0.410514219 0.0085729319
1582100000.0 0.3391198411 -0.3092717211
1592050000.0 0.077352571 -0.4898825238
1602000000.0 -0.2337282891 -0.4485225199
1611950000.0 -0.4394083098 -0.2057811693
1621900000.0 -0.4330254121 0.1227592963
1631850000.0 -0.2017425897 0.3731712892
1641800000.0 0.1491798201 0.4017418061
1651750000.0 0.4344478394 0.1770284173
1661700000.0 0.4937800809 -0.1856860551
1671650000.0 0.296464261 -0.4936039593
1681600000.0 -0.0516528373 -0.5986246518
1691550000.0 -0.3899808856 -0.461767229
1701500000.0 -0.5765330076 -0.1440170724
1711450000.0 -0.5320898456 0.2305260354
1721400000.0 -0.2552218419 0.5099834451
1731350000.0 0.1510678074 0.5572610413
1741300000.0 0.5013599915 0.3298199088
1751250000.0 0.6227948199 -0.0707913533
1761200000.0 0.4665173392 -0.4511871455
1771150000.0 0.1215542703 -0.650355364
1781100000.0 -0.2617617399 -0.6104577927
1791050000.0 -0.5490569231 -0.3645744045
1801000000.0 -0.6486590696 0.0009664908
1810950000.0 -0.5196863779 0.3659619179
1820900000.0 -0.1900309283 0.5914711037
1830850000.0 0.2195065798 0.5666419595
1840800000.0 0.5238556101 0.2861519263
1850750000.0 0.581517825 -0.1146612663
1860700000.0 0.3895332019 -0.4483566559
1870650000.0 0.0581695051 -0.5948369257
1880600000.0 -0.2771582318 -0.5324667691
1890550000.0 -0.5114399141 -0.306739188
1900500000.0 -0.5789882641 0.0018177183
1910450000.0 -0.461336965 0.2893557831
1920400000.0 -0.198993615 0.4495204327
1930350000.0 0.0967652933 0.4157942135
1940300000.0 0.2934215688 0.2161058614
1950250000.0 0.3194719035 -0.0380153013
1960200000.0 0.2021286844 -0.2290299555
1970150000.0 0.026900782 -0.300544243
1980100000.0 -0.1206949903 -0.2650086022
1990050000.0 -0.1930955529 -0.1821402479
2000000000.0 -0.2000789949 -0.1210405508
