!Created with skrf (http://scikit-rf.org).
# GHz S RI R 50.0 
!freq ReS11 ImS11
10000000.0 -0.7564258946 0.6778473254
19950000.0 -0.1183282103 0.9859684726
29900000.0 0.5626072774 0.7986284035
39850000.0 0.9546496081 0.1994461878
49800000.0 0.8402894082 -0.5207734122
59750000.0 0.2500935264 -0.9769923077
69700000.0 -0.5068063367 -0.8850406344
79650000.0 -0.9770512393 -0.2645954932
89600000.0 -0.8404570551 0.5200995331
99550000.0 -0.1436352962 0.9528091275
109500000.0 0.6668116699 0.6849639026
119450000.0 0.959521575 -0.1587984128
129400000.0 0.4132026494 -0.9059856545
139350000.0 -0.5141534264 -0.8553798483
149300000.0 -0.9707700661 -0.0622376428
159250000.0 -0.5920106691 0.7345779333
169200000.0 0.2413161782 0.9025800886
179150000.0 0.8728674951 0.3723262697
189100000.0 0.8720544884 -0.4285624718
199050000.0 0.2893843103 -0.9377686776
209000000.0 -0.4508569703 -0.8592412601
218950000.0 -0.8971286567 -0.3019541184
228900000.0 -0.8400974603 0.3873468464
238850000.0 -0.3420017221 0.8501837234
248800000.0 0.3312825787 0.8320157725
258750000.0 0.8415886362 0.4224937317
268700000.0 0.9208671288 -0.2507117217
278650000.0 0.5216366111 -0.7939100103
288600000.0 -0.1320283729 -0.9167884953
298550000.0 -0.6853792146 -0.5712050804
308500000.0 -0.8556522383 0.0490480705
318450000.0 -0.5582016651 0.6113519345
328400000.0 0.0411401854 0.8043922033
338350000.0 0.5834045217 0.50928138
348300000.0 0.7165358243 -0.0687432519
358250000.0 0.3882968744 -0.5054492902
368200000.0 -0.0954839582 -0.5196275851
378150000.0 -0.3649093849 -0.2017351852
388100000.0 -0.2916780004 0.1293494485
398050000.0 -0.0386221071 0.2312413353
408000000.0 0.1358196559 0.11230472
417950000.0 0.1190286707 -0.0483838961
427900000.0 -0.0095488963 -0.1008196631
437850000.0 -0.1038651297 -0.0290716013
447800000.0 -0.0899391233 0.0841871918
457750000.0 0.0059243882 0.1424789034
467700000.0 0.1066668234 0.1073754451
477650000.0 0.144743024 0.0048740767
487600000.0 0.1006083296 -0.0932290808
497550000.0 0.0071955563 -0.1233521635
507500000.0 -0.0706528957 -0.0858581665
517450000.0 -0.0993374007 -0.0114811441
527400000.0 -0.0714405325 0.042058667
537350000.0 -0.0234967445 0.0483685516
547300000.0 0.0011823843 0.0238471887
557250000.0 -0.0120681232 0.0020481529
567200000.0 -0.040180843 0.0120520222
577150000.0 -0.0422278854 0.0463908028
587100000.0 -0.0010155444 0.0719178574
597050000.0 0.0625612875 0.0562137681
607000000.0 0.101708228 -0.0102932975
616950000.0 0.0789879026 -0.0984844006
626900000.0 -0.0067354154 -0.1579146515
636850000.0 -0.1165716913 -0.1449298864
646800000.0 -0.189893375 -0.0536561252
656750000.0 -0.1817812831 0.0715681332
666700000.0 -0.0883466035 0.1603680018
676650000.0 0.0433867045 0.1582626981
686600000.0 0.1401140914 0.0633481548
696550000.0 0.1481856356 -0.0697340207
706500000.0 0.0652005531 -0.1659834657
716450000.0 -0.0572835334 -0.1741515966
726400000.0 -0.1440334268 -0.0960257387
736350000.0 -0.141600937 0.0139064818
746300000.0 -0.0554249741 0.0805632106
756250000.0 0.0509306558 0.0565819663
766200000.0 0.097361635 -0.0419517962
776150000.0 0.0440033023 -0.1438487682
786100000.0 -0.076627536 -0.1671538378
796050000.0 -0.1774565525 -0.0804292682
806000000.0 -0.1742054913 0.0723185394
815950000.0 -0.0431301883 0.18608494
825900000.0 0.1474503694 0.1676994041
835850000.0 0.2767779206 0.0028008277
845800000.0 0.2489229192 -0.2233256025
855750000.0 0.0610624133 -0.3735431184
865700000.0 -0.1916172025 -0.3460360396
875650000.0 -0.3640388623 -0.1358186708
885600000.0 -0.3434062519 0.1507782439
895550000.0 -0.1178915568 0.3499665327
905500000.0 0.1976596335 0.3335996137
915450000.0 0.4167680271 0.0919956497
925400000.0 0.3965366253 -0.2404438416
935350000.0 0.1355166065 -0.4611734562
945300000.0 -0.2123013381 -0.422218341
955250000.0 -0.4274904811 -0.1289119636
965200000.0 -0.3442323273 0.2431632809
975150000.0 0.0167338783 0.4267441215
985100000.0 0.4052345309 0.2398278675
995050000.0 0.479902668 -0.215336797
1005000000.0 0.1207710695 -0.5595529496
1014950000.0 -0.4054075587 -0.446501528
1024900000.0 -0.6313245599 0.0974421658
1034850000.0 -0.2761581922 0.6393250125
1044800000.0 0.4261174999 0.6376810646
1054750000.0 0.8254727675 0.0183984356
1064700000.0 0.5254572439 -0.6516759178
1074650000.0 -0.1252262365 -0.8014782536
1084600000.0 -0.6986536904 -0.426182526
1094550000.0 -0.7590947778 0.2690566713
1104500000.0 -0.252658281 0.7462552336
1114450000.0 0.4268765699 0.6404510858
1124400000.0 0.7381181924 0.058460084
1134350000.0 0.4840024977 -0.5064163839
1144300000.0 -0.0705621257 -0.6580280593
1154250000.0 -0.516144004 -0.3558381143
1164200000.0 -0.577532767 0.1515488084
1174150000.0 -0.2524910629 0.5151307309
1184100000.0 0.2243319638 0.5109823613
1194050000.0 0.5268289736 0.1508038614
1204000000.0 0.4603952534 -0.2968015084
1213950000.0 0.1045823512 -0.5461837781
1223900000.0 -0.313246031 -0.4783230609
1233850000.0 -0.5679386049 -0.1496127332
1243800000.0 -0.5303445173 0.2651895041
1253750000.0 -0.2154447662 0.5476248424
1263700000.0 0.2099893439 0.5410270762
1273650000.0 0.5167345356 0.249417136
1283600000.0 0.5541255215 -0.1677011453
1293550000.0 0.3219305619 -0.5055005693
1303500000.0 -0.0620354429 -0.6210849585
1313450000.0 -0.4324341508 -0.4753940351
1323400000.0 -0.6360867331 -0.1297782213
1333350000.0 -0.5791931595 0.2724185323
1343300000.0 -0.2745882471 0.5512869159
1353250000.0 0.1445134618 0.5697099741
1363200000.0 0.4794480394 0.3168717039
1373150000.0 0.5778420237 -0.083649683
1383100000.0 0.4089860064 -0.4492380584
1393050000.0 0.0587793473 -0.6316322213
1403000000.0 -0.3238530341 -0.5666798478
1412950000.0 -0.5840211181 -0.2822471888
1422900000.0 -0.6117154651 0.1052190207
1432850000.0 -0.3890220743 0.4279718672
1442800000.0 -0.0117988311 0.5356085601
1452750000.0 0.3448858684 0.376170479
1462700000.0 0.5155115925 0.0318404265
1472650000.0 0.4313650853 -0.3297505797
1482600000.0 0.145562309 -0.5476938373
1492550000.0 -0.2072037917 -0.5362620051
1502500000.0 -0.4675147324 -0.3048668001
1512450000.0 -0.5125947025 0.0401516521
1522400000.0 -0.3177218733 0.3302051759
1532350000.0 0.0194831901 0.4140549276
1542300000.0 0.3187597463 0.2488901632
1552250000.0 0.4221669521 -0.0669095029
1562200000.0 0.2892879609 -0.3561945931
1572150000.0 0.0052361331 -0.4752828057
1582100000.0 -0.2831587079 -0.3754544081
1592050000.0 -0.4305389221 -0.1073075498
1602000000.0 -0.3541739948 0.1971123979
1611950000.0 -0.0834700407 0.3730976847
1621900000.0 0.2387842538 0.3162929425
1631850000.0 0.4316984912 0.0474611467
1641800000.0 0.3870735442 -0.286926038
1651750000.0 0.1292075505 -0.5023004096
1661700000.0 -0.2084295926 -0.4870099891
1671650000.0 -0.460468352 -0.2501338794
1681600000.0 -0.5047663322 0.0999610952
1691550000.0 -0.3096669257 0.4042110516
1701500000.0 0.0489347347 0.5131917676
1711450000.0 0.4020450232 0.3601386101
1721400000.0 0.5699202107 0.0103457595
1731350000.0 0.4681278991 -0.3634970082
1741300000.0 0.1538412791 -0.5861469692
1751250000.0 -0.2245711748 -0.5691497177
1761200000.0 -0.5127986681 -0.3300059377
1771150000.0 -0.6038372338 0.0359123193
1781100000.0 -0.4593931968 0.390264896
1791050000.0 -0.1257127985 0.5888968379
1801000000.0 0.2674720843 0.5362916943
1810950000.0 0.5441297294 0.2445226093
1820900000.0 0.5737937763 -0.1527652055
1830850000.0 0.3535350102 -0.4741041815
1840800000.0 -0.0059585679 -0.5918634723
1850750000.0 -0.3549203364 -0.4787439182
1860700000.0 -0.5680467639 -0.1918349376
1870650000.0 -0.5744228677 0.1609453417
1880600000.0 -0.3723954066 0.4491469519
1890550000.0 -0.038486366 0.5569503078
1900500000.0 0.2880835665 0.4373259401
1910450000.0 0.4644261159 0.1458322065
1920400000.0 0.4238172907 -0.1776788747
1930350000.0 0.2083453809 -0.395647298
1940300000.0 -0.0729440587 -0.4400098807
1950250000.0 -0.3070597678 -0.321650623
1960200000.0 -0.4185592897 -0.107745808
1970150000.0 -0.3838186563 0.111314194
1980100000.0 -0.2404856343 0.2498772908
1990050000.0 -0.0671999583 0.2643735629
2000000000.0 0.0518506684 0.1819056335
