!Created with skrf (http://scikit-rf.org).
# GHz S RI R 50.0 
!freq ReS11 ImS11
10000000.0 -0.7397557876 0.6742891658
19950000.0 -0.1036129332 0.9812086229
29900000.0 0.5765351848 0.7911530119
39850000.0 0.9619577253 0.1876056233
49800000.0 0.8345504951 -0.5298342203
59750000.0 0.2368846237 -0.97002059
69700000.0 -0.5101075723 -0.8628461719
79650000.0 -0.9641897806 -0.2448751842
89600000.0 -0.8259033244 0.5251508848
99550000.0 -0.1455976859 0.953348712
109500000.0 0.6511644137 0.7063809303
119450000.0 0.9646884794 -0.1040812402
129400000.0 0.47863206 -0.8579405423
139350000.0 -0.427960393 -0.8843190999
149300000.0 -0.9526691351 -0.1582240081
159250000.0 -0.67095926 0.6675478142
169200000.0 0.1370139989 0.9291499418
179150000.0 0.823386874 0.4655824861
189100000.0 0.8965345437 -0.3377086514
199050000.0 0.3505126466 -0.897082909
209000000.0 -0.4033928995 -0.8660962812
218950000.0 -0.8835078107 -0.3209810183
228900000.0 -0.8420336064 0.3841122725
238850000.0 -0.3304067836 0.8568879136
248800000.0 0.2996559009 0.6739654215
258750000.0 0.83889561 0.3977339925
268700000.0 0.8870830254 -0.2878043021
278650000.0 0.450568289 -0.8072158306
288600000.0 -0.2148547155 -0.87836378
298550000.0 -0.7365837786 -0.4752477257
308500000.0 -0.8294116656 0.1690161545
318450000.0 -0.4451461507 0.6848621533
328400000.0 0.1816518172 0.7641458175
338350000.0 0.6454948137 0.368955903
348300000.0 0.664001388 -0.2118994914
358250000.0 0.25195129 -0.5736867056
368200000.0 -0.2387195155 -0.4847918913
378150000.0 -0.4428190158 -0.1001603936
388100000.0 -0.2862430699 0.2375265959
398050000.0 0.0232172898 0.3039643774
408000000.0 0.217148263 0.1335246865
417950000.0 0.190747032 -0.079948633
427900000.0 0.0324634745 -0.1710384215
437850000.0 -0.1052926641 -0.1102034877
447800000.0 -0.1331987699 0.0174955292
457750000.0 -0.0610137568 0.1072162249
467700000.0 0.0358831095 0.1072702682
477650000.0 0.0866622556 0.0440040554
487600000.0 0.0703472028 -0.0231995446
497550000.0 0.0916042147 -0.022144688
507500000.0 -0.0074702331 -0.0619632283
517450000.0 -0.0237744883 -0.027653639
527400000.0 -0.0133108455 -0.0142132644
537350000.0 -0.0075254665 -0.0265114532
547300000.0 -0.0269469787 -0.0478721861
557250000.0 -0.0700753108 -0.036421605
567200000.0 -0.0978944421 0.0170852886
577150000.0 -0.0786495749 0.0850845328
587100000.0 -0.0018499238 0.1240742985
597050000.0 0.0930270773 0.1029794723
607000000.0 0.150847946 0.0096282293
616950000.0 0.1334924493 -0.1086887942
626900000.0 0.0374483599 -0.1866995481
636850000.0 -0.0920562155 -0.1784728735
646800000.0 -0.1860531274 -0.0846677288
656750000.0 -0.1891642292 0.0461045554
666700000.0 -0.1007865127 0.1457109205
676650000.0 0.0284329113 0.1569094732
686600000.0 0.126034114 0.0766339462
696550000.0 0.1403638251 -0.044456144
706500000.0 0.0688771357 -0.1320198223
716450000.0 -0.0358170032 -0.1361389754
726400000.0 -0.1018568707 -0.0656291072
736350000.0 -0.0822602548 0.0245775063
746300000.0 0.0031139584 0.0606264583
756250000.0 0.0868776456 0.0086046654
766200000.0 0.0930777739 -0.0984062705
776150000.0 0.0015272333 -0.1817951926
786100000.0 -0.1368685542 -0.1618822724
796050000.0 -0.2262142983 -0.0282208937
806000000.0 -0.1841050336 0.1519118023
815950000.0 -0.0105494874 0.2600513223
825900000.0 0.2111939292 0.2085983515
835850000.0 0.3454999163 0.0060077598
845800000.0 0.3003931617 -0.2496105333
855750000.0 0.0824145868 -0.4128372779
865700000.0 -0.2006452639 -0.3821462471
875650000.0 -0.3962472266 -0.1592967931
885600000.0 -0.3835201159 0.1504000131
895550000.0 -0.1557062237 0.3752368081
905500000.0 0.1732183022 0.3766447787
915450000.0 0.4113137102 0.1418299979
925400000.0 0.4076077684 -0.1933426514
935350000.0 0.1646195847 -0.4116799517
945300000.0 -0.1508321494 -0.3941902832
955250000.0 -0.3623077537 -0.1463309196
965200000.0 -0.3024852922 0.1989447812
975150000.0 0.0365174339 0.3605122757
985100000.0 0.3829302057 0.1459505001
995050000.0 0.376035181 -0.3042586709
1005000000.0 -0.0614120961 -0.5509069845
1014950000.0 -0.5511745745 -0.2698916028
1024900000.0 -0.5737512865 0.358784571
1034850000.0 -0.0071543766 0.7446593602
1044800000.0 0.6566989125 0.4682857375
1054750000.0 0.8078729224 -0.239369266
1064700000.0 0.3469849847 -0.7441540478
1074650000.0 -0.2889055623 -0.7747889841
1084600000.0 -0.7300182031 -0.3052731438
1094550000.0 -0.7041685481 0.3472466937
1104500000.0 -0.1641438321 0.7377313901
1114450000.0 0.4583736816 0.5584313696
1124400000.0 0.6858422527 -0.0095925449
1134350000.0 0.404156825 -0.5015305014
1144300000.0 -0.1119432999 -0.5910473067
1154250000.0 -0.4878787898 -0.2723174
1164200000.0 -0.4791917082 0.198356018
1174150000.0 -0.1187844489 0.4740594886
1184100000.0 0.3054108807 0.3669749962
1194050000.0 0.4851509041 -0.0169505219
1204000000.0 0.3205377596 -0.390291506
1213950000.0 -0.0545122052 -0.5244886744
1223900000.0 -0.4102567548 -0.3566214426
1233850000.0 -0.5531637101 0.010028022
1243800000.0 -0.4040884124 0.3810360936
1253750000.0 -0.0373700899 0.553957066
1263700000.0 0.3526923787 0.4329951714
1273650000.0 0.5650685459 0.0855845539
1283600000.0 0.5033889279 -0.3113300598
1293550000.0 0.2104772874 -0.5788544461
1303500000.0 -0.1817382847 -0.6081670621
1313450000.0 -0.5119657385 -0.3920850392
1323400000.0 -0.6420199192 -0.0120078205
1333350000.0 -0.5030558927 0.3741994398
1343300000.0 -0.1458679055 0.5910675454
1353250000.0 0.2716276599 0.5300670078
1363200000.0 0.5547846067 0.2208907852
1373150000.0 0.5831423896 -0.188023322
1383100000.0 0.3620241619 -0.5213427858
1393050000.0 -0.0065923806 -0.6513807411
1403000000.0 -0.3755883786 -0.5357493495
1412950000.0 -0.6010959802 -0.221897236
1422900000.0 -0.588565509 0.1671421261
1432850000.0 -0.3344676551 0.4646877532
1442800000.0 0.0511547534 0.5377235165
1452750000.0 0.391551621 0.3555997581
1462700000.0 0.5405813273 0.0093320982
1472650000.0 0.4437710228 -0.3457018023
1482600000.0 0.1549399398 -0.5579999174
1492550000.0 -0.1955431094 -0.5458462809
1502500000.0 -0.4570252281 -0.3181465038
1512450000.0 -0.5133880498 0.0223236731
1522400000.0 -0.3342251459 0.3200833044
1532350000.0 -0.0043680234 0.4230539744
1542300000.0 0.3029676246 0.2791806476
1552250000.0 0.4285238304 -0.0259875623
1562200000.0 0.3190983002 -0.3244623867
1572150000.0 0.0476244975 -0.4650279854
1582100000.0 -0.2415174072 -0.3863034241
1592050000.0 -0.4007687441 -0.134498967
1602000000.0 -0.3438758878 0.1596299694
1611950000.0 -0.0971412636 0.3326553314
1621900000.0 0.2040011625 0.2811371881
1631850000.0 0.3810330861 0.0347511254
1641800000.0 0.3374571093 -0.264259812
1651750000.0 0.1006156176 -0.4501843414
1661700000.0 -0.2037364261 -0.4314205764
1671650000.0 -0.4250898992 -0.2135835154
1681600000.0 -0.4505039974 0.1060407844
1691550000.0 -0.25265078 0.3756045887
1701500000.0 0.0865832535 0.4509247888
1711450000.0 0.3949948234 0.277103281
1721400000.0 0.5130025704 -0.0616186131
1731350000.0 0.3814224691 -0.3961216781
1741300000.0 0.0702465271 -0.5689515357
1751250000.0 -0.2784762589 -0.5125126857
1761200000.0 -0.52372407 -0.2540845117
1771150000.0 -0.5632584785 0.1060355418
1781100000.0 -0.3699033304 0.4206186852
1791050000.0 -0.0137100815 0.5456075327
1801000000.0 0.3426974353 0.4054797155
1810950000.0 0.4779361631 0.068465315
1820900000.0 0.4727810988 -0.1775701286
1830850000.0 0.274318791 -0.4767325828
1840800000.0 -0.0720090855 -0.5614421108
1850750000.0 -0.3837344559 -0.4210477154
1860700000.0 -0.5473305237 -0.1304221295
1870650000.0 -0.5072921738 0.1968879182
1880600000.0 -0.2802245405 0.4325194457
1890550000.0 0.0400015182 0.4782954505
1900500000.0 0.3124988327 0.3196599829
1910450000.0 0.4218005398 0.0345797806
1920400000.0 0.3339476502 -0.2413796468
1930350000.0 0.1138406584 -0.3929941794
1940300000.0 -0.1291619729 -0.3817444017
1950250000.0 -0.2992699926 -0.2412207832
1960200000.0 -0.3423105695 -0.0519976162
1970150000.0 -0.2713346196 0.0965628494
1980100000.0 -0.1516210085 0.15028011
1990050000.0 -0.0687874707 0.1194560837
2000000000.0 -0.0557205399 0.0824128706
