!Created with skrf (http://scikit-rf.org).
# GHz S RI R 50.0 
!freq ReS11 ImS11
10000000.0 -0.8704927269 0.528845627
19950000.0 -0.4716279502 0.8863938801
29900000.0 0.0539534561 0.9895615112
39850000.0 0.5652102532 0.8038975628
49800000.0 0.9100739017 0.3681270709
59750000.0 0.9674056881 -0.2028996713
69700000.0 0.685835668 -0.728841024
79650000.0 0.1277760362 -1.004802052
89600000.0 -0.5108377673 -0.8801600537
99550000.0 -0.9449254087 -0.3572340485
109500000.0 -0.9280468297 0.3510137147
119450000.0 -0.4169180783 0.8791682587
129400000.0 0.3417252124 0.9014680778
139350000.0 0.8982533924 0.3667042555
149300000.0 0.8987446818 -0.4040877091
159250000.0 0.3654408999 -0.9272777202
169200000.0 -0.3424278258 -0.9333814744
179150000.0 -0.8431299862 -0.5000572202
189100000.0 -0.9558071543 0.1095404795
199050000.0 -0.7015355744 0.6379667017
209000000.0 -0.2119566514 0.9188228397
218950000.0 0.3338601915 0.885474205
228900000.0 0.769365596 0.5680614907
238850000.0 0.9649468195 0.0708271668
248800000.0 0.8671981037 -0.4321757758
258750000.0 0.5130999543 -0.8281926886
268700000.0 0.0134293588 -0.9633170448
278650000.0 -0.4749009142 -0.8168207523
288600000.0 -0.809675114 -0.4398084039
298550000.0 -0.8958159083 0.0528702958
308500000.0 -0.7061073274 0.5144319446
318450000.0 -0.294470443 0.7958390072
328400000.0 0.1966029467 0.7952172912
338350000.0 0.5947046481 0.5108125574
348300000.0 0.7229365697 0.0539988373
358250000.0 0.5381998118 -0.3459124227
368200000.0 0.1770490533 -0.50300605
378150000.0 -0.1412010307 -0.3927937794
388100000.0 -0.2674226625 -0.146308627
398050000.0 -0.1994684156 0.0642516003
408000000.0 -0.0421174943 0.139656346
417950000.0 0.0856932258 0.0842131967
427900000.0 0.1167468236 -0.0277512782
437850000.0 0.0576220222 -0.1152308898
447800000.0 -0.0417833718 -0.1321663892
457750000.0 -0.1235340728 -0.0781030385
467700000.0 -0.1499823106 0.0140219469
477650000.0 -0.1154708552 0.0999616979
487600000.0 -0.0412215069 0.1453358081
497550000.0 0.0363234805 0.1397341077
507500000.0 0.0913239373 0.0930809012
517450000.0 0.1064791487 0.03159076
527400000.0 0.0859212326 -0.0178666796
537350000.0 0.0497746918 -0.0387502636
547300000.0 0.0175633925 -0.0334446619
557250000.0 0.0062851249 -0.0096315334
567200000.0 0.0207427202 0.0072781124
577150000.0 0.046580255 0.0001302503
587100000.0 0.0627975862 -0.033525909
597050000.0 0.0517537653 -0.0799185179
607000000.0 0.0081198878 -0.1175690614
616950000.0 -0.0580329488 -0.1238443129
626900000.0 -0.1236927609 -0.08752217
636850000.0 -0.161510244 -0.0156415168
646800000.0 -0.1525295547 0.0706907611
656750000.0 -0.0940360191 0.1401659021
666700000.0 -0.0028739233 0.1668078057
676650000.0 0.091004007 0.1380547633
686600000.0 0.154850601 0.0612521885
696550000.0 0.1653175403 -0.038476461
706500000.0 0.1174114844 -0.1257419724
716450000.0 0.0289786499 -0.1688271714
726400000.0 -0.0661700247 -0.1514180335
736350000.0 -0.1288778476 -0.0804558278
746300000.0 -0.131663285 0.014879166
756250000.0 -0.0706953429 0.0908149272
766200000.0 0.029678283 0.1102957712
776150000.0 0.1249222317 0.0573954597
786100000.0 0.1677404406 -0.0521121437
796050000.0 0.1300264913 -0.1749742081
806000000.0 0.0152493281 -0.2557033529
815950000.0 -0.1381459632 -0.2488659522
825900000.0 -0.2678349063 -0.1423376478
835850000.0 -0.3135703042 0.0346885
845800000.0 -0.2419978427 0.2193982553
855750000.0 -0.0642762163 0.3371597965
865700000.0 0.1636514429 0.3293231214
875650000.0 0.3570160524 0.1768929391
885600000.0 0.4024955079 -0.072380963
895550000.0 0.2894136592 -0.237499758
905500000.0 0.1871511999 -0.3622430198
915450000.0 -0.0269448254 -0.4416071765
925400000.0 -0.2715434838 -0.3585949759
935350000.0 -0.4214976183 -0.1261789271
945300000.0 -0.3931493107 0.1662507908
955250000.0 -0.1710350678 0.3883476024
965200000.0 0.1670689691 0.4116519409
975150000.0 0.4541306719 0.1793463846
985100000.0 0.4975634743 -0.2238790085
995050000.0 0.2112640949 -0.5641645658
1005000000.0 -0.2775812278 -0.5911169631
1014950000.0 -0.6665148426 -0.2131963692
1024900000.0 -0.6414306569 0.3835982159
1034850000.0 -0.1366759026 0.7867383921
1044800000.0 0.5198325393 0.6585815957
1054750000.0 0.8227522392 0.0859948568
1064700000.0 0.6259320638 -0.4132741934
1074650000.0 0.3705521294 -0.7130583953
1084600000.0 -0.1657894276 -0.7996961758
1094550000.0 -0.638666882 -0.5175525229
1104500000.0 -0.7920786692 0.0144232017
1114450000.0 -0.5620334364 0.5074152775
1124400000.0 -0.076941697 0.7219497841
1134350000.0 0.4091836466 0.5695165829
1144300000.0 0.6611132825 0.1618192198
1154250000.0 0.6019556854 -0.2789660801
1164200000.0 0.3099067111 -0.568520702
1174150000.0 -0.0702634053 -0.6305141902
1184100000.0 -0.4066271145 -0.4725265983
1194050000.0 -0.5916900629 -0.1553756698
1204000000.0 -0.5640517506 0.2089206711
1213950000.0 -0.3340669039 0.4918732335
1223900000.0 0.0151030632 0.5923409461
1233850000.0 0.3540279077 0.4797476586
1243800000.0 0.5692604604 0.2066791462
1253750000.0 0.605757944 -0.1264194489
1263700000.0 0.4726965317 -0.4215039461
1273650000.0 0.2207482022 -0.6086708136
1283600000.0 -0.0846705459 -0.6531068852
1293550000.0 -0.3749182624 -0.5493378738
1303500000.0 -0.584033773 -0.3192368063
1313450000.0 -0.6607628919 -0.0115972079
1323400000.0 -0.5761714497 0.3007437698
1333350000.0 -0.3443560713 0.5342238697
1343300000.0 -0.0243596749 0.6221187952
1353250000.0 0.2951874241 0.5394837043
1363200000.0 0.5289753414 0.3149156103
1373150000.0 0.624191156 0.0142203781
1383100000.0 0.568510599 -0.2871268998
1393050000.0 0.386303155 -0.5234232443
1403000000.0 0.1220827591 -0.6503130548
1412950000.0 -0.1688881491 -0.6445209595
1422900000.0 -0.4261177071 -0.5059816963
1432850000.0 -0.589597587 -0.2605788904
1442800000.0 -0.6167369385 0.0370877695
1452750000.0 -0.4948630537 0.3118529962
1462700000.0 -0.2520506867 0.4905730258
1472650000.0 0.0458038133 0.5225708919
1482600000.0 0.3157189487 0.402272501
1492550000.0 0.4855131305 0.1680416141
1502500000.0 0.5144960609 -0.1128712892
1512450000.0 0.4002933067 -0.3635225333
1522400000.0 0.1794106187 -0.5187578067
1532350000.0 -0.0862123046 -0.5399856031
1542300000.0 -0.3237720573 -0.4237492073
1552250000.0 -0.4653261585 -0.2014512869
1562200000.0 -0.4661061204 0.0623660536
1572150000.0 -0.324005068 0.2863542538
1582100000.0 -0.0835308555 0.3989387354
1592050000.0 0.177357216 0.3631488471
1602000000.0 0.3756211729 0.192761492
1611950000.0 0.4521288011 -0.0572739394
1621900000.0 0.3801164963 -0.3103408184
1631850000.0 0.1873830472 -0.4876061142
1641800000.0 -0.0700154919 -0.5399707381
1651750000.0 -0.3197831293 -0.4519776471
1661700000.0 -0.4949315736 -0.2475951949
1671650000.0 -0.5490869941 0.0209864473
1681600000.0 -0.4628641324 0.2885005929
1691550000.0 -0.2477731784 0.4830294051
1701500000.0 0.0424778527 0.5451094435
1711450000.0 0.3301723672 0.4520199149
1721400000.0 0.5361532345 0.2232346529
1731350000.0 0.600468115 -0.0778436649
1741300000.0 0.5085346059 -0.3688675496
1751250000.0 0.2908970145 -0.5769923343
1761200000.0 0.0069431625 -0.6576715746
1771150000.0 -0.2766151407 -0.6029197256
1781100000.0 -0.5034130711 -0.4323068753
1791050000.0 -0.6329768492 -0.1832619669
1801000000.0 -0.6419845431 0.0973013088
1810950000.0 -0.5266818754 0.3565892722
1820900000.0 -0.3047041986 0.5404703622
1830850000.0 -0.0188868829 0.6035040416
1840800000.0 0.2640678215 0.524704907
1850750000.0 0.4742124234 0.3207412457
1860700000.0 0.5590871682 0.0465873768
1870650000.0 0.5065992393 -0.2255470853
1880600000.0 0.3437848292 -0.4321064525
1890550000.0 0.1190195967 -0.5362073981
1900500000.0 -0.1134112968 -0.5313183509
1910450000.0 -0.3088422752 -0.432291467
1920400000.0 -0.4345248376 -0.2692223513
1930350000.0 -0.4731429097 -0.0800161004
1940300000.0 -0.4262950562 0.092624221
1950250000.0 -0.3133891422 0.2120339398
1960200000.0 -0.1729138086 0.2562249455
1970150000.0 -0.050913375 0.2284127531
1980100000.0 0.0172861221 0.1574252086
1990050000.0 0.0216071422 0.0892386611
2000000000.0 -0.013368206 0.0700251555
