!Created with skrf (http://scikit-rf.org).
# GHz S RI R 50.0 
!freq ReS11 ImS11
10000000.0 -0.8611364128 0.5270319721
19950000.0 -0.46388489 0.884207888
29900000.0 0.0604149367 0.9875811588
39850000.0 0.5701929658 0.8026079353
49800000.0 0.9132237363 0.3687025602
59750000.0 0.9702460098 -0.1973499347
69700000.0 0.6956934816 -0.7163339605
79650000.0 0.1554489883 -0.9943974662
89600000.0 -0.4651476816 -0.8951675497
99550000.0 -0.9102320026 -0.4207098284
109500000.0 -0.9572363798 0.2512638153
119450000.0 -0.54141976 0.8115898999
129400000.0 0.1537850428 0.9495918251
139350000.0 0.7942899012 0.5559536059
149300000.0 0.9623374332 -0.1789376687
159250000.0 0.5657360616 -0.8095625305
169200000.0 -0.1327127298 -0.9786865964
179150000.0 -0.7301550069 -0.650666189
189100000.0 -0.9624297191 -0.0508128018
199050000.0 -0.7875467288 0.5339974751
209000000.0 -0.3193471181 0.8900577607
218950000.0 0.2505410027 0.9117749806
228900000.0 0.7258435555 0.615542203
238850000.0 0.9533304531 0.105602956
248800000.0 0.7033341166 -0.4325005952
258750000.0 0.509151372 -0.814353234
268700000.0 -0.0096778175 -0.950358144
278650000.0 -0.5068802894 -0.7835796183
288600000.0 -0.8295871598 -0.3798821516
298550000.0 -0.8807246423 0.1301720718
308500000.0 -0.6428621821 0.5822467154
318450000.0 -0.1919589302 0.8207899293
328400000.0 0.3109697067 0.7523289356
338350000.0 0.6638618404 0.3997177207
348300000.0 0.7165363854 -0.0778818851
358250000.0 0.4666418021 -0.4520961297
368200000.0 0.0719961057 -0.5597704167
378150000.0 -0.2520752771 -0.40050333
388100000.0 -0.3685053366 -0.112198321
398050000.0 -0.2776958737 0.1342218334
408000000.0 -0.0834142406 0.2341904798
417950000.0 0.0906351522 0.1853651697
427900000.0 0.1675790609 0.0567888198
437850000.0 0.1410772065 -0.0658065177
447800000.0 0.0535340935 -0.1259291189
457750000.0 -0.0369041485 -0.113498289
467700000.0 -0.0874827409 -0.0537337184
477650000.0 -0.0850334856 0.0129187129
487600000.0 -0.0431263905 0.050526852
497550000.0 -0.0227348267 0.0088460312
507500000.0 0.0234199953 0.0515073935
517450000.0 0.030090359 0.0134188395
527400000.0 0.0105405169 -0.0053187984
537350000.0 -0.0135470917 0.0014774745
547300000.0 -0.0239435771 0.0315025194
557250000.0 0.0013260384 0.0654739912
567200000.0 0.049765041 0.0747013641
577150000.0 0.102133157 0.0486005566
587100000.0 0.1340638048 -0.0115241218
597050000.0 0.1263001298 -0.0874413984
607000000.0 0.0741430278 -0.1526118849
616950000.0 -0.0109130186 -0.1813012481
626900000.0 -0.1022620992 -0.1587543763
636850000.0 -0.1696528838 -0.0877483123
646800000.0 -0.1876977521 0.0103632832
656750000.0 -0.1490351516 0.1032856435
666700000.0 -0.0654988819 0.1596295629
676650000.0 0.0341044782 0.1601228994
686600000.0 0.1152994562 0.1061821827
696550000.0 0.1509483401 0.0176381827
706500000.0 0.1294395743 -0.0712774786
716450000.0 0.0614433888 -0.1268331675
726400000.0 -0.022464051 -0.1276509416
736350000.0 -0.0842281905 -0.0753769713
746300000.0 -0.0946686949 0.0053197495
756250000.0 -0.0450210828 0.0731226281
766200000.0 0.0441649149 0.0913987839
776150000.0 0.1317001801 0.0417921728
786100000.0 0.172772049 -0.0638506253
796050000.0 0.1365971097 -0.1852659155
806000000.0 0.0240187032 -0.2703114231
815950000.0 -0.1318392085 -0.2732327621
825900000.0 -0.2738566152 -0.1784412364
835850000.0 -0.3434274362 -0.0070597918
845800000.0 -0.3032941533 0.1877055972
855750000.0 -0.1537185415 0.3377483807
865700000.0 0.0646784901 0.3848026714
875650000.0 0.2837275116 0.3018371779
885600000.0 0.4279985935 0.1064934165
895550000.0 0.4429037693 -0.1444156363
905500000.0 0.3139999329 -0.3685728275
915450000.0 0.075658636 -0.4851848756
925400000.0 -0.192456331 -0.4422136467
935350000.0 -0.3818915097 -0.2458970377
945300000.0 -0.4153568966 0.0139776135
955250000.0 -0.3030115717 0.2438054083
965200000.0 -0.0631715504 0.3748487044
975150000.0 0.2292718274 0.3180585336
985100000.0 0.4217834129 0.0564415533
995050000.0 0.3716338229 -0.2941811463
1005000000.0 0.0588037266 -0.5237235177
1014950000.0 -0.3636242229 -0.4508909259
1024900000.0 -0.6311684192 -0.0574923709
1034850000.0 -0.5211444194 0.4588712342
1044800000.0 -0.0294349782 0.758954207
1054750000.0 0.5614736301 0.5974188864
1064700000.0 0.8400955426 0.0497340743
1074650000.0 0.7203760695 -0.4848606063
1084600000.0 0.2624729033 -0.8470698896
1094550000.0 -0.2951247034 -0.8090510057
1104500000.0 -0.711013501 -0.4484393211
1114450000.0 -0.7926981106 0.0974881946
1124400000.0 -0.4973694153 0.5580538284
1134350000.0 0.0195515403 0.694858681
1144300000.0 0.4662773507 0.4516263864
1154250000.0 0.6126575267 0.004522527
1164200000.0 0.4395687472 -0.3864122977
1174150000.0 0.0926588987 -0.5563240105
1184100000.0 -0.2627067338 -0.4850399437
1194050000.0 -0.4937744572 -0.2157158144
1204000000.0 -0.5093735844 0.1335506104
1213950000.0 -0.3102355417 0.4170524329
1223900000.0 0.0170163185 0.5227419642
1233850000.0 0.3383656981 0.4169729213
1243800000.0 0.5371525171 0.1538586665
1253750000.0 0.5600876279 -0.1650918769
1263700000.0 0.418677042 -0.4416326562
1273650000.0 0.1650893013 -0.6072136805
1283600000.0 -0.1329893735 -0.6299178355
1293550000.0 -0.4067143906 -0.5092500502
1303500000.0 -0.5937962054 -0.2711618532
1313450000.0 -0.6475812083 0.0332236163
1323400000.0 -0.5459533101 0.3326383856
1333350000.0 -0.3072876024 0.5488855618
1343300000.0 0.0099849461 0.621276221
1353250000.0 0.3219670562 0.5291015279
1363200000.0 0.5474282779 0.3013454389
1373150000.0 0.6365989624 0.0008480462
1383100000.0 0.5782995996 -0.2994655211
1393050000.0 0.3946824089 -0.5355352635
1403000000.0 0.1289644321 -0.6627502627
1412950000.0 -0.1633467118 -0.6579230354
1422900000.0 -0.4224934954 -0.523284229
1432850000.0 -0.5915734969 -0.2847143542
1442800000.0 -0.6326916384 0.0058602326
1452750000.0 -0.5336483862 0.2826197528
1462700000.0 -0.3156070334 0.4811721942
1472650000.0 -0.0283031124 0.5522062732
1482600000.0 0.2567551211 0.4742694729
1492550000.0 0.4636940531 0.269765418
1502500000.0 0.5418748575 -0.0042266365
1512450000.0 0.477011736 -0.2749735189
1522400000.0 0.2916103242 -0.475531254
1532350000.0 0.0363266761 -0.5560405078
1542300000.0 -0.2214672857 -0.4992259961
1552250000.0 -0.412890273 -0.3215444371
1562200000.0 -0.4845692076 -0.0723177317
1572150000.0 -0.4168530124 0.1757193685
1582100000.0 -0.2285811375 0.349728458
1592050000.0 0.0234032416 0.3945898739
1602000000.0 0.2588124865 0.2952997875
1611950000.0 0.3983378455 0.0835586259
1621900000.0 0.3986890411 -0.1671089145
1631850000.0 0.2638485953 -0.3774280732
1641800000.0 0.0377347484 -0.481918943
1651750000.0 -0.2097012807 -0.4512900043
1661700000.0 -0.407171241 -0.2948524428
1671650000.0 -0.4972588725 -0.0553086873
1681600000.0 -0.4474792697 0.2018651685
1691550000.0 -0.2597445553 0.3744777933
1701500000.0 -0.0466349829 0.4936907409
1711450000.0 0.2410298866 0.444400079
1721400000.0 0.4598651615 0.2514077799
1731350000.0 0.5491891556 -0.0266714922
1741300000.0 0.4862448972 -0.3111864251
1751250000.0 0.2930779779 -0.5265893673
1761200000.0 0.0248350907 -0.6216091179
1771150000.0 -0.2521608148 -0.5830176834
1781100000.0 -0.4789217283 -0.4261030184
1791050000.0 -0.6123527444 -0.1878125154
1801000000.0 -0.627744241 0.0858583456
1810950000.0 -0.5200857323 0.3410705046
1820900000.0 -0.3056293765 0.5240760785
1830850000.0 -0.0267438001 0.588639381
1840800000.0 0.2531394596 0.5151402304
1850750000.0 0.4641927611 0.3166762607
1860700000.0 0.553402345 0.0459336143
1870650000.0 0.5054554366 -0.2267082255
1880600000.0 0.344343543 -0.436655832
1890550000.0 0.1181824005 -0.5457270327
1900500000.0 -0.1195808423 -0.5443834951
1910450000.0 -0.3227248397 -0.4457873074
1920400000.0 -0.4569769277 -0.2780401421
1930350000.0 -0.5031828716 -0.0777708063
1940300000.0 -0.4567439499 0.1136674759
1950250000.0 -0.3345825746 0.2552592425
1960200000.0 -0.1712328076 0.3173610327
1970150000.0 -0.0137820464 0.2945289372
1980100000.0 0.0956092055 0.2075082327
1990050000.0 0.1356456565 0.0981622261
2000000000.0 0.1158600545 0.0117821695
