!Created with skrf (http://scikit-rf.org).
# GHz S RI R 50.0 
!freq ReS11 ImS11
10000000.0 -1.000376191 0.1612518949
19950000.0 -0.9457614474 0.3090366848
29900000.0 -0.869230648 0.4503246967
39850000.0 -0.7699156834 0.590414458
49800000.0 -0.6496642671 0.7237704962
59750000.0 -0.5029219904 0.8440861584
69700000.0 -0.3217123392 0.9388236018
79650000.0 -0.101591576 0.9884772884
89600000.0 0.155601388 0.9734658176
99550000.0 0.4344197357 0.8725451067
109500000.0 0.7073818032 0.6694872325
119450000.0 0.9240220234 0.3528296613
129400000.0 1.011163797 -0.054806912
139350000.0 0.9105073333 -0.4707450632
149300000.0 0.6347463246 -0.7935584596
159250000.0 0.2720442606 -0.9576545384
169200000.0 -0.0874057436 -0.9772179052
179150000.0 -0.393745576 -0.8964691196
189100000.0 -0.6302716351 -0.7565303602
199050000.0 -0.7944674912 -0.5853850162
209000000.0 -0.8905106015 -0.4009810289
218950000.0 -0.9358002156 -0.2182584247
228900000.0 -0.9421299783 -0.0433621287
238850000.0 -0.9228534826 0.122065752
248800000.0 -0.878016329 0.2645399428
258750000.0 -0.8343725795 0.4183133379
268700000.0 -0.7624615117 0.5478163421
278650000.0 -0.6678676369 0.6569427749
288600000.0 -0.5488854 0.7423931031
298550000.0 -0.4077606751 0.8014386595
308500000.0 -0.2486636659 0.8357158771
318450000.0 -0.0756610176 0.840888987
328400000.0 0.1045211389 0.8098913255
338350000.0 0.2754408865 0.731375266
348300000.0 0.4141062366 0.5972367522
358250000.0 0.4920564955 0.4162554822
368200000.0 0.492508898 0.2170418407
378150000.0 0.4214416366 0.03995391
388100000.0 0.3058417076 -0.086738998
398050000.0 0.1772656941 -0.1515568347
408000000.0 0.0623198039 -0.159573135
417950000.0 -0.0251754027 -0.1256143733
427900000.0 -0.0824784419 -0.0680157962
437850000.0 -0.1107655131 -0.0017960532
447800000.0 -0.1272153145 0.0383917195
457750000.0 -0.1281156164 0.0948214022
467700000.0 -0.1129023121 0.1289635435
477650000.0 -0.0890537736 0.1438154841
487600000.0 -0.0592207597 0.1440024107
497550000.0 -0.02962745 0.1345902815
507500000.0 0.0031864345 0.1196132808
517450000.0 0.0277607435 0.1003935952
527400000.0 0.0414527249 0.0808965715
537350000.0 0.0416336634 0.0616317691
547300000.0 0.0316168392 0.0429609368
557250000.0 0.0100564835 0.0232053937
567200000.0 -0.0172689365 0.0051263056
577150000.0 -0.0454960895 -0.0089633772
587100000.0 -0.0708193867 -0.0167026986
597050000.0 -0.0907468978 -0.0154974567
607000000.0 -0.105183562 -0.0032724414
616950000.0 -0.1150722496 0.0187431707
626900000.0 -0.1215055146 0.0486068187
636850000.0 -0.1251383995 0.0812055569
646800000.0 -0.1242578303 0.112521951
656750000.0 -0.1183754249 0.1382102562
666700000.0 -0.1044823608 0.1560280936
676650000.0 -0.080960208 0.1654943916
686600000.0 -0.0482106665 0.1677250277
696550000.0 -0.0085688157 0.1648296555
706500000.0 0.0336736931 0.1567052001
716450000.0 0.0739959776 0.1436608366
726400000.0 0.107095003 0.1230396819
736350000.0 0.1300075049 0.0933472494
746300000.0 0.138893795 0.0516053096
756250000.0 0.1371375218 0.0012482916
766200000.0 0.122885746 -0.0564270892
776150000.0 0.0989329835 -0.1157870033
786100000.0 0.0649427324 -0.1695868352
796050000.0 0.0215047225 -0.2112491662
806000000.0 -0.0309984618 -0.2352224051
815950000.0 -0.0931666512 -0.2385443296
825900000.0 -0.1621131553 -0.2221720267
835850000.0 -0.2340886595 -0.1884552983
845800000.0 -0.3025107168 -0.1415900309
855750000.0 -0.3608599614 -0.0835767778
865700000.0 -0.4005233796 -0.0160365302
875650000.0 -0.4073239418 0.0623095734
885600000.0 -0.3557609858 0.1503625152
895550000.0 -0.3139054656 0.2429344101
905500000.0 -0.3047934348 0.2809486011
915450000.0 -0.2565772818 0.3011986124
925400000.0 -0.1808790939 0.3807530475
935350000.0 -0.0841957817 0.4442722048
945300000.0 0.0301862151 0.4727462071
955250000.0 0.1592877374 0.4564583215
965200000.0 0.2953795974 0.3878011516
975150000.0 0.4255817832 0.2623069127
985100000.0 0.5254419525 0.0777007736
995050000.0 0.5599343554 -0.1557826578
1005000000.0 0.4942625686 -0.4083298441
1014950000.0 0.3010841589 -0.6299672708
1024900000.0 -0.0029824603 -0.7477141362
1034850000.0 -0.3501195477 -0.7148560053
1044800000.0 -0.6544095604 -0.5328112576
1054750000.0 -0.8449524054 -0.2455529062
1064700000.0 -0.8790348103 0.0590148746
1074650000.0 -0.822889366 0.3400103236
1084600000.0 -0.6547168621 0.5729954912
1094550000.0 -0.4268742147 0.7273534655
1104500000.0 -0.1749706345 0.8058437502
1114450000.0 0.0777560024 0.8090656406
1124400000.0 0.3078393728 0.7372699737
1134350000.0 0.4896851463 0.5992236064
1144300000.0 0.6109606523 0.4147844784
1154250000.0 0.6694255944 0.2113246626
1164200000.0 0.6738539109 0.0097287899
1174150000.0 0.6387160852 -0.1701148804
1184100000.0 0.5744371542 -0.3276778589
1194050000.0 0.4795422567 -0.4556283501
1204000000.0 0.36098483 -0.544683508
1213950000.0 0.2291909787 -0.5952790378
1223900000.0 0.0955827114 -0.6154414422
1233850000.0 -0.032945026 -0.6155986455
1243800000.0 -0.1515943989 -0.6016031384
1253750000.0 -0.2580518853 -0.5760180488
1263700000.0 -0.3488885273 -0.5380879409
1273650000.0 -0.4247390794 -0.4888223552
1283600000.0 -0.4830894283 -0.4268026338
1293550000.0 -0.5282375353 -0.3541357072
1303500000.0 -0.5642353077 -0.2747399428
1313450000.0 -0.5942658928 -0.1942858499
1323400000.0 -0.6207025491 -0.1162670276
1333350000.0 -0.6419382608 -0.0419116947
1343300000.0 -0.6548257226 0.0287127475
1353250000.0 -0.6557561957 0.0941566472
1363200000.0 -0.6420867621 0.1567542827
1373150000.0 -0.6129499045 0.218179536
1383100000.0 -0.5737911224 0.2791232769
1393050000.0 -0.5292290696 0.340066175
1403000000.0 -0.4832776484 0.3994431446
1412950000.0 -0.436891958 0.4549152106
1422900000.0 -0.3893610817 0.5039062985
1432850000.0 -0.3387085313 0.5421070913
1442800000.0 -0.2818940212 0.5692027129
1452750000.0 -0.2168991897 0.5838490954
1462700000.0 -0.1434436054 0.5893490633
1472650000.0 -0.0633548545 0.5885631702
1482600000.0 0.0195207167 0.5837998847
1492550000.0 0.101436757 0.5741793237
1502500000.0 0.1794733264 0.5570500238
1512450000.0 0.2502811247 0.527779464
1522400000.0 0.3116572032 0.4837718484
1532350000.0 0.3636519621 0.4228592293
1542300000.0 0.4080890443 0.3476058331
1552250000.0 0.4470232675 0.2619934738
1562200000.0 0.4811159343 0.1715580037
1572150000.0 0.5070870139 0.0797587848
1582100000.0 0.5201546032 -0.0114037792
1592050000.0 0.5158647011 -0.0991052469
1602000000.0 0.4903434774 -0.1827239981
1611950000.0 0.4444491899 -0.2599391699
1621900000.0 0.3814018231 -0.3322393688
1631850000.0 0.3077646759 -0.3994653775
1641800000.0 0.2286064925 -0.460154366
1651750000.0 0.147472886 -0.5105590648
1661700000.0 0.0663119539 -0.5468103127
1671650000.0 -0.0132953852 -0.5633153105
1681600000.0 -0.0917413574 -0.5569126914
1691550000.0 -0.1674302229 -0.5246200824
1701500000.0 -0.2114758186 -0.4650878605
1711450000.0 -0.2490546064 -0.5086345436
1721400000.0 -0.3534770539 -0.4742956365
1731350000.0 -0.4296568258 -0.4336719338
1741300000.0 -0.4910993964 -0.391526475
1751250000.0 -0.537846509 -0.3454505094
1761200000.0 -0.5695336068 -0.293753775
1771150000.0 -0.5881130527 -0.2355708257
1781100000.0 -0.5989798885 -0.1723875835
1791050000.0 -0.6058890274 -0.107801904
1801000000.0 -0.6128423226 -0.0450315944
1810950000.0 -0.6206761796 0.0150959297
1820900000.0 -0.6265237899 0.0703243553
1830850000.0 -0.6249758171 0.1193177324
1840800000.0 -0.6122450149 0.1649035401
1850750000.0 -0.5865683676 0.2065449568
1860700000.0 -0.5488864587 0.2453269407
1870650000.0 -0.5051125429 0.2829903235
1880600000.0 -0.4603879697 0.3176789242
1890550000.0 -0.4189017476 0.3500773241
1900500000.0 -0.3816196862 0.3758058865
1910450000.0 -0.3474800167 0.3934092975
1920400000.0 -0.3120766542 0.4004317878
1930350000.0 -0.2731494411 0.3955313755
1940300000.0 -0.2292356689 0.3796260049
1950250000.0 -0.1811126276 0.3544761301
1960200000.0 -0.1313549284 0.3241307795
1970150000.0 -0.0869054628 0.288391082
1980100000.0 -0.052018177 0.2477373863
1990050000.0 -0.033090476 0.1981276068
2000000000.0 -0.033918258 0.134781363
