!Created with skrf (http://scikit-rf.org).
# GHz S RI R 50.0 
!freq ReS11 ImS11
10000000.0 -0.998139029 0.1650881492
19950000.0 -0.9429302403 0.315874947
29900000.0 -0.8647943833 0.4598891014
39850000.0 -0.7628119013 0.6015920217
49800000.0 -0.6385992759 0.734911232
59750000.0 -0.487087209 0.8533959763
69700000.0 -0.3016437494 0.9444305466
79650000.0 -0.0796233397 0.9892120288
89600000.0 0.1757817895 0.969434578
99550000.0 0.448561983 0.8655332598
109500000.0 0.7122935694 0.6651429236
119450000.0 0.9212460305 0.3591504785
129400000.0 1.010619824 -0.0273089215
139350000.0 0.9286104977 -0.4312995186
149300000.0 0.6811045382 -0.7558477546
159250000.0 0.3391238573 -0.9387588705
169200000.0 -0.0141446379 -0.9839026097
179150000.0 -0.3275973509 -0.9243447112
189100000.0 -0.5786588376 -0.7967496186
199050000.0 -0.7601494684 -0.6291521796
209000000.0 -0.8717758044 -0.4405692238
218950000.0 -0.9288728096 -0.2474402351
228900000.0 -0.9413131533 -0.0577380929
238850000.0 -0.9213281061 0.1270150474
248800000.0 -0.8533556559 0.3477740002
258750000.0 -0.8215193149 0.420522342
268700000.0 -0.7329787342 0.5697233366
278650000.0 -0.6180195117 0.6900274802
288600000.0 -0.4745564197 0.7782796281
298550000.0 -0.3076710491 0.8309668706
308500000.0 -0.1209721825 0.8479503529
318450000.0 0.074208764 0.823734566
328400000.0 0.2703165648 0.7500539392
338350000.0 0.4402579135 0.6196369089
348300000.0 0.5556225994 0.4365325342
358250000.0 0.5922414468 0.22426759
368200000.0 0.5494771927 0.0208049104
378150000.0 0.4432989814 -0.1460591232
388100000.0 0.3042504733 -0.2561602291
398050000.0 0.1636081078 -0.3029177866
408000000.0 0.0438256167 -0.2974209435
417950000.0 -0.0450843432 -0.2551344431
427900000.0 -0.1030240554 -0.1937680622
437850000.0 -0.1353313057 -0.1270887268
447800000.0 -0.1474441038 -0.0668984124
457750000.0 -0.1447295393 -0.0204599981
467700000.0 -0.1312496098 0.0089904854
477650000.0 -0.1099380361 0.0191033237
487600000.0 -0.0839634801 0.0116653992
497550000.0 -0.058672448 -0.0187194963
507500000.0 -0.0683808476 0.0001302724
517450000.0 -0.0280787199 -0.024642178
527400000.0 -0.0187900733 -0.0468627206
537350000.0 -0.0259385267 -0.0657309678
547300000.0 -0.045051019 -0.0810931814
557250000.0 -0.076849927 -0.0902058413
567200000.0 -0.1092991055 -0.0985673499
577150000.0 -0.1413054538 -0.1195462995
587100000.0 -0.1688927601 -0.1100758001
597050000.0 -0.1893750214 -0.1020286308
607000000.0 -0.2027677879 -0.0868469965
616950000.0 -0.211041054 -0.05888831
626900000.0 -0.2150993788 -0.0252758536
636850000.0 -0.2155248719 0.0098232823
646800000.0 -0.2116684722 0.0424175861
656750000.0 -0.2029674392 0.0697109986
666700000.0 -0.1862338357 0.0889727025
676650000.0 -0.1608556448 0.0994348458
686600000.0 -0.1261958922 0.1010793625
696550000.0 -0.085373892 0.0949667297
706500000.0 -0.0429745367 0.0816343469
716450000.0 -0.0037138995 0.0603709268
726400000.0 0.0270291763 0.0285541357
736350000.0 0.0444397548 -0.0178406911
746300000.0 0.0461824239 -0.0805004975
756250000.0 0.030549647 -0.1504128875
766200000.0 -0.0046509948 -0.1238146095
776150000.0 -0.0357507265 -0.154667575
786100000.0 -0.0726121933 -0.2151150726
796050000.0 -0.1151270715 -0.2503717832
806000000.0 -0.1662155264 -0.2707845279
815950000.0 -0.221634566 -0.2670943801
825900000.0 -0.2808555447 -0.2472075149
835850000.0 -0.3407475965 -0.2134700707
845800000.0 -0.3973157427 -0.1708398303
855750000.0 -0.4456813811 -0.1215461457
865700000.0 -0.4803270052 -0.0671314512
875650000.0 -0.4978219843 -0.0062419512
885600000.0 -0.4952931058 0.0605718462
895550000.0 -0.4738163239 0.132028547
905500000.0 -0.4345752641 0.2082981995
915450000.0 -0.3805850838 0.2841204267
925400000.0 -0.3113717734 0.3539109501
935350000.0 -0.2255421977 0.4091944167
945300000.0 -0.1214578943 0.439920122
955250000.0 0.0009374279 0.4339201897
965200000.0 0.1361782784 0.3787706149
975150000.0 0.2696185368 0.2656200581
985100000.0 0.3730123616 0.0882180445
995050000.0 0.4096040635 -0.1372917272
1005000000.0 0.347755618 -0.3762930279
1014950000.0 0.1666084004 -0.5734799855
1024900000.0 -0.1001387011 -0.6710655069
1034850000.0 -0.3874051587 -0.6408394601
1044800000.0 -0.6347667645 -0.5059281143
1054750000.0 -0.8051352461 -0.2962542191
1064700000.0 -0.8742648315 -0.0543468011
1074650000.0 -0.8538368553 0.1919769089
1084600000.0 -0.7521459847 0.3850587667
1094550000.0 -0.6302578192 0.5779474765
1104500000.0 -0.4013033583 0.7228563325
1114450000.0 -0.134156573 0.7837948418
1124400000.0 0.143117866 0.7459550933
1134350000.0 0.3792878631 0.5919477962
1144300000.0 0.5255680229 0.3622179171
1154250000.0 0.5652573689 0.1000311166
1164200000.0 0.513790366 -0.1421138214
1174150000.0 0.4007772769 -0.3280917578
1184100000.0 0.2652525043 -0.4579832705
1194050000.0 0.1273633495 -0.5420886078
1204000000.0 -0.014970532 -0.5738215798
1213950000.0 -0.152122124 -0.5628741475
1223900000.0 -0.2739785687 -0.5271370016
1233850000.0 -0.3796177907 -0.4793070813
1243800000.0 -0.4686488312 -0.4263863552
1253750000.0 -0.5415302927 -0.3701210001
1263700000.0 -0.5959453484 -0.3105923689
1273650000.0 -0.6336963566 -0.2475405156
1283600000.0 -0.6556637557 -0.1797875646
1293550000.0 -0.6675868382 -0.1091472627
1303500000.0 -0.6748104002 -0.0377636187
1313450000.0 -0.6789609741 0.0314043908
1323400000.0 -0.6832920135 0.097093362
1333350000.0 -0.6854466457 0.1579627682
1343300000.0 -0.6807056152 0.2143676101
1353250000.0 -0.6675645583 0.2650216934
1363200000.0 -0.642561577 0.3124484445
1373150000.0 -0.6056405651 0.3577001959
1383100000.0 -0.5616317964 0.4025835007
1393050000.0 -0.5140078051 0.4471015093
1403000000.0 -0.4664724654 0.4908190211
1412950000.0 -0.4201343587 0.5307950486
1422900000.0 -0.3746453893 0.5659875336
1432850000.0 -0.3268370313 0.5930435521
1442800000.0 -0.2731561668 0.6101700172
1452750000.0 -0.2119020731 0.6179187232
1462700000.0 -0.1425672006 0.6158051075
1472650000.0 -0.0664700554 0.607952987
1482600000.0 0.012788287 0.5962875216
1492550000.0 0.0913700469 0.5789010976
1502500000.0 0.1659870932 0.5517758768
1512450000.0 0.2340358599 0.5122668019
1522400000.0 0.2922295199 0.4562438041
1532350000.0 0.3379014882 0.3831705059
1542300000.0 0.3732331156 0.297234212
1552250000.0 0.399584473 0.2000450277
1562200000.0 0.4163722978 0.0969384497
1572150000.0 0.4195228139 -0.0062466603
1582100000.0 0.4050636594 -0.1055812885
1592050000.0 0.3693606172 -0.1962897723
1602000000.0 0.3113955256 -0.2751176778
1611950000.0 0.2356896067 -0.3401202617
1621900000.0 0.1477804516 -0.3928584943
1631850000.0 0.0539591022 -0.4351476923
1641800000.0 -0.0399056902 -0.4669216436
1651750000.0 -0.1305154704 -0.4860235641
1661700000.0 -0.2143173284 -0.4891335437
1671650000.0 -0.2887888952 -0.4745263109
1681600000.0 -0.354721878 -0.4437385559
1691550000.0 -0.4157847148 -0.4017599574
1701500000.0 -0.4731856949 -0.3528023619
1711450000.0 -0.5279125699 -0.3010081102
1721400000.0 -0.578259724 -0.248915959
1731350000.0 -0.6216144602 -0.1993175044
1741300000.0 -0.6544441014 -0.1505667774
1751250000.0 -0.6732745851 -0.1000547125
1761200000.0 -0.6788475679 -0.0482929236
1771150000.0 -0.6741403676 0.0059509126
1781100000.0 -0.6649011489 0.0617268898
1791050000.0 -0.6551568473 0.1167108005
1801000000.0 -0.6478294576 0.1688637781
1810950000.0 -0.6426627622 0.2186506672
1820900000.0 -0.635991238 0.2632569264
1830850000.0 -0.6237571515 0.3024032146
1840800000.0 -0.6013365653 0.3354244332
1850750000.0 -0.5686392858 0.3636421471
1860700000.0 -0.5273593147 0.3890820738
1870650000.0 -0.4832569125 0.4137352421
1880600000.0 -0.4392570237 0.4364049125
1890550000.0 -0.399282676 0.4574273722
1900500000.0 -0.3629274357 0.472927809
1910450000.0 -0.3297053786 0.4816523521
1920400000.0 -0.2970605023 0.4794523256
1930350000.0 -0.2629379637 0.4653515519
1940300000.0 -0.2270051774 0.4386275549
1950250000.0 -0.1873431062 0.3966214953
1960200000.0 -0.1503988449 0.3631926055
1970150000.0 -0.1243072761 0.3456954963
1980100000.0 -0.1281636133 0.3092277757
1990050000.0 -0.1160876401 0.2688811242
2000000000.0 -0.1259930092 0.2291865868
