!Created with skrf (http://scikit-rf.org).
# GHz S RI R 50.0 
!freq ReS11 ImS11
10000000.0 -0.8058590775 0.6006556938
19950000.0 -0.2962975204 0.9399087417
29900000.0 0.3130432127 0.9182770946
39850000.0 0.8020721419 0.5407833768
49800000.0 0.9774793573 -0.0669112082
59750000.0 0.7403878598 -0.6746735376
69700000.0 0.1542110619 -1.006207285
79650000.0 -0.5259957262 -0.8665738396
89600000.0 -0.9478740064 -0.286035873
99550000.0 -0.8537726742 0.4519665285
109500000.0 -0.2435888772 0.9295670232
119450000.0 0.5588012083 0.80480954
129400000.0 1.001606519 0.0828024313
139350000.0 0.7043715555 -0.7234117622
149300000.0 -0.1031001055 -0.97790857
159250000.0 -0.7836774528 -0.5360937489
169200000.0 -0.9093818779 0.2243613908
179150000.0 -0.4804850661 0.8187681473
189100000.0 0.2088438155 0.9470783705
199050000.0 0.781106935 0.5895869481
209000000.0 0.9687118925 -0.0367500481
218950000.0 0.7242146817 -0.61243488
228900000.0 0.1923094079 -0.9066463224
238850000.0 -0.398160755 -0.8236189496
248800000.0 -0.7839761875 -0.4106962874
258750000.0 -0.9191532466 0.1623304464
268700000.0 -0.6555299564 0.6869215711
278650000.0 -0.130981226 0.9423922506
288600000.0 0.4361464341 0.8232902893
298550000.0 0.8095744584 0.3845400231
308500000.0 0.8374957537 -0.1885373168
318450000.0 0.5084459361 -0.653907856
328400000.0 -0.0349474848 -0.8050597408
338350000.0 -0.5328118529 -0.5661242135
348300000.0 -0.7223844078 -0.0725777993
358250000.0 -0.5199460495 0.3732595301
368200000.0 -0.107371264 0.518014304
378150000.0 0.224816493 0.3418275276
388100000.0 0.3027014476 0.0384150181
398050000.0 0.1587094329 -0.1664414338
408000000.0 -0.0375099851 -0.1784332775
417950000.0 -0.1345706545 -0.0554686239
427900000.0 -0.0969924585 0.0716912842
437850000.0 0.0162947764 0.1104084082
447800000.0 0.1137507193 0.0535333102
457750000.0 0.1357605435 -0.0520295206
467700000.0 0.0793996726 -0.1393700119
477650000.0 -0.0156546577 -0.1607065959
487600000.0 -0.0973956037 -0.1124839024
497550000.0 -0.1219760776 -0.0319113933
507500000.0 -0.0944540599 0.0452762801
517450000.0 -0.0314549191 0.0814280067
527400000.0 0.0226881095 0.0692814069
537350000.0 0.043063932 0.0332763103
547300000.0 0.0303312664 0.0028449816
557250000.0 0.0028217659 0.0007084861
567200000.0 -0.0107145957 0.0244188858
577150000.0 0.0065544746 0.0529978499
587100000.0 0.0494189568 0.0547309942
597050000.0 0.0887210916 0.0166602126
607000000.0 0.0930371787 -0.0505704252
616950000.0 0.0483380796 -0.116226043
626900000.0 -0.0343104391 -0.1431551059
636850000.0 -0.1242128896 -0.112242053
646800000.0 -0.1767078141 -0.0297269196
656750000.0 -0.1648155381 0.0729544959
666700000.0 -0.0905318585 0.1479025363
676650000.0 0.0183070365 0.1610377048
686600000.0 0.1142485486 0.1008551686
696550000.0 0.1522685159 -0.0072258771
706500000.0 0.1180072504 -0.1129752246
716450000.0 0.0275149247 -0.1692144257
726400000.0 -0.0720340829 -0.1509647479
736350000.0 -0.1283476415 -0.0675062355
746300000.0 -0.1077965891 0.0313374446
756250000.0 -0.018686281 0.0892525272
766200000.0 0.0888375628 0.0698072799
776150000.0 0.1541834906 -0.0237875037
786100000.0 0.1348004751 -0.1407258113
796050000.0 0.0269592227 -0.2107205645
806000000.0 -0.1132117398 -0.181207332
815950000.0 -0.2064193098 -0.0479247603
825900000.0 -0.190494115 0.1333446328
835850000.0 -0.0508216317 0.2727341463
845800000.0 0.1582327144 0.2947197588
855750000.0 0.3417878151 0.1725313417
865700000.0 0.4103578105 -0.0492406964
875650000.0 0.3146549375 -0.2771247142
885600000.0 0.0818358884 -0.3983427969
895550000.0 -0.1912356105 -0.3407953819
905500000.0 -0.3761554623 -0.111835877
915450000.0 -0.3721688605 0.1925394531
925400000.0 -0.1678042118 0.4247432472
935350000.0 0.1391787366 0.4616780834
945300000.0 0.3934940291 0.2775077881
955250000.0 0.4558584133 -0.0467194723
965200000.0 0.2586513561 -0.3428819725
975150000.0 -0.123562459 -0.4122849294
985100000.0 -0.4554546653 -0.1491249145
995050000.0 -0.4616697715 0.3067888022
1005000000.0 -0.0828791725 0.6169349412
1014950000.0 0.4386616291 0.5002541376
1024900000.0 0.6949451034 -0.0293209853
1034850000.0 0.4169606903 -0.6087065506
1044800000.0 -0.2498856454 -0.7536886166
1054750000.0 -0.7765832509 -0.3036745041
1064700000.0 -0.7696265434 0.3221363344
1074650000.0 -0.3369338191 0.7762787937
1084600000.0 0.2337567305 0.7768652955
1094550000.0 0.7017666846 0.3866168493
1104500000.0 0.7414821798 -0.2304691747
1114450000.0 0.3283659248 -0.6848342227
1124400000.0 -0.2619100048 -0.694411817
1134350000.0 -0.6489464835 -0.3024155929
1144300000.0 -0.6514644456 0.2065098335
1154250000.0 -0.3349806569 0.557063932
1164200000.0 0.1124625789 0.6101176259
1174150000.0 0.477952249 0.3620367125
1184100000.0 0.5819824041 -0.0711481894
1194050000.0 0.360952408 -0.4516060463
1204000000.0 -0.0426392163 -0.5755968608
1213950000.0 -0.4089423961 -0.4148132369
1223900000.0 -0.5879443453 -0.0795753273
1233850000.0 -0.5353921053 0.2828454171
1243800000.0 -0.2805322367 0.5445880128
1253750000.0 0.0849931569 0.6047375115
1263700000.0 0.422293057 0.4267471436
1273650000.0 0.5831097208 0.0749779708
1283600000.0 0.5014699309 -0.3003741196
1293550000.0 0.226071168 -0.5503062531
1303500000.0 -0.1254526439 -0.602559141
1313450000.0 -0.4387789674 -0.4631707115
1323400000.0 -0.6292993416 -0.1842363932
1333350000.0 -0.6428838436 0.1576519253
1343300000.0 -0.4631814846 0.4620264334
1353250000.0 -0.1286063017 0.6166141224
1363200000.0 0.2434628347 0.5469449907
1373150000.0 0.5110836979 0.2766686017
1383100000.0 0.5791133773 -0.0884223315
1393050000.0 0.4460016516 -0.4173844602
1403000000.0 0.171861468 -0.6168557961
1412950000.0 -0.1539787741 -0.6402208019
1422900000.0 -0.4397656159 -0.4888535624
1432850000.0 -0.6001923903 -0.1984251045
1442800000.0 -0.5716089427 0.1429704154
1452750000.0 -0.3491163752 0.416609433
1462700000.0 -0.0079434065 0.5155107569
1472650000.0 0.3227170902 0.4072502873
1482600000.0 0.5265285443 0.1433512189
1492550000.0 0.5486445218 -0.1738132594
1502500000.0 0.3942663576 -0.4374134598
1512450000.0 0.1236758411 -0.5634105118
1522400000.0 -0.1713057439 -0.5081592665
1532350000.0 -0.3805963221 -0.2837834626
1542300000.0 -0.4169464333 0.0280880913
1552250000.0 -0.2588769103 0.3004837781
1562200000.0 0.023692894 0.4197064654
1572150000.0 0.3101211434 0.3472707023
1582100000.0 0.4832287058 0.1224326279
1592050000.0 0.482967653 -0.1540006489
1602000000.0 0.312414763 -0.3730646398
1611950000.0 0.0350840169 -0.4486654479
1621900000.0 -0.2441933117 -0.3386526833
1631850000.0 -0.4075944258 -0.0725055131
1641800000.0 -0.3757288944 0.2433148378
1651750000.0 -0.1591517155 0.4747733587
1661700000.0 0.1500905971 0.5259727741
1671650000.0 0.4244604475 0.3852040762
1681600000.0 0.5670556591 0.1130211213
1691550000.0 0.5324341465 -0.1972959753
1701500000.0 0.3279568843 -0.4446953986
1711450000.0 0.0098437194 -0.5435504595
1721400000.0 -0.3223170167 -0.4435358573
1731350000.0 -0.544902316 -0.1650406432
1741300000.0 -0.5664890949 0.191544969
1751250000.0 -0.3844887769 0.4898014296
1761200000.0 -0.0789475854 0.6324522103
1771150000.0 0.2451149103 0.5920899105
1781100000.0 0.4984875389 0.3956544159
1791050000.0 0.6196439268 0.0983342187
1801000000.0 0.5721404778 -0.2256119012
1810950000.0 0.3574192565 -0.4878231612
1820900000.0 0.0241407743 -0.5943582876
1830850000.0 -0.3162579217 -0.4935808053
1840800000.0 -0.5381223452 -0.2216205969
1850750000.0 -0.5734160916 0.1118011688
1860700000.0 -0.4379640271 0.3950783113
1870650000.0 -0.1954982416 0.5618646782
1880600000.0 0.0832988757 0.5861985089
1890550000.0 0.3301327559 0.471670263
1900500000.0 0.4825968453 0.245789199
1910450000.0 0.492183282 -0.0292636745
1920400000.0 0.3494815836 -0.2638925496
1930350000.0 0.1077333855 -0.374336997
1940300000.0 -0.1353607282 -0.33576928
1950250000.0 -0.3017165975 -0.1902575602
1960200000.0 -0.3583291458 -0.0090481853
1970150000.0 -0.3190814311 0.1444635488
1980100000.0 -0.2233444566 0.2296901952
1990050000.0 -0.1269915989 0.2367359299
2000000000.0 -0.079581389 0.1910265493
