!Created with skrf (http://scikit-rf.org).
# GHz S RI R 50.0 
!freq ReS11 ImS11
10000000.0 0.88991794 -0.4703248399
19950000.0 0.5771291549 -0.8301119116
29900000.0 0.1338925272 -1.005512077
39850000.0 -0.3405815679 -0.9548482788
49800000.0 -0.7348314236 -0.6903773084
59750000.0 -0.9598064083 -0.2764248634
69700000.0 -0.9693841959 0.1908458135
79650000.0 -0.7678284292 0.6079489129
89600000.0 -0.4016088775 0.8887573618
99550000.0 0.0511865249 0.9749648632
109500000.0 0.4944913035 0.8476453472
119450000.0 0.8332555858 0.5326680369
129400000.0 0.9905335747 0.09669015
139350000.0 0.9291172687 -0.3631708139
149300000.0 0.6613002404 -0.7412946257
159250000.0 0.250503639 -0.9519843808
169200000.0 -0.2089067719 -0.9511688774
179150000.0 -0.6163801121 -0.7431898677
189100000.0 -0.8853595452 -0.3749998565
199050000.0 -0.9602469126 0.0748547547
209000000.0 -0.82299601 0.5134189041
218950000.0 -0.50347477 0.8375889853
228900000.0 -0.069024971 0.9816053907
238850000.0 0.3830199662 0.9084630645
248800000.0 0.7490612961 0.6351756143
258750000.0 0.94684464 0.2250054849
268700000.0 0.9356130519 -0.2285044312
278650000.0 0.7211132415 -0.6261306444
288600000.0 0.3509244841 -0.8840205407
298550000.0 -0.0959154743 -0.947607058
308500000.0 -0.5234840782 -0.8023129147
318450000.0 -0.8390011175 -0.4786635034
328400000.0 -0.9715696687 -0.0462809548
338350000.0 -0.8900655174 0.3978702106
348300000.0 -0.6141654023 0.7535966248
358250000.0 -0.2071477936 0.9427959754
368200000.0 0.2399452769 0.9263424365
378150000.0 0.6310439973 0.7096839761
388100000.0 0.8820715675 0.3392906907
398050000.0 0.9389267128 -0.1060628896
408000000.0 0.7871978451 -0.5295351374
417950000.0 0.4577399989 -0.8375644855
427900000.0 0.0238737603 -0.9587281971
437850000.0 -0.4154274884 -0.8661460767
447800000.0 -0.76112379 -0.5834678203
457750000.0 -0.9384558004 -0.1766182074
467700000.0 -0.9126003202 0.2640429619
477650000.0 -0.6916393986 0.6454876165
487600000.0 -0.3223972174 0.8870314985
497550000.0 0.1187925352 0.9362813553
507500000.0 0.5363200768 0.778207457
517450000.0 0.835959241 0.4441031215
527400000.0 0.9470455412 0.0088728463
537350000.0 0.8433993342 -0.4272690699
547300000.0 0.5533523936 -0.7638829161
557250000.0 0.1457526464 -0.9301807388
567200000.0 -0.2888596788 -0.8951780524
577150000.0 -0.6605317453 -0.6708836775
587100000.0 -0.8928321712 -0.3046949802
597050000.0 -0.9361882322 0.1297103556
607000000.0 -0.7765060769 0.5401162094
616950000.0 -0.4419862062 0.8343740412
626900000.0 -0.0055099372 0.9392697059
636850000.0 0.4298051135 0.8275754189
646800000.0 0.7617267152 0.5289702492
656750000.0 0.9181939242 0.1155631006
666700000.0 0.8717640361 -0.317943542
676650000.0 0.6394139563 -0.6803117173
686600000.0 0.2730279512 -0.9001385277
696550000.0 -0.152469871 -0.9342625072
706500000.0 -0.5515833912 -0.7718949145
716450000.0 -0.8356870388 -0.4410958576
726400000.0 -0.9361836926 -0.0110036001
736350000.0 -0.8235694387 0.4208348449
746300000.0 -0.5218175625 0.7514456979
756250000.0 -0.103807638 0.904559686
766200000.0 0.332425119 0.8504474049
776150000.0 0.6911110334 0.6081419901
786100000.0 0.9009663323 0.2368927567
796050000.0 0.9234867619 -0.1852556082
806000000.0 0.7557480076 -0.5725535779
815950000.0 0.4279920515 -0.8434635158
825900000.0 0.007282402 -0.9368446476
835850000.0 -0.4159541773 -0.8244072848
845800000.0 -0.7439105471 -0.5250637927
855750000.0 -0.8967054556 -0.1046669844
865700000.0 -0.8373071077 0.3377122005
875650000.0 -0.5839906252 0.69928251
885600000.0 -0.2002822386 0.9017100389
895550000.0 0.2265477171 0.9079415721
905500000.0 0.6048097051 0.7240566106
915450000.0 0.8584597332 0.3927528788
925400000.0 0.9372077354 -0.0183231322
935350000.0 0.8210694722 -0.4260231911
945300000.0 0.5285175228 -0.7426705759
955250000.0 0.1158927432 -0.8940262641
965200000.0 -0.3256618822 -0.8366758212
975150000.0 -0.6913204651 -0.5792681054
985100000.0 -0.8928193381 -0.1834059489
995050000.0 -0.8872650527 0.2528716603
1005000000.0 -0.6861642326 0.6289090508
1014950000.0 -0.3452273249 0.8680951993
1024900000.0 0.0605143123 0.9296393152
1034850000.0 0.4507514322 0.807263246
1044800000.0 0.7509402411 0.523777631
1054750000.0 0.8974489174 0.1286700325
1064700000.0 0.8491938911 -0.3014784209
1074650000.0 0.6008969143 -0.6689393243
1084600000.0 0.2025498345 -0.8792329954
1094550000.0 -0.2478941044 -0.8732955406
1104500000.0 -0.6346920122 -0.6568102851
1114450000.0 -0.8681799853 -0.2955632406
1124400000.0 -0.9101751761 0.1190878977
1134350000.0 -0.7692804094 0.4993340821
1144300000.0 -0.4822056825 0.7780189414
1154250000.0 -0.1018459943 0.9073495106
1164200000.0 0.3056434886 0.857592784
1174150000.0 0.660012115 0.6236058375
1184100000.0 0.8732595287 0.2380930176
1194050000.0 0.8759564289 -0.2147401967
1204000000.0 0.6559098918 -0.6147229723
1213950000.0 0.2751211936 -0.8541386546
1223900000.0 -0.1596985464 -0.8836190761
1233850000.0 -0.5439164643 -0.7194005956
1243800000.0 -0.8069516784 -0.4150101307
1253750000.0 -0.912721082 -0.0367421454
1263700000.0 -0.8488594828 0.3504196251
1273650000.0 -0.6193760038 0.6795624556
1283600000.0 -0.2538485614 0.8796877869
1293550000.0 0.182679155 0.8879550851
1303500000.0 0.5835798231 0.6778627882
1313450000.0 0.8334887214 0.291397796
1323400000.0 0.8624572047 -0.1629012575
1333350000.0 0.6781703146 -0.5627786769
1343300000.0 0.3482458411 -0.8211529242
1353250000.0 -0.0432198604 -0.9046983542
1363200000.0 -0.4211343042 -0.816074842
1373150000.0 -0.7236525716 -0.5775148159
1383100000.0 -0.8979889174 -0.2263441065
1393050000.0 -0.8995117568 0.1807350066
1403000000.0 -0.7049214523 0.5612857742
1412950000.0 -0.3372099172 0.8144923939
1422900000.0 0.1180054425 0.8584682011
1432850000.0 0.5359173013 0.6768724538
1442800000.0 0.8086107545 0.3287586991
1452750000.0 0.8856786018 -0.0863103957
1462700000.0 0.7750826071 -0.4737051549
1472650000.0 0.5170666009 -0.7635477271
1482600000.0 0.1656621917 -0.9135298665
1492550000.0 -0.220045498 -0.8979274289
1502500000.0 -0.5716144579 -0.7088357807
1512450000.0 -0.8112044456 -0.3654989372
1522400000.0 -0.8658106772 0.070140065
1532350000.0 -0.7005442577 0.4924707181
1542300000.0 -0.3482358893 0.7835956627
1552250000.0 0.0921744758 0.8661162269
1562200000.0 0.5026745858 0.7350741665
1572150000.0 0.792230019 0.4444918503
1582100000.0 0.9169357923 0.0722727213
1592050000.0 0.8690045064 -0.3071082369
1602000000.0 0.6643482427 -0.6290406967
1611950000.0 0.3331225571 -0.836239366
1621900000.0 -0.0699965525 -0.8799471025
1631850000.0 -0.467692702 -0.7306827889
1641800000.0 -0.7612228478 -0.3991609567
1651750000.0 -0.8610102082 0.0433488001
1661700000.0 -0.7313753096 0.477754798
1671650000.0 -0.4152071689 0.7847019135
1681600000.0 -0.0105273055 0.9005677194
1691550000.0 0.3822436465 0.8224087265
1701500000.0 0.6887224037 0.5901725016
1711450000.0 0.8645941444 0.2574613592
1721400000.0 0.8857859984 -0.1209610497
1731350000.0 0.7405344863 -0.4832256317
1741300000.0 0.437904929 -0.7577035782
1751250000.0 0.0218051463 -0.8689686321
1761200000.0 -0.4149750068 -0.7623066365
1771150000.0 -0.7471777189 -0.4461035666
1781100000.0 -0.8751687429 -0.0123093201
1791050000.0 -0.7789198091 0.4109032863
1801000000.0 -0.5122919206 0.7227731721
1810950000.0 -0.1559092239 0.8764765283
1820900000.0 0.2175115702 0.8659034965
1830850000.0 0.5494650845 0.7049220941
1840800000.0 0.7896342123 0.4158102511
1850750000.0 0.8873246771 0.0341575439
1860700000.0 0.7958252839 -0.3753958725
1870650000.0 0.5034594776 -0.7098080482
1880600000.0 0.0674327436 -0.8583807511
1890550000.0 -0.3834429628 -0.7655685226
1900500000.0 -0.7162711813 -0.4731885138
1910450000.0 -0.8631687302 -0.0842486086
1920400000.0 -0.8260575457 0.3021529044
1930350000.0 -0.6414600675 0.6198618828
1940300000.0 -0.3508453189 0.8297254843
1950250000.0 0.0044877504 0.9048518945
1960200000.0 0.3761810218 0.8175274156
1970150000.0 0.6907839249 0.5554818463
1980100000.0 0.8534235463 0.1461911693
1990050000.0 0.7855744572 -0.312631695
2000000000.0 0.4897048892 -0.6769686239
