!Created with skrf (http://scikit-rf.org).
# GHz S RI R 50.0 
!freq ReS11 ImS11
10000000.0 -0.7475243708 0.6765996413
19950000.0 -0.1093773355 0.9834913183
29900000.0 0.5713719025 0.793318121
39850000.0 0.9583196061 0.1907712518
49800000.0 0.835445466 -0.5275217976
59750000.0 0.2408471282 -0.9734429224
69700000.0 -0.5093350186 -0.8726884762
79650000.0 -0.9695138693 -0.2549166269
89600000.0 -0.8344715699 0.5192391724
99550000.0 -0.1517678236 0.9512220691
109500000.0 0.6489120385 0.7038786905
119450000.0 0.9635920805 -0.1109390796
129400000.0 0.4675427898 -0.8683300054
139350000.0 -0.4373137558 -0.8877728129
149300000.0 -0.9573381248 -0.1543702526
159250000.0 -0.6663266474 0.6698655771
169200000.0 0.1433419001 0.9236897447
179150000.0 0.8262131636 0.457045446
189100000.0 0.8973685306 -0.34583929
199050000.0 0.3511571317 -0.9044009959
209000000.0 -0.40191196 -0.8736631203
218950000.0 -0.8821870291 -0.3305026855
228900000.0 -0.8446833238 0.3736132625
238850000.0 -0.3376471801 0.850770128
248800000.0 0.3314333621 0.7020076553
258750000.0 0.8420561666 0.3993722161
268700000.0 0.8937815084 -0.2910877825
278650000.0 0.4530189069 -0.8151459558
288600000.0 -0.2189338118 -0.8821858181
298550000.0 -0.7396550825 -0.4700133219
308500000.0 -0.8238135884 0.1801013894
318450000.0 -0.4270889586 0.6938076743
328400000.0 0.21221532 0.7598285974
338350000.0 0.6759729707 0.3356834904
348300000.0 0.6479026761 -0.2627435964
358250000.0 0.2000654182 -0.5889440191
368200000.0 -0.2777279212 -0.4551044398
378150000.0 -0.44342615 -0.0526657161
388100000.0 -0.2565768674 0.2730108138
398050000.0 0.0594362006 0.3130883163
408000000.0 0.2450849004 0.1191076606
417950000.0 0.2077420356 -0.1037971217
427900000.0 0.0385592608 -0.1937699759
437850000.0 -0.1113139528 -0.1281279954
447800000.0 -0.1508293853 0.0071663136
457750000.0 -0.085363895 0.1070809743
467700000.0 0.0147051311 0.119379111
477650000.0 0.076111199 0.0645905592
487600000.0 0.0747097261 0.0022568988
497550000.0 0.061289645 -0.0072482447
507500000.0 0.0065391784 -0.0428763201
517450000.0 0.0017090602 -0.0215430133
527400000.0 0.0117593552 -0.0273827698
537350000.0 0.0046124253 -0.0557902009
547300000.0 -0.0377559092 -0.077833365
557250000.0 -0.0998717875 -0.056069518
567200000.0 -0.1362508556 0.0152756406
577150000.0 -0.1108330629 0.1044223796
587100000.0 -0.0214574723 0.15757318
597050000.0 0.0929901479 0.1345628598
607000000.0 0.1694082158 0.0338617891
616950000.0 0.159755103 -0.0988412724
626900000.0 0.0608773839 -0.1955403807
636850000.0 -0.0797986123 -0.2041954551
646800000.0 -0.1884258332 -0.1186204633
656750000.0 -0.209607141 0.0159137466
666700000.0 -0.1354796164 0.1258287714
676650000.0 -0.0123516625 0.1538624656
686600000.0 0.0876979014 0.0922191873
696550000.0 0.1132414856 -0.0133958722
706500000.0 0.0621914403 -0.0937831909
716450000.0 -0.0173324763 -0.1036472433
726400000.0 -0.0630314602 -0.0511831006
736350000.0 -0.0398998952 0.0089659519
746300000.0 0.029149908 0.0151693634
756250000.0 0.0794212457 -0.052312382
766200000.0 0.0514778414 -0.1505151937
776150000.0 -0.0624223244 -0.2010050134
786100000.0 -0.1984891191 -0.1415822923
796050000.0 -0.2594867055 0.021028613
806000000.0 -0.177184067 0.2029529765
815950000.0 0.0293832219 0.287234039
825900000.0 0.2574915102 0.200413808
835850000.0 0.3726127568 -0.0328032566
845800000.0 0.2965004428 -0.2925654604
855750000.0 0.063243445 -0.4409409153
865700000.0 -0.2198658951 -0.3986304811
875650000.0 -0.4113264788 -0.1692664602
885600000.0 -0.4007352864 0.1406637999
895550000.0 -0.1770415363 0.3674360707
905500000.0 0.1474708684 0.378886188
915450000.0 0.3910147346 0.1598322328
925400000.0 0.4071435761 -0.1654323682
935350000.0 0.1822562346 -0.3989729198
945300000.0 -0.1416333872 -0.3887550173
955250000.0 -0.3433301979 -0.1306639372
965200000.0 -0.25431717 0.1963907553
975150000.0 0.0865187059 0.3095678124
985100000.0 0.3788609839 0.052396922
995050000.0 0.2867990522 -0.3688602202
1005000000.0 -0.1711724089 -0.516283184
1014950000.0 -0.583358957 -0.1696717242
1024900000.0 -0.5215024874 0.424707754
1034850000.0 0.046629498 0.7420284695
1044800000.0 0.6695734277 0.4523820757
1054750000.0 0.8162736482 -0.2315305562
1064700000.0 0.3743069545 -0.7586888587
1074650000.0 -0.2586956484 -0.78691559
1084600000.0 -0.7449099097 -0.342652037
1094550000.0 -0.7225037558 0.3257917607
1104500000.0 -0.1898369784 0.7342810233
1114450000.0 0.4499495245 0.5593384279
1124400000.0 0.6656661783 -0.0365473986
1134350000.0 0.3284686257 -0.5153655646
1144300000.0 -0.2083744655 -0.5178895072
1154250000.0 -0.5019370102 -0.1159258787
1164200000.0 -0.3542104805 0.3295519347
1174150000.0 0.0712735773 0.4641235584
1184100000.0 0.4289967735 0.2151702755
1194050000.0 0.4572166791 -0.2119692994
1204000000.0 0.1624085342 -0.5087180148
1213950000.0 -0.2475755177 -0.5070819511
1223900000.0 -0.5436856944 -0.2262429628
1233850000.0 -0.5741531292 0.1845875136
1243800000.0 -0.3186463143 0.5181079673
1253750000.0 0.1003671328 0.5992620747
1263700000.0 0.4713042063 0.3827571775
1273650000.0 0.6140879541 -0.020026884
1283600000.0 0.4743720011 -0.4169369548
1293550000.0 0.1277295905 -0.6414562519
1303500000.0 -0.2798713521 -0.613347144
1313450000.0 -0.5906810334 -0.3467959178
1323400000.0 -0.6809136729 0.0582937866
1333350000.0 -0.5016488873 0.4414535389
1343300000.0 -0.1160291973 0.6344853887
1353250000.0 0.3096085532 0.5424327151
1363200000.0 0.5836515246 0.2072951138
1373150000.0 0.5934859751 -0.2163787857
1383100000.0 0.3513069293 -0.5502499279
1393050000.0 -0.0325341209 -0.6705555062
1403000000.0 -0.4061136177 -0.542212377
1412950000.0 -0.6288580109 -0.2185887847
1422900000.0 -0.611063429 0.1740725352
1432850000.0 -0.3524587644 0.4744367315
1442800000.0 0.037172828 0.5487154743
1452750000.0 0.3830037948 0.364472351
1462700000.0 0.5322677388 0.0119243799
1472650000.0 0.427942798 -0.345158307
1482600000.0 0.1319250052 -0.5494928586
1492550000.0 -0.2139635235 -0.519925576
1502500000.0 -0.4523909511 -0.2808983226
1512450000.0 -0.4764629001 0.0507492906
1522400000.0 -0.2760127427 0.3096894226
1532350000.0 0.0386770781 0.3600985248
1542300000.0 0.2910535095 0.1820918307
1552250000.0 0.3430848905 -0.1074090043
1562200000.0 0.1845121004 -0.3340987462
1572150000.0 -0.0743970818 -0.38019353
1582100000.0 -0.2893508084 -0.2343838444
1592050000.0 -0.3407860341 0.0234313913
1602000000.0 -0.1864432144 0.2484421172
1611950000.0 0.0939640475 0.2950673686
1621900000.0 0.3294969601 0.1218205131
1631850000.0 0.3709674523 -0.1758540046
1641800000.0 0.1871931886 -0.4223081332
1651750000.0 -0.1223482106 -0.4788189892
1661700000.0 -0.3991245785 -0.3122853091
1671650000.0 -0.5048362261 0.0044796971
1681600000.0 -0.3782514823 0.3293296859
1691550000.0 -0.0599141397 0.5048472951
1701500000.0 0.3086156593 0.4304549471
1711450000.0 0.544781462 0.1272909882
1721400000.0 0.5305761061 -0.2604729838
1731350000.0 0.2760270163 -0.5497859509
1741300000.0 -0.0994184714 -0.6191975195
1751250000.0 -0.439442894 -0.4502918598
1761200000.0 -0.6136042158 -0.1120065413
1771150000.0 -0.5469591848 0.2637358097
1781100000.0 -0.2809230494 0.4966886919
1791050000.0 0.0487554988 0.5937015456
1801000000.0 0.4263379078 0.4395252579
1810950000.0 0.6127571051 0.0695126073
1820900000.0 0.5240755142 -0.3291337292
1830850000.0 0.2181687785 -0.58256729
1840800000.0 -0.1652002893 -0.6039184935
1850750000.0 -0.4805521015 -0.4055159561
1860700000.0 -0.6220062166 -0.0695070389
1870650000.0 -0.5461689747 0.2841023666
1880600000.0 -0.2787602843 0.5259177519
1890550000.0 0.0786426917 0.5583169815
1900500000.0 0.3774236166 0.3690627133
1910450000.0 0.4927408175 0.0462985724
1920400000.0 0.3926791433 -0.2636246402
1930350000.0 0.1464420851 -0.4389623449
1940300000.0 -0.1311036952 -0.4370826215
1950250000.0 -0.3365731032 -0.2905798095
1960200000.0 -0.411885194 -0.0783582868
1970150000.0 -0.3607824855 0.1105340865
1980100000.0 -0.235630368 0.2171789098
1990050000.0 -0.1077467164 0.2371846774
2000000000.0 -0.0179782719 0.2123572776
