!Created with skrf (http://scikit-rf.org).
# GHz S RI R 50.0 
!freq ReS11 ImS11
10000000.0 -0.7867924262 0.5891845428
19950000.0 -0.2906327138 0.9253404956
29900000.0 0.3076553973 0.906906109
39850000.0 0.7899085453 0.5351472761
49800000.0 0.9620156604 -0.065673808
59750000.0 0.7265442418 -0.6656282682
69700000.0 0.1497197357 -0.9923943757
79650000.0 -0.5176618736 -0.8576143919
89600000.0 -0.9354039839 -0.2898148381
99550000.0 -0.852171212 0.4394220487
109500000.0 -0.2584538534 0.9230311435
119450000.0 0.5379417285 0.8172977006
129400000.0 0.9954081034 0.112286789
139350000.0 0.725770882 -0.6973042098
149300000.0 -0.0679018666 -0.9779512152
159250000.0 -0.7601929516 -0.5600945243
169200000.0 -0.9083430271 0.1941326538
179150000.0 -0.4980666572 0.7959715256
189100000.0 0.1794227604 0.9374987654
199050000.0 0.7495908971 0.5954333666
209000000.0 0.9470415946 -0.0191035732
218950000.0 0.7185254493 -0.5924500932
228900000.0 0.1998871848 -0.8916301529
238850000.0 -0.3822029716 -0.8167806584
248800000.0 -0.7793313226 -0.4051620765
258750000.0 -0.8998890611 0.1542572879
268700000.0 -0.642245728 0.6712453461
278650000.0 -0.1300233901 0.9249416826
288600000.0 0.4249997868 0.8122645587
298550000.0 0.794039656 0.3845371856
308500000.0 0.8274402788 -0.1807812019
318450000.0 0.5076939468 -0.6455602525
328400000.0 -0.0283247248 -0.8020488804
338350000.0 -0.5247906654 -0.5723336355
348300000.0 -0.7208752132 -0.0845640368
358250000.0 -0.5310956956 0.3661873115
368200000.0 -0.1204946133 0.5233828141
378150000.0 0.2199712594 0.3597583463
388100000.0 0.3101210141 0.0578691756
398050000.0 0.1784192886 -0.1546333838
408000000.0 -0.0172171503 -0.1758223078
417950000.0 -0.1199731334 -0.0623812914
427900000.0 -0.0894851659 0.0591301307
437850000.0 0.0124025227 0.0986609654
447800000.0 0.1028502085 0.0437459792
457750000.0 0.1214473533 -0.0566543432
467700000.0 0.0626406575 -0.1362598438
477650000.0 -0.0305857643 -0.1529922886
487600000.0 -0.1057137159 -0.0989792389
497550000.0 -0.1290501245 -0.0168689919
507500000.0 -0.0903061028 0.0601411742
517450000.0 -0.0198490203 0.0896723785
527400000.0 0.03964695 0.0716201913
537350000.0 0.061346017 0.0292767807
547300000.0 0.0433947351 -0.0061104127
557250000.0 0.0079220789 -0.0128527859
567200000.0 -0.0152449603 0.0090958241
577150000.0 -0.0069588996 0.0404879864
587100000.0 0.0315343802 0.0495729727
597050000.0 0.0714301242 0.0201507962
607000000.0 0.0819596946 -0.0412922921
616950000.0 0.0467939912 -0.1038734468
626900000.0 -0.0282735077 -0.1324998335
636850000.0 -0.111362958 -0.107510372
646800000.0 -0.1607550769 -0.0309163464
656750000.0 -0.1522648297 0.0661092839
666700000.0 -0.0831192239 0.1389535954
676650000.0 0.0198312785 0.1528939689
686600000.0 0.111110522 0.098181782
696550000.0 0.1502675098 -0.0068333394
706500000.0 0.1172074037 -0.1117235333
716450000.0 0.0271560996 -0.1691923407
726400000.0 -0.0726542327 -0.1526850704
736350000.0 -0.1331222853 -0.071066597
746300000.0 -0.1156445646 0.031006513
756250000.0 -0.0271159509 0.0958711171
766200000.0 0.0836515507 0.0813233792
776150000.0 0.1587966576 -0.0081898515
786100000.0 0.1458910937 -0.1250266758
796050000.0 0.045547913 -0.2033438778
806000000.0 -0.0916224434 -0.1831355676
815950000.0 -0.1934368159 -0.0604253104
825900000.0 -0.1868730121 0.1155835457
835850000.0 -0.0593014598 0.2578251522
845800000.0 0.1404116051 0.2843249345
855750000.0 0.3203587135 0.1696473453
865700000.0 0.3889033339 -0.0463919927
875650000.0 0.2955992905 -0.2642135239
885600000.0 0.0758853052 -0.3710353044
895550000.0 -0.1682067782 -0.3185510956
905500000.0 -0.3418199267 -0.122953533
915450000.0 -0.3604506675 0.1569761774
925400000.0 -0.191026371 0.394630256
935350000.0 0.0969269306 0.466318218
945300000.0 0.3670802809 0.3209650186
955250000.0 0.4723874596 0.0113197368
965200000.0 0.325373381 -0.3086340517
975150000.0 -0.0315685509 -0.4442078683
985100000.0 -0.4046000718 -0.2637073699
995050000.0 -0.5227051616 0.1682675281
1005000000.0 -0.2488489021 0.5629946147
1014950000.0 0.2684787043 0.601440798
1024900000.0 0.6588067571 0.1871800197
1034850000.0 0.5755418787 -0.4332316436
1044800000.0 -0.0057556529 -0.7739400848
1054750000.0 -0.652983322 -0.5058967015
1064700000.0 -0.8397132973 0.1607493421
1074650000.0 -0.4851368419 0.7139255735
1084600000.0 0.1331353416 0.8236856572
1094550000.0 0.6421300376 0.4905099446
1104500000.0 0.7692206737 -0.1168424555
1114450000.0 0.4243452225 -0.6317784903
1124400000.0 -0.1657519889 -0.7294080172
1134350000.0 -0.6109891378 -0.3884928234
1144300000.0 -0.6807494734 0.1270523974
1154250000.0 -0.4024610745 0.521757658
1164200000.0 0.0394955729 0.6265339879
1174150000.0 0.4338394279 0.423365928
1184100000.0 0.5901369798 0.0032864801
1194050000.0 0.4159275948 -0.4045574081
1204000000.0 0.0242659493 -0.5764043667
1213950000.0 -0.3609548603 -0.4531223211
1223900000.0 -0.5727185625 -0.1343539918
1233850000.0 -0.5517000217 0.2326431274
1243800000.0 -0.3212773771 0.5118209083
1253750000.0 0.0355058739 0.5989173413
1263700000.0 0.3805682755 0.4464765758
1273650000.0 0.5635983364 0.1087253968
1283600000.0 0.50512926 -0.2675122565
1293550000.0 0.2471208342 -0.5286781176
1303500000.0 -0.0958372948 -0.5962218282
1313450000.0 -0.4069207646 -0.4715098839
1323400000.0 -0.6021049523 -0.2053351962
1333350000.0 -0.629667692 0.1281475703
1343300000.0 -0.4665044259 0.4338433931
1353250000.0 -0.1463810772 0.597928356
1363200000.0 0.2222159564 0.5432006272
1373150000.0 0.4938467761 0.2825984062
1383100000.0 0.5693121665 -0.0775624258
1393050000.0 0.4425170248 -0.4061509697
1403000000.0 0.1754063782 -0.606700136
1412950000.0 -0.1427409405 -0.6345220211
1422900000.0 -0.4223974302 -0.4907614491
1432850000.0 -0.5842184212 -0.2106370071
1442800000.0 -0.5668428269 0.1267161751
1452750000.0 -0.3563014812 0.4052373443
1462700000.0 -0.0205994433 0.5153865996
1472650000.0 0.3124145283 0.4171207361
1482600000.0 0.5236656557 0.1580861525
1492550000.0 0.5523154186 -0.159747272
1502500000.0 0.4048739789 -0.4293028427
1512450000.0 0.1380774618 -0.5655655005
1522400000.0 -0.1574445592 -0.5237835029
1532350000.0 -0.3771804923 -0.3122455475
1542300000.0 -0.4342114804 -0.0025764525
1552250000.0 -0.2947545157 0.2862436552
1562200000.0 -0.0153762277 0.4302685078
1572150000.0 0.282531076 0.3802636821
1582100000.0 0.480648514 0.1681015715
1592050000.0 0.5076608774 -0.1127061091
1602000000.0 0.3593962917 -0.3520327094
1611950000.0 0.0902837093 -0.4575752107
1621900000.0 -0.2000052777 -0.3799076339
1631850000.0 -0.3940171468 -0.1352218245
1641800000.0 -0.4006157061 0.1842945687
1651750000.0 -0.2110044835 0.4403997322
1661700000.0 0.0901799775 0.5254428267
1671650000.0 0.3773042719 0.4156721361
1681600000.0 0.5458326174 0.1619778604
1691550000.0 0.5423476256 -0.1452267527
1701500000.0 0.3665306999 -0.4041703603
1711450000.0 0.0682161708 -0.5278953884
1721400000.0 -0.2620567667 -0.459741094
1731350000.0 -0.5025310537 -0.2071653923
1741300000.0 -0.5548139481 0.1403541305
1751250000.0 -0.4014394015 0.4479125301
1761200000.0 -0.1115625801 0.6095442186
1771150000.0 0.2092010084 0.5884701016
1781100000.0 0.4659361068 0.4078666486
1791050000.0 0.5959170166 0.1220688297
1801000000.0 0.5623676786 -0.1972314997
1810950000.0 0.3635577365 -0.4606833463
1820900000.0 0.0450814675 -0.5767672971
1830850000.0 -0.2901812528 -0.4896273842
1840800000.0 -0.5164936262 -0.2301506553
1850750000.0 -0.5619135706 0.0979006673
1860700000.0 -0.4361141186 0.3821370838
1870650000.0 -0.1996424312 0.5519587436
1880600000.0 0.0746243645 0.5795511242
1890550000.0 0.3169555226 0.4681688224
1900500000.0 0.4663360368 0.2462450979
1910450000.0 0.4774222884 -0.0251226521
1920400000.0 0.3397261614 -0.2618955467
1930350000.0 0.0980103966 -0.3770699513
1940300000.0 -0.1512970061 -0.3374580948
1950250000.0 -0.3184004094 -0.1840958827
1960200000.0 -0.3654776594 0.0118412369
1970150000.0 -0.3128059847 0.1572221799
1980100000.0 -0.2336762318 0.2427637514
1990050000.0 -0.1223054059 0.2695115874
2000000000.0 -0.044404638 0.2289267487
