!Created with skrf (http://scikit-rf.org).
# GHz S RI R 50.0 
!freq ReS11 ImS11
10000000.0 -0.7870719948 0.5957639735
19950000.0 -0.2830898997 0.9346898201
29900000.0 0.3220248714 0.9117197424
39850000.0 0.8047607944 0.5307889518
49800000.0 0.9688621828 -0.0770415038
59750000.0 0.7220104941 -0.6753593707
69700000.0 0.1397883711 -0.9929626188
79650000.0 -0.5234812579 -0.8518780972
89600000.0 -0.9365752277 -0.2893590518
99550000.0 -0.8620603905 0.4289258399
109500000.0 -0.2930180718 0.9162983269
119450000.0 0.4860526839 0.8477909253
129400000.0 0.9624748804 0.2043245168
139350000.0 0.7879346955 -0.6163577379
149300000.0 0.0424992682 -0.9808618458
159250000.0 -0.6945347139 -0.6514508858
169200000.0 -0.9324707073 0.0891535681
179150000.0 -0.5777935327 0.7450543219
189100000.0 0.105744761 0.949821486
199050000.0 0.7169891015 0.6350359578
209000000.0 0.9490018512 0.0089176605
218950000.0 0.7260699453 -0.5903462427
228900000.0 0.1892979305 -0.9012737741
238850000.0 -0.415321937 -0.808616728
248800000.0 -0.606054742 -0.364249066
258750000.0 -0.8935295427 0.1952412164
268700000.0 -0.591016608 0.7143466125
278650000.0 -0.0411602387 0.9278106639
288600000.0 0.5137684499 0.7508376113
298550000.0 0.8344872075 0.2684984675
308500000.0 0.786342187 -0.3070646364
318450000.0 0.389627151 -0.7209084704
328400000.0 -0.1742798438 -0.7805203368
338350000.0 -0.6241850564 -0.453495463
348300000.0 -0.7187041308 0.0732250886
358250000.0 -0.4328265654 0.4839543873
368200000.0 0.0145039909 0.5577439138
378150000.0 0.3346755631 0.317742933
388100000.0 0.3751648 -0.0245409216
398050000.0 0.1884925927 -0.245301301
408000000.0 -0.0490940745 -0.2522154303
417950000.0 -0.1821048348 -0.1105050365
427900000.0 -0.1667269458 0.0481379647
437850000.0 -0.0593338716 0.1251502701
447800000.0 0.0496739496 0.0993752586
457750000.0 0.096536684 0.0151052378
467700000.0 0.0714086206 -0.0627413929
477650000.0 0.0103793777 -0.0897648284
487600000.0 -0.037341947 -0.0606186578
497550000.0 0.014520844 -0.0611401243
507500000.0 -0.0486369541 0.007742396
517450000.0 -0.0069329424 0.0192640536
527400000.0 0.0140682932 -0.0020307434
537350000.0 0.0020303238 -0.028267551
547300000.0 -0.0373859411 -0.0322092593
557250000.0 -0.0687268944 0.0064322463
567200000.0 -0.0636358243 0.0621046232
577150000.0 -0.0153022783 0.1051506683
587100000.0 0.0588427451 0.1044233909
597050000.0 0.1231505306 0.0491050874
607000000.0 0.1409562833 -0.0431786242
616950000.0 0.0958873189 -0.1324688013
626900000.0 0.0025745463 -0.1778859441
636850000.0 -0.1018034425 -0.1558752079
646800000.0 -0.1718501258 -0.0724906454
656750000.0 -0.1784429349 0.0380503166
666700000.0 -0.1143675931 0.128327541
676650000.0 -0.0092819278 0.1578883444
686600000.0 0.0892695007 0.1142651909
696550000.0 0.1368088079 0.0199775164
706500000.0 0.1138728837 -0.07777021
716450000.0 0.0372430075 -0.1318288171
726400000.0 -0.0489783166 -0.1168615814
736350000.0 -0.0931239693 -0.0450185008
746300000.0 -0.0669926962 0.0377860328
756250000.0 0.0176267672 0.0773460301
766200000.0 0.1115499901 0.0413473211
776150000.0 0.1542724759 -0.0588219223
786100000.0 0.1084538158 -0.1694671032
796050000.0 -0.0158626653 -0.2210570029
806000000.0 -0.1590812046 -0.1666145223
815950000.0 -0.2413990713 -0.0137827537
825900000.0 -0.2058241979 0.1736606553
835850000.0 -0.0501401358 0.3090844812
845800000.0 0.1671194016 0.319267549
855750000.0 0.3529191496 0.1852225146
865700000.0 0.4207397765 -0.0437702344
875650000.0 0.3323254846 -0.276203674
885600000.0 0.1086500781 -0.4116146982
895550000.0 -0.1636544965 -0.378520213
905500000.0 -0.3665331258 -0.1753741837
915450000.0 -0.401764113 0.1188124692
925400000.0 -0.2443148749 0.3742711112
935350000.0 0.0395375712 0.4703257332
945300000.0 0.3181238011 0.3544845722
955250000.0 0.4505107015 0.072517126
965200000.0 0.3489755272 -0.2391282595
975150000.0 0.0380616447 -0.399423966
985100000.0 -0.3146934935 -0.2705319389
995050000.0 -0.4546336691 0.1088558912
1005000000.0 -0.2321660109 0.4819469632
1014950000.0 0.2350638828 0.5423591746
1024900000.0 0.6069798715 0.1782440945
1034850000.0 0.5487460453 -0.3989285031
1044800000.0 0.0099004697 -0.7375221927
1054750000.0 -0.6175414147 -0.4890578181
1064700000.0 -0.7644354673 0.1174883612
1074650000.0 -0.535700213 0.6404229502
1084600000.0 0.0559407314 0.8399238978
1094550000.0 0.5800567387 0.5610731129
1104500000.0 0.7804718673 -0.0215123346
1114450000.0 0.484492102 -0.5721045679
1124400000.0 -0.104491358 -0.7139571961
1134350000.0 -0.5669860046 -0.3886254663
1144300000.0 -0.6360865398 0.1231693584
1154250000.0 -0.3490442234 0.4919701276
1164200000.0 0.0816955432 0.5591307661
1174150000.0 0.432703813 0.3030629445
1184100000.0 0.4864066796 -0.1238945851
1194050000.0 0.2224544748 -0.4447905836
1204000000.0 -0.168663855 -0.4803847647
1213950000.0 -0.4615415186 -0.2562179753
1223900000.0 -0.5387458858 0.0861728063
1233850000.0 -0.3910026902 0.394403789
1243800000.0 -0.0824615071 0.546190666
1253750000.0 0.2624563626 0.46945168
1263700000.0 0.4874950103 0.1861522878
1273650000.0 0.4838792932 -0.1746882539
1283600000.0 0.2626273586 -0.4408333598
1293550000.0 -0.0535608529 -0.503329285
1303500000.0 -0.3077393396 -0.36536571
1313450000.0 -0.3839828912 -0.1578212937
1323400000.0 -0.3533139524 -0.0704504708
1333350000.0 -0.4215852838 0.0195943579
1343300000.0 -0.425812454 0.2817749804
1353250000.0 -0.1940383079 0.5207144481
1363200000.0 0.1726642654 0.5390541018
1373150000.0 0.4778380804 0.3105404788
1383100000.0 0.5840308604 -0.0531207987
1393050000.0 0.4696230432 -0.3999531716
1403000000.0 0.1979725281 -0.6183788971
1412950000.0 -0.1351452379 -0.6549915237
1422900000.0 -0.4312897346 -0.507526141
1432850000.0 -0.6034260006 -0.2152887939
1442800000.0 -0.5870103314 0.1369725244
1452750000.0 -0.3720041598 0.4276220799
1462700000.0 -0.0295113441 0.5463421637
1472650000.0 0.3116311762 0.452888995
1482600000.0 0.532716422 0.1941252862
1492550000.0 0.571869062 -0.1293646141
1502500000.0 0.4321039857 -0.4104700685
1512450000.0 0.1664509453 -0.5619171409
1522400000.0 -0.1356326903 -0.5341843929
1532350000.0 -0.3662240528 -0.3321201555
1542300000.0 -0.4338336432 -0.0272540022
1552250000.0 -0.3061014571 0.2577181699
1562200000.0 -0.0399177962 0.4031089906
1572150000.0 0.2452242506 0.3580245672
1582100000.0 0.43216827 0.1582452303
1592050000.0 0.4543931756 -0.1050864787
1602000000.0 0.309944761 -0.3244987055
1611950000.0 0.0537751945 -0.4085166576
1621900000.0 -0.2067690806 -0.3121790159
1631850000.0 -0.3551845346 -0.066802193
1641800000.0 -0.3172734159 0.2230843305
1651750000.0 -0.105852589 0.424997553
1661700000.0 0.1822971514 0.4499073528
1671650000.0 0.4234791756 0.2950255159
1681600000.0 0.526415086 0.0269921544
1691550000.0 0.4560642922 -0.2577290674
1701500000.0 0.2295436602 -0.4596081475
1711450000.0 -0.0834015303 -0.4997885606
1721400000.0 -0.3762175298 -0.3453021482
1731350000.0 -0.5313332574 -0.0414701499
1741300000.0 -0.4836188175 0.2965638084
1751250000.0 -0.2583282107 0.5412672367
1761200000.0 0.0536877744 0.6180962196
1771150000.0 0.3510372426 0.5203367872
1781100000.0 0.5538504876 0.2851443128
1791050000.0 0.6100489378 -0.0255415012
1801000000.0 0.4954922397 -0.331486068
1810950000.0 0.227941694 -0.538817716
1820900000.0 -0.1189560037 -0.5651259061
1830850000.0 -0.4233280174 -0.3890050694
1840800000.0 -0.5757985213 -0.0795289905
1850750000.0 -0.540637276 0.2470228466
1860700000.0 -0.3551528246 0.49247238
1870650000.0 -0.0881151034 0.6069339012
1880600000.0 0.1895478743 0.5757296506
1890550000.0 0.4113949613 0.4109476671
1900500000.0 0.5190747771 0.1499957613
1910450000.0 0.4730910909 -0.135307335
1920400000.0 0.2806318881 -0.3509030269
1930350000.0 0.0107100305 -0.4223286249
1940300000.0 -0.2364877134 -0.3406033489
1950250000.0 -0.3866872408 -0.1602505106
1960200000.0 -0.4183081374 0.0438619102
1970150000.0 -0.3509153202 0.2108478822
1980100000.0 -0.2265154041 0.3031931871
1990050000.0 -0.097134301 0.3115964681
2000000000.0 -0.0095066954 0.2585927887
