!Created with skrf (http://scikit-rf.org).
# GHz S RI R 50.0 
!freq ReS11 ImS11
10000000.0 -0.9792829618 0.1604932431
19950000.0 -0.9363659131 0.3083045461
29900000.0 -0.8719674347 0.4495208939
39850000.0 -0.7809800452 0.5861439777
49800000.0 -0.6621800486 0.71306487
59750000.0 -0.5112148462 0.8249412942
69700000.0 -0.3228834262 0.9140327169
79650000.0 -0.0940657915 0.9651371926
89600000.0 0.1759067294 0.9553545959
99550000.0 0.4697620827 0.8522168678
109500000.0 0.7511152656 0.6279808454
119450000.0 0.9497980452 0.2676119724
129400000.0 0.9767593745 -0.1827135592
139350000.0 0.7900575288 -0.6086126443
149300000.0 0.4399982963 -0.8917345153
159250000.0 0.0463129515 -0.9852843139
169200000.0 -0.3046168044 -0.9289280114
179150000.0 -0.5748839537 -0.7821075308
189100000.0 -0.7623527662 -0.5880119314
199050000.0 -0.8760933228 -0.3805209995
209000000.0 -0.9314042538 -0.1715280146
218950000.0 -0.9385703942 0.0374763127
228900000.0 -0.8905611461 0.2595972758
238850000.0 -0.4455944867 0.5700083177
248800000.0 -0.8465752869 0.2870447299
258750000.0 -0.7442905649 0.5161226627
268700000.0 -0.6216732229 0.6646341781
278650000.0 -0.4720872228 0.7692761152
288600000.0 -0.2967877073 0.8474678566
298550000.0 -0.0992321455 0.8778533725
308500000.0 0.1287444006 0.8609581179
318450000.0 0.3535683558 0.7777036008
328400000.0 0.5378435644 0.5970790097
338350000.0 0.70755008 0.3734203023
348300000.0 0.7582897453 0.0389237104
358250000.0 0.6680056991 -0.2898463154
368200000.0 0.3871699443 -0.5599876392
378150000.0 0.0636039496 -0.6276870703
388100000.0 -0.1871791353 -0.5959361833
398050000.0 -0.4065755384 -0.4729180448
408000000.0 -0.5169973363 -0.3052661812
417950000.0 -0.6011082196 -0.1964025094
427900000.0 -0.6610417731 0.0189017223
437850000.0 -0.6134166359 0.1577356819
447800000.0 -0.5663290149 0.2880186146
457750000.0 -0.5059550978 0.4240813108
467700000.0 -0.393239796 0.5092989998
477650000.0 -0.2687393345 0.5918993687
487600000.0 -0.103355508 0.650501125
497550000.0 0.0348694669 0.4441018069
507500000.0 0.3020419037 0.6696111533
517450000.0 0.4230796324 0.2712362031
527400000.0 0.2429776136 0.0892487773
537350000.0 0.1100327749 0.1443539522
547300000.0 0.1974433245 0.184585804
557250000.0 0.1604214219 0.1534270711
567200000.0 0.2497687212 0.1624267588
577150000.0 0.2319845081 0.0691737656
587100000.0 0.2976358887 0.0411127236
597050000.0 0.3002736132 -0.1107339006
607000000.0 0.194839252 -0.1797730963
616950000.0 0.1268767389 -0.1320990482
626900000.0 0.1308503521 -0.2085174104
636850000.0 0.112090426 -0.2015419817
646800000.0 0.1087858652 -0.2394689357
656750000.0 0.0126849918 -0.2643996348
666700000.0 -0.0933823478 -0.2755407485
676650000.0 -0.1280093752 -0.1994533671
686600000.0 -0.095520444 -0.1295338742
696550000.0 -0.1016146828 -0.1756467768
706500000.0 -0.1343361402 -0.2135325691
716450000.0 -0.1700308886 -0.2296212034
726400000.0 -0.1959353208 -0.2163850545
736350000.0 -0.2646995111 -0.1809146664
746300000.0 -0.2881167009 -0.166283367
756250000.0 -0.3102786171 -0.1179307255
766200000.0 -0.3240171571 -0.0740601179
776150000.0 -0.3503049752 -0.0592237117
786100000.0 -0.3417353233 0.0114321585
796050000.0 -0.3421579586 0.0020139731
806000000.0 -0.3626430535 -0.003883589
815950000.0 -0.4110247931 0.0865302596
825900000.0 -0.4133264622 0.1783090806
835850000.0 -0.3998653038 0.2623194728
845800000.0 -0.3426584429 0.395979269
855750000.0 -0.104215469 0.5253291078
865700000.0 0.1160674082 0.2537279775
875650000.0 -0.0230002217 0.1466366177
885600000.0 -0.0715297036 0.1494672642
895550000.0 -0.1197367254 0.1978100252
905500000.0 -0.0964242747 0.2770798048
915450000.0 -0.0206662737 0.2820544946
925400000.0 0.0093096144 0.3179370813
935350000.0 0.1107709345 0.3426173959
945300000.0 0.2409387101 0.3390367212
955250000.0 0.3838337665 0.2302083736
965200000.0 0.4471149797 0.093793246
975150000.0 0.5263135967 -0.0535340242
985100000.0 0.5083530354 -0.2534679445
995050000.0 0.4312330879 -0.4534369466
1005000000.0 0.2673809621 -0.6314338017
1014950000.0 0.0325666352 -0.7376368061
1024900000.0 -0.2094653187 -0.7369025031
1034850000.0 -0.4502617366 -0.6553846727
1044800000.0 -0.6414529298 -0.4917990967
1054750000.0 -0.7600012553 -0.2663312308
1064700000.0 -0.7481761967 -0.0455555783
1074650000.0 -0.7472027724 0.1608802988
1084600000.0 -0.6516715013 0.3904560237
1094550000.0 -0.4347939379 0.5643583047
1104500000.0 -0.1895029406 0.6290150979
1114450000.0 0.0753575449 0.5720747778
1124400000.0 0.2561569946 0.4472568512
1134350000.0 0.392624421 0.2380536327
1144300000.0 0.3867431636 0.0126449877
1154250000.0 0.3268849524 -0.1489330303
1164200000.0 0.2330897959 -0.2194814956
1174150000.0 0.172909252 -0.3228163975
1184100000.0 0.0654812082 -0.3745647466
1194050000.0 -0.0475715605 -0.4000568012
1204000000.0 -0.181064908 -0.3941614342
1213950000.0 -0.2381293425 -0.3287249996
1223900000.0 -0.304903643 -0.271393885
1233850000.0 -0.32869445 -0.2178792686
1243800000.0 -0.3225659162 -0.1606006243
1253750000.0 -0.3536815409 -0.120014731
1263700000.0 -0.2780908106 -0.0516910018
1273650000.0 -0.2439128006 -0.0751272259
1283600000.0 -0.2603246614 -0.1114833469
1293550000.0 -0.2499334334 -0.0960425671
1303500000.0 -0.2578107155 -0.0986629729
1313450000.0 -0.2203305331 -0.1054259654
1323400000.0 -0.2461010669 -0.1787118907
1333350000.0 -0.311282345 -0.1996556743
1343300000.0 -0.3794706382 -0.1825067698
1353250000.0 -0.4351431485 -0.1647950507
1363200000.0 -0.4822425902 -0.1151514004
1373150000.0 -0.5180418107 -0.0511792939
1383100000.0 -0.5275103335 0.0137056661
1393050000.0 -0.5332365736 0.0434373539
1403000000.0 -0.5401016521 0.0943859239
1412950000.0 -0.5495176219 0.1673370971
1422900000.0 -0.5052838489 0.2283600412
1432850000.0 -0.4937160719 0.2677639704
1442800000.0 -0.4422150769 0.2998530654
1452750000.0 -0.4238339426 0.3470930279
1462700000.0 -0.3616383006 0.350641016
1472650000.0 -0.3849871807 0.3559147942
1482600000.0 -0.3881606508 0.4573117335
1492550000.0 -0.3237071986 0.5493277644
1502500000.0 -0.2051743427 0.6279443912
1512450000.0 -0.0759354454 0.6430878554
1522400000.0 0.071528386 0.6466092816
1532350000.0 0.2131362592 0.5793846894
1542300000.0 0.308089592 0.4800432589
1552250000.0 0.3754976289 0.3820623928
1562200000.0 0.4345028798 0.2703601822
1572150000.0 0.469458657 0.1464317461
1582100000.0 0.4272347661 0.0032478536
1592050000.0 0.3999379507 -0.0407875866
1602000000.0 0.4151289281 -0.1001001952
1611950000.0 0.4155907471 -0.2278597453
1621900000.0 0.3805818282 -0.3479915089
1631850000.0 0.2900760333 -0.4475227697
1641800000.0 0.1858310042 -0.5311033391
1651750000.0 0.0704880754 -0.5785788112
1661700000.0 -0.0470797517 -0.5989183949
1671650000.0 -0.151597414 -0.5688368365
1681600000.0 -0.171448329 -0.5683999436
1691550000.0 -0.2896068385 -0.5673497751
1701500000.0 -0.3659889959 -0.545188254
1711450000.0 -0.4528962047 -0.5010866903
1721400000.0 -0.5060133209 -0.4504843426
1731350000.0 -0.5675061572 -0.3956348764
1741300000.0 -0.5944165712 -0.3453399757
1751250000.0 -0.6371776622 -0.2980722049
1761200000.0 -0.6631184709 -0.2343501129
1771150000.0 -0.6813751703 -0.1797296275
1781100000.0 -0.6917072726 -0.1339240058
1791050000.0 -0.7107870537 -0.0909053297
1801000000.0 -0.7118400968 -0.0446379525
1810950000.0 -0.7212118129 0.0079343612
1820900000.0 -0.7163954158 0.0701302954
1830850000.0 -0.7073788922 0.1088615016
1840800000.0 -0.6926610513 0.1503331604
1850750000.0 -0.6919973689 0.1978570487
1860700000.0 -0.6649902878 0.2530990549
1870650000.0 -0.6324634181 0.2880835297
1880600000.0 -0.6039842756 0.3236987975
1890550000.0 -0.565183804 0.3452347916
1900500000.0 -0.5372688772 0.3637755801
1910450000.0 -0.5093840132 0.3805537564
1920400000.0 -0.4816803049 0.4009662493
1930350000.0 -0.4461251773 0.4042962481
1940300000.0 -0.4371318977 0.4353939955
1950250000.0 -0.376717226 0.4549626032
1960200000.0 -0.3164286211 0.4639059108
1970150000.0 -0.2645201423 0.4421445583
1980100000.0 -0.2101724197 0.4190854183
1990050000.0 -0.1762724418 0.3693113667
2000000000.0 -0.1302836617 0.3415399232
