!Created with skrf (http://scikit-rf.org).
# GHz S RI R 50.0 
!freq ReS11 ImS11
10000000.0 -0.7664751554 0.676915747
19950000.0 -0.1347380268 0.9882636369
29900000.0 0.5407375546 0.8153907661
39850000.0 0.9445065134 0.2410155997
49800000.0 0.8696364457 -0.4695118905
59750000.0 0.3217618112 -0.9587692182
69700000.0 -0.4355075684 -0.9299444376
79650000.0 -0.9594628783 -0.3532346496
89600000.0 -0.8947612604 0.4416788772
99550000.0 -0.2482141374 0.937043633
109500000.0 0.5712743042 0.7691348291
119450000.0 0.9738494061 0.0002719032
129400000.0 0.5892047235 -0.8095624694
139350000.0 -0.3214341219 -0.9593211711
149300000.0 -0.9464084721 -0.2893917941
159250000.0 -0.7607865838 0.5787456972
169200000.0 0.0096053494 0.940452992
179150000.0 0.7499730149 0.5868826444
189100000.0 0.9616911428 -0.180591071
199050000.0 0.5448449701 -0.834049805
209000000.0 -0.1970543827 -0.9714025529
218950000.0 -0.7939495878 -0.5512406834
228900000.0 -0.9275437987 0.1459014008
238850000.0 -0.5564825103 0.73647335
248800000.0 0.0450083618 0.9114133058
258750000.0 0.6989620276 0.6351914711
268700000.0 0.9622774806 0.0057478442
278650000.0 0.7269969523 -0.6311778988
288600000.0 0.124324347 -0.9320264102
298550000.0 -0.5121963876 -0.7407018465
308500000.0 -0.8398494793 -0.1717957222
318450000.0 -0.6834796678 0.4571243004
328400000.0 -0.1370052005 0.7866893839
338350000.0 0.4626741749 0.6199153141
348300000.0 0.723602177 0.0870933494
358250000.0 0.5016718541 -0.4153874383
368200000.0 0.0258628402 -0.5468254533
378150000.0 -0.3233527135 -0.2950500691
388100000.0 -0.3384015412 0.0711442564
398050000.0 -0.1044821973 0.2668431129
408000000.0 0.1382997077 0.2072164185
417950000.0 0.2138999697 0.0175493388
427900000.0 0.1213724438 -0.1249189531
437850000.0 -0.0233771633 -0.1326329708
447800000.0 -0.1047635375 -0.0369660232
457750000.0 -0.0825324711 0.0701512123
467700000.0 0.0020874156 0.1121268794
477650000.0 0.0739343391 0.0770886481
487600000.0 0.0802650476 0.0169927918
497550000.0 0.0807097871 -0.0503457791
507500000.0 0.011263036 -0.048511445
517450000.0 -0.0135084732 -0.0140770616
527400000.0 0.0017500695 0.0118636841
537350000.0 0.0295879461 0.000475755
547300000.0 0.0263634911 -0.0454580588
557250000.0 -0.0435454947 -0.0488272204
567200000.0 -0.0648399253 -0.0395878277
577150000.0 -0.1045063794 0.0132764028
587100000.0 -0.0872371101 0.0923731158
597050000.0 -0.0082890468 0.1417421588
607000000.0 0.0943212526 0.119476934
616950000.0 0.1605185608 0.0254532166
626900000.0 0.1471870959 -0.095863251
636850000.0 0.0536080162 -0.181720487
646800000.0 -0.0746157817 -0.1842830608
656750000.0 -0.1715172029 -0.1006707694
666700000.0 -0.1848308435 0.0241395115
676650000.0 -0.1097663707 0.1213645216
686600000.0 0.0090377159 0.1378960187
696550000.0 0.1014218906 0.0689757285
706500000.0 0.1165239779 -0.0386539811
716450000.0 0.0536502289 -0.1167313273
726400000.0 -0.0385007594 -0.1189482307
736350000.0 -0.090706729 -0.0504621385
746300000.0 -0.062389358 0.0311866383
756250000.0 0.0286325739 0.0556008591
766200000.0 0.1125529081 -0.0104384044
776150000.0 0.1150351226 -0.1330729717
786100000.0 0.0118506285 -0.2279715018
796050000.0 -0.1476142058 -0.2146147
806000000.0 -0.2616550267 -0.0724873113
815950000.0 -0.2385362725 0.1322000249
825900000.0 -0.0618915946 0.2782855932
835850000.0 0.1877348663 0.2623927596
845800000.0 0.3734051045 0.0692089098
855750000.0 0.3819456269 -0.2140917218
865700000.0 0.1890535621 -0.4405711951
875650000.0 -0.1223013099 -0.4802736814
885600000.0 -0.3944099038 -0.2825304272
895550000.0 -0.4254208807 0.0806387716
905500000.0 -0.2338038686 0.2820053969
915450000.0 0.0431417765 0.3878778571
925400000.0 0.3441611017 0.2551257183
935350000.0 0.4637346162 -0.0623223013
945300000.0 0.3157133001 -0.3729584458
955250000.0 -0.0185204772 -0.4776150892
965200000.0 -0.3272387447 -0.2893904532
975150000.0 -0.3804776918 0.0882478307
985100000.0 -0.0903939542 0.3759154261
995050000.0 0.342960539 0.2899621323
1005000000.0 0.5183236578 -0.158199339
1014950000.0 0.2058474279 -0.5840858387
1024900000.0 -0.3781792588 -0.5506716599
1034850000.0 -0.70979965 0.0086902017
1044800000.0 -0.3974087804 0.6552304931
1054750000.0 0.3615978494 0.7465317756
1064700000.0 0.8594153753 0.1847148282
1074650000.0 0.7132253857 -0.545017275
1084600000.0 0.0850417709 -0.8687156994
1094550000.0 -0.5590213366 -0.6185717744
1104500000.0 -0.7853448132 0.0277600071
1114450000.0 -0.4258660766 0.6082335824
1124400000.0 0.2369573557 0.6642834732
1134350000.0 0.6406804626 0.1920848431
1144300000.0 0.5172780001 -0.3563926288
1154250000.0 0.0622952923 -0.5811756206
1164200000.0 -0.3686053878 -0.4020402599
1174150000.0 -0.5227454539 0.0232686634
1184100000.0 -0.2961455809 0.4192321208
1194050000.0 0.1517043137 0.4950656484
1204000000.0 0.4908367679 0.2098276701
1213950000.0 0.5104103027 -0.2167242044
1223900000.0 0.2377057248 -0.5252715802
1233850000.0 -0.1614785802 -0.5741801206
1243800000.0 -0.4979239666 -0.3520363975
1253750000.0 -0.6141353009 0.0437945514
1263700000.0 -0.4381271534 0.4305874811
1273650000.0 -0.0405053627 0.6076832987
1283600000.0 0.3773905426 0.4748153119
1293550000.0 0.6057198387 0.108262947
1303500000.0 0.5561094366 -0.3079856521
1313450000.0 0.2739204277 -0.6016057119
1323400000.0 -0.1223219172 -0.6739710119
1333350000.0 -0.4885436669 -0.5008537984
1343300000.0 -0.6854026421 -0.1343276348
1353250000.0 -0.6148807902 0.2900864234
1363200000.0 -0.2839844339 0.5848322072
1373150000.0 0.1626175427 0.6018912742
1383100000.0 0.5141682307 0.3367258583
1393050000.0 0.6257797042 -0.0742488376
1403000000.0 0.4765156645 -0.4556501036
1412950000.0 0.1434543928 -0.6712448644
1422900000.0 -0.2479368735 -0.6552137835
1432850000.0 -0.556798825 -0.4133218738
1442800000.0 -0.6614100955 -0.0285032383
1452750000.0 -0.5026456788 0.3465473958
1462700000.0 -0.1373943655 0.5401263218
1472650000.0 0.2646233144 0.4579892667
1482600000.0 0.5162463886 0.146664639
1492550000.0 0.5146446726 -0.2394083378
1502500000.0 0.2832603141 -0.5287022937
1512450000.0 -0.0641060663 -0.6087463419
1522400000.0 -0.3788555054 -0.4580509566
1532350000.0 -0.5267366687 -0.1448498835
1542300000.0 -0.4374983236 0.1883963719
1552250000.0 -0.1527265308 0.3763306124
1562200000.0 0.177544904 0.330711546
1572150000.0 0.3898204896 0.0806313813
1582100000.0 0.3733603552 -0.2404400377
1592050000.0 0.1477121293 -0.4568330081
1602000000.0 -0.1584971481 -0.4633004366
1611950000.0 -0.3888856698 -0.2613130041
1621900000.0 -0.4243672135 0.048796609
1631850000.0 -0.2357247248 0.3093920271
1641800000.0 0.0889895277 0.3724203196
1651750000.0 0.3745486381 0.1891704778
1661700000.0 0.4559833756 -0.1436072332
1671650000.0 0.2901811216 -0.4433417799
1681600000.0 -0.0319248071 -0.5578669262
1691550000.0 -0.3548247319 -0.4394364191
1701500000.0 -0.5368925677 -0.1406795968
1711450000.0 -0.4942519909 0.2169160754
1721400000.0 -0.2265993183 0.480932196
1731350000.0 0.1619914502 0.5161742916
1741300000.0 0.488955111 0.2864281644
1751250000.0 0.5887573921 -0.1021814704
1761200000.0 0.4210412899 -0.459394817
1771150000.0 0.0789581014 -0.6324712043
1781100000.0 -0.2891217209 -0.5716896946
1791050000.0 -0.5525303376 -0.3146001021
1801000000.0 -0.6236154153 0.0486586139
1810950000.0 -0.4684282527 0.3947221226
1820900000.0 -0.1256693096 0.5848543327
1830850000.0 0.2701143499 0.5191303825
1840800000.0 0.5360424514 0.2170262395
1850750000.0 0.5497978058 -0.1759122848
1860700000.0 0.3300155262 -0.478550153
1870650000.0 -0.0056154332 -0.5873147617
1880600000.0 -0.3256846367 -0.4930317522
1890550000.0 -0.5305403152 -0.2474933677
1900500000.0 -0.562237111 0.0636212734
1910450000.0 -0.4103499388 0.3328733426
1920400000.0 -0.1308290375 0.4552582561
1930350000.0 0.1541518957 0.3783669806
1940300000.0 0.3160250664 0.1527097577
1950250000.0 0.3026116617 -0.0981671244
1960200000.0 0.1596940638 -0.2655406912
1970150000.0 -0.0220792779 -0.3083701705
1980100000.0 -0.1614892523 -0.2520371516
1990050000.0 -0.2221266788 -0.1591612345
2000000000.0 -0.2219254481 -0.0941052957
