!Created with skrf (http://scikit-rf.org).
# GHz S RI R 50.0 
!freq ReS11 ImS11
10000000.0 -0.7952039843 0.596646321
19950000.0 -0.2925247417 0.9354601576
29900000.0 0.3106637828 0.918481951
39850000.0 0.7974190263 0.5484695784
49800000.0 0.9757119929 -0.0513885824
59750000.0 0.7472587822 -0.6545512585
69700000.0 0.1739084768 -0.9906834669
79650000.0 -0.4996495198 -0.8683822955
89600000.0 -0.932498726 -0.3085098139
99550000.0 -0.8662947141 0.4228321662
109500000.0 -0.2843442358 0.9187071351
119450000.0 0.5119463364 0.831926215
129400000.0 0.9853573827 0.1404881273
139350000.0 0.740789174 -0.6696824727
149300000.0 -0.046430993 -0.9755525689
159250000.0 -0.7528590799 -0.5753760751
169200000.0 -0.918829365 0.1780625901
179150000.0 -0.5180668912 0.7904196309
189100000.0 0.1622498478 0.9457806485
199050000.0 0.7445317913 0.6121865473
209000000.0 0.9552423326 -0.0035890852
218950000.0 0.733894462 -0.5866777874
228900000.0 0.2140052689 -0.8979113784
238850000.0 -0.3753601777 -0.8322245619
248800000.0 -0.7914804123 -0.4227186991
258750000.0 -0.9138748861 0.1354227945
268700000.0 -0.6642812658 0.6592911586
278650000.0 -0.1524140429 0.9250882718
288600000.0 0.4121228376 0.8233290426
298550000.0 0.7950874882 0.3982236181
308500000.0 0.8378346538 -0.171855262
318450000.0 0.5201112287 -0.6420181725
328400000.0 -0.0160878131 -0.8018248704
338350000.0 -0.5127874213 -0.5752932152
348300000.0 -0.7111531016 -0.0915262321
358250000.0 -0.5252224134 0.3569061568
368200000.0 -0.1191318153 0.5141761339
378150000.0 0.2184242335 0.351122749
388100000.0 0.3053270395 0.0506497557
398050000.0 0.1680021249 -0.159109243
408000000.0 -0.0280263352 -0.176270377
417950000.0 -0.1319225983 -0.0588938809
427900000.0 -0.100886055 0.070034089
437850000.0 0.0093856109 0.1157947071
447800000.0 0.1097605406 0.0622676021
457750000.0 0.1372414245 -0.0430297595
467700000.0 0.0826540535 -0.1329833562
477650000.0 -0.0133478405 -0.1588583901
487600000.0 -0.0966864736 -0.1155628859
497550000.0 -0.1379195805 -0.0276363894
507500000.0 -0.0993653958 0.0472741586
517450000.0 -0.0391018288 0.080106315
527400000.0 0.0171819074 0.0678832883
537350000.0 0.0392002233 0.0295330299
547300000.0 0.0257950701 -0.0007221335
557250000.0 -0.0019414736 -0.0030763994
567200000.0 -0.0166271991 0.0211757501
577150000.0 0.0004519385 0.0503165354
587100000.0 0.0439216227 0.0551792556
597050000.0 0.0874617693 0.0186883079
607000000.0 0.0985877627 -0.0498207248
616950000.0 0.0587004785 -0.1199023209
626900000.0 -0.0239620517 -0.1541242294
636850000.0 -0.1157629003 -0.1283370569
646800000.0 -0.1754481607 -0.0478748302
656750000.0 -0.1734295097 0.0575448698
666700000.0 -0.1029495294 0.1418656357
676650000.0 0.0076854081 0.1649652272
686600000.0 0.1112999859 0.1133396813
696550000.0 0.1627331452 0.0098513292
706500000.0 0.1388918749 -0.1003316871
716450000.0 0.0539263307 -0.168730973
726400000.0 -0.0497393423 -0.1624409659
736350000.0 -0.1175190542 -0.0884262494
746300000.0 -0.1123745395 0.0123218533
756250000.0 -0.035193782 0.0830082109
766200000.0 0.0708426319 0.0796428641
776150000.0 0.1456828661 0.0013323444
786100000.0 0.1408736526 -0.1102854374
796050000.0 0.0499220127 -0.1889878001
806000000.0 -0.0833423596 -0.1765688697
815950000.0 -0.1838655337 -0.0625728837
825900000.0 -0.1841083803 0.1060577666
835850000.0 -0.0660572875 0.2480541751
845800000.0 0.1257893869 0.2841879694
855750000.0 0.30636133 0.1842446413
865700000.0 0.3855904351 -0.0195670421
875650000.0 0.3114864791 -0.2395878314
885600000.0 0.0997548349 -0.3695980046
895550000.0 -0.1634149004 -0.3312393757
905500000.0 -0.3513275906 -0.1232649463
915450000.0 -0.3626178554 0.1689936879
925400000.0 -0.1770804581 0.403011199
935350000.0 0.1224637159 0.4545210301
945300000.0 0.3846671362 0.2814938634
955250000.0 0.4562674101 -0.0455600462
965200000.0 0.2589332245 -0.3518016007
975150000.0 -0.1340308667 -0.4234233248
985100000.0 -0.4749520723 -0.1488837093
995050000.0 -0.4776525336 0.3276370005
1005000000.0 -0.0725706919 0.6484038813
1014950000.0 0.4721890325 0.5136450984
1024900000.0 0.7238122373 -0.0463968114
1034850000.0 0.4141842936 -0.6369720111
1044800000.0 -0.2776836404 -0.7507458349
1054750000.0 -0.7785055796 -0.2543301973
1064700000.0 -0.6682455742 0.3616598362
1074650000.0 -0.2018274834 0.6396979044
1084600000.0 -0.0088965213 0.6644799659
1094550000.0 0.5835614446 0.5133264194
1104500000.0 0.7562811906 -0.0951191609
1114450000.0 0.4176057311 -0.6127121259
1124400000.0 -0.1646415088 -0.7047771202
1134350000.0 -0.597313379 -0.3686114851
1144300000.0 -0.662417595 0.1309605457
1154250000.0 -0.3925569809 0.5138574528
1164200000.0 0.0396421213 0.6159034993
1174150000.0 0.4255807112 0.4122885034
1184100000.0 0.5734427944 -0.0006322638
1194050000.0 0.3994298452 -0.3977668583
1204000000.0 0.0165271113 -0.5659668671
1213950000.0 -0.3607100229 -0.4485369208
1223900000.0 -0.5730200264 -0.1384228823
1233850000.0 -0.5587051281 0.2226485986
1243800000.0 -0.3366091679 0.5042413501
1253750000.0 0.0137125386 0.6019113443
1263700000.0 0.3612316947 0.4652036204
1273650000.0 0.5588844986 0.1395095155
1283600000.0 0.5215631881 -0.238343109
1293550000.0 0.2793189293 -0.5158921586
1303500000.0 -0.060987386 -0.6064078951
1313450000.0 -0.3835196088 -0.503026012
1323400000.0 -0.598528067 -0.2499416347
1333350000.0 -0.6477332042 0.0808801615
1343300000.0 -0.5065596403 0.3964924863
1353250000.0 -0.2018770126 0.5854879075
1363200000.0 0.1699331755 0.5651373019
1373150000.0 0.4647987296 0.3327361446
1383100000.0 0.5761240499 -0.0193408558
1393050000.0 0.4808275649 -0.3600540525
1403000000.0 0.2315266762 -0.5858476021
1412950000.0 -0.0862551141 -0.6436328834
1422900000.0 -0.3806834897 -0.5250019627
1432850000.0 -0.5666885883 -0.262688254
1442800000.0 -0.5792279393 0.0710865398
1452750000.0 -0.3954326717 0.3632446781
1462700000.0 -0.0740659562 0.5012923952
1472650000.0 0.2641914195 0.4327831957
1482600000.0 0.4942109535 0.1938038241
1492550000.0 0.5472988628 -0.1160069457
1502500000.0 0.4231095067 -0.389841257
1512450000.0 0.1726093183 -0.5406550769
1522400000.0 -0.1183398998 -0.5179403218
1532350000.0 -0.3452845436 -0.3247559112
1542300000.0 -0.4151446482 -0.0251300326
1552250000.0 -0.2886543469 0.2585160194
1562200000.0 -0.0216984649 0.4035054119
1572150000.0 0.2636302502 0.3589286042
1582100000.0 0.4566015631 0.1605087031
1592050000.0 0.4863464495 -0.1083887879
1602000000.0 0.3470581507 -0.3407118739
1611950000.0 0.0872689144 -0.4458608561
1621900000.0 -0.1970834467 -0.3713481126
1631850000.0 -0.3876936548 -0.1310705196
1641800000.0 -0.393698265 0.1849079986
1651750000.0 -0.2065210384 0.4385548059
1661700000.0 0.0907467668 0.5265444172
1671650000.0 0.3760797104 0.4231107345
1681600000.0 0.5489915431 0.177091044
1691550000.0 0.5571295152 -0.1283255778
1701500000.0 0.391598911 -0.3958457131
1711450000.0 0.0952480527 -0.5358708209
1721400000.0 -0.2443144207 -0.4826945283
1731350000.0 -0.5000772185 -0.2381012431
1741300000.0 -0.569709813 0.1104635015
1751250000.0 -0.4320492762 0.4298980156
1761200000.0 -0.1523250453 0.6122114533
1771150000.0 0.169499096 0.6177941504
1781100000.0 0.4425663741 0.4617920232
1791050000.0 0.6010776781 0.1890492971
1801000000.0 0.5998930659 -0.1342974845
1810950000.0 0.4248701816 -0.4208756689
1820900000.0 0.1126063454 -0.5704252886
1830850000.0 -0.2338870204 -0.514189103
1840800000.0 -0.4745169216 -0.2780246304
1850750000.0 -0.5542482442 0.0166729735
1860700000.0 -0.4849754541 0.3112596663
1870650000.0 -0.2796179044 0.5201757373
1880600000.0 -0.0103914905 0.5920370452
1890550000.0 0.249270213 0.5212110812
1900500000.0 0.434062525 0.3278692706
1910450000.0 0.4898587948 0.0634490366
1920400000.0 0.3935596087 -0.1894976597
1930350000.0 0.1795336036 -0.3426193785
1940300000.0 -0.0679552899 -0.3515876124
1950250000.0 -0.260488342 -0.2395746632
1960200000.0 -0.3528500759 -0.0682901478
1970150000.0 -0.3441629032 0.0962618961
1980100000.0 -0.2651269699 0.2058841093
1990050000.0 -0.164598936 0.2395299757
2000000000.0 -0.0960361442 0.2080235852
