!Created with skrf (http://scikit-rf.org).
# GHz S RI R 50.0 
!freq ReS11 ImS11
10000000.0 -0.9740762884 0.1763077502
19950000.0 -0.9411431305 0.3409960825
29900000.0 -0.8832608614 0.4956166251
39850000.0 -0.7867594475 0.6360865485
49800000.0 -0.6533670212 0.7555647828
59750000.0 -0.4835307856 0.8512573325
69700000.0 -0.2798184154 0.9213691172
79650000.0 -0.0466261355 0.9588738618
89600000.0 0.2129168061 0.9464801405
99550000.0 0.4850076256 0.8572397771
109500000.0 0.7363144414 0.6614009797
119450000.0 0.9149570208 0.3513421503
129400000.0 0.9668398344 -0.0417246255
139350000.0 0.8602375672 -0.4479105601
149300000.0 0.6056176096 -0.7836800254
159250000.0 0.2577694595 -0.9801975963
169200000.0 -0.1044525464 -1.01354088
179150000.0 -0.4170543787 -0.9130872518
189100000.0 -0.6532595097 -0.7346473585
199050000.0 -0.8168140221 -0.5232949607
209000000.0 -0.9191129661 -0.306243464
218950000.0 -0.9742157603 -0.0987304028
228900000.0 -0.9816768762 0.092322297
238850000.0 -0.9448801107 0.2629867557
248800000.0 -0.8518038906 0.4155116037
258750000.0 -0.7720281549 0.5378867366
268700000.0 -0.6515002242 0.6532139081
278650000.0 -0.5164884542 0.7530478922
288600000.0 -0.3690755094 0.8336106996
298550000.0 -0.2100931138 0.8851857978
308500000.0 -0.0424878786 0.8957840224
318450000.0 0.127529935 0.8554302865
328400000.0 0.2909023236 0.7617158538
338350000.0 0.4309879216 0.6176547914
348300000.0 0.531456213 0.4335061423
358250000.0 0.5711897651 0.2287090601
368200000.0 0.5352683584 0.0340056434
378150000.0 0.429730784 -0.1127458532
388100000.0 0.2816187858 -0.1904930965
398050000.0 0.129460481 -0.2032301962
408000000.0 0.0010995891 -0.1718855916
417950000.0 -0.0883551234 -0.1161365468
427900000.0 -0.1402216218 -0.0549194882
437850000.0 -0.1526443816 0.0031448661
447800000.0 -0.140383395 0.0530665069
457750000.0 -0.1100184077 0.0930595482
467700000.0 -0.0729938874 0.1252816402
477650000.0 -0.0401700631 0.1443164365
487600000.0 -0.0099481511 0.1497070196
497550000.0 -0.0013196225 0.1413070296
507500000.0 0.0148418852 0.1232336808
517450000.0 0.0190834689 0.0927521537
527400000.0 0.0169133114 0.0593558215
537350000.0 0.0119094661 0.0289812792
547300000.0 0.0061477202 0.0086016577
557250000.0 -0.0045509925 0.0007397649
567200000.0 -0.0228619314 0.0040691581
577150000.0 -0.0468122432 0.0152045861
587100000.0 -0.0755800379 0.0321141614
597050000.0 -0.1033794626 0.0506292937
607000000.0 -0.1248866221 0.0688462587
616950000.0 -0.1347305601 0.0859306949
626900000.0 -0.1299962735 0.1037535916
636850000.0 -0.1125394534 0.124076226
646800000.0 -0.0844351216 0.1459848415
656750000.0 -0.0521389148 0.1702775735
666700000.0 -0.0208302747 0.1905912318
676650000.0 0.0100769266 0.2037352516
686600000.0 0.0351957521 0.2051559084
696550000.0 0.0591604691 0.1889556028
706500000.0 0.0821759203 0.1590288082
716450000.0 0.1066065755 0.1163603131
726400000.0 0.1275624747 0.0685968383
736350000.0 0.1435690022 0.0180248079
746300000.0 0.1496786431 -0.0277955324
756250000.0 0.1375270218 -0.0684622608
766200000.0 0.1081214936 -0.1019738413
776150000.0 0.0578730862 -0.128962744
786100000.0 -0.0053708175 -0.1493372708
796050000.0 -0.0763762655 -0.1612098238
806000000.0 -0.1480519258 -0.1624183444
815950000.0 -0.2095439089 -0.1481726758
825900000.0 -0.2592577447 -0.1143614166
835850000.0 -0.2920703526 -0.0616276267
845800000.0 -0.3109157196 0.0096422806
855750000.0 -0.3160143639 0.0930071068
865700000.0 -0.3111771556 0.1809250057
875650000.0 -0.2857156118 0.2659707409
885600000.0 -0.2443545046 0.3377967279
895550000.0 -0.181512463 0.3914354179
905500000.0 -0.0960680655 0.4203331753
915450000.0 0.0081891813 0.4255573966
925400000.0 0.1251154347 0.4047264719
935350000.0 0.2495550967 0.3559468747
945300000.0 0.3678600715 0.2722080489
955250000.0 0.4602662566 0.1424152289
965200000.0 0.4997287351 -0.0342690603
975150000.0 0.4575938217 -0.2454867437
985100000.0 0.3149165573 -0.4592971473
995050000.0 0.0687370685 -0.6233079031
1005000000.0 -0.2524653461 -0.6681505583
1014950000.0 -0.5700738762 -0.5464967175
1024900000.0 -0.7846575312 -0.2795395288
1034850000.0 -0.8484320573 0.0483656947
1044800000.0 -0.7824619108 0.3584436379
1054750000.0 -0.6245993848 0.6082440629
1064700000.0 -0.4096894071 0.7732350157
1074650000.0 -0.1752871666 0.8323544145
1084600000.0 0.0317028524 0.8527782715
1094550000.0 0.2652923437 0.7868861362
1104500000.0 0.4594696622 0.6543178247
1114450000.0 0.6075552602 0.4851273001
1124400000.0 0.7050935575 0.2945774347
1134350000.0 0.7448139892 0.095172522
1144300000.0 0.7204440201 -0.1013030095
1154250000.0 0.6345486597 -0.275935535
1164200000.0 0.5035187424 -0.4184754383
1174150000.0 0.3472403716 -0.5232078154
1184100000.0 0.1857007913 -0.5882493398
1194050000.0 0.0306711734 -0.6177211473
1204000000.0 -0.1123486018 -0.6091915329
1213950000.0 -0.2349879801 -0.5672630637
1223900000.0 -0.3414599095 -0.4931796665
1233850000.0 -0.4253575136 -0.3965444769
1243800000.0 -0.4935572533 -0.2902791379
1253750000.0 -0.5432179557 -0.185921826
1263700000.0 -0.5758102547 -0.0931482179
1273650000.0 -0.5962341249 -0.0137363247
1283600000.0 -0.6018457361 0.0556387689
1293550000.0 -0.5927359528 0.1203062152
1303500000.0 -0.5693227367 0.1862536502
1313450000.0 -0.5357847382 0.2585392243
1323400000.0 -0.4932384851 0.3372449554
1333350000.0 -0.4463858034 0.4147929626
1343300000.0 -0.3975052926 0.4850746988
1353250000.0 -0.3473136683 0.5417263524
1363200000.0 -0.2950756882 0.5812326967
1373150000.0 -0.2381935984 0.6043763855
1383100000.0 -0.1724439089 0.6123934216
1393050000.0 -0.0999275406 0.612059923
1403000000.0 -0.0201311453 0.6083351052
1412950000.0 0.061953301 0.6040983572
1422900000.0 0.1423842664 0.5989747408
1432850000.0 0.2156751278 0.5877835049
1442800000.0 0.2786335471 0.566208168
1452750000.0 0.3310952944 0.5307431316
1462700000.0 0.3738687509 0.4785785584
1472650000.0 0.4130139019 0.4143713498
1482600000.0 0.4497232421 0.3403860914
1492550000.0 0.4868067486 0.2630076729
1502500000.0 0.5201837523 0.1831464025
1512450000.0 0.5443241287 0.1045982249
1522400000.0 0.5536553816 0.0260416085
1532350000.0 0.5418860325 -0.050831299
1542300000.0 0.510006527 -0.1247345429
1552250000.0 0.4611514431 -0.1989518279
1562200000.0 0.401080513 -0.2709840982
1572150000.0 0.3343723352 -0.3403208285
1582100000.0 0.2620979414 -0.401425043
1592050000.0 0.1842024998 -0.4500809864
1602000000.0 0.1001199225 -0.4797625445
1611950000.0 0.011149912 -0.4846998222
1621900000.0 -0.0797628983 -0.4703918716
1631850000.0 -0.1703734875 -0.4410440151
1641800000.0 -0.2565211589 -0.4044184068
1651750000.0 -0.3365101177 -0.3621060385
1661700000.0 -0.4057914683 -0.314122264
1671650000.0 -0.462783609 -0.2589844714
1681600000.0 -0.5030162451 -0.1915986672
1691550000.0 -0.5265000165 -0.1144307288
1701500000.0 -0.5378536809 -0.0315834795
1711450000.0 -0.5405482766 0.0528309318
1721400000.0 -0.5403840964 0.1313169003
1731350000.0 -0.5382213047 0.2036386605
1741300000.0 -0.5313606102 0.265698389
1751250000.0 -0.516173056 0.3207197397
1761200000.0 -0.4871307009 0.3688475039
1771150000.0 -0.4433301382 0.4125199652
1781100000.0 -0.3875382595 0.4548096191
1791050000.0 -0.3265075188 0.4955565562
1801000000.0 -0.2682698734 0.5345608037
1810950000.0 -0.2163128727 0.5689326334
1820900000.0 -0.1723676538 0.5954685883
1830850000.0 -0.13274381 0.6100602314
1840800000.0 -0.0925576978 0.610785811
1850750000.0 -0.0474554969 0.5979424148
1860700000.0 0.0057193314 0.5748457445
1870650000.0 0.0646766514 0.5475612599
1880600000.0 0.1275381166 0.5207175476
1890550000.0 0.1829272217 0.4965024786
1900500000.0 0.2281003367 0.4746600762
1910450000.0 0.2579782893 0.4510398933
1920400000.0 0.2702774172 0.4189852256
1930350000.0 0.2691209725 0.376887209
1940300000.0 0.2585412303 0.3222846017
1950250000.0 0.2444465763 0.2580715808
1960200000.0 0.2283382391 0.192917033
1970150000.0 0.20963819 0.1312787704
1980100000.0 0.181481444 0.0839918257
1990050000.0 0.134301439 0.0545435987
2000000000.0 0.0602524977 0.0511462575
