!Created with skrf (http://scikit-rf.org).
# GHz S RI R 50.0 
!freq ReS11 ImS11
10000000.0 -0.9752684992 0.0665585564
19950000.0 -0.9664724109 0.1300849203
29900000.0 -0.9524469 0.196917836
39850000.0 -0.9316397046 0.2685798864
49800000.0 -0.9009036018 0.3477983904
59750000.0 -0.8576836337 0.4361175836
69700000.0 -0.7969712112 0.5343115227
79650000.0 -0.7124305661 0.6432866731
89600000.0 -0.5921722267 0.758681969
99550000.0 -0.4237832628 0.8689775064
109500000.0 -0.1967702913 0.9516785681
119450000.0 0.0870024474 0.9709566713
129400000.0 0.3973924388 0.8918369361
139350000.0 0.6733403232 0.7084533713
149300000.0 0.8711673354 0.4426589009
159250000.0 0.963712045 0.1529116079
169200000.0 0.964578839 -0.1132798308
179150000.0 0.9050314787 -0.3298165078
189100000.0 0.816738497 -0.4936533853
199050000.0 0.7212144881 -0.6136784735
209000000.0 0.6281003811 -0.6999932566
218950000.0 0.5423044987 -0.7635220889
228900000.0 0.4645895559 -0.8101818192
238850000.0 0.3917258363 -0.8440544391
248800000.0 0.3255352058 -0.8620509143
258750000.0 0.2552958108 -0.8829855154
268700000.0 0.1873143397 -0.8933464079
278650000.0 0.117583604 -0.8977625741
288600000.0 0.0448073081 -0.8960480175
298550000.0 -0.0320808754 -0.8854692984
308500000.0 -0.1154407054 -0.862475257
318450000.0 -0.2044863352 -0.821051574
328400000.0 -0.2952823065 -0.7546365469
338350000.0 -0.3803452008 -0.6587109596
348300000.0 -0.4471395118 -0.5328159947
358250000.0 -0.4800802393 -0.3837228405
368200000.0 -0.4678836525 -0.2280433923
378150000.0 -0.4109292998 -0.0880813096
388100000.0 -0.3215547498 0.0195467439
398050000.0 -0.219023685 0.0883521735
408000000.0 -0.11881555 0.1234263
417950000.0 -0.0317880403 0.1328198617
427900000.0 0.0375668003 0.1257616971
437850000.0 0.0888911858 0.108424986
447800000.0 0.1237171495 0.0860042651
457750000.0 0.1448975841 0.0616892447
467700000.0 0.1549864775 0.0384912672
477650000.0 0.1554409824 0.0177474172
487600000.0 0.1484703639 0.0012896333
497550000.0 0.1381194865 -0.0109060443
507500000.0 0.1190904136 -0.0184362215
517450000.0 0.0970613712 -0.0203519017
527400000.0 0.0725806223 -0.0182606854
537350000.0 0.0475646324 -0.0122061045
547300000.0 0.0241781056 -0.0030759516
557250000.0 0.0011753237 0.0092290235
567200000.0 -0.0188037387 0.025108427
577150000.0 -0.0357972538 0.0435965606
587100000.0 -0.0497888792 0.0643556534
597050000.0 -0.0608494771 0.0855359179
607000000.0 -0.0688648107 0.1068024978
616950000.0 -0.0739990391 0.1260907404
626900000.0 -0.0752987417 0.1433124698
636850000.0 -0.0728133107 0.1581222927
646800000.0 -0.0663531768 0.1703072246
656750000.0 -0.056905119 0.180301363
666700000.0 -0.0443222628 0.1879813831
676650000.0 -0.0305271792 0.192631554
686600000.0 -0.0149830306 0.1938341851
696550000.0 0.0018041061 0.1906579414
706500000.0 0.0197931842 0.1817898596
716450000.0 0.039500068 0.1674430108
726400000.0 0.0604825302 0.1477984172
736350000.0 0.0814080191 0.1230024216
746300000.0 0.1008722386 0.0946703109
756250000.0 0.1178768631 0.0616996545
766200000.0 0.1300630456 0.0246977364
776150000.0 0.1364818144 -0.0164535102
786100000.0 0.1368049615 -0.060921487
796050000.0 0.130535975 -0.1079685581
806000000.0 0.1182926863 -0.1562155774
815950000.0 0.1010142713 -0.202351196
825900000.0 0.0785103823 -0.2443687853
835850000.0 0.050626119 -0.2807254732
845800000.0 0.0170175821 -0.3099971257
855750000.0 -0.0227344213 -0.3323518135
865700000.0 -0.0678248211 -0.3483435609
875650000.0 -0.1169837623 -0.3569063498
885600000.0 -0.16841595 -0.3579862856
895550000.0 -0.2211271384 -0.3497328512
905500000.0 -0.2733923838 -0.3300677153
915450000.0 -0.3244847069 -0.2966047916
925400000.0 -0.373414296 -0.2463591424
935350000.0 -0.4180396715 -0.1767629226
945300000.0 -0.4542014928 -0.0860648467
955250000.0 -0.4746409743 0.0286422834
965200000.0 -0.466728175 0.1663697882
975150000.0 -0.4152151321 0.3222882942
985100000.0 -0.3022931986 0.4796590085
995050000.0 -0.1193043832 0.6102919776
1005000000.0 0.1246308939 0.6751972712
1014950000.0 0.3909319654 0.6417452385
1024900000.0 0.6271202635 0.507941953
1034850000.0 0.7886421024 0.3020389755
1044800000.0 0.8609792043 0.0671548138
1054750000.0 0.8518345528 -0.1592310488
1064700000.0 0.7793235917 -0.3540928485
1074650000.0 0.6742590772 -0.4630732209
1084600000.0 0.5865548022 -0.599099376
1094550000.0 0.4469422853 -0.6938814025
1104500000.0 0.2950777058 -0.7475877617
1114450000.0 0.1387122241 -0.7660228061
1124400000.0 -0.0141008039 -0.7527585226
1134350000.0 -0.1553946985 -0.7108254573
1144300000.0 -0.2789074542 -0.6455071248
1154250000.0 -0.3797722757 -0.5627339464
1164200000.0 -0.4566427779 -0.4715922642
1174150000.0 -0.516764258 -0.3770655215
1184100000.0 -0.5610296387 -0.2781172763
1194050000.0 -0.5900614045 -0.1807649288
1204000000.0 -0.6051742937 -0.0903021138
1213950000.0 -0.6091937199 -0.0090139696
1223900000.0 -0.6053291746 0.0610762234
1233850000.0 -0.5960887696 0.1206794314
1243800000.0 -0.5831917752 0.171502709
1253750000.0 -0.5681273064 0.2161469916
1263700000.0 -0.5519242245 0.2570151435
1273650000.0 -0.5369435161 0.2927548325
1283600000.0 -0.5228148962 0.3245229318
1293550000.0 -0.5102956631 0.3509885142
1303500000.0 -0.4992680041 0.371848833
1313450000.0 -0.4892264452 0.3880670065
1323400000.0 -0.4797392127 0.4007906935
1333350000.0 -0.4695884636 0.412072
1343300000.0 -0.4595446723 0.4242276126
1353250000.0 -0.4501837431 0.4369414554
1363200000.0 -0.4412932157 0.4500604387
1373150000.0 -0.4319016741 0.4617781487
1383100000.0 -0.4222480358 0.4716216975
1393050000.0 -0.4121222565 0.4784856427
1403000000.0 -0.4004630833 0.4824754565
1412950000.0 -0.3871555993 0.4840748913
1422900000.0 -0.3721775048 0.485793382
1432850000.0 -0.3558523382 0.4886001884
1442800000.0 -0.3381424513 0.4937014169
1452750000.0 -0.3197597779 0.500719894
1462700000.0 -0.2988503602 0.5084517918
1472650000.0 -0.2757314965 0.5152916902
1482600000.0 -0.2501711573 0.5202582588
1492550000.0 -0.2216730324 0.5227990613
1502500000.0 -0.1898783014 0.5237224046
1512450000.0 -0.1551748356 0.5236962821
1522400000.0 -0.1180214141 0.5229711741
1532350000.0 -0.0790080334 0.5208946842
1542300000.0 -0.0375352245 0.5171887415
1552250000.0 0.0050375397 0.5107718933
1562200000.0 0.0484737155 0.5018844905
1572150000.0 0.0928671406 0.4904669736
1582100000.0 0.1377590157 0.4764731064
1592050000.0 0.1824272682 0.4616143671
1602000000.0 0.2254107478 0.4459636029
1611950000.0 0.2670348692 0.430093988
1621900000.0 0.3057848607 0.4131062604
1631850000.0 0.3415013166 0.3937640305
1641800000.0 0.3739713693 0.3720395904
1651750000.0 0.4039778189 0.3479192298
1661700000.0 0.4321264843 0.3230780541
1671650000.0 0.4587440812 0.2995523203
1681600000.0 0.4830949795 0.2787245542
1691550000.0 0.5051609567 0.2610805885
1701500000.0 0.5246205254 0.2465653231
1711450000.0 0.5408077867 0.2341900969
1721400000.0 0.5537610102 0.2229714778
1731350000.0 0.5635002058 0.2115696164
1741300000.0 0.5719755296 0.2003431736
1751250000.0 0.5791006164 0.1901306229
1761200000.0 0.5848654819 0.1812632532
1771150000.0 0.589052241 0.1753801076
1781100000.0 0.5913448233 0.1722135201
1791050000.0 0.5915539665 0.1724385596
1801000000.0 0.5901866097 0.1740509915
1810950000.0 0.5874324086 0.1753427326
1820900000.0 0.5836054953 0.1755659959
1830850000.0 0.5792459238 0.173680201
1840800000.0 0.5737068134 0.1711759994
1850750000.0 0.5647534759 0.1682043283
1860700000.0 0.5519140075 0.1663387788
1870650000.0 0.5359015516 0.1667238598
1880600000.0 0.5179451788 0.1676375754
1890550000.0 0.4969167595 0.1669653899
1900500000.0 0.4732153935 0.1637023515
1910450000.0 0.4473318552 0.1576389974
1920400000.0 0.4200098818 0.1501386992
1930350000.0 0.3909417792 0.1407015742
1940300000.0 0.3584904765 0.1294200711
1950250000.0 0.3207040174 0.1168589322
1960200000.0 0.2754938679 0.1027503158
1970150000.0 0.2214086848 0.086606767
1980100000.0 0.1557920645 0.0698650144
1990050000.0 0.0762117948 0.0532536605
2000000000.0 -0.0220092813 0.0427955708
