!Created with skrf (http://scikit-rf.org).
# GHz S RI R 50.0 
!freq ReS11 ImS11
10000000.0 -0.9995890298 0.1599291241
19950000.0 -0.9467885702 0.3056196413
29900000.0 -0.8724924339 0.4457365092
39850000.0 -0.7756220001 0.5849480981
49800000.0 -0.6576850146 0.7176635052
59750000.0 -0.5129803906 0.8381365806
69700000.0 -0.3335937256 0.9339066527
79650000.0 -0.1148212424 0.9861788778
89600000.0 0.1422347114 0.9753995884
99550000.0 0.4226725928 0.8786508747
109500000.0 0.698906352 0.6788402351
119450000.0 0.9195135358 0.3634469395
129400000.0 1.010276303 -0.0462070546
139350000.0 0.9125740486 -0.463742456
149300000.0 0.6394531568 -0.7892942246
159250000.0 0.2786695183 -0.956611057
169200000.0 -0.0790412224 -0.9795404471
179150000.0 -0.384411817 -0.9021625757
189100000.0 -0.6207391404 -0.765592146
199050000.0 -0.7861410995 -0.5977379406
209000000.0 -0.884552787 -0.4162529954
218950000.0 -0.9332043162 -0.2353920446
228900000.0 -0.9434570996 -0.0619678661
238850000.0 -0.9276196507 0.1030018981
248800000.0 -0.8655637708 0.2576005399
258750000.0 -0.84539186 0.3985798244
268700000.0 -0.7754154759 0.5303018167
278650000.0 -0.6820005431 0.6425325718
288600000.0 -0.5631816342 0.7319605752
298550000.0 -0.4214861206 0.794958507
308500000.0 -0.2604544464 0.8328022497
318450000.0 -0.0844355814 0.8399764222
328400000.0 0.1001838961 0.8088963401
338350000.0 0.2752697511 0.726861462
348300000.0 0.4165744994 0.587400052
358250000.0 0.4934061074 0.4000542479
368200000.0 0.4891159287 0.1985781636
378150000.0 0.4121636312 0.0234581882
388100000.0 0.2936325419 -0.0949159558
398050000.0 0.1772731896 -0.1480972043
408000000.0 0.0807526785 -0.1740522233
417950000.0 -0.0172097605 -0.1554964763
427900000.0 -0.0845092312 -0.1008590543
437850000.0 -0.1216909047 -0.0356506674
447800000.0 -0.1366469265 0.024708856
457750000.0 -0.136024835 0.0729361197
467700000.0 -0.122809611 0.1050554906
477650000.0 -0.100049255 0.1195235921
487600000.0 -0.0711566171 0.1192766582
497550000.0 -0.0410931176 0.1068736726
507500000.0 -0.0088694985 0.0941478357
517450000.0 0.015066147 0.073804358
527400000.0 0.0287643007 0.0529574391
537350000.0 0.0281464854 0.0320906139
547300000.0 0.0152306732 0.0121370565
557250000.0 -0.0080932011 -0.0077359965
567200000.0 -0.0376730115 -0.0260814532
577150000.0 -0.0684770392 -0.0401534952
587100000.0 -0.0959316589 -0.0475452
597050000.0 -0.1177924282 -0.0456059633
607000000.0 -0.1339219071 -0.0327465029
616950000.0 -0.1453386628 -0.0100975163
626900000.0 -0.1534038652 0.0203028298
636850000.0 -0.1578982963 0.0537367174
646800000.0 -0.1585831754 0.0855636037
656750000.0 -0.1537057817 0.1125658682
666700000.0 -0.1411543212 0.1323154466
676650000.0 -0.1185999539 0.1437067558
686600000.0 -0.0868998503 0.1482629212
696550000.0 -0.0486134273 0.1475487381
706500000.0 -0.0070507189 0.1416371914
716450000.0 0.0332190038 0.1301185862
726400000.0 0.0668571832 0.1109318969
736350000.0 0.0903221584 0.0820996836
746300000.0 0.1013787777 0.0421757874
756250000.0 0.0999534759 -0.0072340307
766200000.0 0.0873739579 -0.0634817284
776150000.0 0.0647258847 -0.1212040737
786100000.0 0.0321748223 -0.1734030648
796050000.0 -0.0096163519 -0.2136506937
806000000.0 -0.0602362123 -0.2369713272
815950000.0 -0.1196590214 -0.2403259031
825900000.0 -0.1849398792 -0.2253443808
835850000.0 -0.2528741788 -0.1947935769
845800000.0 -0.3178183374 -0.1524223726
855750000.0 -0.3741456585 -0.1007042936
865700000.0 -0.4150069328 -0.0411864281
875650000.0 -0.4356458321 0.0262776936
885600000.0 -0.4335472832 0.1002760131
895550000.0 -0.4092491765 0.179465013
905500000.0 -0.3650409252 0.2621459675
915450000.0 -0.3034477265 0.3429094718
925400000.0 -0.2255292287 0.41441952
935350000.0 -0.131178765 0.4684255209
945300000.0 -0.0206289908 0.4941455776
955250000.0 0.1044948082 0.4824525163
965200000.0 0.2389075265 0.4247526683
975150000.0 0.3719321787 0.3174435779
985100000.0 0.4848172367 0.1570509395
995050000.0 0.5495513068 -0.0520359733
1005000000.0 0.530993007 -0.289740354
1014950000.0 0.4064268396 -0.5170424031
1024900000.0 0.1745212824 -0.6840992504
1034850000.0 -0.1291921209 -0.7441422717
1044800000.0 -0.4430745963 -0.6754220001
1054750000.0 -0.7053492824 -0.4886445235
1064700000.0 -0.8583166286 -0.2178804851
1074650000.0 -0.8947577454 0.0696638425
1084600000.0 -0.8105346771 0.3530388028
1094550000.0 -0.6367201763 0.5621127665
1104500000.0 -0.4116419745 0.7358954911
1114450000.0 -0.1393477694 0.8183908864
1124400000.0 0.138341471 0.8008199801
1134350000.0 0.380424458 0.6852085814
1144300000.0 0.5549087936 0.4923098149
1154250000.0 0.6473965251 0.2611500718
1164200000.0 0.6646174398 0.0275665474
1174150000.0 0.6245539208 -0.1792682978
1184100000.0 0.5464280678 -0.353514087
1194050000.0 0.4338459359 -0.4881267144
1204000000.0 0.2989392589 -0.5745948235
1213950000.0 0.1563023887 -0.6175372862
1223900000.0 0.0162730106 -0.6275405696
1233850000.0 -0.1139020528 -0.6173948012
1243800000.0 -0.2307104725 -0.5932927021
1253750000.0 -0.3326373616 -0.5590781085
1263700000.0 -0.4174525058 -0.514427954
1273650000.0 -0.4859756899 -0.4602235395
1283600000.0 -0.5370114619 -0.3952786714
1293550000.0 -0.5750990706 -0.3224007923
1303500000.0 -0.604574008 -0.2444914672
1313450000.0 -0.6286397243 -0.1671901923
1323400000.0 -0.6504261407 -0.0922538454
1333350000.0 -0.6673416354 -0.0217437185
1343300000.0 -0.6769822141 0.0452470585
1353250000.0 -0.6757355102 0.1071603356
1363200000.0 -0.6608937209 0.1665419546
1373150000.0 -0.6314398172 0.2253608238
1383100000.0 -0.5929269861 0.2838856952
1393050000.0 -0.5487733772 0.3427093404
1403000000.0 -0.5031031607 0.4003595873
1412950000.0 -0.4565383406 0.4543627824
1422900000.0 -0.408725265 0.5014789562
1432850000.0 -0.3573141267 0.5384118196
1442800000.0 -0.3000979563 0.5648271842
1452750000.0 -0.234682713 0.5794641659
1462700000.0 -0.1601483431 0.5847931885
1472650000.0 -0.078782106 0.5832061312
1482600000.0 0.0057999885 0.5770890265
1492550000.0 0.0894722463 0.5647803139
1502500000.0 0.169712799 0.5436533732
1512450000.0 0.2429946702 0.5095331453
1522400000.0 0.3070994105 0.4583342064
1532350000.0 0.360014745 0.389445296
1542300000.0 0.4033699642 0.3049865927
1552250000.0 0.4380885563 0.2094807387
1562200000.0 0.4646564903 0.1096939544
1572150000.0 0.4797821583 0.0093114071
1582100000.0 0.4800804177 -0.0888152779
1592050000.0 0.4611042181 -0.1808896604
1602000000.0 0.4196801565 -0.2652222416
1611950000.0 0.3589525986 -0.3392763989
1621900000.0 0.2835973283 -0.4050227762
1631850000.0 0.1997217557 -0.463163741
1641800000.0 0.1124398961 -0.5122386369
1651750000.0 0.0251220039 -0.5499782516
1661700000.0 -0.0589596063 -0.5722033464
1671650000.0 -0.1381447084 -0.5766929607
1681600000.0 -0.21290334 -0.5625413178
1691550000.0 -0.2837835529 -0.534512131
1701500000.0 -0.3523886101 -0.4971925791
1711450000.0 -0.4183328574 -0.4560308174
1721400000.0 -0.4810161786 -0.4131970679
1731350000.0 -0.537560006 -0.3720145411
1741300000.0 -0.5844740604 -0.3295587746
1751250000.0 -0.6188447726 -0.2829568104
1761200000.0 -0.6400677056 -0.2321054899
1771150000.0 -0.6502045458 -0.176651636
1781100000.0 -0.6544681881 -0.1173771945
1791050000.0 -0.6569968173 -0.0578047611
1801000000.0 -0.6607811102 -0.0002551859
1810950000.0 -0.666584017 0.0537423199
1820900000.0 -0.6713828394 0.1044581906
1830850000.0 -0.6699202965 0.1491140281
1840800000.0 -0.6578495395 0.1901519499
1850750000.0 -0.6340064292 0.2278611049
1860700000.0 -0.5987731641 0.263534569
1870650000.0 -0.557902555 0.2987921179
1880600000.0 -0.516348262 0.3318503652
1890550000.0 -0.478519288 0.362999224
1900500000.0 -0.4455856887 0.3893750504
1910450000.0 -0.4163627048 0.4085073993
1920400000.0 -0.3858501111 0.4187830361
1930350000.0 -0.3519794898 0.4189344307
1940300000.0 -0.3125248086 0.4093812774
1950250000.0 -0.2676853881 0.3920820879
1960200000.0 -0.2198827659 0.3706386584
1970150000.0 -0.1757825615 0.3457592633
1980100000.0 -0.1400269907 0.318176046
1990050000.0 -0.1161556115 0.2857670364
2000000000.0 -0.1073571611 0.244374343
