!Created with skrf (http://scikit-rf.org).
# GHz S RI R 50.0 
!freq ReS11 ImS11
10000000.0 -1.000861612 0.1663600797
19950000.0 -0.9429306376 0.3176618479
29900000.0 -0.8622687626 0.4622499097
39850000.0 -0.7581284832 0.6044898175
49800000.0 -0.6329203392 0.7387338799
59750000.0 -0.4814412711 0.8577575464
69700000.0 -0.2967157636 0.948888108
79650000.0 -0.0759958995 0.9924606653
89600000.0 0.1771079976 0.9707200779
99550000.0 0.4468176626 0.8662607555
109500000.0 0.7079859946 0.6683799484
119450000.0 0.9179082093 0.3686365345
129400000.0 0.9883807853 -0.023251453
139350000.0 0.9397760614 -0.4150604754
149300000.0 0.6980852312 -0.7432681711
159250000.0 0.3570685252 -0.9322983092
169200000.0 0.0003417062 -0.9823469405
179150000.0 -0.3181776626 -0.9265119819
189100000.0 -0.5749198284 -0.8009950078
199050000.0 -0.7602890678 -0.6327899434
209000000.0 -0.8737857527 -0.4419903496
218950000.0 -0.9300968529 -0.2458132277
228900000.0 -0.9409618605 -0.054117649
238850000.0 -0.9186479773 0.1326035825
248800000.0 -0.7676107215 0.1707745754
258750000.0 -0.8190148838 0.4397556327
268700000.0 -0.7299216541 0.5843440877
278650000.0 -0.6139899801 0.7004713891
288600000.0 -0.4703100067 0.7849886063
298550000.0 -0.3035392657 0.8353998317
308500000.0 -0.1191775809 0.8520769931
318450000.0 0.0755300818 0.8301868903
328400000.0 0.2688228248 0.7624179364
338350000.0 0.4379001202 0.6412121818
348300000.0 0.5561739417 0.467559843
358250000.0 0.5980854855 0.2597279628
368200000.0 0.5585041106 0.0531392728
378150000.0 0.4545692879 -0.1167367026
388100000.0 0.3183294285 -0.2301183306
398050000.0 0.1789376965 -0.2826972309
408000000.0 0.0592406135 -0.2809388829
417950000.0 -0.030108927 -0.240017422
427900000.0 -0.0882851334 -0.1777641167
437850000.0 -0.1213073873 -0.109137648
447800000.0 -0.1341175781 -0.0464807915
457750000.0 -0.1318771316 0.0023115713
467700000.0 -0.1184472626 0.0330356503
477650000.0 -0.0959778425 0.0436678946
487600000.0 -0.0656752519 0.0348856829
497550000.0 -0.0964108269 -0.0320756491
507500000.0 -0.0288869062 0.0222805882
517450000.0 -0.0034962942 -0.0011863375
527400000.0 0.0068906351 -0.0208600946
537350000.0 0.0028309923 -0.0380120348
547300000.0 -0.0151354958 -0.0575948452
557250000.0 -0.0458075044 -0.0696955507
567200000.0 -0.077547972 -0.0806633861
577150000.0 -0.1085497 -0.0885464957
587100000.0 -0.1349076272 -0.0910510027
597050000.0 -0.1537715162 -0.0851161658
607000000.0 -0.165872054 -0.068485299
616950000.0 -0.172693447 -0.0425913718
626900000.0 -0.176042326 -0.0095778833
636850000.0 -0.1765806375 0.0249665062
646800000.0 -0.1738505814 0.0571413239
656750000.0 -0.1663066862 0.0834980257
666700000.0 -0.1510733362 0.1007425683
676650000.0 -0.1260115628 0.1090446275
686600000.0 -0.0914253946 0.1087860204
696550000.0 -0.0499998666 0.1023397084
706500000.0 -0.0064261855 0.0900113208
716450000.0 0.0339706619 0.0722325027
726400000.0 0.0648317351 0.0469972483
736350000.0 0.083012385 0.0125381462
746300000.0 0.0860704943 -0.0316881326
756250000.0 0.0753592464 -0.0846856976
766200000.0 0.0520052838 -0.1426771862
776150000.0 0.0191017044 -0.199483135
786100000.0 -0.0222852557 -0.2484030964
796050000.0 -0.070339146 -0.2826957755
806000000.0 -0.1244518954 -0.2983430762
815950000.0 -0.1845920668 -0.2929735538
825900000.0 -0.248532879 -0.2701865828
835850000.0 -0.314114527 -0.2332495498
845800000.0 -0.3764338342 -0.187344301
855750000.0 -0.4305097322 -0.1342997989
865700000.0 -0.4697947498 -0.0754606761
875650000.0 -0.4899366444 -0.0105976367
885600000.0 -0.488018551 0.0611332579
895550000.0 -0.4640670575 0.1398303478
905500000.0 -0.4178917063 0.2246065435
915450000.0 -0.3472748269 0.3097304025
925400000.0 -0.2467060704 0.3729419267
935350000.0 -0.1718535943 0.3815984008
945300000.0 -0.1087048142 0.402722676
955250000.0 -0.0053398217 0.4134645145
965200000.0 0.1217007277 0.3763200543
975150000.0 0.2552203308 0.2836605288
985100000.0 0.3717480141 0.1319556071
995050000.0 0.4377559162 -0.0744944627
1005000000.0 0.412602621 -0.3114392844
1014950000.0 0.2693587262 -0.5289529967
1024900000.0 0.0208504214 -0.6645543765
1034850000.0 -0.2785827045 -0.6790675983
1044800000.0 -0.563166492 -0.5697914528
1054750000.0 -0.7769918925 -0.3588394527
1064700000.0 -0.8571745068 -0.0861039706
1074650000.0 -0.8552455002 0.1261512829
1084600000.0 -0.7673387046 0.3722922252
1094550000.0 -0.6325374061 0.5616122298
1104500000.0 -0.3944161622 0.7273824099
1114450000.0 -0.1167046057 0.7934761888
1124400000.0 0.1633234424 0.7518467484
1134350000.0 0.3971338041 0.60225701
1144300000.0 0.544760382 0.373401804
1154250000.0 0.592580987 0.1172723927
1164200000.0 0.5555126888 -0.120155408
1174150000.0 0.4695260141 -0.3113667333
1184100000.0 0.3516600924 -0.4608341619
1194050000.0 0.2074925818 -0.5551129846
1204000000.0 0.0579999905 -0.5933514243
1213950000.0 -0.0839469389 -0.5892307597
1223900000.0 -0.2117285624 -0.5600071966
1233850000.0 -0.3238809967 -0.5180702524
1243800000.0 -0.419756047 -0.4701929852
1253750000.0 -0.4996537023 -0.4189471641
1263700000.0 -0.5607744379 -0.3630779683
1273650000.0 -0.6043778446 -0.3015024262
1283600000.0 -0.630752234 -0.2337322719
1293550000.0 -0.6463791657 -0.1612037789
1303500000.0 -0.6562126349 -0.0863921444
1313450000.0 -0.6643810853 -0.0134081336
1323400000.0 -0.6724822464 0.055908947
1333350000.0 -0.6786986189 0.1198755351
1343300000.0 -0.6782499362 0.1790104576
1353250000.0 -0.668499579 0.2317178584
1363200000.0 -0.644857676 0.2808549902
1373150000.0 -0.6083705066 0.3282931205
1383100000.0 -0.5633860908 0.3759477818
1393050000.0 -0.5147410767 0.4238859474
1403000000.0 -0.466801494 0.471394024
1412950000.0 -0.4204364912 0.5160859329
1422900000.0 -0.3741900192 0.5552836345
1432850000.0 -0.3259499583 0.5824404942
1442800000.0 -0.2731882803 0.5986352169
1452750000.0 -0.2146997502 0.6042561177
1462700000.0 -0.1489899469 0.6025664789
1472650000.0 -0.0755928458 0.597012531
1482600000.0 0.0023172462 0.5889670399
1492550000.0 0.0811133909 0.5769190929
1502500000.0 0.1565998318 0.5561537292
1512450000.0 0.2251643692 0.5229692567
1522400000.0 0.2841944252 0.4736996714
1532350000.0 0.3331757732 0.4059364967
1542300000.0 0.3722899041 0.3226812882
1552250000.0 0.402516103 0.228033289
1562200000.0 0.4255230657 0.1282330621
1572150000.0 0.4377587045 0.0287191529
1582100000.0 0.4346520728 -0.0680221946
1592050000.0 0.4103669303 -0.1578184842
1602000000.0 0.3632479866 -0.2383557406
1611950000.0 0.2970564246 -0.3069018085
1621900000.0 0.2171485778 -0.3665184339
1631850000.0 0.1291589685 -0.4178458568
1641800000.0 0.0387462681 -0.460580559
1651750000.0 -0.050651887 -0.4905022608
1661700000.0 -0.1349789405 -0.5040744226
1671650000.0 -0.2125139433 -0.4977070831
1681600000.0 -0.2836554697 -0.4728676301
1691550000.0 -0.3503453853 -0.4352614176
1701500000.0 -0.4137306153 -0.3890614534
1711450000.0 -0.4744895325 -0.3394665753
1721400000.0 -0.5307920811 -0.2898607127
1731350000.0 -0.5799140141 -0.2423619271
1741300000.0 -0.6186525399 -0.1956225907
1751250000.0 -0.6421841847 -0.1457953856
1761200000.0 -0.6515712986 -0.0933760082
1771150000.0 -0.6493693983 -0.0369586282
1781100000.0 -0.6418909697 0.022119538
1791050000.0 -0.6342645993 0.0809148704
1801000000.0 -0.6293221195 0.1372689698
1810950000.0 -0.6270472693 0.1901331301
1820900000.0 -0.6239388448 0.2366783691
1830850000.0 -0.614599679 0.2770129165
1840800000.0 -0.5940412824 0.3114189771
1850750000.0 -0.5609112367 0.3412008281
1860700000.0 -0.5172411916 0.3672514688
1870650000.0 -0.4696485964 0.3928149438
1880600000.0 -0.4232137237 0.4169099828
1890550000.0 -0.3824694006 0.4398883758
1900500000.0 -0.3479723788 0.4570411314
1910450000.0 -0.3179919431 0.4672823532
1920400000.0 -0.2876489467 0.4674843477
1930350000.0 -0.254336831 0.4550593825
1940300000.0 -0.2168894614 0.4314872069
1950250000.0 -0.1759471402 0.3982216437
1960200000.0 -0.1358146847 0.3617411573
1970150000.0 -0.1042215247 0.3233751468
1980100000.0 -0.0856991854 0.2846422157
1990050000.0 -0.0862444975 0.2450195102
2000000000.0 -0.1085483946 0.2042053537
