!Created with skrf (http://scikit-rf.org).
# GHz S RI R 50.0 
!freq ReS11 ImS11
10000000.0 -0.9997009175 0.1639674652
19950000.0 -0.9441803865 0.3130805825
29900000.0 -0.8663135691 0.4554691834
39850000.0 -0.766088809 0.5956775592
49800000.0 -0.6454714798 0.7278271614
59750000.0 -0.5000925269 0.845914311
69700000.0 -0.3231062687 0.9382698315
79650000.0 -0.1117253622 0.9873373465
89600000.0 0.1322668191 0.9770137403
99550000.0 0.3955745895 0.8905417502
109500000.0 0.6575958524 0.7167157786
119450000.0 0.8809993359 0.4428690238
129400000.0 1.001111686 0.0726791407
139350000.0 0.971754662 -0.3241407889
149300000.0 0.7626925864 -0.6770571929
159250000.0 0.4337357158 -0.9013044293
169200000.0 0.0709749315 -0.981983363
179150000.0 -0.2630798436 -0.9445614977
189100000.0 -0.5366666804 -0.826407395
199050000.0 -0.7364712333 -0.6585542819
209000000.0 -0.8612646529 -0.463945605
218950000.0 -0.9250182929 -0.2632381332
228900000.0 -0.9406414407 -0.0670279314
238850000.0 -0.9205938881 0.1234808484
248800000.0 -0.7443476903 0.1386372165
258750000.0 -0.8248219209 0.4274915962
268700000.0 -0.7373073639 0.5729411362
278650000.0 -0.624522585 0.6893613458
288600000.0 -0.4863630613 0.7749258265
298550000.0 -0.3264312127 0.8284023276
308500000.0 -0.1504536858 0.850406704
318450000.0 0.0356596661 0.8369657313
328400000.0 0.222428201 0.7817729407
338350000.0 0.3901992101 0.6769231479
348300000.0 0.5157382953 0.5208609002
358250000.0 0.5743515799 0.3274960327
368200000.0 0.5563427915 0.1260780432
378150000.0 0.4720346386 -0.0481663943
388100000.0 0.3493029798 -0.1716654284
398050000.0 0.2161773982 -0.2361055618
408000000.0 0.0974845567 -0.2456594005
417950000.0 0.005102164 -0.2138279436
427900000.0 -0.0578532241 -0.1578723568
437850000.0 -0.0952724923 -0.0932222051
447800000.0 -0.1119473083 -0.0327747624
457750000.0 -0.1125489128 0.0152585426
467700000.0 -0.1012387003 0.0463144754
477650000.0 -0.0807247222 0.057882034
487600000.0 -0.0530077246 0.0506942896
497550000.0 -0.0638300225 -0.0185537301
507500000.0 -0.0158248434 0.0473877834
517450000.0 0.0099855995 0.022731294
527400000.0 0.0203657012 0.002576073
537350000.0 0.0161836775 -0.0155041454
547300000.0 -0.0010233545 -0.0330288757
557250000.0 -0.0293388892 -0.0468342825
567200000.0 -0.0609258493 -0.0591850794
577150000.0 -0.0932127849 -0.0676295992
587100000.0 -0.1218994976 -0.0698723377
597050000.0 -0.1441065819 -0.0628823577
607000000.0 -0.1603256489 -0.044408236
616950000.0 -0.170728885 -0.0136680758
626900000.0 -0.1585294654 0.0291144678
636850000.0 -0.1179442892 0.0894301488
646800000.0 -0.1582580501 0.0436578157
656750000.0 -0.1613303529 0.0769824909
666700000.0 -0.1510777352 0.1082818921
676650000.0 -0.1290762493 0.1269099255
686600000.0 -0.0963632384 0.1359228683
696550000.0 -0.0555288613 0.1383614746
706500000.0 -0.0116665766 0.1346402993
716450000.0 0.0312369018 0.1247586807
726400000.0 0.0671777369 0.1070682889
736350000.0 0.0929381967 0.0789399779
746300000.0 0.1058883169 0.0401277285
756250000.0 0.1065022174 -0.0108023409
766200000.0 0.0954397204 -0.0687062922
776150000.0 0.0746802421 -0.1282529953
786100000.0 0.0432741949 -0.1827377961
796050000.0 0.0027894934 -0.2258427889
806000000.0 -0.0469228236 -0.2521592249
815950000.0 -0.1059562309 -0.2589100146
825900000.0 -0.1719683558 -0.2473281587
835850000.0 -0.2417385245 -0.2202316428
845800000.0 -0.3096057904 -0.18139383
855750000.0 -0.3699986913 -0.1330337265
865700000.0 -0.4168571704 -0.075626668
875650000.0 -0.443313552 -0.0097424276
885600000.0 -0.4469825229 0.0678569276
895550000.0 -0.4190712819 0.1431900831
905500000.0 -0.3722692921 0.1998067636
915450000.0 -0.3409086483 0.2841808268
925400000.0 -0.2815075426 0.3637356601
935350000.0 -0.2028875122 0.4291892177
945300000.0 -0.106423032 0.4709128585
955250000.0 0.0080865235 0.4805571667
965200000.0 0.1378445149 0.4494968608
975150000.0 0.2750130482 0.3732211622
985100000.0 0.405128949 0.2458097192
995050000.0 0.5034598025 0.0659840077
1005000000.0 0.5346279951 -0.1594125505
1014950000.0 0.4625419208 -0.4008666144
1024900000.0 0.2707640591 -0.6069973128
1034850000.0 -0.01767888 -0.7199474101
1044800000.0 -0.3444265465 -0.7026939477
1054750000.0 -0.6377158254 -0.5483096752
1064700000.0 -0.8122971519 -0.280534655
1074650000.0 -0.8700876899 -0.0304068603
1084600000.0 -0.8261253313 0.2540712504
1094550000.0 -0.6709259685 0.436105522
1104500000.0 -0.5218774284 0.6578380433
1114450000.0 -0.2680731398 0.7802244883
1124400000.0 -0.0006474106 0.8041287446
1134350000.0 0.2457866169 0.7305235322
1144300000.0 0.4390963921 0.5733508401
1154250000.0 0.5598145791 0.3652865975
1164200000.0 0.6072394294 0.1401891662
1174150000.0 0.5916126627 -0.0707783269
1184100000.0 0.5328966946 -0.2501143783
1194050000.0 0.4353316725 -0.3964085067
1204000000.0 0.3071099444 -0.4961881228
1213950000.0 0.1650347492 -0.5490069286
1223900000.0 0.0239960581 -0.5656688987
1233850000.0 -0.1086058907 -0.5576638178
1243800000.0 -0.2276348877 -0.5341568155
1253750000.0 -0.3310626363 -0.4995684603
1263700000.0 -0.4158393682 -0.4536824297
1273650000.0 -0.4831588044 -0.3976161768
1283600000.0 -0.532141371 -0.3307650997
1293550000.0 -0.5673628724 -0.255507633
1303500000.0 -0.593278933 -0.1761819567
1313450000.0 -0.6145230272 -0.0969071639
1323400000.0 -0.6326453219 -0.0208112278
1333350000.0 -0.6465034794 0.0509014523
1343300000.0 -0.6521451564 0.1180527453
1353250000.0 -0.6468930961 0.1794407913
1363200000.0 -0.6273144942 0.2373063616
1373150000.0 -0.5938268428 0.2934967149
1383100000.0 -0.5513445802 0.3485607734
1393050000.0 -0.5038735171 0.4035960642
1403000000.0 -0.4562994197 0.4565420967
1412950000.0 -0.4090211936 0.5054145051
1422900000.0 -0.3622176811 0.5471469147
1432850000.0 -0.3139691095 0.5773257682
1442800000.0 -0.2628509309 0.596392196
1452750000.0 -0.2071658017 0.6062834241
1462700000.0 -0.1448057459 0.6103675234
1472650000.0 -0.0744806108 0.6125518723
1482600000.0 0.0008529686 0.6127018476
1492550000.0 0.0768317896 0.6094392724
1502500000.0 0.1505861937 0.5991334265
1512450000.0 0.2197900702 0.5781074995
1522400000.0 0.2818735693 0.5433944409
1532350000.0 0.3367656519 0.491946806
1542300000.0 0.3856647268 0.4255660049
1552250000.0 0.4295063988 0.3479333262
1562200000.0 0.4704253244 0.2647076529
1572150000.0 0.5047594245 0.1792957767
1582100000.0 0.5284860592 0.092407892
1592050000.0 0.5361178674 0.0055318847
1602000000.0 0.5236592199 -0.0799386806
1611950000.0 0.4905370682 -0.1616167746
1621900000.0 0.4397741879 -0.2403602988
1631850000.0 0.3766465226 -0.3155651483
1641800000.0 0.3066993273 -0.3858319884
1651750000.0 0.2326994927 -0.4480431167
1661700000.0 0.1563229739 -0.496675986
1671650000.0 0.0782380648 -0.5276770285
1681600000.0 -0.0018174939 -0.5385737009
1691550000.0 -0.0825076711 -0.5320684958
1701500000.0 -0.1648676266 -0.511305639
1711450000.0 -0.246508496 -0.4818285303
1721400000.0 -0.3245965457 -0.4475518023
1731350000.0 -0.3961820879 -0.4112429839
1741300000.0 -0.4574256654 -0.371731754
1751250000.0 -0.5055299161 -0.3252707824
1761200000.0 -0.5387304009 -0.2724572497
1771150000.0 -0.5589787878 -0.2124811856
1781100000.0 -0.5710648206 -0.1467371609
1791050000.0 -0.5790269922 -0.0795009235
1801000000.0 -0.5865400174 -0.0137208697
1810950000.0 -0.5941184568 0.0483996214
1820900000.0 -0.5988399271 0.1057406712
1830850000.0 -0.5958039849 0.1567351996
1840800000.0 -0.5808998212 0.2035079935
1850750000.0 -0.5527913492 0.2456822684
1860700000.0 -0.5124914303 0.2845532879
1870650000.0 -0.4664155326 0.3218650567
1880600000.0 -0.419301746 0.35647342
1890550000.0 -0.3760066457 0.389008931
1900500000.0 -0.3371902159 0.4149229969
1910450000.0 -0.3008348218 0.4344874502
1920400000.0 -0.2648840304 0.4431305813
1930350000.0 -0.2249831199 0.4404781739
1940300000.0 -0.1792954582 0.4265695365
1950250000.0 -0.1279940337 0.4036257886
1960200000.0 -0.0738463778 0.3716685036
1970150000.0 -0.0210594535 0.3130298537
1980100000.0 0.0164538206 0.28266083
1990050000.0 0.0090018896 0.2596557296
2000000000.0 0.0157633226 0.2185266195
