!Created with skrf (http://scikit-rf.org).
# GHz S RI R 50.0 
!freq ReS11 ImS11
10000000.0 -0.7424280971 0.6737591235
19950000.0 -0.1078639838 0.9815563547
29900000.0 0.5716550816 0.7944501046
39850000.0 0.9599118193 0.1946947326
49800000.0 0.8395601875 -0.5216145332
59750000.0 0.2498448077 -0.9683007054
69700000.0 -0.4958125455 -0.8738126766
79650000.0 -0.9604709366 -0.2681744217
89600000.0 -0.8431226382 0.500425006
99550000.0 -0.1823391037 0.9472680902
109500000.0 0.6167140183 0.7357162231
119450000.0 0.9681972244 -0.0503647061
129400000.0 0.5325983467 -0.8267777525
139350000.0 -0.3665006543 -0.9144783244
149300000.0 -0.9414354941 -0.2264545144
159250000.0 -0.7161461961 0.6195312085
169200000.0 0.0778598873 0.9346188098
179150000.0 0.7957854767 0.5093127805
189100000.0 0.9114967016 -0.2966480131
199050000.0 0.3849411602 -0.8851876729
209000000.0 -0.3770264981 -0.8801771471
218950000.0 -0.8758162534 -0.3435851043
228900000.0 -0.8486362543 0.3674467877
238850000.0 -0.3408883899 0.8515317482
248800000.0 0.3403663206 0.671994509
258750000.0 0.8378702836 0.4014764297
268700000.0 0.8885119983 -0.2887081107
278650000.0 0.4490322108 -0.8097785161
288600000.0 -0.2197060111 -0.8773970205
298550000.0 -0.7390487221 -0.4698354833
308500000.0 -0.826878906 0.1761657591
318450000.0 -0.4373305914 0.6900918492
328400000.0 0.1943987483 0.7655471889
338350000.0 0.6624190081 0.3580701128
348300000.0 0.6594539145 -0.2340287792
358250000.0 0.2351446441 -0.57954061
368200000.0 -0.2480296889 -0.4782122935
378150000.0 -0.4425740059 -0.0924699176
388100000.0 -0.2831821841 0.2417214992
398050000.0 0.0242493266 0.3071683823
408000000.0 0.218087944 0.138187111
417950000.0 0.1968004856 -0.0754434445
427900000.0 0.0437215025 -0.1714929588
437850000.0 -0.0945246001 -0.1182722472
447800000.0 -0.1335250142 0.0004987243
457750000.0 -0.07780589 0.1006240608
467700000.0 0.0227073965 0.1134848134
477650000.0 0.0833249112 0.0552182218
487600000.0 0.0755500434 -0.0150044513
497550000.0 0.049382596 -0.0014106073
507500000.0 0.0004712602 -0.065239584
517450000.0 -0.0204500805 -0.0319520177
527400000.0 -0.0115552972 -0.0202208458
537350000.0 -0.0078671397 -0.0333821285
547300000.0 -0.0321876727 -0.054754371
557250000.0 -0.0818931438 -0.0369576844
567200000.0 -0.1087132953 0.024494192
577150000.0 -0.0821682763 0.0970451674
587100000.0 0.0038469677 0.1344003101
597050000.0 0.103878259 0.1061092901
607000000.0 0.1600442865 0.0043572531
616950000.0 0.1362472556 -0.1189130155
626900000.0 0.0327420265 -0.197864748
636850000.0 -0.1021348651 -0.1858758719
646800000.0 -0.1988299876 -0.0860644592
656750000.0 -0.2002566984 0.0514490848
666700000.0 -0.1079677084 0.156529997
676650000.0 0.0282086303 0.1687176761
686600000.0 0.1339182069 0.084268201
696550000.0 0.1527310712 -0.0451747024
706500000.0 0.0789865295 -0.1421099757
716450000.0 -0.0343826178 -0.1524194832
726400000.0 -0.1115348593 -0.0808684387
736350000.0 -0.1000257444 0.0177198622
746300000.0 -0.0137553145 0.0647192228
756250000.0 0.0779623707 0.0189500404
766200000.0 0.0918694305 -0.0919580893
776150000.0 -0.0063591339 -0.1666234864
786100000.0 -0.1182199205 -0.1446478007
796050000.0 -0.2001844888 -0.0380224067
806000000.0 -0.173908104 0.1267958474
815950000.0 -0.0194513819 0.2347900971
825900000.0 0.1899488952 0.1950810162
835850000.0 0.322803527 0.0074525255
845800000.0 0.2854318253 -0.2368099146
855750000.0 0.0794501865 -0.3959260401
865700000.0 -0.1936496914 -0.3712768077
875650000.0 -0.381110536 -0.155309753
885600000.0 -0.3694819274 0.1430333693
895550000.0 -0.1494836795 0.3601316099
905500000.0 0.1688592745 0.3612521314
915450000.0 0.3998728669 0.1343821793
925400000.0 0.4005903448 -0.193550093
935350000.0 0.1610571061 -0.4205152096
945300000.0 -0.1759159994 -0.3956339761
955250000.0 -0.3804588818 -0.115819672
965200000.0 -0.2818913833 0.2364427084
975150000.0 0.08798644 0.3637981718
985100000.0 0.4210764956 0.0974769338
995050000.0 0.3529697617 -0.3701639001
1005000000.0 -0.1360545362 -0.5674263845
1014950000.0 -0.6063992518 -0.2128964971
1024900000.0 -0.5527223278 0.4339924977
1034850000.0 0.0645877925 0.763751599
1044800000.0 0.7049900346 0.422558398
1054750000.0 0.7951996405 -0.2953057272
1064700000.0 0.3145253171 -0.7566348623
1074650000.0 -0.3298319043 -0.7502258506
1084600000.0 -0.7215034682 -0.2947433091
1094550000.0 -0.7010863837 0.3413993845
1104500000.0 -0.181285109 0.7336203735
1114450000.0 0.4365574254 0.5794771518
1124400000.0 0.6904362577 0.0293121442
1134350000.0 0.4424257036 -0.4778260347
1144300000.0 -0.0658069051 -0.6057800127
1154250000.0 -0.4659782812 -0.3200609978
1164200000.0 -0.5031511581 0.1455031156
1174150000.0 -0.1767816923 0.4563621876
1184100000.0 0.2534763189 0.3962287506
1194050000.0 0.4700747883 0.035571072
1204000000.0 0.3402901595 -0.3463749329
1213950000.0 -0.0175204071 -0.5078659595
1223900000.0 -0.3773516299 -0.3663793592
1233850000.0 -0.5366619548 -0.0160349128
1243800000.0 -0.4085865999 0.3532131883
1253750000.0 -0.0568271038 0.5364456906
1263700000.0 0.3284928403 0.4304627225
1273650000.0 0.5448085094 0.0940969431
1283600000.0 0.4900415758 -0.2972377543
1293550000.0 0.2050845875 -0.5628376132
1303500000.0 -0.1807675717 -0.5931426443
1313450000.0 -0.5045763018 -0.3803105581
1323400000.0 -0.6313723098 -0.0066819456
1333350000.0 -0.4933908406 0.3709040242
1343300000.0 -0.1415105141 0.581900235
1353250000.0 0.2693648786 0.5180587536
1363200000.0 0.5462757695 0.2115951523
1373150000.0 0.5699325835 -0.193733682
1383100000.0 0.3460385135 -0.5212367161
1393050000.0 -0.0225382588 -0.643723006
1403000000.0 -0.386770009 -0.521327565
1412950000.0 -0.6026270975 -0.2051112195
1422900000.0 -0.579331011 0.1793549347
1432850000.0 -0.3202211231 0.4668937355
1442800000.0 0.0599493985 0.5301546024
1452750000.0 0.3914498845 0.3446857348
1462700000.0 0.5346356596 9.89558e-05
1472650000.0 0.4352165951 -0.3521222054
1482600000.0 0.14508451 -0.5614550448
1492550000.0 -0.2059596104 -0.5450436067
1502500000.0 -0.4667144202 -0.3128501923
1512450000.0 -0.5196644011 0.030348777
1522400000.0 -0.33768394 0.3273157016
1532350000.0 -0.0064822094 0.429266081
1542300000.0 0.303488374 0.2869800664
1552250000.0 0.4354546917 -0.0169130563
1562200000.0 0.3317878384 -0.3194840265
1572150000.0 0.0627203878 -0.4698823431
1582100000.0 -0.232332185 -0.4049005172
1592050000.0 -0.4062930903 -0.1612966026
1602000000.0 -0.3684299698 0.1399667048
1611950000.0 -0.1311851489 0.3336887517
1621900000.0 0.1764895664 0.308048225
1631850000.0 0.376905078 0.0735199244
1641800000.0 0.3560749511 -0.2345365755
1651750000.0 0.1309955803 -0.4400199063
1661700000.0 -0.1743819894 -0.438733571
1671650000.0 -0.401711319 -0.2308662995
1681600000.0 -0.4253201895 0.0632050258
1691550000.0 -0.2984866826 0.3372133061
1701500000.0 0.0363356959 0.4543991176
1711450000.0 0.3617767926 0.3074106521
1721400000.0 0.5059830327 -0.0201791682
1731350000.0 0.4003612886 -0.3598630964
1741300000.0 0.1034343069 -0.5506748835
1751250000.0 -0.2459334133 -0.5163134531
1761200000.0 -0.5025378015 -0.2769160887
1771150000.0 -0.5631311796 0.0735382807
1781100000.0 -0.3944797095 0.3944940805
1791050000.0 -0.0549811299 0.5463433079
1801000000.0 0.3088628053 0.4487703766
1810950000.0 0.5263007718 0.1401762218
1820900000.0 0.4987274727 -0.2309053994
1830850000.0 0.2535327832 -0.4967468343
1840800000.0 -0.0904474022 -0.5567353744
1850750000.0 -0.3936113817 -0.4050493806
1860700000.0 -0.5472263321 -0.1106469775
1870650000.0 -0.4978762211 0.2125514709
1880600000.0 -0.2665939662 0.4396581534
1890550000.0 0.0528669651 0.4760104067
1900500000.0 0.31893271 0.3090660333
1910450000.0 0.4187472841 0.0225090092
1920400000.0 0.3227790415 -0.247682359
1930350000.0 0.0972713845 -0.3919505429
1940300000.0 -0.1471582155 -0.3721759481
1950250000.0 -0.3132281309 -0.2228836006
1960200000.0 -0.3468984665 -0.0267686955
1970150000.0 -0.2620889575 0.1228891459
1980100000.0 -0.1292324625 0.1692204749
1990050000.0 -0.0367213843 0.1233651696
2000000000.0 -0.0303285915 0.0620145526
