!Created with skrf (http://scikit-rf.org).
# GHz S RI R 50.0 
!freq ReS11 ImS11
10000000.0 -0.7957154159 0.5951799893
19950000.0 -0.2928770746 0.9334490793
29900000.0 0.3114485084 0.913640812
39850000.0 0.7974064706 0.5381883106
49800000.0 0.9703680917 -0.067286435
59750000.0 0.731825419 -0.6714306951
69700000.0 0.1481405305 -0.9988517467
79650000.0 -0.5263174941 -0.8580145065
89600000.0 -0.9433210794 -0.2793045411
99550000.0 -0.847270312 0.4565656676
109500000.0 -0.2355414748 0.9310609317
119450000.0 0.5656166738 0.79940906
129400000.0 0.9993742581 0.0701730734
139350000.0 0.693491979 -0.7282435442
149300000.0 -0.1140775628 -0.9726910864
159250000.0 -0.7868736381 -0.5248933843
169200000.0 -0.9037446972 0.2334691525
179150000.0 -0.4713246824 0.8192061674
189100000.0 0.2121461986 0.9384492886
199050000.0 0.7744074277 0.5788678181
209000000.0 0.9563643774 -0.0427030838
218950000.0 0.7128955485 -0.6126711848
228900000.0 0.1851145629 -0.9027367567
238850000.0 -0.3996205488 -0.81749662
248800000.0 -0.7940375711 -0.4140330328
258750000.0 -0.9088570644 0.1662200256
268700000.0 -0.6430561225 0.6846486651
278650000.0 -0.1217958937 0.9346300906
288600000.0 0.4389351182 0.8130931746
298550000.0 0.8062359524 0.3751849367
308500000.0 0.8301543422 -0.196263949
318450000.0 0.4975655207 -0.6580951541
328400000.0 -0.0467956272 -0.8016560905
338350000.0 -0.5392256037 -0.5550277224
348300000.0 -0.7178694084 -0.0585201133
358250000.0 -0.507973407 0.3829002033
368200000.0 -0.0913885699 0.5171192796
378150000.0 0.2361688256 0.3341971851
388100000.0 0.3038368921 0.0288238584
398050000.0 0.1559567843 -0.1714569588
408000000.0 -0.0423749344 -0.1749635487
417950000.0 -0.1367408279 -0.0495222645
427900000.0 -0.0952929116 0.0757912805
437850000.0 0.015708403 0.1135236276
447800000.0 0.1118526359 0.0539669112
457750000.0 0.1332200055 -0.0513553092
467700000.0 0.0743932273 -0.1357403318
477650000.0 -0.0206959576 -0.1560869811
487600000.0 -0.0983599536 -0.1047556432
497550000.0 -0.1239956419 -0.0237666974
507500000.0 -0.0912945777 0.0485556947
517450000.0 -0.0261421464 0.0784877949
527400000.0 0.0276065519 0.0632831605
537350000.0 0.0462605363 0.0277009916
547300000.0 0.0296131787 -0.0007601647
557250000.0 -0.0014205585 -0.0001125047
567200000.0 -0.0158731275 0.0253614978
577150000.0 0.0021645001 0.0548006334
587100000.0 0.0469178091 0.0568108415
597050000.0 0.087973827 0.0183305691
607000000.0 0.0942157339 -0.0504432629
616950000.0 0.0514994936 -0.1172823737
626900000.0 -0.0315014043 -0.1445646423
636850000.0 -0.1206579988 -0.1145795429
646800000.0 -0.1713170395 -0.0318577571
656750000.0 -0.1599535192 0.0690754144
666700000.0 -0.0868094237 0.1426623042
676650000.0 0.0190351831 0.15456241
686600000.0 0.1104668846 0.0972533761
696550000.0 0.1464531821 -0.0084549966
706500000.0 0.1105153029 -0.109943915
716450000.0 0.0213765672 -0.1607188322
726400000.0 -0.0724256389 -0.1388933538
736350000.0 -0.1226158628 -0.0567168763
746300000.0 -0.0960536274 0.0381414671
756250000.0 -0.0049855071 0.0895812955
766200000.0 0.0986332782 0.0614944983
776150000.0 0.158765652 -0.0359449065
786100000.0 0.1289016105 -0.1489501893
796050000.0 0.0166189506 -0.2135496784
806000000.0 -0.1219011249 -0.1748215927
815950000.0 -0.2123147643 -0.0353766533
825900000.0 -0.1864254624 0.1451743562
835850000.0 -0.0410377236 0.2795336806
845800000.0 0.1667733707 0.2900524618
855750000.0 0.342936829 0.1606942
865700000.0 0.4003941091 -0.0620549515
875650000.0 0.2994929108 -0.2807773141
885600000.0 0.0693039996 -0.3935610067
895550000.0 -0.1961403607 -0.331190121
905500000.0 -0.3721969274 -0.1032582081
915450000.0 -0.3632675021 0.19542406
925400000.0 -0.160471354 0.4215697595
935350000.0 0.144649701 0.4579212047
945300000.0 0.3998480191 0.2707601773
955250000.0 0.4569770197 -0.0615621651
965200000.0 0.2479946584 -0.3586579292
975150000.0 -0.1443148698 -0.4171884064
985100000.0 -0.4752285233 -0.1373366453
995050000.0 -0.4671792283 0.3321767946
1005000000.0 -0.0645495415 0.6403451021
1014950000.0 0.4691991976 0.4998154668
1024900000.0 0.7135036924 -0.0541786451
1034850000.0 0.4098443121 -0.6378563635
1044800000.0 -0.2728591647 -0.7611253968
1054750000.0 -0.7885011055 -0.2873214517
1064700000.0 -0.7775265357 0.3570188111
1074650000.0 -0.3090569897 0.8028618285
1084600000.0 0.3009757672 0.7719153078
1094550000.0 0.7225936106 0.3286581193
1104500000.0 0.7054334238 -0.2840918925
1114450000.0 0.2632757364 -0.6915319478
1124400000.0 -0.310490575 -0.6563991338
1134350000.0 -0.6600463942 -0.2423199071
1144300000.0 -0.6209340954 0.2613749649
1154250000.0 -0.2737337348 0.5817742486
1164200000.0 0.1768623712 0.5892735212
1174150000.0 0.514039339 0.3005015688
1184100000.0 0.5664213184 -0.1404300349
1194050000.0 0.3073914072 -0.4912400332
1204000000.0 -0.1064466861 -0.5710889317
1213950000.0 -0.4525059291 -0.375301112
1223900000.0 -0.5989790175 -0.0258902568
1233850000.0 -0.5137124202 0.3303628001
1243800000.0 -0.2374152743 0.5685808952
1253750000.0 0.1341738392 0.5966134802
1263700000.0 0.456120387 0.3893533605
1273650000.0 0.5890379102 0.0239985658
1283600000.0 0.4790953421 -0.3433468486
1293550000.0 0.1895271274 -0.5716590038
1303500000.0 -0.1615992042 -0.6009236523
1313450000.0 -0.4620312386 -0.4439822731
1323400000.0 -0.6345954649 -0.1559162351
1333350000.0 -0.631392138 0.1851300611
1343300000.0 -0.4369083317 0.4800887347
1353250000.0 -0.0962800727 0.6175255416
1363200000.0 0.2721066397 0.5302991399
1373150000.0 0.5250532063 0.2460875685
1383100000.0 0.574509044 -0.1209867952
1393050000.0 0.4245090355 -0.4415574245
1403000000.0 0.1427962043 -0.6248208802
1412950000.0 -0.1796806453 -0.6313519893
1422900000.0 -0.4535052036 -0.4662729494
1432850000.0 -0.596426047 -0.1710059475
1442800000.0 -0.5517630904 0.1668826298
1452750000.0 -0.3173218123 0.4268552932
1462700000.0 0.0252927527 0.5065447884
1472650000.0 0.3448228656 0.3791085218
1482600000.0 0.5271710021 0.1059023525
1492550000.0 0.5241374478 -0.206505497
1502500000.0 0.351817942 -0.4527056704
1512450000.0 0.0763085413 -0.5527894771
1522400000.0 -0.2064184186 -0.4707468824
1532350000.0 -0.3871228466 -0.230819938
1542300000.0 -0.389037423 0.0769258021
1552250000.0 -0.2029389341 0.3230755393
1562200000.0 0.0835409545 0.4024478304
1572150000.0 0.3492905241 0.2963067482
1582100000.0 0.4880529428 0.0567253818
1592050000.0 0.4489472444 -0.2133948791
1602000000.0 0.2494022915 -0.405060366
1611950000.0 -0.0361171684 -0.4378160628
1621900000.0 -0.2965680017 -0.2862098344
1631850000.0 -0.4184611724 0.0024770408
1641800000.0 -0.3379299894 0.3112864491
1651750000.0 -0.087153071 0.5055439753
1661700000.0 0.2255542325 0.5084971102
1671650000.0 0.4770494214 0.329437702
1681600000.0 0.5818385732 0.039607013
1691550000.0 0.5082847762 -0.2653714795
1701500000.0 0.2742940503 -0.4870740691
1711450000.0 -0.054493632 -0.5474536572
1721400000.0 -0.3752217837 -0.4076314846
1731350000.0 -0.564796015 -0.1025764395
1741300000.0 -0.5467741539 0.2555424844
1751250000.0 -0.3343909405 0.5326270201
1761200000.0 -0.0149561258 0.6415097885
1771150000.0 0.3042468517 0.564597588
1781100000.0 0.5312792117 0.3320478154
1791050000.0 0.569715379 0.0364609
1801000000.0 0.5524195327 -0.2373506572
1810950000.0 0.3305579569 -0.5038792667
1820900000.0 -0.0084284525 -0.5970451319
1830850000.0 -0.3455026829 -0.476875179
1840800000.0 -0.5532621508 -0.1923164054
1850750000.0 -0.5722279046 0.1429273924
1860700000.0 -0.4239363474 0.4196736751
1870650000.0 -0.1740998763 0.5748189744
1880600000.0 0.1045723191 0.5854902415
1890550000.0 0.3440594156 0.4589308127
1900500000.0 0.4839593031 0.2262103615
1910450000.0 0.4801360576 -0.0485659888
1920400000.0 0.3283394023 -0.2753843478
1930350000.0 0.0848756253 -0.3741156723
1940300000.0 -0.1525802901 -0.324960614
1950250000.0 -0.3066470572 -0.1761434108
1960200000.0 -0.3529685738 0.0007805752
1970150000.0 -0.3092838117 0.1445968393
1980100000.0 -0.2188974889 0.2197531614
1990050000.0 -0.1352921258 0.2221913574
2000000000.0 -0.1054953256 0.1853357013
