!Created with skrf (http://scikit-rf.org).
# GHz S RI R 50.0 
!freq ReS11 ImS11
10000000.0 -1.002617893 0.1576722158
19950000.0 -0.94926616 0.30178778
29900000.0 -0.8745224707 0.4407475169
39850000.0 -0.7784912407 0.5794808512
49800000.0 -0.6624393668 0.7128178184
59750000.0 -0.5211476776 0.8343302221
69700000.0 -0.3454447632 0.9324650539
79650000.0 -0.1308041369 0.9875308856
89600000.0 0.1228334366 0.9800556863
99550000.0 0.4013004226 0.8885438202
109500000.0 0.6789661276 0.6965274382
119450000.0 0.9075816683 0.3895290128
129400000.0 1.012011436 -0.0194481493
139350000.0 0.9307924232 -0.4329599085
149300000.0 0.6650586545 -0.7710663098
159250000.0 0.3029940061 -0.9495554632
169200000.0 -0.0608933771 -0.9796953697
179150000.0 -0.3728477501 -0.9060144427
189100000.0 -0.6155472624 -0.7711784929
199050000.0 -0.7856936083 -0.6029808788
209000000.0 -0.8862152254 -0.4192877743
218950000.0 -0.9346161768 -0.2359632909
228900000.0 -0.9434543957 -0.0598702038
238850000.0 -0.9261130916 0.1074245253
248800000.0 -0.866127109 0.2710427232
258750000.0 -0.8421417803 0.4059274508
268700000.0 -0.7719889982 0.5382277328
278650000.0 -0.6783189692 0.6498430276
288600000.0 -0.5590820461 0.7374668554
298550000.0 -0.4167095058 0.798522504
308500000.0 -0.2555610288 0.8340350229
318450000.0 -0.0799431072 0.8402739531
328400000.0 0.1036619946 0.8098827861
338350000.0 0.2780777114 0.7305666988
348300000.0 0.4194458052 0.5944265511
358250000.0 0.497839464 0.4107902933
368200000.0 0.4973331949 0.2105863138
378150000.0 0.4260007053 0.0321254345
388100000.0 0.3097364638 -0.0982790285
398050000.0 0.1805383214 -0.1670073016
408000000.0 0.0648899339 -0.1778869261
417950000.0 -0.0233254483 -0.1459187744
427900000.0 -0.0812307247 -0.0901160982
437850000.0 -0.1141438031 -0.0260103417
447800000.0 -0.127487192 0.0335198429
457750000.0 -0.1262361497 0.0806066135
467700000.0 -0.1136342037 0.1108874063
477650000.0 -0.092179046 0.1231205542
487600000.0 -0.0642439529 0.1202088922
497550000.0 -0.0374482997 0.1079806707
507500000.0 -0.0018182418 0.0920852185
517450000.0 0.0213898929 0.0712093936
527400000.0 0.0338336847 0.0511559394
537350000.0 0.0324083628 0.031701777
547300000.0 0.0183961431 0.0134300694
557250000.0 -0.0065138023 -0.0050886145
567200000.0 -0.0371537562 -0.0222900064
577150000.0 -0.0686366193 -0.0358687598
587100000.0 -0.0966489077 -0.0430667091
597050000.0 -0.1188456586 -0.0401966636
607000000.0 -0.1331398012 -0.0200676826
616950000.0 -0.1394568235 -0.0030448939
626900000.0 -0.1475445983 0.0286721297
636850000.0 -0.1520335326 0.0636724998
646800000.0 -0.1526403782 0.0971038162
656750000.0 -0.1476906751 0.1252921831
666700000.0 -0.1344464307 0.144977326
676650000.0 -0.1110922929 0.1557256811
686600000.0 -0.0779959536 0.1591060785
696550000.0 -0.0377208379 0.1572760522
706500000.0 0.0059403894 0.1504626501
716450000.0 0.0477353385 0.138683384
726400000.0 0.0821990038 0.1195372379
736350000.0 0.1057884871 0.0908886986
746300000.0 0.1160469001 0.051028219
756250000.0 0.1139002064 0.0006395437
766200000.0 0.1003294777 -0.0568381446
776150000.0 0.0774074884 -0.1160148898
786100000.0 0.0448069436 -0.1694294298
796050000.0 0.0037105056 -0.2103820287
806000000.0 -0.0460799836 -0.233380865
815950000.0 -0.1047951758 -0.2355444815
825900000.0 -0.1699145115 -0.2184293428
835850000.0 -0.2375527313 -0.1854168743
845800000.0 -0.3023419687 -0.1409735122
855750000.0 -0.3579619427 -0.0874227602
865700000.0 -0.3981681727 -0.0261129
875650000.0 -0.4149385129 0.0428221801
885600000.0 -0.4074982085 0.1186193435
895550000.0 -0.3751933191 0.1996756207
905500000.0 -0.3197658795 0.2835380157
915450000.0 -0.2438692334 0.3634262949
925400000.0 -0.1484675992 0.4300943574
935350000.0 -0.0334126385 0.4717291579
945300000.0 0.0994146937 0.4733338241
955250000.0 0.2445806052 0.4194074476
965200000.0 0.3873146464 0.2956190785
975150000.0 0.4950603295 0.0932038068
985100000.0 0.5021459939 -0.1726824211
995050000.0 0.3521406101 -0.4019109163
1005000000.0 0.1774984221 -0.4378946108
1014950000.0 0.1377358779 -0.5016818287
1024900000.0 -0.0637857793 -0.6452327184
1034850000.0 -0.3823811185 -0.641747748
1044800000.0 -0.6707014054 -0.4687383605
1054750000.0 -0.8425924762 -0.1841999798
1064700000.0 -0.8469326839 0.1369647548
1074650000.0 -0.6900359645 0.3959815891
1084600000.0 -0.3949114424 0.3571335036
1094550000.0 -0.5726786064 0.5046791033
1104500000.0 -0.3246712506 0.7435130961
1114450000.0 -0.0336732988 0.8067197161
1124400000.0 0.2351691675 0.7571330702
1134350000.0 0.4498628461 0.6179088513
1144300000.0 0.5908041684 0.415913464
1154250000.0 0.652642568 0.1911925315
1164200000.0 0.6512910815 -0.0259886585
1174150000.0 0.6067676515 -0.2217712969
1184100000.0 0.5221372869 -0.3861500457
1194050000.0 0.4083538227 -0.5084388007
1204000000.0 0.2765567078 -0.5847147678
1213950000.0 0.1377537679 -0.6199639742
1223900000.0 0.001897564 -0.6248776668
1233850000.0 -0.1251541944 -0.6116925853
1243800000.0 -0.2394632682 -0.5870263684
1253750000.0 -0.3391299392 -0.553297697
1263700000.0 -0.4223830247 -0.5099602096
1273650000.0 -0.4889622797 -0.4571782031
1283600000.0 -0.5380788541 -0.3931986113
1293550000.0 -0.5739381663 -0.3202775586
1303500000.0 -0.602087654 -0.242291351
1313450000.0 -0.625976942 -0.1643283476
1323400000.0 -0.6488387882 -0.0894263719
1333350000.0 -0.6678557247 -0.0181128235
1343300000.0 -0.6790773131 0.0490256284
1353250000.0 -0.6788531664 0.1107331154
1363200000.0 -0.6642915872 0.1695352179
1373150000.0 -0.6345165875 0.2276572921
1383100000.0 -0.5949864482 0.286004782
1393050000.0 -0.5499804034 0.3452896261
1403000000.0 -0.5044179166 0.4035039634
1412950000.0 -0.4589862114 0.4585780816
1422900000.0 -0.4126373397 0.5072722845
1432850000.0 -0.362742909 0.545255009
1442800000.0 -0.3068696132 0.5714733297
1452750000.0 -0.242529781 0.5857603004
1462700000.0 -0.1689544061 0.5901155725
1472650000.0 -0.0880973076 0.5884568144
1482600000.0 -0.004016575 0.5834931063
1492550000.0 0.0798515205 0.5734511182
1502500000.0 0.1602888042 0.5551192293
1512450000.0 0.2340844104 0.5242625813
1522400000.0 0.2981893503 0.4768811815
1532350000.0 0.3523217014 0.4111350057
1542300000.0 0.3979839065 0.3288858479
1552250000.0 0.4354826142 0.2343111836
1562200000.0 0.465273476 0.1344196472
1572150000.0 0.4838700965 0.0333984385
1582100000.0 0.4874705688 -0.0644768934
1592050000.0 0.4727252854 -0.1565221319
1602000000.0 0.4353563777 -0.2420126739
1611950000.0 0.3769834657 -0.318567195
1621900000.0 0.3024826839 -0.3872430081
1631850000.0 0.2184998451 -0.4479236638
1641800000.0 0.1306517744 -0.5003924617
1651750000.0 0.0427922845 -0.5410679214
1661700000.0 -0.0416526949 -0.5664199073
1671650000.0 -0.1224844375 -0.5726548308
1681600000.0 -0.1990174408 -0.559320026
1691550000.0 -0.2720825716 -0.5312924703
1701500000.0 -0.3432756777 -0.4924015128
1711450000.0 -0.4117738567 -0.4496864531
1721400000.0 -0.4766187216 -0.4056775363
1731350000.0 -0.5353352839 -0.363605624
1741300000.0 -0.5839258744 -0.3205335694
1751250000.0 -0.6187264517 -0.2729307003
1761200000.0 -0.6394238177 -0.2207491964
1771150000.0 -0.6475896258 -0.1628997546
1781100000.0 -0.6501084141 -0.1008863887
1791050000.0 -0.6509679532 -0.038208248
1801000000.0 -0.6533163423 0.0221532901
1810950000.0 -0.6584453456 0.0794973761
1820900000.0 -0.661537044 0.1317698708
1830850000.0 -0.6587491853 0.1779137783
1840800000.0 -0.6438088195 0.2212785824
1850750000.0 -0.6148295065 0.2607092729
1860700000.0 -0.5723551613 0.2986857462
1870650000.0 -0.5217663872 0.3365927018
1880600000.0 -0.4648234253 0.3730501813
1890550000.0 -0.3949522794 0.4010404774
1900500000.0 -0.324922515 0.3514322227
1910450000.0 -0.3854390816 0.3462053681
1920400000.0 -0.3763863928 0.3876261454
1930350000.0 -0.3445142185 0.4001558639
1940300000.0 -0.3041583054 0.396015855
1950250000.0 -0.2580650713 0.3806222423
1960200000.0 -0.2090853581 0.3598539263
1970150000.0 -0.1641347549 0.3354743755
1980100000.0 -0.1280447283 0.3081340639
1990050000.0 -0.1053536735 0.2747309058
2000000000.0 -0.1010091102 0.2325112611
