!Created with skrf (http://scikit-rf.org).
# GHz S RI R 50.0 
!freq ReS11 ImS11
10000000.0 -0.7893699436 0.5991846007
19950000.0 -0.2822037069 0.9373032662
29900000.0 0.324292899 0.914300738
39850000.0 0.8080836207 0.5355413927
49800000.0 0.9756030439 -0.0695771229
59750000.0 0.7341868493 -0.6680311908
69700000.0 0.1553315686 -0.9908508284
79650000.0 -0.5112280267 -0.8573715618
89600000.0 -0.9329687726 -0.3004457711
99550000.0 -0.8692796206 0.417219983
109500000.0 -0.3106857426 0.9109167271
119450000.0 0.4642459391 0.8582630912
129400000.0 0.9657725549 0.2152053444
139350000.0 0.8051486613 -0.586749597
149300000.0 0.0738871847 -0.975612584
159250000.0 -0.6740820433 -0.6715229964
169200000.0 -0.9358915723 0.0599143027
179150000.0 -0.6031778134 0.7253257028
189100000.0 0.0725061356 0.9532519788
199050000.0 0.6952463929 0.6620794149
209000000.0 0.9506549134 0.0448106871
218950000.0 0.7479261266 -0.5642541137
228900000.0 0.217808112 -0.894893215
238850000.0 -0.3931831441 -0.8210026267
248800000.0 -0.6116452819 -0.393624871
258750000.0 -0.9026935269 0.1671370587
268700000.0 -0.6159454252 0.6939823449
278650000.0 -0.0705649131 0.9235075448
288600000.0 0.4931218962 0.7607602007
298550000.0 0.8277443054 0.2824301191
308500000.0 0.7876903573 -0.2973787463
318450000.0 0.3919456866 -0.71455759
328400000.0 -0.1714481336 -0.7734770888
338350000.0 -0.6168667907 -0.4465340891
348300000.0 -0.7071740568 0.0747691862
358250000.0 -0.4216211395 0.4775136427
368200000.0 0.021310921 0.5448197294
378150000.0 0.3351166644 0.3031651877
388100000.0 0.3707222445 -0.0367835213
398050000.0 0.1807470726 -0.2543375886
408000000.0 -0.058969156 -0.2593444993
417950000.0 -0.1944663136 -0.1141089329
427900000.0 -0.180629054 0.0518370902
437850000.0 -0.0693703038 0.1380477404
447800000.0 0.0501698506 0.1185736631
457750000.0 0.1081931643 0.0342663674
467700000.0 0.0920506045 -0.0498785609
477650000.0 0.0346351565 -0.0882895505
487600000.0 -0.0150357869 -0.0694548666
497550000.0 -0.0557852215 -0.0958978053
507500000.0 -0.0509557198 -0.0096325469
517450000.0 -0.0206181329 0.006738625
527400000.0 -0.0044188334 -0.0047336692
537350000.0 -0.014527957 -0.0220104743
547300000.0 -0.0481548898 -0.0185799331
557250000.0 -0.0701208681 0.0209405886
567200000.0 -0.058203781 0.0732706075
577150000.0 -0.0070288532 0.1107883309
587100000.0 0.0670678112 0.1046182133
597050000.0 0.1283539874 0.0461383177
607000000.0 0.1432033335 -0.046873037
616950000.0 0.0952395983 -0.1366220544
626900000.0 -0.0004696117 -0.1817820322
636850000.0 -0.1058387258 -0.1583674696
646800000.0 -0.1764327584 -0.0739714033
656750000.0 -0.1806800593 0.036471984
666700000.0 -0.1146305584 0.1263766964
676650000.0 -0.007440693 0.1545618524
686600000.0 0.0920941407 0.1088891666
696550000.0 0.1393186671 0.0124926257
706500000.0 0.1146622901 -0.0865364432
716450000.0 0.0342589783 -0.1395945184
726400000.0 -0.05494559 -0.1214247336
736350000.0 -0.1003818376 -0.0436062735
746300000.0 -0.0714449967 0.0470869779
756250000.0 0.020783339 0.091789782
766200000.0 0.1252427147 0.0563241491
776150000.0 0.1791023793 -0.0498144836
786100000.0 0.1399939234 -0.1723544491
796050000.0 0.0149450853 -0.2399526092
806000000.0 -0.1412611474 -0.200662753
815950000.0 -0.2458476251 -0.0529344262
825900000.0 -0.2321753211 0.1452819175
835850000.0 -0.0899228523 0.3022928463
845800000.0 0.1285960672 0.3388219279
855750000.0 0.3304838882 0.2290365355
865700000.0 0.4250293025 0.0090083408
875650000.0 0.3601450775 -0.2321301676
885600000.0 0.1495952965 -0.3871655985
895550000.0 -0.1249361545 -0.3745655615
905500000.0 -0.3383763405 -0.183272598
915450000.0 -0.381342342 0.1061888832
925400000.0 -0.2255331137 0.3569557407
935350000.0 0.0592177119 0.4396429153
945300000.0 0.326931747 0.2966631741
955250000.0 0.4150343624 -0.0116302727
965200000.0 0.2307462791 -0.3089167419
975150000.0 -0.152963657 -0.3654216614
985100000.0 -0.4635329006 -0.0631352085
995050000.0 -0.3931008675 0.4119698276
1005000000.0 0.0755843731 0.6519361664
1014950000.0 0.5916032445 0.3966554891
1024900000.0 0.7190386325 -0.2167546681
1034850000.0 0.2962517645 -0.7317978088
1044800000.0 -0.3851131578 -0.7280669855
1054750000.0 -0.801820756 -0.2099185094
1064700000.0 -0.7353773084 0.3301107722
1074650000.0 -0.3545200782 0.7606157942
1084600000.0 0.2222476417 0.7834424685
1094550000.0 0.6550067451 0.4126004565
1104500000.0 0.7133882301 -0.1549843389
1114450000.0 0.359286899 -0.5935695724
1124400000.0 -0.1762637763 -0.6416987213
1134350000.0 -0.5533688986 -0.3147230745
1144300000.0 -0.5891770323 0.1425274635
1154250000.0 -0.3208768825 0.4748965902
1164200000.0 0.0826516053 0.5311124904
1174150000.0 0.4085644501 0.3013467287
1184100000.0 0.4813509487 -0.091307159
1194050000.0 0.260661686 -0.4148660487
1204000000.0 -0.1072936819 -0.4942322514
1213950000.0 -0.4211734814 -0.3201743428
1223900000.0 -0.551864921 -0.0016727983
1233850000.0 -0.4672045421 0.3240437443
1243800000.0 -0.2032632847 0.536601124
1253750000.0 0.1446939198 0.5500422984
1263700000.0 0.4402886131 0.3440714058
1273650000.0 0.5549063025 -0.0045053358
1283600000.0 0.4427714859 -0.3514368987
1293550000.0 0.1613789937 -0.5651301936
1303500000.0 -0.1767770273 -0.5883954436
1313450000.0 -0.466069473 -0.433150224
1323400000.0 -0.6308338465 -0.1525227087
1333350000.0 -0.6254601043 0.1786880815
1343300000.0 -0.4370031624 0.4666797923
1353250000.0 -0.1061498178 0.6068602222
1363200000.0 0.2575044213 0.5315241236
1373150000.0 0.5170244628 0.2623658605
1383100000.0 0.5825084421 -0.097034652
1393050000.0 0.4507244628 -0.4204669553
1403000000.0 0.1829812229 -0.6165989144
1412950000.0 -0.1343605165 -0.6431084612
1422900000.0 -0.4136435048 -0.5025903674
1432850000.0 -0.578212765 -0.2321877481
1442800000.0 -0.5737963037 0.0937098964
1452750000.0 -0.3892081249 0.3732470428
1462700000.0 -0.0754610063 0.5093077145
1472650000.0 0.2599223296 0.4483242821
1482600000.0 0.4960290274 0.2183990974
1492550000.0 0.5627581655 -0.088679123
1502500000.0 0.4545841877 -0.3691921782
1512450000.0 0.216259255 -0.5377379667
1522400000.0 -0.0735805283 -0.5423092104
1532350000.0 -0.3166299051 -0.3766978158
1542300000.0 -0.4208933751 -0.0937886981
1552250000.0 -0.3376101883 0.2004888679
1562200000.0 -0.0982459279 0.3838003295
1572150000.0 0.191667468 0.3835941541
1582100000.0 0.4084277518 0.2160000683
1592050000.0 0.4733331786 -0.0362320983
1602000000.0 0.373571998 -0.271414538
1611950000.0 0.1477021511 -0.4011667942
1621900000.0 -0.1214596832 -0.366049505
1631850000.0 -0.3219063325 -0.1657362744
1641800000.0 -0.3555385152 0.1230105036
1651750000.0 -0.2024444015 0.3686058986
1661700000.0 0.0633071856 0.464919973
1671650000.0 0.3283053999 0.3837858372
1681600000.0 0.494586148 0.16328099
1691550000.0 0.5046004977 -0.1175647099
1701500000.0 0.3490888474 -0.362360077
1711450000.0 0.0720873304 -0.482263782
1721400000.0 -0.2377676348 -0.4192764038
1731350000.0 -0.4620729687 -0.1814412217
1741300000.0 -0.5072648212 0.1443724393
1751250000.0 -0.359545552 0.430555401
1761200000.0 -0.08649128 0.5786127538
1771150000.0 0.2138017236 0.5566733598
1781100000.0 0.4542133403 0.3843986956
1791050000.0 0.5734480506 0.1113145517
1801000000.0 0.5323050877 -0.1925779041
1810950000.0 0.3283760488 -0.4356167947
1820900000.0 0.016593967 -0.5215296245
1830850000.0 -0.2801180009 -0.4299033351
1840800000.0 -0.4860761085 -0.1792791486
1850750000.0 -0.5074499112 0.1271085716
1860700000.0 -0.3702938393 0.367273718
1870650000.0 -0.1681524763 0.4890357693
1880600000.0 0.0562915281 0.5210707515
1890550000.0 0.2738873668 0.4320835978
1900500000.0 0.4130064871 0.2342326655
1910450000.0 0.4233821435 -0.0122077693
1920400000.0 0.2942501612 -0.2215994494
1930350000.0 0.0766458522 -0.3166714209
1940300000.0 -0.1372493545 -0.2736244775
1950250000.0 -0.2716456533 -0.138065578
1960200000.0 -0.301434751 0.0181575117
1970150000.0 -0.2476640508 0.131101297
1980100000.0 -0.1633943615 0.1653786056
1990050000.0 -0.1164895928 0.1282070142
2000000000.0 -0.1545911687 0.082514564
