!Created with skrf (http://scikit-rf.org).
# GHz S RI R 50.0 
!freq ReS11 ImS11
10000000.0 -0.7642371909 0.5801622128
19950000.0 -0.277696871 0.9144870752
29900000.0 0.3137533232 0.8989950913
39850000.0 0.7909997321 0.529446885
49800000.0 0.9557499528 -0.0684921511
59750000.0 0.7130571074 -0.6592977406
69700000.0 0.1378645164 -0.9730163634
79650000.0 -0.5188055226 -0.8321438943
89600000.0 -0.9274566231 -0.2688288098
99550000.0 -0.8418439165 0.4530994379
109500000.0 -0.2486854043 0.9290793959
119450000.0 0.5409958171 0.8136549045
129400000.0 0.9834854024 0.1089587199
139350000.0 0.7089829129 -0.6893144537
149300000.0 -0.0747862409 -0.9650430209
159250000.0 -0.7605821027 -0.5537440891
169200000.0 -0.9079704171 0.1932379553
179150000.0 -0.4995302238 0.7859193018
189100000.0 0.1684501464 0.9208802023
199050000.0 0.7265757199 0.5820554445
209000000.0 0.9221312089 -0.0211499022
218950000.0 0.7014052738 -0.5874671995
228900000.0 0.1915646711 -0.885977814
238850000.0 -0.3833855808 -0.811458481
248800000.0 -0.7642234593 -0.3851714428
258750000.0 -0.8852738627 0.1491654966
268700000.0 -0.6262511221 0.6558971836
278650000.0 -0.1211701607 0.9015936448
288600000.0 0.4240214133 0.7899074808
298550000.0 0.7886878127 0.368782915
308500000.0 0.8210356657 -0.189373454
318450000.0 0.5030302453 -0.6472076064
328400000.0 -0.0276056488 -0.7969452287
338350000.0 -0.5145502929 -0.5650385348
348300000.0 -0.7051979589 -0.0825089758
358250000.0 -0.5163465517 0.3627085521
368200000.0 -0.1125902834 0.521377929
378150000.0 0.2257718097 0.3616466309
388100000.0 0.3163581961 0.0631468521
398050000.0 0.1840651471 -0.1470068631
408000000.0 -0.00894339 -0.1692706276
417950000.0 -0.1123020365 -0.0582000478
427900000.0 -0.0866579892 0.0628285561
437850000.0 0.0136333195 0.1022259988
447800000.0 0.1004211537 0.0472229184
457750000.0 0.1147976565 -0.0518448732
467700000.0 0.0558667628 -0.131697204
477650000.0 -0.0377537487 -0.1471603672
487600000.0 -0.1141375872 -0.095265483
497550000.0 -0.1356155304 -0.0129810571
507500000.0 -0.1000070872 0.0661305319
517450000.0 -0.0297713834 0.097347907
527400000.0 0.0322179953 0.0788364784
537350000.0 0.05788763 0.0317436497
547300000.0 0.0433883842 -0.0102140927
557250000.0 0.0090443207 -0.0236059566
567200000.0 -0.0162018235 -0.0060638418
577150000.0 -0.0114577492 0.0224632028
587100000.0 0.021435677 0.0316040439
597050000.0 0.0581278119 0.0049846953
607000000.0 0.0678821295 -0.0502420143
616950000.0 0.0343811375 -0.10681043
626900000.0 -0.0338441636 -0.1309078203
636850000.0 -0.1084369505 -0.1012548775
646800000.0 -0.1503042647 -0.0251670111
656750000.0 -0.1343659935 0.0664761673
666700000.0 -0.0627904936 0.1338595664
676650000.0 0.0397396547 0.1423532286
686600000.0 0.1275604676 0.0818331485
696550000.0 0.159309189 -0.0230852816
706500000.0 0.1191451583 -0.1252986939
716450000.0 0.0242212683 -0.1773948731
726400000.0 -0.0798479279 -0.1539971789
736350000.0 -0.1383486389 -0.0639978068
746300000.0 -0.1189793812 0.0440129195
756250000.0 -0.0264491021 0.1123025858
766200000.0 0.0902767743 0.1006322322
776150000.0 0.1675995483 0.0095511077
786100000.0 0.1591825378 -0.1130484473
796050000.0 0.0599514425 -0.196374289
806000000.0 -0.0817201462 -0.1851676009
815950000.0 -0.1888773326 -0.069202279
825900000.0 -0.1936666692 0.1037967591
835850000.0 -0.0772577565 0.2472684441
845800000.0 0.1140860545 0.2826227886
855750000.0 0.2928925236 0.1810751063
865700000.0 0.371338067 -0.0233079156
875650000.0 0.2968044424 -0.2433300446
885600000.0 0.0857283603 -0.3714404159
895550000.0 -0.1732231132 -0.3310162259
905500000.0 -0.3571671343 -0.1211099719
915450000.0 -0.3632651493 0.1701625974
925400000.0 -0.1749997265 0.4022005767
935350000.0 0.1238639938 0.4540756608
945300000.0 0.3866993962 0.2850173906
955250000.0 0.468614874 -0.0377189577
965200000.0 0.290976103 -0.3506036056
975150000.0 -0.0871291881 -0.4512645185
985100000.0 -0.4442375103 -0.2201460686
995050000.0 -0.5037170725 0.235685722
1005000000.0 -0.1692669109 0.5954030989
1014950000.0 0.3567441651 0.5597185346
1024900000.0 0.6893360727 0.0883384737
1034850000.0 0.514570074 -0.5190414804
1044800000.0 -0.112721666 -0.7638241899
1054750000.0 -0.6978641217 -0.3993594951
1064700000.0 -0.772039743 0.2526885875
1074650000.0 -0.3944164168 0.7381134282
1084600000.0 0.2131549802 0.7885969036
1094550000.0 0.6668188287 0.4164516157
1104500000.0 0.731844302 -0.1732226488
1114450000.0 0.3621180432 -0.6351723626
1124400000.0 -0.2071477755 -0.687951909
1134350000.0 -0.6161761574 -0.3391477905
1144300000.0 -0.6656526959 0.1591335295
1154250000.0 -0.3891653469 0.5367409762
1164200000.0 0.0469502589 0.6332144836
1174150000.0 0.4309833098 0.4251452595
1184100000.0 0.5791743888 0.012332585
1194050000.0 0.4099777282 -0.3888255034
1204000000.0 0.0285980095 -0.5650661039
1213950000.0 -0.3527000195 -0.4552467341
1223900000.0 -0.5702053509 -0.1491644411
1233850000.0 -0.5616795921 0.2104358245
1243800000.0 -0.3452692465 0.4902986101
1253750000.0 -0.0009483607 0.5876570862
1263700000.0 0.3414952408 0.4532232218
1273650000.0 0.5363907816 0.1325818002
1283600000.0 0.498688646 -0.2388806716
1293550000.0 0.2592128945 -0.507803333
1303500000.0 -0.072312662 -0.5888121634
1313450000.0 -0.3789599943 -0.4793102197
1323400000.0 -0.5768980736 -0.2275217259
1333350000.0 -0.6140315813 0.0937606317
1343300000.0 -0.4681673528 0.3953974696
1353250000.0 -0.1651290263 0.5678113792
1363200000.0 0.1943488197 0.5324400153
1373150000.0 0.470998614 0.2913807929
1383100000.0 0.5592014061 -0.0577831729
1393050000.0 0.4451707253 -0.3838093716
1403000000.0 0.187560368 -0.5850577265
1412950000.0 -0.121752663 -0.615599117
1422900000.0 -0.3944465555 -0.4789217508
1432850000.0 -0.5547762737 -0.2120676003
1442800000.0 -0.5472079731 0.1140818594
1452750000.0 -0.3520372429 0.39082138
1462700000.0 -0.0287196321 0.5081908152
1472650000.0 0.3003059503 0.4191087221
1482600000.0 0.511013974 0.1682107344
1492550000.0 0.5413355432 -0.1451730517
1502500000.0 0.3984848152 -0.4107973814
1512450000.0 0.1384814935 -0.5472301412
1522400000.0 -0.1510557372 -0.5119381089
1532350000.0 -0.3706328291 -0.3113660826
1542300000.0 -0.433938282 -0.0105790128
1552250000.0 -0.3052206043 0.2738169888
1562200000.0 -0.0354004356 0.4222947797
1572150000.0 0.2587114621 0.3783640441
1582100000.0 0.4562476334 0.1756545923
1592050000.0 0.4920793769 -0.0982021255
1602000000.0 0.3588627998 -0.337424963
1611950000.0 0.1014629464 -0.4542695148
1621900000.0 -0.1856203548 -0.3924501556
1631850000.0 -0.3850539268 -0.1618100333
1641800000.0 -0.404800981 0.1500551678
1651750000.0 -0.2296756259 0.4095417991
1661700000.0 0.0620471255 0.508140586
1671650000.0 0.3484929566 0.4157468343
1681600000.0 0.526851405 0.1780027382
1691550000.0 0.5411281353 -0.1194364699
1701500000.0 0.3855675134 -0.3815269016
1711450000.0 0.1016327551 -0.5166788425
1721400000.0 -0.2217568174 -0.4649889189
1731350000.0 -0.4656410313 -0.2301583096
1741300000.0 -0.5324523952 0.1051300599
1751250000.0 -0.4002367299 0.4118033976
1761200000.0 -0.1286344512 0.5849506197
1771150000.0 0.1820061435 0.5834362954
1781100000.0 0.4397175525 0.4224065456
1791050000.0 0.5779995148 0.151822249
1801000000.0 0.557459917 -0.1574025723
1810950000.0 0.3741785993 -0.4180102967
1820900000.0 0.0714594204 -0.5405684729
1830850000.0 -0.254685123 -0.4691654488
1840800000.0 -0.4832573539 -0.2278924448
1850750000.0 -0.5402671881 0.0868527423
1860700000.0 -0.4282747595 0.3658187945
1870650000.0 -0.203798622 0.5353071686
1880600000.0 0.0609205808 0.5638166004
1890550000.0 0.2942066531 0.4539497122
1900500000.0 0.4334804377 0.2346700747
1910450000.0 0.4288891117 -0.0202742565
1920400000.0 0.2952407209 -0.2085578129
1930350000.0 0.108515482 -0.3276326049
1940300000.0 -0.1200431247 -0.3167878301
1950250000.0 -0.2867356856 -0.1900298513
1960200000.0 -0.3491726363 -0.0173871894
1970150000.0 -0.3144883433 0.1353037632
1980100000.0 -0.2183979485 0.2232559248
1990050000.0 -0.1141000313 0.2308775785
2000000000.0 -0.0558995394 0.1784233859
