!Created with skrf (http://scikit-rf.org).
# GHz S RI R 50.0 
!freq ReS11 ImS11
10000000.0 -0.7677378979 0.676092176
19950000.0 -0.1369085382 0.9884417835
29900000.0 0.5389077882 0.8169032515
39850000.0 0.9442995547 0.2424521682
49800000.0 0.8694873969 -0.4704274393
59750000.0 0.3167110964 -0.9607601018
69700000.0 -0.4478101902 -0.9250985817
79650000.0 -0.9680879824 -0.3294028359
89600000.0 -0.8744393695 0.4792561736
99550000.0 -0.1836039955 0.9509803157
109500000.0 0.6454083353 0.7087836289
119450000.0 0.9680824505 -0.1291204501
129400000.0 0.4425314682 -0.9002364656
139350000.0 -0.4880435432 -0.8838696049
149300000.0 -0.9782803085 -0.1041050476
159250000.0 -0.6370487395 0.7076992504
169200000.0 0.170970378 0.925956757
179150000.0 0.8322238909 0.4724535832
189100000.0 0.9371741982 -0.2957306529
199050000.0 0.4658383121 -0.8829111443
209000000.0 -0.2626848211 -0.9560670223
218950000.0 -0.8178815847 -0.5166684815
228900000.0 -0.9266359049 0.163895821
238850000.0 -0.5649646971 0.7344759737
248800000.0 0.0680768034 0.9267524385
258750000.0 0.6810946709 0.6601612923
268700000.0 0.9652032173 0.0580372343
278650000.0 0.7777611312 -0.5804434126
288600000.0 0.2141663846 -0.9274121048
298550000.0 -0.4294462142 -0.8087515873
308500000.0 -0.8221425351 -0.2935495595
318450000.0 -0.7613603567 0.343925311
328400000.0 -0.2822178607 0.755768432
338350000.0 0.3325623251 0.7025805777
348300000.0 0.6893178695 0.2354795954
358250000.0 0.5753396736 -0.2927867838
368200000.0 0.1495492354 -0.5082328614
378150000.0 -0.2163503326 -0.3373052301
388100000.0 -0.2836284887 -0.0153499192
398050000.0 -0.1066213564 0.1725196671
408000000.0 0.0882100771 0.1333673406
417950000.0 0.1350793677 -0.0165493017
427900000.0 0.0389902243 -0.1103394945
437850000.0 -0.0826644325 -0.076693074
447800000.0 -0.1236831723 0.0405386837
457750000.0 -0.0560916481 0.1444291586
467700000.0 0.0650267523 0.1594234311
477650000.0 0.1552455167 0.081891059
487600000.0 0.1616029883 -0.0318972811
497550000.0 0.09128624 -0.1129602817
507500000.0 -0.0059653897 -0.1198824054
517450000.0 -0.0715596011 -0.0660179468
527400000.0 -0.0793454296 0.0025446198
537350000.0 -0.0437657167 0.0406971113
547300000.0 -0.0056043662 0.0366603449
557250000.0 0.0033529011 0.0096516169
567200000.0 -0.0194725509 -0.0028478396
577150000.0 -0.044523997 0.019157768
587100000.0 -0.0369519324 0.0623874788
597050000.0 0.0141651937 0.0893901658
607000000.0 0.0836894018 0.065734562
616950000.0 0.1244455698 -0.0112468581
626900000.0 0.1008522893 -0.10630298
636850000.0 0.0119943075 -0.1664873431
646800000.0 -0.101272893 -0.1517789379
656750000.0 -0.1778197137 -0.0626770685
666700000.0 -0.1719144663 0.0566675137
676650000.0 -0.0829122877 0.1404251966
686600000.0 0.0408179875 0.1402814547
696550000.0 0.12956769 0.0565319552
706500000.0 0.134147766 -0.061588234
716450000.0 0.0565126185 -0.1458621851
726400000.0 -0.0512091569 -0.1488834495
736350000.0 -0.1165406678 -0.0736995233
746300000.0 -0.0956418702 0.0232238879
756250000.0 -0.0053365301 0.0688229957
766200000.0 0.0848297102 0.0224354689
776150000.0 0.1059982641 -0.0902502171
786100000.0 0.0331540474 -0.190124598
796050000.0 -0.1031850335 -0.1954903995
806000000.0 -0.2146318293 -0.081260726
815950000.0 -0.2085744583 0.096775259
825900000.0 -0.0590008514 0.2310371081
835850000.0 0.1644481617 0.2216498032
845800000.0 0.3327907899 0.0479888863
855750000.0 0.3363556674 -0.210274954
865700000.0 0.1526453239 -0.4124449447
875650000.0 -0.1342860541 -0.4358382646
885600000.0 -0.3719064789 -0.2474839795
895550000.0 -0.4183930828 0.0679708715
905500000.0 -0.2266903125 0.3409139891
915450000.0 0.1129525054 0.4074394127
925400000.0 0.4085749977 0.211841112
935350000.0 0.4800960887 -0.1419268025
945300000.0 0.2725669635 -0.4453864188
955250000.0 -0.100654503 -0.5031977074
965200000.0 -0.4054764874 -0.2545127765
975150000.0 -0.4124326932 0.1644050461
985100000.0 -0.0596171931 0.4484640127
995050000.0 0.4110697527 0.3154188622
1005000000.0 0.5682910029 -0.1915478485
1014950000.0 0.1990338035 -0.6345473213
1024900000.0 -0.4227582901 -0.5651165115
1034850000.0 -0.7322403751 0.0490982365
1044800000.0 -0.3492655989 0.7025868583
1054750000.0 0.4431516893 0.7197855726
1064700000.0 0.8815669569 0.0755306941
1074650000.0 0.6216713943 -0.6364861968
1084600000.0 -0.0460523254 -0.8651158551
1094550000.0 -0.647213352 -0.5151078461
1104500000.0 -0.7680779126 0.1625193105
1114450000.0 -0.325419401 0.6830149843
1124400000.0 0.3387369166 0.6505144554
1134350000.0 0.6955211627 0.1347182341
1144300000.0 0.535865169 -0.4167903839
1154250000.0 0.0614815587 -0.6410686036
1164200000.0 -0.397172849 -0.4676966839
1174150000.0 -0.5949793786 -0.0290755907
1184100000.0 -0.4056365896 0.4197871059
1194050000.0 0.0555570298 0.576849018
1204000000.0 0.4715934096 0.3426338098
1213950000.0 0.5824937386 -0.1025276994
1223900000.0 0.3643809919 -0.4822228343
1233850000.0 -0.0360328288 -0.6173155845
1243800000.0 -0.4245821568 -0.464365585
1253750000.0 -0.6274089396 -0.0935677556
1263700000.0 -0.5377702118 0.3306696363
1273650000.0 -0.1803875015 0.5942603495
1283600000.0 0.2650636299 0.5512602016
1293550000.0 0.5671618732 0.229799724
1303500000.0 0.594229718 -0.1968974908
1313450000.0 0.3615601788 -0.538849677
1323400000.0 -0.0205354921 -0.6726768023
1333350000.0 -0.4071396015 -0.5563360789
1343300000.0 -0.6533008741 -0.2261651486
1353250000.0 -0.6453651782 0.1982886967
1363200000.0 -0.3642625505 0.5328911576
1373150000.0 0.0719457131 0.6106591285
1383100000.0 0.4535786393 0.3940212476
1393050000.0 0.6114341812 -0.0009064921
1403000000.0 0.5026560455 -0.395266693
1412950000.0 0.1914035725 -0.6398352324
1422900000.0 -0.1969885597 -0.6555994581
1432850000.0 -0.5193913555 -0.4389326498
1442800000.0 -0.6464403362 -0.0664629027
1452750000.0 -0.5114967566 0.3106533414
1462700000.0 -0.1624849868 0.518448437
1472650000.0 0.2360832693 0.4533677083
1482600000.0 0.4929720272 0.1540044368
1492550000.0 0.4982793127 -0.2256705498
1502500000.0 0.2724297384 -0.5108477511
1512450000.0 -0.069731574 -0.5889296576
1522400000.0 -0.3782070453 -0.4369478585
1532350000.0 -0.5168814233 -0.1243131363
1542300000.0 -0.4173844578 0.2050252353
1552250000.0 -0.1229677083 0.3854581603
1562200000.0 0.2181834121 0.3191687497
1572150000.0 0.4031723185 0.0283414835
1582100000.0 0.352461939 -0.2837639833
1592050000.0 0.1052250611 -0.4804339468
1602000000.0 -0.2075466834 -0.4571499411
1611950000.0 -0.4265337345 -0.2274808317
1621900000.0 -0.4375149147 0.0973670068
1631850000.0 -0.2212434036 0.3557548811
1641800000.0 0.1256994666 0.4015427374
1651750000.0 0.4195435489 0.1929753614
1661700000.0 0.4926488009 -0.1645313575
1671650000.0 0.3061354601 -0.4782094673
1681600000.0 -0.0373886541 -0.5940087827
1691550000.0 -0.3769887307 -0.4668973501
1701500000.0 -0.5692235017 -0.1541770197
1711450000.0 -0.5320194147 0.2201482304
1721400000.0 -0.2622456352 0.5039306145
1731350000.0 0.140460594 0.5586176686
1741300000.0 0.4944203301 0.337696145
1751250000.0 0.6233348801 -0.0614287958
1761200000.0 0.4728010012 -0.4450824973
1771150000.0 0.1289781471 -0.648846733
1781100000.0 -0.2566292237 -0.6125463481
1791050000.0 -0.547479024 -0.3685219993
1801000000.0 -0.6511129145 -0.0032149106
1810950000.0 -0.5260067852 0.3646699103
1820900000.0 -0.1980732908 0.5955525438
1830850000.0 0.2146140765 0.5768124155
1840800000.0 0.5264685169 0.2994312151
1850750000.0 0.5918164306 -0.1048931238
1860700000.0 0.4025356887 -0.4472450375
1870650000.0 0.0680027819 -0.602304208
1880600000.0 -0.2746134074 -0.5444427228
1890550000.0 -0.5174654603 -0.3182849291
1900500000.0 -0.5930697903 -0.004048483
1910450000.0 -0.4784599455 0.2938343787
1920400000.0 -0.2132602271 0.466096422
1930350000.0 0.0937545243 0.4403516638
1940300000.0 0.3065751638 0.2383137078
1950250000.0 0.3448072942 -0.0288541085
1960200000.0 0.2286741065 -0.2379635666
1970150000.0 0.0420703518 -0.3250405792
1980100000.0 -0.1261978611 -0.2954138774
1990050000.0 -0.2215071054 -0.2027284557
2000000000.0 -0.2386291307 -0.1170608685
