!Created with skrf (http://scikit-rf.org).
# GHz S RI R 50.0 
!freq ReS11 ImS11
10000000.0 -0.7977973074 0.5964000379
19950000.0 -0.2905399303 0.9338976194
29900000.0 0.316920713 0.9108335085
39850000.0 0.8027898619 0.5311482984
49800000.0 0.9717961276 -0.0773670252
59750000.0 0.726573914 -0.6805803057
69700000.0 0.1361345856 -1.001249438
79650000.0 -0.5398760133 -0.8492807662
89600000.0 -0.9493280443 -0.2615285288
99550000.0 -0.8391670262 0.473957419
109500000.0 -0.2160859382 0.9363076373
119450000.0 0.5837515057 0.7869254085
129400000.0 1.001925953 0.0489516009
139350000.0 0.6793945027 -0.7417568841
149300000.0 -0.1330363746 -0.9700393171
159250000.0 -0.7964539622 -0.5108122092
169200000.0 -0.9002617573 0.247575493
179150000.0 -0.4589712209 0.8253508676
189100000.0 0.2268891464 0.9347254718
199050000.0 0.785002119 0.5677603
209000000.0 0.9581461317 -0.0553343781
218950000.0 0.7060106296 -0.6209116057
228900000.0 0.1736318963 -0.9030404329
238850000.0 -0.4101616345 -0.8105270348
248800000.0 -0.8149865088 -0.3988453483
258750000.0 -0.9090658715 0.1795848224
268700000.0 -0.637180235 0.6929147348
278650000.0 -0.1128104519 0.9356925829
288600000.0 0.4472685468 0.8081459313
298550000.0 0.8111988315 0.3680437313
308500000.0 0.8317512438 -0.2018714129
318450000.0 0.4980698679 -0.6611351328
328400000.0 -0.0460832083 -0.804091573
338350000.0 -0.5396192787 -0.5591577049
348300000.0 -0.7225616668 -0.0642322762
358250000.0 -0.5181595002 0.3798078876
368200000.0 -0.1036049112 0.5208147038
378150000.0 0.22748868 0.3440491075
388100000.0 0.3017657677 0.0414890365
398050000.0 0.1600286555 -0.160538174
408000000.0 -0.0349713893 -0.1678870416
417950000.0 -0.1268416671 -0.0473171514
427900000.0 -0.0841081031 0.0726255253
437850000.0 0.0259963103 0.1049570227
447800000.0 0.1185170311 0.0414850349
457750000.0 0.1341370177 -0.0655309245
467700000.0 0.0688485742 -0.1483206152
477650000.0 -0.0325016316 -0.1635399463
487600000.0 -0.113897026 -0.1054791902
497550000.0 -0.1370204391 -0.011211983
507500000.0 -0.0987183945 0.0637699394
517450000.0 -0.0272097923 0.095611697
527400000.0 0.035006943 0.0789129483
537350000.0 0.0601164732 0.0365978583
547300000.0 0.0467969027 0.0008878855
557250000.0 0.0161637314 -0.0087850528
567200000.0 -0.0040160634 0.0087176554
577150000.0 0.0048309693 0.0345711534
587100000.0 0.0399349386 0.0388463973
597050000.0 0.0730213033 0.0073303484
607000000.0 0.0754700453 -0.0514789481
616950000.0 0.0338760168 -0.1072053887
626900000.0 -0.043038058 -0.1269203308
636850000.0 -0.1228596298 -0.0926815499
646800000.0 -0.1647411 -0.0122563394
656750000.0 -0.1462497735 0.0824337428
666700000.0 -0.0686998565 0.1466978254
676650000.0 0.0371009715 0.1482025614
686600000.0 0.123612053 0.0821024582
696550000.0 0.1516720899 -0.0277098765
706500000.0 0.1069311021 -0.1288040815
716450000.0 0.0099387566 -0.175144254
726400000.0 -0.0890438431 -0.1453788263
736350000.0 -0.1405104602 -0.0540253138
746300000.0 -0.1111796947 0.0498799246
756250000.0 -0.0134166546 0.1074502988
766200000.0 0.0992168182 0.0814865137
776150000.0 0.1679263326 -0.0179291312
786100000.0 0.1455567862 -0.1384499494
796050000.0 0.036213484 -0.2129932263
806000000.0 -0.1051055505 -0.1847928041
815950000.0 -0.2024372677 -0.0536966482
825900000.0 -0.1864993326 0.1246972126
835850000.0 -0.0496513255 0.2620570354
845800000.0 0.1537323562 0.2802102183
855750000.0 0.3299146845 0.1591025314
865700000.0 0.390761435 -0.0582649988
875650000.0 0.2890006881 -0.2750765936
885600000.0 0.0566455644 -0.3804144359
895550000.0 -0.2025438368 -0.3052482479
905500000.0 -0.3588034993 -0.0770738853
915450000.0 -0.3405188563 0.2065981512
925400000.0 -0.1366095014 0.4191121883
935350000.0 0.1654089018 0.4417818325
945300000.0 0.4106668708 0.2425610523
955250000.0 0.4493663134 -0.0935862492
965200000.0 0.2188935847 -0.3801495155
975150000.0 -0.1834055847 -0.4115639025
985100000.0 -0.5002016199 -0.1013379743
995050000.0 -0.4547919786 0.3796031384
1005000000.0 -0.0143252597 0.6616558046
1014950000.0 0.5228228663 0.4693713323
1024900000.0 0.722065414 -0.1245329157
1034850000.0 0.3473589615 -0.6918146748
1044800000.0 -0.3661545456 -0.7390777302
1054750000.0 -0.8413955267 -0.2004990094
1064700000.0 -0.7338682653 0.4756641132
1074650000.0 -0.1882503399 0.8252378053
1084600000.0 0.3707249939 0.7020926892
1094550000.0 0.7444724305 0.2394180338
1104500000.0 0.6668033479 -0.3626865626
1114450000.0 0.1862524591 -0.7204768611
1124400000.0 -0.3787937821 -0.6226733951
1134350000.0 -0.6824325954 -0.1832694551
1144300000.0 -0.6072571903 0.3063941689
1154250000.0 -0.2484561569 0.6029145125
1164200000.0 0.199012518 0.5936464514
1174150000.0 0.5279458132 0.3000221271
1184100000.0 0.5794128816 -0.139586704
1194050000.0 0.3243584772 -0.49435571
1204000000.0 -0.0873400046 -0.5852901887
1213950000.0 -0.4419542027 -0.4008802603
1223900000.0 -0.6033706461 -0.0571861408
1233850000.0 -0.5344227692 0.3035510393
1243800000.0 -0.2702491587 0.5559001395
1253750000.0 0.0988710816 0.6052057668
1263700000.0 0.4322955611 0.4180538243
1273650000.0 0.5865163109 0.0625908089
1283600000.0 0.4976133981 -0.3100897724
1293550000.0 0.2194792004 -0.5538710308
1303500000.0 -0.1309940213 -0.6005650296
1313450000.0 -0.4399923332 -0.4576638315
1323400000.0 -0.6248718937 -0.178086804
1333350000.0 -0.6341711671 0.1605727985
1343300000.0 -0.4501099801 0.459401885
1353250000.0 -0.1161245081 0.6057051528
1363200000.0 0.2526053655 0.5296209182
1373150000.0 0.5114562822 0.2542772307
1383100000.0 0.5689332875 -0.1085420448
1393050000.0 0.426443593 -0.4286532932
1403000000.0 0.1496951019 -0.613904714
1412950000.0 -0.1722924128 -0.623892077
1422900000.0 -0.4473922106 -0.4614260346
1432850000.0 -0.5915510835 -0.168140628
1442800000.0 -0.5461403392 0.1665554185
1452750000.0 -0.3117341177 0.4223242599
1462700000.0 0.0290680523 0.4978177613
1472650000.0 0.3451685752 0.369045347
1482600000.0 0.525097596 0.0964707293
1492550000.0 0.5206181918 -0.2141388409
1502500000.0 0.3470769767 -0.4579233482
1512450000.0 0.0700498043 -0.5546225282
1522400000.0 -0.2131346743 -0.4690475288
1532350000.0 -0.3940778518 -0.2259488064
1542300000.0 -0.3953334204 0.0840879476
1552250000.0 -0.2077101748 0.3335017873
1562200000.0 0.0839191816 0.4147026293
1572150000.0 0.3541088593 0.3084076393
1582100000.0 0.4984686358 0.0671558399
1592050000.0 0.4654147587 -0.2074694706
1602000000.0 0.2696682538 -0.4079810617
1611950000.0 -0.0174453654 -0.4529705842
1621900000.0 -0.2868563646 -0.31283099
1631850000.0 -0.4248978024 -0.0286267656
1641800000.0 -0.3622159807 0.2874422951
1651750000.0 -0.1219412942 0.499641577
1661700000.0 0.1921336759 0.5236490636
1671650000.0 0.4562840155 0.3615730714
1681600000.0 0.5805732425 0.0795216482
1691550000.0 0.5277350253 -0.2289368466
1701500000.0 0.3103139435 -0.4645415487
1711450000.0 -0.0125901236 -0.5477589453
1721400000.0 -0.3412235176 -0.4323870735
1731350000.0 -0.5516413991 -0.1441957911
1741300000.0 -0.5589353225 0.2124961506
1751250000.0 -0.3664555979 0.5024123186
1761200000.0 -0.0566868106 0.6327423733
1771150000.0 0.2643153259 0.5803559588
1781100000.0 0.5090106582 0.3758818768
1791050000.0 0.6185268558 0.075941082
1801000000.0 0.5593157424 -0.2448584763
1810950000.0 0.3344938721 -0.4957670837
1820900000.0 -0.0004538264 -0.5855659244
1830850000.0 -0.3325754631 -0.469938788
1840800000.0 -0.5390514441 -0.1933148305
1850750000.0 -0.5603126984 0.1343483131
1860700000.0 -0.4169041041 0.4056910312
1870650000.0 -0.1723006639 0.5573217304
1880600000.0 0.100804726 0.5662210185
1890550000.0 0.3338259218 0.4403973712
1900500000.0 0.4664811638 0.212611424
1910450000.0 0.4563643057 -0.0501037579
1920400000.0 0.3041742576 -0.2598505802
1930350000.0 0.0719320269 -0.3441761792
1940300000.0 -0.1496173589 -0.2905284206
1950250000.0 -0.2874757556 -0.1456277477
1960200000.0 -0.3212263039 0.0199049569
1970150000.0 -0.2677777898 0.1471008256
1980100000.0 -0.1706382069 0.192763173
1990050000.0 -0.1272387741 0.1625603169
2000000000.0 -0.1381209759 0.1286282293
