!Created with skrf (http://scikit-rf.org).
# GHz S RI R 50.0 
!freq ReS11 ImS11
10000000.0 -0.7418341132 0.6706036285
19950000.0 -0.1117604831 0.9801385087
29900000.0 0.5665407767 0.798575412
39850000.0 0.9588969905 0.2032084943
49800000.0 0.8443209242 -0.5132704817
59750000.0 0.2570844758 -0.9641134324
69700000.0 -0.4913540837 -0.8724471481
79650000.0 -0.958599464 -0.2620517163
89600000.0 -0.8323510335 0.5144611726
99550000.0 -0.1486813922 0.9529835913
109500000.0 0.6592046204 0.6988104887
119450000.0 0.9608361102 -0.1336009428
129400000.0 0.4334046617 -0.880726215
139350000.0 -0.4885349492 -0.8494352546
149300000.0 -0.9599600632 -0.0749406612
159250000.0 -0.6037209072 0.7268338449
169200000.0 0.2235127422 0.9120103338
179150000.0 0.8607139373 0.3935684689
189100000.0 0.8697749742 -0.4019432671
199050000.0 0.2982857751 -0.9149840968
209000000.0 -0.4380418157 -0.8480426969
218950000.0 -0.8904403216 -0.2994421636
228900000.0 -0.8404542221 0.3893059495
238850000.0 -0.3452332878 0.8532274861
248800000.0 0.3337515204 0.8449867427
258750000.0 0.8296372111 0.4238211568
268700000.0 0.9046982514 -0.2435523279
278650000.0 0.5080955963 -0.7802130886
288600000.0 -0.1400295437 -0.9026741929
298550000.0 -0.6907312166 -0.5568758017
308500000.0 -0.8562588954 0.0638637551
318450000.0 -0.5497518131 0.6209239442
328400000.0 0.0531827942 0.7971589025
338350000.0 0.5822657595 0.4864256852
348300000.0 0.6943364882 -0.0886835682
358250000.0 0.3539598978 -0.5082979674
368200000.0 -0.1259100142 -0.5053745223
378150000.0 -0.3747382723 -0.1788269263
388100000.0 -0.2807066718 0.1464925665
398050000.0 -0.0247790655 0.2332394599
408000000.0 0.1421349118 0.1002451368
417950000.0 0.1174486709 -0.0673737028
427900000.0 -0.0162117602 -0.1207198766
437850000.0 -0.1175398116 -0.0423503739
447800000.0 -0.1103733707 0.0792147044
457750000.0 -0.0095729511 0.1457047348
467700000.0 0.1016558873 0.1112748899
477650000.0 0.1474897461 0.0076840088
487600000.0 0.1061869064 -0.0900155699
497550000.0 0.0187686804 -0.1267928354
507500000.0 -0.0629780305 -0.095308725
517450000.0 -0.0888497428 -0.029085165
527400000.0 -0.0654260474 0.0212101516
537350000.0 -0.0277009432 0.030723666
547300000.0 -0.0115122866 0.0138552674
557250000.0 -0.0232252487 0.0028726046
567200000.0 -0.0409200591 0.0193153222
577150000.0 -0.0316820886 0.055278599
587100000.0 0.0186304517 0.0775512973
597050000.0 0.0840949494 0.0532832767
607000000.0 0.1196656327 -0.0258235036
616950000.0 0.0892284807 -0.1200386889
626900000.0 -0.0032330975 -0.171948682
636850000.0 -0.1158998932 -0.1480473918
646800000.0 -0.1893676203 -0.0488672459
656750000.0 -0.1744486803 0.0784905772
666700000.0 -0.0746110576 0.1660188721
676650000.0 0.0608710163 0.1606347251
686600000.0 0.1589817429 0.0647690729
696550000.0 0.1644423427 -0.0705652498
706500000.0 0.0784293097 -0.1681217461
716450000.0 -0.0476957953 -0.1747789628
726400000.0 -0.1350803641 -0.0948568257
736350000.0 -0.1310038107 0.0180619223
746300000.0 -0.0436516057 0.085338831
756250000.0 0.0607142309 0.0607095789
766200000.0 0.1037292628 -0.0393218784
776150000.0 0.047604964 -0.1383708153
786100000.0 -0.0734081862 -0.1542526552
796050000.0 -0.1715325613 -0.0597525919
806000000.0 -0.1581270796 0.0941898029
815950000.0 -0.0211915813 0.1985428156
825900000.0 0.1659269497 0.1637037005
835850000.0 0.2803228386 -0.0061366274
845800000.0 0.2438503341 -0.2214871009
855750000.0 0.0533548451 -0.3572598102
865700000.0 -0.1986514683 -0.3217903522
875650000.0 -0.3611508214 -0.1096287483
885600000.0 -0.3269447155 0.1736992017
895550000.0 -0.092194213 0.3612728997
905500000.0 0.2189804203 0.3267875956
915450000.0 0.4196861575 0.0737887335
925400000.0 0.3759579102 -0.2544021045
935350000.0 0.1021270074 -0.4536733368
945300000.0 -0.2427668835 -0.3852224537
955250000.0 -0.4258805675 -0.068797569
965200000.0 -0.2920172068 0.2967674917
975150000.0 0.1069433064 0.4157103907
985100000.0 0.4595157064 0.1369881961
995050000.0 0.4177618596 -0.3505259604
1005000000.0 -0.0575507637 -0.5986515597
1014950000.0 -0.5694582085 -0.3038422629
1024900000.0 -0.6037753679 0.3463685209
1034850000.0 -0.0260099123 0.7518670335
1044800000.0 0.6570710478 0.4707507137
1054750000.0 0.8052229407 -0.2575356981
1064700000.0 0.3091095574 -0.7889411974
1074650000.0 -0.3843399018 -0.7046682748
1084600000.0 -0.6565705469 -0.2422781155
1094550000.0 -0.6829044829 0.3753758597
1104500000.0 -0.1136929754 0.7574459498
1114450000.0 0.5128899641 0.5378796662
1124400000.0 0.7163889588 -0.0563659108
1134350000.0 0.4094815866 -0.5552583847
1144300000.0 -0.1319170008 -0.645780746
1154250000.0 -0.5378039349 -0.3162671202
1164200000.0 -0.5608608817 0.1855028091
1174150000.0 -0.2052305492 0.5226228464
1184100000.0 0.268565273 0.4726783739
1194050000.0 0.5305988178 0.0945796812
1204000000.0 0.4341592893 -0.3347095436
1213950000.0 0.0698498307 -0.5556108041
1223900000.0 -0.3325078275 -0.463242441
1233850000.0 -0.5618154824 -0.1225243872
1243800000.0 -0.4946523691 0.283606184
1253750000.0 -0.1681186782 0.5392475937
1263700000.0 0.2470942063 0.5024643214
1273650000.0 0.5289434371 0.1993364161
1283600000.0 0.5434504306 -0.2075435864
1293550000.0 0.2989366957 -0.5242001184
1303500000.0 -0.0834021161 -0.6165596393
1313450000.0 -0.4412102378 -0.4534374717
1323400000.0 -0.6224266049 -0.0992015876
1333350000.0 -0.5406904765 0.295781482
1343300000.0 -0.2188030589 0.553610494
1353250000.0 0.1963957843 0.5446309306
1363200000.0 0.5092228295 0.2731273062
1373150000.0 0.578154414 -0.1265810672
1383100000.0 0.390729247 -0.4739591671
1393050000.0 0.0362622502 -0.6312079799
1403000000.0 -0.3342110029 -0.5423800256
1412950000.0 -0.575322716 -0.2464629645
1422900000.0 -0.5811753563 0.1386392313
1432850000.0 -0.3413255193 0.4446699907
1442800000.0 0.0417863453 0.5277379022
1452750000.0 0.385077499 0.3461261443
1462700000.0 0.5290155186 -0.0052117344
1472650000.0 0.4194333014 -0.355307245
1482600000.0 0.1232903133 -0.5516215171
1492550000.0 -0.2222988372 -0.5162899385
1502500000.0 -0.4638045124 -0.2724610413
1512450000.0 -0.4887209968 0.069842276
1522400000.0 -0.2804742875 0.3434703996
1532350000.0 0.0557834731 0.4051845822
1542300000.0 0.3403623881 0.2243344407
1552250000.0 0.4220999661 -0.0919796343
1562200000.0 0.2724729863 -0.3712141959
1572150000.0 -0.0191784358 -0.4735576894
1582100000.0 -0.2991815785 -0.3541736355
1592050000.0 -0.4269697697 -0.0763522251
1602000000.0 -0.3315831465 0.2204485415
1611950000.0 -0.0525739658 0.374033705
1621900000.0 0.262053524 0.2892333099
1631850000.0 0.4303560503 0.0071301799
1641800000.0 0.3590764427 -0.3132859816
1651750000.0 0.0904368983 -0.5024331024
1661700000.0 -0.2384514624 -0.467642831
1671650000.0 -0.4722205824 -0.223881924
1681600000.0 -0.4959613866 0.122616388
1691550000.0 -0.2834653143 0.4138370821
1701500000.0 0.0800346497 0.4980016631
1711450000.0 0.4150274335 0.3184598192
1721400000.0 0.5521896998 -0.0390464014
1731350000.0 0.4273700528 -0.3965457743
1741300000.0 0.109828308 -0.5932665606
1751250000.0 -0.2574956321 -0.555636689
1761200000.0 -0.5294707293 -0.3065951365
1771150000.0 -0.6008333891 0.0581966534
1781100000.0 -0.4369275096 0.3990906415
1791050000.0 -0.0918618487 0.5744166476
1801000000.0 0.2947313403 0.4947959128
1810950000.0 0.5448293889 0.1874130294
1820900000.0 0.5463545885 -0.2023105044
1830850000.0 0.3131523533 -0.5013077099
1840800000.0 -0.0410391058 -0.5972768649
1850750000.0 -0.3742140729 -0.4702649122
1860700000.0 -0.5684378142 -0.1794113443
1870650000.0 -0.5559201977 0.1674785909
1880600000.0 -0.3402581361 0.4376219299
1890550000.0 -0.0056372019 0.5203768157
1900500000.0 0.3033639467 0.3799494013
1910450000.0 0.4512244573 0.087089211
1920400000.0 0.3904658741 -0.2170935942
1930350000.0 0.1728159533 -0.4086712964
1940300000.0 -0.0933591558 -0.4318447778
1950250000.0 -0.3049195951 -0.3055683737
1960200000.0 -0.3916395979 -0.098094434
1970150000.0 -0.3424706699 0.099173932
1980100000.0 -0.2022524626 0.2076248093
1990050000.0 -0.0540246271 0.2037032259
2000000000.0 0.0256840716 0.1270178689
