!Created with skrf (http://scikit-rf.org).
# GHz S RI R 50.0 
!freq ReS11 ImS11
10000000.0 -0.7455121998 0.5641505743
19950000.0 -0.2720889006 0.8900475875
29900000.0 0.3052267098 0.8759853128
39850000.0 0.7731248488 0.5154466119
49800000.0 0.9362481474 -0.0705384001
59750000.0 0.6990853008 -0.6518830456
69700000.0 0.1329637528 -0.9611746812
79650000.0 -0.5142220155 -0.8218698386
89600000.0 -0.9169055278 -0.2666272928
99550000.0 -0.8347500379 0.4450448915
109500000.0 -0.2539602565 0.9198863376
119450000.0 0.528234385 0.818993084
129400000.0 0.9830690425 0.1293972359
139350000.0 0.7319984913 -0.6691523877
149300000.0 -0.0423606136 -0.9651100302
159250000.0 -0.7348410361 -0.5718445968
169200000.0 -0.8970432598 0.1650848168
179150000.0 -0.5075553935 0.7583627643
189100000.0 0.1443122541 0.9053625901
199050000.0 0.6982185212 0.5867800468
209000000.0 0.9014597115 9.24455e-05
218950000.0 0.6935825172 -0.558877033
228900000.0 0.1958307843 -0.8574019767
238850000.0 -0.3693949735 -0.7881833013
248800000.0 -0.7581601844 -0.3963064498
258750000.0 -0.8613778376 0.1545566382
268700000.0 -0.6049693953 0.6473245544
278650000.0 -0.1092997351 0.8824641362
288600000.0 0.4229765076 0.7662283686
298550000.0 0.7732036198 0.3456225646
308500000.0 0.7933380331 -0.2052370722
318450000.0 0.4663365257 -0.6487324199
328400000.0 -0.0635532853 -0.7787359126
338350000.0 -0.535152342 -0.5299219685
348300000.0 -0.7012362323 -0.0450622983
358250000.0 -0.4915977713 0.3857314748
368200000.0 -0.0824080116 0.5191294902
378150000.0 0.2434896593 0.3398525038
388100000.0 0.3176078075 0.0377357997
398050000.0 0.1750754996 -0.166825243
408000000.0 -0.0203363914 -0.183009395
417950000.0 -0.1237851237 -0.0673219853
427900000.0 -0.0976208454 0.0568219437
437850000.0 0.0021146553 0.1003086662
447800000.0 0.0917688035 0.0508530007
457750000.0 0.1104651233 -0.0453331989
467700000.0 0.0570225857 -0.1227773701
477650000.0 -0.029888542 -0.1391358259
487600000.0 -0.1004554191 -0.0925088043
497550000.0 -0.1241646744 -0.0104011378
507500000.0 -0.0866473555 0.0576298053
517450000.0 -0.0228052748 0.0857727344
527400000.0 0.0328103866 0.0685866754
537350000.0 0.0546691238 0.0258677697
547300000.0 0.0390692909 -0.0097934347
557250000.0 0.0071502875 -0.0182978703
567200000.0 -0.0137567008 0.0011568231
577150000.0 -0.0051586475 0.0276669534
587100000.0 0.0281275682 0.0327154169
597050000.0 0.0616475077 0.0032513576
607000000.0 0.0672739431 -0.0529369443
616950000.0 0.0288887032 -0.1072088325
626900000.0 -0.0416090617 -0.1253267992
636850000.0 -0.1131885351 -0.0909474187
646800000.0 -0.1491941787 -0.0126476869
656750000.0 -0.1273390719 0.0773712013
666700000.0 -0.0510396784 0.1378067992
676650000.0 0.0503407708 0.1380831996
686600000.0 0.1334745332 0.0722481544
696550000.0 0.1589772005 -0.0358851461
706500000.0 0.1119904986 -0.1368958041
716450000.0 0.0116883947 -0.1836568625
726400000.0 -0.0937023794 -0.1527656175
736350000.0 -0.1490840273 -0.0564642237
746300000.0 -0.1221093116 0.0555785217
756250000.0 -0.0218096612 0.1225199944
766200000.0 0.1002747364 0.1057299497
776150000.0 0.1789862988 0.0086033318
786100000.0 0.1686715113 -0.1165910911
796050000.0 0.0677991153 -0.2012692825
806000000.0 -0.0746637944 -0.1898237588
815950000.0 -0.1806004748 -0.0726718158
825900000.0 -0.183570814 0.0975803467
835850000.0 -0.0695538871 0.2360004213
845800000.0 0.1139165765 0.2686300573
855750000.0 0.2825247206 0.1704249032
865700000.0 0.3526369835 -0.0245497796
875650000.0 0.2755535127 -0.2306650073
885600000.0 0.0690001287 -0.3434120738
895550000.0 -0.1769235711 -0.2882426142
905500000.0 -0.3360794601 -0.0722245361
915450000.0 -0.3131891237 0.2058972115
925400000.0 -0.1076404734 0.4038957978
935350000.0 0.1827787917 0.4097720594
945300000.0 0.4050431983 0.201982057
955250000.0 0.4184256097 -0.1275364708
965200000.0 0.1687724644 -0.3927808975
975150000.0 -0.2347767194 -0.3884238786
985100000.0 -0.5202081782 -0.0452295094
995050000.0 -0.4245627493 0.433304487
1005000000.0 0.0478208756 0.6687717627
1014950000.0 0.562439806 0.4218937299
1024900000.0 0.698752918 -0.1804253649
1034850000.0 0.2916263338 -0.6883625496
1044800000.0 -0.3678397922 -0.6839715704
1054750000.0 -0.7789965323 -0.1835472087
1064700000.0 -0.6931443625 0.4270604677
1074650000.0 -0.2241617315 0.77235722
1084600000.0 0.329860697 0.7095560495
1094550000.0 0.6942850788 0.2794134049
1104500000.0 0.6573918801 -0.2872935933
1114450000.0 0.2386114731 -0.6606303166
1124400000.0 -0.2952842349 -0.6280818621
1134350000.0 -0.6307995469 -0.255854909
1144300000.0 -0.6272798417 0.2106431111
1154250000.0 -0.3386035741 0.5424865747
1164200000.0 0.0829821922 0.6090442449
1174150000.0 0.4459470832 0.3857629503
1184100000.0 0.5671211422 -0.0261253999
1194050000.0 0.3814288298 -0.4045385268
1204000000.0 0.0087802758 -0.5564062015
1213950000.0 -0.3537924643 -0.4400758415
1223900000.0 -0.5582094149 -0.1423268466
1233850000.0 -0.5486443667 0.2045679756
1243800000.0 -0.3399864689 0.4769172482
1253750000.0 -0.0056055662 0.5733705455
1263700000.0 0.3281723525 0.4441050309
1273650000.0 0.5180900258 0.1327235371
1283600000.0 0.48357601 -0.2268747188
1293550000.0 0.2539017736 -0.4869769357
1303500000.0 -0.0646154442 -0.566169044
1313450000.0 -0.3579978755 -0.4647779705
1323400000.0 -0.5491536544 -0.2300010996
1333350000.0 -0.5929014682 0.0728622836
1343300000.0 -0.4647860858 0.3639096389
1353250000.0 -0.1801914295 0.5396472716
1363200000.0 0.1681211287 0.5152628159
1373150000.0 0.4413169057 0.2867458614
1383100000.0 0.5327606626 -0.0498611642
1393050000.0 0.426625374 -0.3657440036
1403000000.0 0.1819169352 -0.5619057257
1412950000.0 -0.111799417 -0.5935284108
1422900000.0 -0.3693947443 -0.4683542348
1432850000.0 -0.5238541028 -0.2212738236
1442800000.0 -0.5231078933 0.0864846175
1452750000.0 -0.3429742181 0.3544911768
1462700000.0 -0.0333124208 0.4721168849
1472650000.0 0.2835118644 0.3906144418
1482600000.0 0.4887949766 0.150282756
1492550000.0 0.519095339 -0.150129591
1502500000.0 0.3806318756 -0.4035871897
1512450000.0 0.1293256184 -0.5296895547
1522400000.0 -0.1468434385 -0.4887300196
1532350000.0 -0.3512248073 -0.2892873466
1542300000.0 -0.4013567354 0.0027375465
1552250000.0 -0.2660983745 0.2729198502
1562200000.0 0.0012233944 0.404781002
1572150000.0 0.2833466771 0.3501719111
1582100000.0 0.4651521318 0.1439086457
1592050000.0 0.4853487984 -0.1222139316
1602000000.0 0.340900378 -0.3465787864
1611950000.0 0.0830048947 -0.4448565783
1621900000.0 -0.1943519196 -0.3675799447
1631850000.0 -0.3788127835 -0.1292901154
1641800000.0 -0.3820850148 0.1770906442
1651750000.0 -0.1997929377 0.4218732953
1661700000.0 0.0877328141 0.5044868956
1671650000.0 0.3618022223 0.4025404816
1681600000.0 0.5255139892 0.1651855547
1691550000.0 0.527747936 -0.1278257063
1701500000.0 0.3662061333 -0.3766193445
1711450000.0 0.085007453 -0.498202083
1721400000.0 -0.2280204195 -0.4379365369
1731350000.0 -0.4585873786 -0.2037972859
1741300000.0 -0.5148033192 0.1219450197
1751250000.0 -0.3794348562 0.4145184412
1761200000.0 -0.1138091398 0.5750658628
1771150000.0 0.1850866015 0.5662476869
1781100000.0 0.4305636524 0.4052977957
1791050000.0 0.557228284 0.1395151974
1801000000.0 0.52516609 -0.159673931
1810950000.0 0.3314663944 -0.3985988617
1820900000.0 0.0584531209 -0.4512259106
1830850000.0 -0.203950619 -0.4475784873
1840800000.0 -0.4450187488 -0.2346986219
1850750000.0 -0.5127197618 0.0656215487
1860700000.0 -0.4132527766 0.335079794
1870650000.0 -0.2033617336 0.5009972999
1880600000.0 0.0453407213 0.5327697564
1890550000.0 0.2635661628 0.4341739113
1900500000.0 0.3942698628 0.2384282112
1910450000.0 0.4011654282 0.0048953409
1920400000.0 0.2846300946 -0.192573845
1930350000.0 0.0874810336 -0.2896827371
1940300000.0 -0.1145463057 -0.2621153377
1950250000.0 -0.2508796898 -0.142338595
1960200000.0 -0.2902948078 0.0059670769
1970150000.0 -0.2461973533 0.1216027799
1980100000.0 -0.1635150757 0.1655391455
1990050000.0 -0.1019544145 0.1349034743
2000000000.0 -0.1182305942 0.0731657547
