!Created with skrf (http://scikit-rf.org).
# GHz S RI R 50.0 
!freq ReS11 ImS11
10000000.0 -0.7537554294 0.6811003582
19950000.0 -0.1106181773 0.9867124862
29900000.0 0.5714122773 0.7921369936
39850000.0 0.9572590753 0.1867079271
49800000.0 0.8332247378 -0.5327928731
59750000.0 0.236826608 -0.9808732415
69700000.0 -0.5170655163 -0.8798397988
79650000.0 -0.9792854679 -0.258606355
89600000.0 -0.8426555033 0.5175807295
99550000.0 -0.1616814849 0.9506307956
109500000.0 0.6379049422 0.7123432761
119450000.0 0.9676697609 -0.091792659
129400000.0 0.5006709004 -0.8611418806
139350000.0 -0.4117927931 -0.9126909972
149300000.0 -0.9590267061 -0.192453952
159250000.0 -0.6931198059 0.6452409375
169200000.0 0.1141465204 0.9276752456
179150000.0 0.817136377 0.4779598841
189100000.0 0.9112322416 -0.3321192201
199050000.0 0.3690855098 -0.9096301591
209000000.0 -0.3953653364 -0.8875355532
218950000.0 -0.884049792 -0.3394415724
228900000.0 -0.8454296747 0.3719051585
238850000.0 -0.3327808684 0.8509764186
248800000.0 0.3526310232 0.6793369532
258750000.0 0.848781646 0.3950119424
268700000.0 0.897969539 -0.2963452519
278650000.0 0.4580426882 -0.816044313
288600000.0 -0.2060491153 -0.8834313129
298550000.0 -0.7235428272 -0.4854284303
308500000.0 -0.8250015432 0.1522412424
318450000.0 -0.4537509941 0.6768862818
328400000.0 0.1765125009 0.7768126056
338350000.0 0.6650378959 0.3849599386
348300000.0 0.6855562219 -0.2146984822
358250000.0 0.2691483837 -0.5809733254
368200000.0 -0.2247983788 -0.4971066499
378150000.0 -0.4399011439 -0.1139685493
388100000.0 -0.2941921537 0.2337967909
398050000.0 0.0164203559 0.3146963344
408000000.0 0.2219444658 0.1488617884
417950000.0 0.2049804128 -0.0695071768
427900000.0 0.0475494377 -0.1670696461
437850000.0 -0.0959177231 -0.1090172919
447800000.0 -0.1295263018 0.019211033
457750000.0 -0.0589828849 0.1099644152
467700000.0 0.039816572 0.1098522415
477650000.0 0.090136904 0.0462473599
487600000.0 0.0703356251 -0.0201615359
497550000.0 0.0241039251 -0.0149082331
507500000.0 -0.0114612232 -0.0571892479
517450000.0 -0.0268727697 -0.0174914245
527400000.0 -0.011810964 -0.0044937433
537350000.0 -0.0039838558 -0.019042222
547300000.0 -0.0267306323 -0.0415087501
557250000.0 -0.0737710289 -0.0321163847
567200000.0 -0.1041895173 0.0190877438
577150000.0 -0.0870971001 0.0863336863
587100000.0 -0.0116170058 0.1273621683
597050000.0 0.0826406259 0.1099105153
607000000.0 0.1408936892 0.0194810781
616950000.0 0.1254563562 -0.0992327533
626900000.0 0.0320104864 -0.1815541738
636850000.0 -0.0967400142 -0.1785289517
646800000.0 -0.1937419261 -0.0888136063
656750000.0 -0.2018408709 0.0422357969
666700000.0 -0.1181325057 0.1465475903
676650000.0 0.011492746 0.1619250204
686600000.0 0.1139606953 0.0832021001
696550000.0 0.1345648424 -0.0410491803
706500000.0 0.0665854912 -0.1352681804
716450000.0 -0.0406128317 -0.1458295973
726400000.0 -0.1138758002 -0.0782079159
736350000.0 -0.1011548205 0.0150167707
746300000.0 -0.0179369183 0.0576018161
756250000.0 0.0704818786 0.0115235491
766200000.0 0.0859966208 -0.0950041083
776150000.0 0.0017882553 -0.1834042739
786100000.0 -0.1349055795 -0.1715184754
796050000.0 -0.2285765019 -0.0450776893
806000000.0 -0.1949374523 0.1334548157
815950000.0 -0.0277378494 0.2451505879
825900000.0 0.1935088648 0.2015506075
835850000.0 0.3333355212 0.0060697146
845800000.0 0.2970619168 -0.2470407326
855750000.0 0.0885697503 -0.4134438839
865700000.0 -0.1885512309 -0.3929356951
875650000.0 -0.3885839866 -0.1837011235
885600000.0 -0.391776388 0.1190479418
895550000.0 -0.1826121811 0.3537665985
905500000.0 0.1408781886 0.3824454216
915450000.0 0.3999271217 0.1756582716
925400000.0 0.4404533183 -0.1578326391
935350000.0 0.2306966869 -0.4223370151
945300000.0 -0.110826782 -0.4546240304
955250000.0 -0.3696281505 -0.2232721478
965200000.0 -0.3661275342 0.1358929575
975150000.0 -0.0709771007 0.3671392227
985100000.0 0.3102722262 0.2605114823
995050000.0 0.4386080787 -0.1458389099
1005000000.0 0.1366604747 -0.4985401251
1014950000.0 -0.3688545529 -0.4201138039
1024900000.0 -0.6003067152 0.0993942134
1034850000.0 -0.2550624487 0.6298984513
1044800000.0 0.4322998846 0.6293332706
1054750000.0 0.8294050648 0.0261333512
1064700000.0 0.5523610581 -0.6419595901
1074650000.0 -0.088891841 -0.8265100289
1084600000.0 -0.6760465685 -0.4783536882
1094550000.0 -0.7825445266 0.1968106849
1104500000.0 -0.3348624319 0.7166964899
1114450000.0 0.3459230348 0.6843407681
1124400000.0 0.7148581442 0.1432601305
1134350000.0 0.5215844717 -0.4354725592
1144300000.0 -0.0068698719 -0.6276496122
1154250000.0 -0.456642757 -0.3603965695
1164200000.0 -0.5299175165 0.128283145
1174150000.0 -0.2044845817 0.4714595172
1184100000.0 0.2494506368 0.4259871749
1194050000.0 0.4843023813 0.0541021156
1204000000.0 0.3530032251 -0.3435174265
1213950000.0 -0.0168086948 -0.5124234726
1223900000.0 -0.3875455341 -0.3703871717
1233850000.0 -0.5550514384 -0.014159969
1243800000.0 -0.4292312205 0.3656040658
1253750000.0 -0.0722663331 0.5593785331
1263700000.0 0.3245475971 0.4570770013
1273650000.0 0.5506143824 0.1155668282
1283600000.0 0.4998110741 -0.2866649869
1293550000.0 0.2118765473 -0.5632739201
1303500000.0 -0.1810773498 -0.6013792897
1313450000.0 -0.5150476846 -0.3918950628
1323400000.0 -0.6519643087 -0.0141003061
1333350000.0 -0.5204043782 0.3738117497
1343300000.0 -0.1677911661 0.5963443763
1353250000.0 0.2508047454 0.5410404681
1363200000.0 0.5400998354 0.2334683499
1373150000.0 0.5752161934 -0.1792801512
1383100000.0 0.3568501499 -0.5203267549
1393050000.0 -0.0162896042 -0.6547967585
1403000000.0 -0.3922461065 -0.5391331698
1412950000.0 -0.622597336 -0.2204821602
1422900000.0 -0.6083144493 0.1720002638
1432850000.0 -0.3494694404 0.4700367066
1442800000.0 0.0409577215 0.5425634461
1452750000.0 0.3850349552 0.3603197183
1462700000.0 0.5385624988 0.0120795815
1472650000.0 0.4442719424 -0.3498745377
1482600000.0 0.1517686361 -0.5712415544
1492550000.0 -0.2075160097 -0.5630733451
1502500000.0 -0.4762287626 -0.3321249763
1512450000.0 -0.5341983718 0.0157255242
1522400000.0 -0.3526326374 0.3210273729
1532350000.0 -0.0204448864 0.4328544778
1542300000.0 0.2945504495 0.2961517323
1552250000.0 0.4354668209 -0.0088883489
1562200000.0 0.3407611428 -0.3208837953
1572150000.0 0.0734197312 -0.4823079771
1582100000.0 -0.225859474 -0.4206844404
1592050000.0 -0.407786555 -0.1729768822
1602000000.0 -0.3761101338 0.1343863431
1611950000.0 -0.1428305596 0.33567874
1621900000.0 0.1711548053 0.3138652972
1631850000.0 0.3856044279 0.0797919993
1641800000.0 0.3765335122 -0.2339419497
1651750000.0 0.1500876186 -0.4474208607
1661700000.0 -0.1668175413 -0.4499406254
1671650000.0 -0.4078247975 -0.2406864908
1681600000.0 -0.4423391973 0.0749948039
1691550000.0 -0.2802207407 0.307520923
1701500000.0 0.0255630056 0.4579449177
1711450000.0 0.3644108055 0.3282468793
1721400000.0 0.5215684347 0.0016659534
1731350000.0 0.4207396341 -0.3497282075
1741300000.0 0.120037597 -0.5532617704
1751250000.0 -0.2347246617 -0.5249263723
1761200000.0 -0.4964241898 -0.2852063103
1771150000.0 -0.5619909922 0.06992826
1781100000.0 -0.4013317655 0.399158056
1791050000.0 -0.0682748301 0.5632048169
1801000000.0 0.3005970268 0.4773622632
1810950000.0 0.5344764401 0.1708532858
1820900000.0 0.5234354287 -0.2098563389
1830850000.0 0.283061325 -0.4895193906
1840800000.0 -0.0696378952 -0.5602436937
1850750000.0 -0.3877500623 -0.412769408
1860700000.0 -0.5576192508 -0.1165306878
1870650000.0 -0.5212997309 0.2149721079
1880600000.0 -0.2917542307 0.4570001088
1890550000.0 0.0378318961 0.5093560882
1900500000.0 0.3219484947 0.3515643224
1910450000.0 0.4373492557 0.0610612189
1920400000.0 0.3495599568 -0.2268648108
1930350000.0 0.1226120376 -0.3924247077
1940300000.0 -0.1344898751 -0.3915115646
1950250000.0 -0.3225379848 -0.2497130734
1960200000.0 -0.3840276297 -0.0435977085
1970150000.0 -0.3173536595 0.1368623751
1980100000.0 -0.1767958477 0.2243836813
1990050000.0 -0.0427761487 0.2021838959
2000000000.0 0.0241722777 0.1252803425
