!Created with skrf (http://scikit-rf.org).
# GHz S RI R 50.0 
!freq ReS11 ImS11
10000000.0 -0.8927801001 0.4477903287
19950000.0 -0.6024448365 0.7869559342
29900000.0 -0.1928632429 0.9675680409
39850000.0 0.2618327068 0.9502944905
49800000.0 0.6698969891 0.7255841441
59750000.0 0.9363653843 0.3254760129
69700000.0 0.9808833332 -0.1699204236
79650000.0 0.7664873345 -0.6393007134
89600000.0 0.3243633442 -0.9425071394
99550000.0 -0.2337827568 -0.9624949303
109500000.0 -0.7301045589 -0.6556797681
119450000.0 -0.9682954154 -0.0937959627
129400000.0 -0.8133480065 0.5263218504
139350000.0 -0.2916708988 0.9254301047
149300000.0 0.3782034804 0.8979264833
159250000.0 0.8661302224 0.4515368163
169200000.0 0.9567940788 -0.1777587632
179150000.0 0.662724701 -0.7014372628
189100000.0 0.1521082825 -0.9429484117
199050000.0 -0.3762707515 -0.8696897057
209000000.0 -0.7710782069 -0.5450894937
218950000.0 -0.940291442 -0.0856239405
228900000.0 -0.8637892168 0.3874632514
238850000.0 -0.5693089983 0.7593110985
248800000.0 -0.0818263439 0.7561761291
258750000.0 0.2818299046 0.9017009832
268700000.0 0.6641880803 0.6597705422
278650000.0 0.8813754503 0.2744227205
288600000.0 0.8922833795 -0.1627379921
298550000.0 0.6975289423 -0.5511405779
308500000.0 0.3409019547 -0.7982202161
318450000.0 -0.0912358436 -0.8378572533
328400000.0 -0.4818054231 -0.6523095463
338350000.0 -0.710968053 -0.2923810789
348300000.0 -0.7025086194 0.1208851319
358250000.0 -0.4720960369 0.4359274877
368200000.0 -0.1312116262 0.5457397246
378150000.0 0.1703811119 0.4431801178
388100000.0 0.3252911037 0.2156702935
398050000.0 0.3143522096 -0.0182211944
408000000.0 0.187595952 -0.1672232966
417950000.0 0.0292720126 -0.2013110127
427900000.0 -0.0919659156 -0.1424982747
437850000.0 -0.1412476309 -0.0421268379
447800000.0 -0.1226359042 0.0502608626
457750000.0 -0.0620435786 0.1026355877
467700000.0 0.005556881 0.1066590066
477650000.0 0.053152557 0.0740158901
487600000.0 0.0651671218 0.0274354993
497550000.0 0.0276885428 0.0236055485
507500000.0 0.0475210839 -0.0349965669
517450000.0 0.0087651766 -0.0326399184
527400000.0 -0.0091391185 -0.0114811583
537350000.0 -0.0041059579 0.0119424364
547300000.0 0.0210921103 0.0238664119
557250000.0 0.0519594929 0.0104478554
567200000.0 0.0715510991 -0.0249316211
577150000.0 0.0685777676 -0.0729163346
587100000.0 0.0372691865 -0.1192315088
597050000.0 -0.0186300358 -0.1466690729
607000000.0 -0.0862124483 -0.1435804296
616950000.0 -0.1482794663 -0.1056583871
626900000.0 -0.1859762261 -0.0393912232
636850000.0 -0.187569411 0.0406692019
646800000.0 -0.149534638 0.1141634821
656750000.0 -0.0791233545 0.1624710294
666700000.0 0.0077296488 0.1721237221
676650000.0 0.0892805137 0.1397627022
686600000.0 0.1454679841 0.0732580608
696550000.0 0.16208536 -0.0100705618
706500000.0 0.1356054692 -0.0871109499
716450000.0 0.0754189291 -0.1363614576
726400000.0 0.0001264669 -0.1437649349
736350000.0 -0.0640630808 -0.1072221021
746300000.0 -0.0956233159 -0.0380845027
756250000.0 -0.0798207456 0.0402327693
766200000.0 -0.0185188799 0.0987798274
776150000.0 0.0715370792 0.1136532405
786100000.0 0.1608288867 0.0734124969
796050000.0 0.2173480944 -0.0156262831
806000000.0 0.2172760516 -0.1289386017
815950000.0 0.1506287483 -0.2336414081
825900000.0 0.0292325009 -0.294056033
835850000.0 -0.1186301564 -0.2842674877
845800000.0 -0.253108518 -0.1961823307
855750000.0 -0.3339712855 -0.0438103589
865700000.0 -0.3317782456 0.1379354743
875650000.0 -0.2396136516 0.3038199084
885600000.0 -0.0751029351 0.4082549781
895550000.0 0.1246800827 0.4210237094
905500000.0 0.3093146918 0.3331477681
915450000.0 0.4298085942 0.1605840046
925400000.0 0.4477065985 -0.057168058
935350000.0 0.346006662 -0.2625026317
945300000.0 0.1393609732 -0.3900981695
955250000.0 -0.120200827 -0.3816704479
965200000.0 -0.3421011462 -0.2130750344
975150000.0 -0.4219295296 0.0767121527
985100000.0 -0.2900957171 0.3748280764
995050000.0 0.0291868428 0.5276955474
1005000000.0 0.4056852316 0.4245838605
1014950000.0 0.6430054182 0.0602668566
1024900000.0 0.5696821656 -0.414678847
1034850000.0 0.165737585 -0.7439418526
1044800000.0 -0.3795027141 -0.7182132628
1054750000.0 -0.7770050634 -0.3362933955
1064700000.0 -0.8172672951 0.1880138889
1074650000.0 -0.6099589339 0.5849461677
1084600000.0 -0.2038382845 0.8267860215
1094550000.0 0.2727044195 0.7898041889
1104500000.0 0.6316051881 0.4907537845
1114450000.0 0.7524427992 0.0466376112
1124400000.0 0.5938924566 -0.375800562
1134350000.0 0.2291062552 -0.6129570476
1144300000.0 -0.1808057516 -0.587708053
1154250000.0 -0.47335902 -0.3458053101
1164200000.0 -0.5662266993 -0.0112765644
1174150000.0 -0.4715442768 0.2911853932
1184100000.0 -0.2449852968 0.4901839522
1194050000.0 0.0464930617 0.5369233432
1204000000.0 0.3145487896 0.4244846906
1213950000.0 0.4834700181 0.1909800318
1223900000.0 0.5099823498 -0.0934696713
1233850000.0 0.3935795857 -0.3498097756
1243800000.0 0.1744258867 -0.5153618883
1253750000.0 -0.0877943045 -0.5609056839
1263700000.0 -0.3345574842 -0.4893566391
1273650000.0 -0.5220075557 -0.3263592654
1283600000.0 -0.6232608402 -0.1066691283
1293550000.0 -0.62783063 0.133028058
1303500000.0 -0.5363133871 0.3555490318
1313450000.0 -0.3607919567 0.5258610838
1323400000.0 -0.1259646977 0.6138768493
1333350000.0 0.1306263915 0.5994440058
1343300000.0 0.364330091 0.4804972232
1353250000.0 0.531654472 0.2757469162
1363200000.0 0.6035654379 0.0235253214
1373150000.0 0.5720547773 -0.2316390948
1383100000.0 0.4479092889 -0.4481151808
1393050000.0 0.2576971273 -0.5960405698
1403000000.0 0.0327652005 -0.6595148953
1412950000.0 -0.1942084544 -0.63418996
1422900000.0 -0.3930553868 -0.52674832
1432850000.0 -0.5356486505 -0.351063237
1442800000.0 -0.601281535 -0.1315561193
1452750000.0 -0.5772962132 0.1009252147
1462700000.0 -0.4611347788 0.3117467372
1472650000.0 -0.2660169457 0.4622993264
1482600000.0 -0.024078227 0.5204820761
1492550000.0 0.2174303455 0.4737218895
1502500000.0 0.4118134936 0.334133669
1512450000.0 0.5256154799 0.133634015
1522400000.0 0.5440609455 -0.0870293473
1532350000.0 0.4695635411 -0.2873987742
1542300000.0 0.3203664151 -0.43379212
1552250000.0 0.1227250289 -0.5006906404
1562200000.0 -0.0858975636 -0.4745405482
1572150000.0 -0.2653006321 -0.3565246267
1582100000.0 -0.3749720732 -0.1665460216
1592050000.0 -0.3862282014 0.0551003261
1602000000.0 -0.2959452905 0.2572521652
1611950000.0 -0.122184142 0.3918171482
1621900000.0 0.0887424161 0.4294947788
1631850000.0 0.2880071975 0.3678305723
1641800000.0 0.4349834721 0.2248396186
1651750000.0 0.502436433 0.0323995064
1661700000.0 0.4789909233 -0.1722972611
1671650000.0 0.366994403 -0.3513331329
1681600000.0 0.183367088 -0.4688844129
1691550000.0 -0.0413718338 -0.4985691053
1701500000.0 -0.2642035234 -0.4264238665
1711450000.0 -0.4383635276 -0.2620814728
1721400000.0 -0.5266022526 -0.0364510285
1731350000.0 -0.5103418558 0.203470346
1741300000.0 -0.3974633105 0.4114076325
1751250000.0 -0.2148498088 0.5524660497
1761200000.0 0.0027725075 0.6090193678
1771150000.0 0.2211207194 0.5794768447
1781100000.0 0.4100284144 0.4721513502
1791050000.0 0.5460602451 0.3034552324
1801000000.0 0.6098300506 0.0942255362
1810950000.0 0.5896785404 -0.1275861857
1820900000.0 0.4823596762 -0.3275226874
1830850000.0 0.2998511901 -0.4676732917
1840800000.0 0.080149831 -0.5134484293
1850750000.0 -0.1099845843 -0.4692066216
1860700000.0 -0.267813125 -0.4031388114
1870650000.0 -0.4236282043 -0.2735941064
1880600000.0 -0.5102577716 -0.0827924559
1890550000.0 -0.5112049238 0.1178586009
1900500000.0 -0.4391839425 0.2917354008
1910450000.0 -0.3157813585 0.4172409647
1920400000.0 -0.1642087348 0.4826033613
1930350000.0 -0.0085083355 0.4847420573
1940300000.0 0.1274093936 0.4279085134
1950250000.0 0.2225262187 0.3265773178
1960200000.0 0.2626875526 0.2028366763
1970150000.0 0.2460912954 0.0858454716
1980100000.0 0.1866012094 0.0015963468
1990050000.0 0.1109757987 -0.0344731805
2000000000.0 0.0516718008 -0.0228673408
