!Created with skrf (http://scikit-rf.org).
# GHz S RI R 50.0 
!freq ReS11 ImS11
10000000.0 -0.7440764181 0.6733792955
19950000.0 -0.1105014273 0.9817614478
29900000.0 0.5685791831 0.7965869437
39850000.0 0.9585994396 0.1991696784
49800000.0 0.8422820618 -0.5167154691
59750000.0 0.2568636327 -0.9668881897
69700000.0 -0.4884578421 -0.8793971376
79650000.0 -0.9585131541 -0.2794809216
89600000.0 -0.8509701178 0.4890691579
99550000.0 -0.1981291971 0.9442083907
109500000.0 0.6023887696 0.7470063584
119450000.0 0.9688774035 -0.0298257363
129400000.0 0.5517358778 -0.8147781953
139350000.0 -0.3444768104 -0.9245240587
149300000.0 -0.9367864301 -0.2510555612
159250000.0 -0.7323531997 0.6013362316
169200000.0 0.0546721456 0.9364341001
179150000.0 0.7835545367 0.5276374093
189100000.0 0.9180705869 -0.2763630277
199050000.0 0.4041506305 -0.8777517144
209000000.0 -0.3589346418 -0.8892711823
218950000.0 -0.8691487248 -0.3616635983
228900000.0 -0.8556914261 0.3508717201
238850000.0 -0.3566701333 0.8446930199
248800000.0 0.3915425705 0.7814111595
258750000.0 0.8305995652 0.4165413347
268700000.0 0.8938571375 -0.2752942329
278650000.0 0.4611256932 -0.8049120639
288600000.0 -0.2079198457 -0.8817907504
298550000.0 -0.7344308193 -0.4783974271
308500000.0 -0.8284974585 0.1691168616
318450000.0 -0.4414729637 0.6874369772
328400000.0 0.1915125156 0.7664769133
338350000.0 0.6621205769 0.3596533258
348300000.0 0.6602001347 -0.2342105119
358250000.0 0.234987143 -0.5800009794
368200000.0 -0.2486637967 -0.478409213
378150000.0 -0.4445873275 -0.0930365646
388100000.0 -0.2870848367 0.2440909649
398050000.0 0.0221893021 0.3148947031
408000000.0 0.2235484278 0.1470119345
417950000.0 0.2089885392 -0.073336565
427900000.0 0.0541558412 -0.1791881245
437850000.0 -0.0944465833 -0.1309699954
447800000.0 -0.1411734928 -0.0033812048
457750000.0 -0.082887817 0.0988463456
467700000.0 0.0151716449 0.1146978276
477650000.0 0.0782278396 0.0610599575
487600000.0 0.0759284068 -0.0074290982
497550000.0 0.0356625066 -0.0227570127
507500000.0 0.0086791001 -0.0646051564
517450000.0 -0.0139241527 -0.0310183798
527400000.0 -0.0059496142 -0.0211847683
537350000.0 -0.003320275 -0.0374621185
547300000.0 -0.0279220667 -0.0601900174
557250000.0 -0.0826440449 -0.0476683541
567200000.0 -0.1174052234 0.0152315956
577150000.0 -0.0970331314 0.0950623027
587100000.0 -0.0110010691 0.1431396669
597050000.0 0.0973309466 0.1228317141
607000000.0 0.1658405561 0.0218795365
616950000.0 0.1516704515 -0.1097168017
626900000.0 0.0501145284 -0.2001282078
636850000.0 -0.090470614 -0.1980668011
646800000.0 -0.1970114276 -0.1025364883
656750000.0 -0.2094973213 0.0370136583
666700000.0 -0.1229621888 0.1495792457
676650000.0 0.0124720315 0.1718238662
686600000.0 0.1229813468 0.0961369844
696550000.0 0.1503574999 -0.0299837805
706500000.0 0.0855647454 -0.1291373721
716450000.0 -0.0220251235 -0.1469016231
726400000.0 -0.0987157946 -0.0842878779
736350000.0 -0.0925791712 0.006677521
746300000.0 -0.0160550312 0.0523863814
756250000.0 0.0680082844 0.0131591477
766200000.0 0.0837365731 -0.0853333079
776150000.0 0.0040987185 -0.1680484405
786100000.0 -0.1252202721 -0.156412581
796050000.0 -0.2137449005 -0.0349758396
806000000.0 -0.1799294435 0.1359910004
815950000.0 -0.0177380961 0.2437428286
825900000.0 0.1957748499 0.2005544722
835850000.0 0.3303290254 0.0087157971
845800000.0 0.2921737867 -0.2391835078
855750000.0 0.0846464482 -0.4014057306
865700000.0 -0.1889084311 -0.3762110516
875650000.0 -0.3831084572 -0.163073613
885600000.0 -0.3747454306 0.1372596356
895550000.0 -0.1560467028 0.3583350874
905500000.0 0.1636424985 0.363054525
915450000.0 0.3965693521 0.1373096503
925400000.0 0.397545237 -0.1910235446
935350000.0 0.1569777055 -0.4164907784
945300000.0 -0.1780253018 -0.386230368
955250000.0 -0.3724630162 -0.1003130159
965200000.0 -0.2562841476 0.2441293005
975150000.0 0.1110283229 0.3372261704
985100000.0 0.4031580803 0.0641583333
995050000.0 0.3280777821 -0.3566382372
1005000000.0 -0.1269174551 -0.5476715389
1014950000.0 -0.5845974704 -0.225645887
1024900000.0 -0.560569942 0.4000617719
1034850000.0 0.0202876419 0.7551258118
1044800000.0 0.6689694441 0.4641498571
1054750000.0 0.8124068011 -0.2373068251
1064700000.0 0.3462021763 -0.7443251337
1074650000.0 -0.2250906338 -0.7702170718
1084600000.0 -0.7286928933 -0.3558597003
1094550000.0 -0.7293220818 0.3031016875
1104500000.0 -0.2236910392 0.7276988113
1114450000.0 0.4104790378 0.6021673646
1124400000.0 0.6897739164 0.0533965244
1134350000.0 0.449925746 -0.4679120843
1144300000.0 -0.0648825935 -0.6019772238
1154250000.0 -0.4682739357 -0.3090326993
1164200000.0 -0.4943703696 0.1641084703
1174150000.0 -0.151323689 0.4663016586
1184100000.0 0.2816681286 0.3840079426
1194050000.0 0.4815254954 0.0058772338
1204000000.0 0.3290446013 -0.375856005
1213950000.0 -0.0435923551 -0.5218306218
1223900000.0 -0.4050552994 -0.3611122859
1233850000.0 -0.5551712207 0.0035903525
1243800000.0 -0.4124265448 0.3775952854
1253750000.0 -0.04763208 0.5562922138
1263700000.0 0.3452216443 0.4403766073
1273650000.0 0.5619655986 0.0944779511
1283600000.0 0.503649114 -0.3041443147
1293550000.0 0.2134972541 -0.5737110886
1303500000.0 -0.1781527979 -0.6069847275
1313450000.0 -0.508845177 -0.3952907873
1323400000.0 -0.6433336116 -0.0197460152
1333350000.0 -0.5124358793 0.3649878435
1343300000.0 -0.1622648477 0.5874306405
1353250000.0 0.2534915084 0.5366438981
1363200000.0 0.5430922469 0.2366524616
1373150000.0 0.5825552214 -0.1704277197
1383100000.0 0.3706330186 -0.5095790626
1393050000.0 0.0054145926 -0.6495497413
1403000000.0 -0.3666083709 -0.5436387976
1412950000.0 -0.5994016528 -0.2361708589
1422900000.0 -0.5968324049 0.1524486511
1432850000.0 -0.3509260436 0.4567738813
1442800000.0 0.0315070919 0.5401956486
1452750000.0 0.3769804536 0.3676121242
1462700000.0 0.536175627 0.0238266519
1472650000.0 0.4485505382 -0.3351393334
1482600000.0 0.1634483655 -0.5559497203
1492550000.0 -0.1894364395 -0.55059335
1502500000.0 -0.4574915578 -0.3252532794
1512450000.0 -0.5183911622 0.0171603634
1522400000.0 -0.3406567101 0.316842398
1532350000.0 -0.0102665305 0.4221951521
1542300000.0 0.2987661344 0.2799165303
1552250000.0 0.4259144017 -0.0244924872
1562200000.0 0.3172463217 -0.3237180215
1572150000.0 0.0448166917 -0.4649587226
1582100000.0 -0.245777739 -0.3852902611
1592050000.0 -0.404364813 -0.1319220491
1602000000.0 -0.3459279571 0.1645797657
1611950000.0 -0.0948795516 0.3378074795
1621900000.0 0.2096168369 0.2853596923
1631850000.0 0.389018761 0.034401073
1641800000.0 0.3417352308 -0.2705306181
1651750000.0 0.0990905216 -0.4582912653
1661700000.0 -0.2093184682 -0.4361530926
1671650000.0 -0.4307121832 -0.2130964739
1681600000.0 -0.4528107212 0.1084530621
1691550000.0 -0.2536904948 0.3735116027
1701500000.0 0.0706333841 0.4498236736
1711450000.0 0.3769064608 0.2977495558
1721400000.0 0.5188712643 -0.0320188305
1731350000.0 0.4077478619 -0.3759272872
1741300000.0 0.1033829936 -0.5689085363
1751250000.0 -0.254006081 -0.5324989873
1761200000.0 -0.5170473817 -0.2872122984
1771150000.0 -0.5824277084 0.0718510416
1781100000.0 -0.4146275025 0.4041644958
1791050000.0 -0.0703332024 0.5669146075
1801000000.0 0.3076171859 0.4762156571
1810950000.0 0.5432931423 0.1651518741
1820900000.0 0.5295655045 -0.219008912
1830850000.0 0.2867683018 -0.504336932
1840800000.0 -0.0677275991 -0.5819987513
1850750000.0 -0.3901396419 -0.4400841833
1860700000.0 -0.5662045618 -0.1421070136
1870650000.0 -0.5336961842 0.1975484952
1880600000.0 -0.3057861795 0.4484369619
1890550000.0 0.0268568455 0.5076079994
1900500000.0 0.3166961474 0.3502018155
1910450000.0 0.4405570254 0.0578083666
1920400000.0 0.3587658891 -0.231986272
1930350000.0 0.1352855185 -0.4005253374
1940300000.0 -0.1213249774 -0.4008616685
1950250000.0 -0.3097757518 -0.2628611048
1960200000.0 -0.3695475741 -0.0616952396
1970150000.0 -0.303308862 0.1103165771
1980100000.0 -0.170383532 0.188675514
1990050000.0 -0.0539596776 0.1651946029
2000000000.0 -0.0077668501 0.1046482322
