!Created with skrf (http://scikit-rf.org).
# GHz S RI R 50.0 
!freq ReS11 ImS11
10000000.0 -0.8015732728 0.6042711232
19950000.0 -0.28892514 0.9476061581
29900000.0 0.3253217283 0.9278800896
39850000.0 0.8166796428 0.5488501942
49800000.0 0.9897015608 -0.0594048634
59750000.0 0.7518271651 -0.6620640213
69700000.0 0.1747594382 -0.99134701
79650000.0 -0.4955920338 -0.8693628748
89600000.0 -0.9317731763 -0.3229686333
99550000.0 -0.8883134582 0.3952807247
109500000.0 -0.3443753242 0.9048777166
119450000.0 0.4325202787 0.8754838895
129400000.0 0.9537536571 0.2532905831
139350000.0 0.8186615948 -0.5597387201
149300000.0 0.0985246337 -0.9727094711
159250000.0 -0.6636798515 -0.6911742453
169200000.0 -0.9480874704 0.0406473209
179150000.0 -0.6217853693 0.7230543813
189100000.0 0.0664243783 0.962446115
199050000.0 0.7043488654 0.6680316938
209000000.0 0.9642965396 0.0402251174
218950000.0 0.7554895023 -0.5771464772
228900000.0 0.216197758 -0.9108349503
238850000.0 -0.4027576656 -0.8354768337
248800000.0 -0.7057888586 -0.2832119711
258750000.0 -0.9180740108 0.1729290434
268700000.0 -0.6229341711 0.7037626342
278650000.0 -0.0674357646 0.932295399
288600000.0 0.504102873 0.7655742426
298550000.0 0.8428515123 0.2834841473
308500000.0 0.8050816051 -0.2995272955
318450000.0 0.4099369078 -0.7220076359
328400000.0 -0.1569756832 -0.7863902352
338350000.0 -0.610635064 -0.4638155073
348300000.0 -0.7130534036 0.0582666325
358250000.0 -0.4374896006 0.4708478893
368200000.0 0.0052749874 0.5538783714
378150000.0 0.3289014979 0.322296324
388100000.0 0.3749292506 -0.0187169837
398050000.0 0.1905634516 -0.2417692096
408000000.0 -0.0474299752 -0.2515475612
417950000.0 -0.1840546757 -0.1110406174
427900000.0 -0.1712015474 0.0510820146
437850000.0 -0.0613308493 0.1333678856
447800000.0 0.0531972418 0.1116580381
457750000.0 0.1069193226 0.026967711
467700000.0 0.0857663562 -0.0565189901
477650000.0 0.0223784945 -0.090169807
487600000.0 -0.0314785547 -0.0678708222
497550000.0 -0.0257488261 -0.0918300893
507500000.0 -0.0558358602 0.0051981689
517450000.0 -0.0196840276 0.0181541948
527400000.0 4.4209e-05 -0.0002928416
537350000.0 -0.0106620037 -0.0232051275
547300000.0 -0.0446283779 -0.0246748525
557250000.0 -0.0706764286 0.0109520218
567200000.0 -0.0624509205 0.0638963615
577150000.0 -0.0124029202 0.1041361907
587100000.0 0.0624540816 0.1017691933
597050000.0 0.1265578624 0.0450803962
607000000.0 0.1436648648 -0.0475977029
616950000.0 0.0972772608 -0.1382498291
626900000.0 0.0017034851 -0.1851713847
636850000.0 -0.1064603298 -0.1624090274
646800000.0 -0.1788096785 -0.0778114073
656750000.0 -0.184191391 0.03429631
666700000.0 -0.1173745224 0.1268817312
676650000.0 -0.0073514307 0.1575519721
686600000.0 0.0969027483 0.1125210522
696550000.0 0.1482033279 0.0147774796
706500000.0 0.125131631 -0.0872423019
716450000.0 0.0445725557 -0.1440547596
726400000.0 -0.0479073614 -0.1284176382
736350000.0 -0.0979418252 -0.0520470783
746300000.0 -0.07602144 0.0390438345
756250000.0 0.0101411924 0.0884819703
766200000.0 0.1117976153 0.0596797267
776150000.0 0.1664421944 -0.0395424448
786100000.0 0.1322025565 -0.1578991553
796050000.0 0.0132745573 -0.2251639651
806000000.0 -0.1366312612 -0.1890552555
815950000.0 -0.2380977778 -0.0481166274
825900000.0 -0.2247488656 0.1433169092
835850000.0 -0.0843159197 0.2951751613
845800000.0 0.1319825947 0.3282281512
855750000.0 0.3303863475 0.2152743002
865700000.0 0.4199932621 -0.0052049391
875650000.0 0.3482441441 -0.2440982422
885600000.0 0.1328793311 -0.3933575488
895550000.0 -0.1408839218 -0.3751553153
905500000.0 -0.3523248053 -0.1817097402
915450000.0 -0.3940180468 0.1094242162
925400000.0 -0.2354627001 0.3616303944
935350000.0 0.0527188109 0.4479841882
945300000.0 0.327267148 0.3134580951
955250000.0 0.4345701168 0.0133086188
965200000.0 0.2848077637 -0.2905304862
975150000.0 -0.0680319645 -0.3932592926
985100000.0 -0.4024947174 -0.1728650468
995050000.0 -0.4412221994 0.2600582677
1005000000.0 -0.0992897915 0.5838026726
1014950000.0 0.4124546348 0.5114415302
1024900000.0 0.7063052081 0.0216198795
1034850000.0 0.4928586076 -0.5696103152
1044800000.0 -0.1456257845 -0.7878487269
1054750000.0 -0.7267580798 -0.4138231757
1064700000.0 -0.7752311282 0.217832865
1074650000.0 -0.483843185 0.6817194984
1084600000.0 0.0834792287 0.8166031035
1094550000.0 0.5953375517 0.5441719903
1104500000.0 0.7748568293 -0.0248032057
1114450000.0 0.4862525841 -0.5574773173
1124400000.0 -0.0871999331 -0.6989335021
1134350000.0 -0.54510169 -0.3915295465
1144300000.0 -0.6303592918 0.1037596681
1154250000.0 -0.3651057742 0.4810558556
1164200000.0 0.0614655096 0.5597521262
1174150000.0 0.4080256603 0.3274294459
1184100000.0 0.4931554758 -0.0748146644
1194050000.0 0.271103011 -0.4155687642
1204000000.0 -0.1114153424 -0.5013687514
1213950000.0 -0.4358089708 -0.318720634
1223900000.0 -0.5639356845 0.0120683331
1233850000.0 -0.4651766052 0.3440877081
1243800000.0 -0.1862022122 0.551357463
1253750000.0 0.1714415872 0.5496938672
1263700000.0 0.4642733083 0.3259556542
1273650000.0 0.5648202016 -0.0349228637
1283600000.0 0.4325178871 -0.3826063077
1293550000.0 0.1343120492 -0.5866300116
1303500000.0 -0.2133486512 -0.5922104448
1313450000.0 -0.5021235013 -0.4160287578
1323400000.0 -0.653873411 -0.1164218987
1333350000.0 -0.6233779201 0.2238747225
1343300000.0 -0.4053768332 0.5039433662
1353250000.0 -0.0548041727 0.6199207461
1363200000.0 0.3109774933 0.5153316137
1373150000.0 0.5546127989 0.222029154
1383100000.0 0.5935359573 -0.1472491969
1393050000.0 0.434549377 -0.4649820891
1403000000.0 0.14472694 -0.6429421934
1412950000.0 -0.1860311788 -0.6433759924
1422900000.0 -0.4667430596 -0.4717620724
1432850000.0 -0.6153750606 -0.170524391
1442800000.0 -0.5750107986 0.1735801386
1452750000.0 -0.3443467914 0.4440338201
1462700000.0 0.000739526 0.5400646515
1472650000.0 0.3342303539 0.4293098034
1482600000.0 0.5413554476 0.1626315257
1492550000.0 0.565687667 -0.1578741535
1502500000.0 0.4163032603 -0.4269531775
1512450000.0 0.1487013314 -0.5645361862
1522400000.0 -0.150404351 -0.526837329
1532350000.0 -0.3764717155 -0.3197386665
1542300000.0 -0.439589982 -0.0142351996
1552250000.0 -0.3080781765 0.2681797796
1562200000.0 -0.0414980838 0.4093978147
1572150000.0 0.2410045015 0.3661786735
1582100000.0 0.4345926149 0.1722821087
1592050000.0 0.4699881534 -0.0915906135
1602000000.0 0.3377690056 -0.3220654117
1611950000.0 0.0878850528 -0.4274530494
1621900000.0 -0.1841245899 -0.3571419689
1631850000.0 -0.3642251749 -0.1268039587
1641800000.0 -0.363488475 0.1728130305
1651750000.0 -0.1765806282 0.4082865282
1661700000.0 0.1110185736 0.4781786656
1671650000.0 0.3778912307 0.3626290332
1681600000.0 0.5257253506 0.1144249457
1691550000.0 0.5048491377 -0.1777325135
1701500000.0 0.3165902099 -0.414169196
1711450000.0 0.0156794743 -0.5057680209
1721400000.0 -0.2947587152 -0.4013128208
1731350000.0 -0.4850737391 -0.1334284456
1741300000.0 -0.4881547362 0.179503979
1751250000.0 -0.3345830106 0.4397242828
1761200000.0 -0.064769296 0.5826277529
1771150000.0 0.2385411107 0.55798947
1781100000.0 0.4838740768 0.3768284486
1791050000.0 0.6011158427 0.0899747948
1801000000.0 0.5485593019 -0.2256802845
1810950000.0 0.3254604295 -0.4731316514
1820900000.0 -0.0086441664 -0.5578260092
1830850000.0 -0.3347726899 -0.4383280379
1840800000.0 -0.5332145825 -0.1625357451
1850750000.0 -0.5481849605 0.1602904075
1860700000.0 -0.4012325195 0.4247209333
1870650000.0 -0.1549944335 0.5693015867
1880600000.0 0.1188551381 0.5705104578
1890550000.0 0.3518120359 0.4345880079
1900500000.0 0.4810220246 0.1949383121
1910450000.0 0.4594597621 -0.0798709521
1920400000.0 0.2889824743 -0.2955503752
1930350000.0 0.036698019 -0.3754890458
1940300000.0 -0.1978919835 -0.3067214182
1950250000.0 -0.3400391327 -0.1426597007
1960200000.0 -0.3676762036 0.0418327908
1970150000.0 -0.3012905411 0.1855090552
1980100000.0 -0.188186945 0.2502737661
1990050000.0 -0.0854789749 0.2337155037
2000000000.0 -0.0383947965 0.170176869
