!Created with skrf (http://scikit-rf.org).
# GHz S RI R 50.0 
!freq ReS11 ImS11
10000000.0 -0.7328447191 0.5665332614
19950000.0 -0.2656053694 0.8932593856
29900000.0 0.3063960313 0.8772176676
39850000.0 0.7689283255 0.5124256785
49800000.0 0.9251011441 -0.077561339
59750000.0 0.6803420122 -0.6598324593
69700000.0 0.1114031774 -0.9647969566
79650000.0 -0.5297497439 -0.8163813494
89600000.0 -0.9183829679 -0.2504446569
99550000.0 -0.8178622166 0.4656110876
109500000.0 -0.221304954 0.9288194809
119450000.0 0.5595186878 0.8008484605
129400000.0 0.9879175111 0.0919441379
139350000.0 0.7059762914 -0.6988723223
149300000.0 -0.073739906 -0.9621482597
159250000.0 -0.7468241894 -0.5446645291
169200000.0 -0.8863571323 0.1943339781
179150000.0 -0.4876108919 0.7735618944
189100000.0 0.1562993944 0.9035007099
199050000.0 0.6948554819 0.5744705408
209000000.0 0.8887122817 -0.013674203
218950000.0 0.6806442816 -0.5689744549
228900000.0 0.1883696828 -0.8626727069
238850000.0 -0.3696923066 -0.7896343943
248800000.0 -0.7611266633 -0.3940524811
258750000.0 -0.8483234067 0.1595685987
268700000.0 -0.5889978851 0.6523195159
278650000.0 -0.0972527524 0.8859274163
288600000.0 0.4263453072 0.7675506646
298550000.0 0.769442807 0.3459224846
308500000.0 0.7859135928 -0.2066176123
318450000.0 0.4576020464 -0.6513882435
328400000.0 -0.0714160846 -0.7818348883
338350000.0 -0.5412377859 -0.5316026694
348300000.0 -0.7024494938 -0.0434814688
358250000.0 -0.4891542033 0.3880283821
368200000.0 -0.076718223 0.5210704941
378150000.0 0.2503666666 0.339754622
388100000.0 0.3235287391 0.0359951904
398050000.0 0.1807028679 -0.1680947014
408000000.0 -0.0154322081 -0.1817709819
417950000.0 -0.1194040919 -0.0670916937
427900000.0 -0.097345007 0.0569334012
437850000.0 -0.0026011347 0.1008519527
447800000.0 0.0814005692 0.0503530013
457750000.0 0.0981606115 -0.0438508576
467700000.0 0.0443239511 -0.1200756617
477650000.0 -0.0388138073 -0.1341707827
487600000.0 -0.1026313029 -0.0822629192
497550000.0 -0.1136356892 -0.0005829336
507500000.0 -0.0712873878 0.0627872512
517450000.0 -0.0045971493 0.084498869
527400000.0 0.0501924825 0.0631650113
537350000.0 0.0667157938 0.0175057238
547300000.0 0.0441530279 -0.0170756213
557250000.0 0.0037383089 -0.0238065543
567200000.0 -0.0256185058 -0.001054133
577150000.0 -0.0229084979 0.0291384553
587100000.0 0.0083683308 0.0390718574
597050000.0 0.0459558855 0.0117962972
607000000.0 0.0574842003 -0.0443916683
616950000.0 0.0265421001 -0.0992092498
626900000.0 -0.0351661032 -0.1204975936
636850000.0 -0.099607581 -0.0889923617
646800000.0 -0.1309535097 -0.0154374817
656750000.0 -0.1102524295 0.0698588813
666700000.0 -0.0404594874 0.128222283
676650000.0 0.0476871962 0.1343686035
686600000.0 0.1262797336 0.0709671487
696550000.0 0.1486786208 -0.0322048962
706500000.0 0.0997478795 -0.1300083147
716450000.0 0.0018273235 -0.1763281789
726400000.0 -0.0998803623 -0.144824079
736350000.0 -0.1493028957 -0.051886597
746300000.0 -0.1169888255 0.0548108092
756250000.0 -0.0145861946 0.116824125
766200000.0 0.1064172574 0.0942220383
776150000.0 0.1823890192 -0.0036136407
786100000.0 0.1669151972 -0.1286620191
796050000.0 0.0613431844 -0.2086183622
806000000.0 -0.0818461748 -0.1881130605
815950000.0 -0.1860962807 -0.0650827681
825900000.0 -0.1850913511 0.1082881445
835850000.0 -0.0680486658 0.2462817892
845800000.0 0.1150466154 0.2739047809
855750000.0 0.2817462069 0.169367118
865700000.0 0.3511969699 -0.0306399601
875650000.0 0.274815665 -0.2413654979
885600000.0 0.0694835482 -0.3553727914
895550000.0 -0.1756864175 -0.3016020373
905500000.0 -0.3354978364 -0.0853976429
915450000.0 -0.3159193871 0.19925742
925400000.0 -0.1114637005 0.4067377648
935350000.0 0.1814898083 0.4211192674
945300000.0 0.4100930072 0.2169271653
955250000.0 0.4316939537 -0.11936235
965200000.0 0.1844636269 -0.4006118323
975150000.0 -0.2283188043 -0.4089915949
985100000.0 -0.5281895599 -0.0643983967
995050000.0 -0.4405736358 0.423500788
1005000000.0 0.0235223183 0.6698097058
1014950000.0 0.5412996662 0.4342386605
1024900000.0 0.6915817873 -0.1635850458
1034850000.0 0.3040543857 -0.6788114143
1044800000.0 -0.3418051914 -0.6838682518
1054750000.0 -0.7503870835 -0.1833213563
1064700000.0 -0.6624850767 0.4303385004
1074650000.0 -0.1906253063 0.7621251629
1084600000.0 0.3282186089 0.6882402481
1094550000.0 0.6804639681 0.2587080308
1104500000.0 0.6237363247 -0.306608886
1114450000.0 0.2033302267 -0.6663599417
1124400000.0 -0.3258842461 -0.6120930367
1134350000.0 -0.6409219918 -0.2223545174
1144300000.0 -0.6096539936 0.2482563126
1154250000.0 -0.2945703332 0.565494312
1164200000.0 0.1356959442 0.5976356247
1174150000.0 0.4774269211 0.3425356089
1184100000.0 0.5639553718 -0.0771627848
1194050000.0 0.3484959769 -0.439588358
1204000000.0 -0.0362921752 -0.5587830895
1213950000.0 -0.3866615188 -0.411678734
1223900000.0 -0.5668040266 -0.0988985885
1233850000.0 -0.5333204107 0.247773591
1243800000.0 -0.3088060972 0.5047860189
1253750000.0 0.0290957678 0.5782455578
1263700000.0 0.3541630664 0.426435946
1273650000.0 0.5259308034 0.101113785
1283600000.0 0.4711966946 -0.2590389603
1293550000.0 0.2286300343 -0.5080556292
1303500000.0 -0.0910388756 -0.571480192
1313450000.0 -0.3756299624 -0.4543945878
1323400000.0 -0.5530826292 -0.2082274789
1333350000.0 -0.5840004167 0.0994524168
1343300000.0 -0.4472975477 0.3876002646
1353250000.0 -0.160140104 0.5535788381
1363200000.0 0.1841284565 0.5176113005
1373150000.0 0.4491651274 0.2784511946
1383100000.0 0.5279348452 -0.0644716032
1393050000.0 0.4096175724 -0.3801265156
1403000000.0 0.1566411919 -0.5703426044
1412950000.0 -0.1351944746 -0.592429188
1422900000.0 -0.3819611612 -0.4572219492
1432850000.0 -0.5219911768 -0.2021612943
1442800000.0 -0.5084017018 0.1063620009
1452750000.0 -0.3202378356 0.3684832888
1462700000.0 -0.0092094539 0.4745185674
1472650000.0 0.301445005 0.3804958252
1482600000.0 0.4925922885 0.1302916711
1492550000.0 0.5045949348 -0.1723080669
1502500000.0 0.3472097837 -0.4196936566
1512450000.0 0.0878400844 -0.5309879648
1522400000.0 -0.1835714787 -0.4712809661
1532350000.0 -0.368246178 -0.2555606679
1542300000.0 -0.3909151522 0.039115379
1552250000.0 -0.2316767582 0.2940380498
1562200000.0 0.0432074727 0.4000194594
1572150000.0 0.3126287239 0.3208661128
1582100000.0 0.4720025488 0.1035659559
1592050000.0 0.4680472575 -0.1607627589
1602000000.0 0.3053268651 -0.3719393226
1611950000.0 0.0387950834 -0.446855349
1621900000.0 -0.2325006241 -0.3440546056
1631850000.0 -0.396396443 -0.08719302
1641800000.0 -0.3736778621 0.2215530926
1651750000.0 -0.1683197777 0.4513966515
1661700000.0 0.128452647 0.5069170153
1671650000.0 0.3951329784 0.3787967386
1681600000.0 0.5398201489 0.1244688387
1691550000.0 0.5211267252 -0.1691509259
1701500000.0 0.3431586254 -0.4092702379
1711450000.0 0.0573240026 -0.5137682199
1721400000.0 -0.2494898031 -0.4350973394
1731350000.0 -0.4676636576 -0.1861582426
1741300000.0 -0.5125926752 0.1458083232
1751250000.0 -0.368602816 0.436803112
1761200000.0 -0.0986824845 0.5893559107
1771150000.0 0.199281041 0.5705292108
1781100000.0 0.4380950398 0.4012327323
1791050000.0 0.5574516766 0.1326295471
1801000000.0 0.5267756717 -0.1658700404
1810950000.0 0.3483413833 -0.4124743514
1820900000.0 0.0640172148 -0.5254879251
1830850000.0 -0.2409081872 -0.4548418857
1840800000.0 -0.4565757251 -0.220884987
1850750000.0 -0.5088372101 0.0844186678
1860700000.0 -0.3985455935 0.3527335436
1870650000.0 -0.1818743771 0.5121150168
1880600000.0 0.0653037593 0.5317774184
1890550000.0 0.2658655017 0.4214477785
1900500000.0 0.3750766387 0.234085105
1910450000.0 0.3848790562 0.0156679022
1920400000.0 0.2816918958 -0.1816133728
1930350000.0 0.0961345357 -0.286481317
1940300000.0 -0.1012968142 -0.2675411567
1950250000.0 -0.2380005353 -0.1538820106
1960200000.0 -0.280795618 -0.0085800831
1970150000.0 -0.242060027 0.1072517756
1980100000.0 -0.1645668081 0.1557668076
1990050000.0 -0.1099147518 0.1337166464
2000000000.0 -0.1299292848 0.0867640907
