!Created with skrf (http://scikit-rf.org).
# GHz S RI R 50.0 
!freq ReS11 ImS11
10000000.0 -0.8234018015 0.611430917
19950000.0 -0.3013533636 0.9537038373
29900000.0 0.3175649078 0.9283411212
39850000.0 0.8111766487 0.5459980983
49800000.0 0.9895232042 -0.0646795438
59750000.0 0.7568309778 -0.6754597884
69700000.0 0.175573393 -1.014917164
79650000.0 -0.5055181043 -0.8917680301
89600000.0 -0.9437772215 -0.3332165481
99550000.0 -0.8901066631 0.3936260465
109500000.0 -0.3343576344 0.9021373071
119450000.0 0.4507834459 0.8674118248
129400000.0 0.9745972318 0.2321774037
139350000.0 0.8279065238 -0.5904708142
149300000.0 0.0873919788 -0.991829331
159250000.0 -0.6733932774 -0.6858592392
169200000.0 -0.9420069843 0.0548376807
179150000.0 -0.6087738255 0.7349750685
189100000.0 0.0824236227 0.976150884
199050000.0 0.7263787311 0.6820670722
209000000.0 0.9888445488 0.0482238697
218950000.0 0.7764278603 -0.57307625
228900000.0 0.2336642438 -0.9081917412
238850000.0 -0.3881205177 -0.8380223674
248800000.0 -0.7656155608 -0.3044950508
258750000.0 -0.9309520664 0.1711633734
268700000.0 -0.6461770768 0.7139250394
278650000.0 -0.0890845133 0.9566462403
288600000.0 0.4916666756 0.7966827847
298550000.0 0.8400965705 0.3143781107
308500000.0 0.81180584 -0.2739416079
318450000.0 0.4237072845 -0.7092521748
328400000.0 -0.1459665899 -0.792414729
338350000.0 -0.6158052898 -0.4822875381
348300000.0 -0.7345097042 0.042675797
358250000.0 -0.4638568208 0.465394049
368200000.0 -0.0180330543 0.5551800258
378150000.0 0.3119706831 0.3261022173
388100000.0 0.3651765537 -0.0160309315
398050000.0 0.1864832924 -0.2448534524
408000000.0 -0.0511694387 -0.2605069088
417950000.0 -0.1880193659 -0.1212576087
427900000.0 -0.1741980455 0.0407697722
437850000.0 -0.061981384 0.1244158864
447800000.0 0.0564129047 0.1031528799
457750000.0 0.1141409707 0.0175169311
467700000.0 0.0947975337 -0.0669742434
477650000.0 0.0315243572 -0.1016294356
487600000.0 -0.0241495868 -0.0783082022
497550000.0 0.0027510157 -0.0490454567
507500000.0 -0.0485879987 -0.0011665382
517450000.0 -0.0107413013 0.0158840559
527400000.0 0.0101054904 0.0003770703
537350000.0 0.0003142387 -0.0205559819
547300000.0 -0.0345512215 -0.0220783964
557250000.0 -0.0638536819 0.0165474108
567200000.0 -0.057508426 0.0732510468
577150000.0 -0.0084222088 0.1174076225
587100000.0 0.0669070683 0.1182669527
597050000.0 0.1325881851 0.0629448024
607000000.0 0.1516538344 -0.030893851
616950000.0 0.1053024791 -0.1251954512
626900000.0 0.0077577823 -0.1771213024
636850000.0 -0.1062534083 -0.1607199515
646800000.0 -0.1860013666 -0.078837768
656750000.0 -0.199386829 0.0340240294
666700000.0 -0.1382526968 0.1292106227
676650000.0 -0.0307493446 0.1641023645
686600000.0 0.0749229388 0.1240197384
696550000.0 0.1307092417 0.0281769799
706500000.0 0.1145481386 -0.0757611365
716450000.0 0.0399845251 -0.1369085583
726400000.0 -0.0493404282 -0.1283656159
736350000.0 -0.0987244513 -0.058528549
746300000.0 -0.0776668344 0.0273914343
756250000.0 0.0061858384 0.0736831736
766200000.0 0.1063989891 0.0443806261
776150000.0 0.1611925972 -0.0545752538
786100000.0 0.1279728164 -0.1728297636
796050000.0 0.0095543894 -0.2401493158
806000000.0 -0.1417592709 -0.2019068169
815950000.0 -0.2426305088 -0.0559135053
825900000.0 -0.2264285237 0.1408683598
835850000.0 -0.081491605 0.2991721698
845800000.0 0.1427351731 0.3380051045
855750000.0 0.3519405248 0.2263203994
865700000.0 0.450808503 -0.0012617571
875650000.0 0.3809119849 -0.2509852937
885600000.0 0.156400222 -0.4080251755
895550000.0 -0.1229087747 -0.3911861095
905500000.0 -0.3444070892 -0.2036247084
915450000.0 -0.4071379473 0.0882013607
925400000.0 -0.2701430454 0.3581618806
935350000.0 0.0112166955 0.4755146236
945300000.0 0.3021213837 0.3731856774
955250000.0 0.4460739161 0.0874921297
965200000.0 0.3420325057 -0.233529126
975150000.0 0.0143912936 -0.3910260605
985100000.0 -0.3506679963 -0.2392068704
995050000.0 -0.4705430559 0.1703605903
1005000000.0 -0.2022571296 0.5455000401
1014950000.0 0.3048447615 0.5633012641
1024900000.0 0.6670629303 0.1319344562
1034850000.0 0.5462024225 -0.4780740072
1044800000.0 -0.0499924153 -0.7810975636
1054750000.0 -0.6578456415 -0.4990250065
1064700000.0 -0.8398523201 0.1083890209
1074650000.0 -0.568713088 0.6443837521
1084600000.0 0.0177273729 0.8116935809
1094550000.0 0.5311131783 0.6190633472
1104500000.0 0.7951263876 0.0471055373
1114450000.0 0.5531737354 -0.5355050372
1124400000.0 -0.0257302974 -0.7397099912
1134350000.0 -0.5278586768 -0.4612284743
1144300000.0 -0.6523416581 0.0470363502
1154250000.0 -0.4020205163 0.4554949982
1164200000.0 0.0328146583 0.5637998664
1174150000.0 0.4029233146 0.3504112391
1184100000.0 0.5182118792 -0.0549093615
1194050000.0 0.3100216929 -0.416289121
1204000000.0 -0.0775822705 -0.5200772349
1213950000.0 -0.4165295848 -0.3450705065
1223900000.0 -0.5598830808 -0.00903713
1233850000.0 -0.4706870554 0.3355337492
1243800000.0 -0.1926471358 0.5587711992
1253750000.0 0.172534773 0.5706997598
1263700000.0 0.4783101853 0.3522264243
1273650000.0 0.5892710233 -0.0135290212
1283600000.0 0.4610121396 -0.3705365851
1293550000.0 0.1604556463 -0.5843010374
1303500000.0 -0.1943178104 -0.5997095435
1313450000.0 -0.4959092703 -0.4309605633
1323400000.0 -0.6647156922 -0.1322285374
1333350000.0 -0.6498224959 0.2172804234
1343300000.0 -0.4385089511 0.5131039963
1353250000.0 -0.0830207947 0.6437644272
1363200000.0 0.2938430785 0.5456935677
1373150000.0 0.5493593366 0.2516694311
1383100000.0 0.5995977678 -0.1234705541
1393050000.0 0.4500831017 -0.4529176416
1403000000.0 0.164733633 -0.6486839657
1412950000.0 -0.1720893937 -0.6676423658
1422900000.0 -0.4672792811 -0.5083747299
1432850000.0 -0.6324697134 -0.2102197721
1442800000.0 -0.6062735195 0.1393059466
1452750000.0 -0.3858801824 0.4219415092
1462700000.0 -0.0438420521 0.5377420975
1472650000.0 0.3009545483 0.4494773715
1482600000.0 0.5333597968 0.1964290086
1492550000.0 0.5877070648 -0.1272300494
1502500000.0 0.4608395799 -0.4152434596
1512450000.0 0.2002242814 -0.5798548727
1522400000.0 -0.1085284779 -0.5658799332
1532350000.0 -0.3564624633 -0.3720883402
1542300000.0 -0.4475916571 -0.0644403472
1552250000.0 -0.3403302163 0.2401599456
1562200000.0 -0.0784746562 0.4174070421
1572150000.0 0.2234042044 0.4035140963
1582100000.0 0.444603438 0.2189385484
1592050000.0 0.5040566406 -0.0520206616
1602000000.0 0.3849884419 -0.2988546634
1611950000.0 0.1356341764 -0.4246629244
1621900000.0 -0.1477038478 -0.3724657575
1631850000.0 -0.3484930732 -0.1521819525
1641800000.0 -0.3736676338 0.150497566
1651750000.0 -0.2066501391 0.4041157488
1661700000.0 0.0777091712 0.4981432726
1671650000.0 0.3555039235 0.4000259672
1681600000.0 0.5193990964 0.1562273471
1691550000.0 0.5126873833 -0.1418240364
1701500000.0 0.3326924522 -0.3921540669
1711450000.0 0.0290864998 -0.4982254813
1721400000.0 -0.2862370812 -0.389343469
1731350000.0 -0.4346627871 -0.1884216267
1741300000.0 -0.5459898144 0.1230548746
1751250000.0 -0.4002141698 0.4441175711
1761200000.0 -0.1034766146 0.6071726664
1771150000.0 0.2219238681 0.5809076979
1781100000.0 0.4801921106 0.3930441403
1791050000.0 0.6069800761 0.1000229191
1801000000.0 0.5646151769 -0.2240693881
1810950000.0 0.3494759096 -0.4865248537
1820900000.0 0.0139781899 -0.5903892345
1830850000.0 -0.3260912823 -0.484201875
1840800000.0 -0.5419750289 -0.2089327308
1850750000.0 -0.5693626526 0.1238826668
1860700000.0 -0.4278719395 0.4029466353
1870650000.0 -0.1813165232 0.5635662409
1880600000.0 0.0985808144 0.5817083539
1890550000.0 0.3453385037 0.4616272145
1900500000.0 0.4957488722 0.2301791235
1910450000.0 0.4974540862 -0.0496330319
1920400000.0 0.3416986264 -0.2829101449
1930350000.0 0.0883067761 -0.3848877738
1940300000.0 -0.161324203 -0.3321638186
1950250000.0 -0.3260366532 -0.1726818914
1960200000.0 -0.3752948844 0.0194958592
1970150000.0 -0.3250873443 0.1808608972
1980100000.0 -0.2165854723 0.2695541517
1990050000.0 -0.1034358421 0.2734000524
2000000000.0 -0.0389517005 0.2173346419
