!Created with skrf (http://scikit-rf.org).
# GHz S RI R 50.0 
!freq ReS11 ImS11
10000000.0 -0.8026109337 0.6054775628
19950000.0 -0.288788728 0.9480278793
29900000.0 0.324741848 0.9277505059
39850000.0 0.8152141803 0.5500810612
49800000.0 0.9897134022 -0.0558187863
59750000.0 0.754999074 -0.6582629531
69700000.0 0.1796422557 -0.9903815505
79650000.0 -0.4922707972 -0.8708184617
89600000.0 -0.9306407077 -0.3238114797
99550000.0 -0.886533016 0.396294007
109500000.0 -0.3396441166 0.9049560909
119450000.0 0.4380852466 0.871249016
129400000.0 0.9529300457 0.2532033884
139350000.0 0.8115277473 -0.5680516706
149300000.0 0.0850349815 -0.9719635703
159250000.0 -0.6723165812 -0.6791508157
169200000.0 -0.9447385878 0.053956076
179150000.0 -0.6125278533 0.7276676955
189100000.0 0.0714718586 0.9602355885
199050000.0 0.7032616283 0.6673301877
209000000.0 0.9626165008 0.0449115336
218950000.0 0.7582097299 -0.5698991056
228900000.0 0.2237194734 -0.9058312159
238850000.0 -0.3931253748 -0.8363833159
248800000.0 -0.7221916062 -0.4645291682
258750000.0 -0.9186157213 0.1599518179
268700000.0 -0.6351524709 0.690797654
278650000.0 -0.0881485463 0.9291931325
288600000.0 0.4844414851 0.7763558646
298550000.0 0.8338018176 0.3034589451
308500000.0 0.8091286895 -0.2801237918
318450000.0 0.4226292871 -0.7098839399
328400000.0 -0.1416011053 -0.7845970122
338350000.0 -0.5984704403 -0.4712680122
348300000.0 -0.7079933502 0.0461826589
358250000.0 -0.4392417892 0.459136993
368200000.0 -9.2483e-06 0.5430783176
378150000.0 0.3202472057 0.3124902903
388100000.0 0.3617797244 -0.0241917286
398050000.0 0.1760936286 -0.2398948787
408000000.0 -0.0587648829 -0.2439595564
417950000.0 -0.1884682845 -0.0999562612
427900000.0 -0.1695736614 0.0613931952
437850000.0 -0.0554921669 0.1408583618
447800000.0 0.0629627194 0.1155639372
457750000.0 0.1189298311 0.025545667
467700000.0 0.0949873688 -0.0638231766
477650000.0 0.0269006208 -0.1008479022
487600000.0 -0.0293128646 -0.0752055437
497550000.0 -0.0773574382 -0.0625600856
507500000.0 -0.0635690772 -0.0010222469
517450000.0 -0.0317524923 0.0174770128
527400000.0 -0.010512512 0.0070132242
537350000.0 -0.0152565483 -0.0108678265
547300000.0 -0.0419394608 -0.0127433847
557250000.0 -0.0634026203 0.019667319
567200000.0 -0.0520539585 0.0680061743
577150000.0 -0.0014071745 0.1027683043
587100000.0 0.0701987093 0.0948099482
597050000.0 0.1293350482 0.0359541556
607000000.0 0.1405128677 -0.0566359715
616950000.0 0.0898104852 -0.1441200062
626900000.0 -0.0087106707 -0.185685261
636850000.0 -0.1152183486 -0.1596272042
646800000.0 -0.1852263413 -0.0708337309
656750000.0 -0.1862878827 0.0425593423
666700000.0 -0.1152830414 0.1331047012
676650000.0 -0.0027028865 0.1611850484
686600000.0 0.1024926981 0.1127961853
696550000.0 0.1530938791 0.0114454501
706500000.0 0.1277938205 -0.0929508795
716450000.0 0.0443968043 -0.1505689712
726400000.0 -0.0507669054 -0.1336047664
736350000.0 -0.1023847675 -0.0552133418
746300000.0 -0.0809310243 0.0389573953
756250000.0 0.0067958044 0.0920462035
766200000.0 0.1120920211 0.065449474
776150000.0 0.1710174542 -0.0342366527
786100000.0 0.1403761152 -0.1563792981
796050000.0 0.0219297823 -0.2281276824
806000000.0 -0.1303964083 -0.1961355618
815950000.0 -0.235810921 -0.0567455745
825900000.0 -0.2269394648 0.1358457442
835850000.0 -0.0894281215 0.2917121296
845800000.0 0.1258186365 0.3298714055
855750000.0 0.3262389247 0.2216660963
865700000.0 0.4194033489 0.0041497865
875650000.0 0.3525725454 -0.2349956236
885600000.0 0.140155465 -0.3858370785
895550000.0 -0.1326491912 -0.3698150522
905500000.0 -0.3432274004 -0.1796485034
915450000.0 -0.3852800224 0.1098944253
925400000.0 -0.2264115843 0.3598126682
935350000.0 0.0609551204 0.4400541187
945300000.0 0.3304720656 0.2985388537
955250000.0 0.4256698526 -0.0060913938
965200000.0 0.2561257895 -0.3068709569
975150000.0 -0.1146459467 -0.3838267716
985100000.0 -0.436530412 -0.1192590272
995050000.0 -0.4238177129 0.3374233748
1005000000.0 -0.0142097121 0.62738171
1014950000.0 0.5120960405 0.4634029161
1024900000.0 0.7290655006 -0.1016089704
1034850000.0 0.3979391336 -0.6697773882
1044800000.0 -0.2837942435 -0.7711617111
1054750000.0 -0.783802023 -0.3085431449
1064700000.0 -0.8004023152 0.3057437899
1074650000.0 -0.3893931499 0.7633435777
1084600000.0 0.197565101 0.8097100216
1094550000.0 0.6597907748 0.4484323716
1104500000.0 0.744060706 -0.131722322
1114450000.0 0.3960844024 -0.597008592
1124400000.0 -0.1575796134 -0.667202141
1134350000.0 -0.5636939517 -0.3425953312
1144300000.0 -0.6191321763 0.1323590966
1154250000.0 -0.3527218566 0.4869053535
1164200000.0 0.060016542 0.5621194984
1174150000.0 0.4091371918 0.3421037146
1184100000.0 0.505940848 -0.0598890486
1194050000.0 0.2965908452 -0.4074537376
1204000000.0 -0.0787833441 -0.5121741551
1213950000.0 -0.4123581545 -0.3518507213
1223900000.0 -0.5634954809 -0.0326281873
1233850000.0 -0.4919092831 0.3033383213
1243800000.0 -0.2340200915 0.5313571553
1253750000.0 0.1178517586 0.5625552978
1263700000.0 0.4271430895 0.369091061
1273650000.0 0.5593475894 0.0225320316
1283600000.0 0.4607444616 -0.3338186231
1293550000.0 0.1825183249 -0.5621557878
1303500000.0 -0.1620310139 -0.5968796814
1313450000.0 -0.4614135588 -0.4465540446
1323400000.0 -0.6341547663 -0.1651997293
1333350000.0 -0.6320597352 0.1693907094
1343300000.0 -0.4426901074 0.4602794398
1353250000.0 -0.1102603108 0.6022877688
1363200000.0 0.2544402633 0.5300014511
1373150000.0 0.5166045848 0.2631492793
1383100000.0 0.5831948243 -0.0962189455
1393050000.0 0.450755807 -0.4192897105
1403000000.0 0.1800917499 -0.6135828976
1412950000.0 -0.1406973407 -0.6356709743
1422900000.0 -0.4210068225 -0.4883575861
1432850000.0 -0.5808925252 -0.2118175785
1442800000.0 -0.5660644436 0.1145148524
1452750000.0 -0.3704834016 0.3876399169
1462700000.0 -0.0496578653 0.5095162175
1472650000.0 0.2823225468 0.4312772562
1482600000.0 0.5056053368 0.1882560648
1492550000.0 0.552799848 -0.1228578502
1502500000.0 0.4252215639 -0.3947202014
1512450000.0 0.1734269654 -0.5445836091
1522400000.0 -0.1190871994 -0.5244166678
1532350000.0 -0.3497750593 -0.3352027581
1542300000.0 -0.4273648557 -0.0403506088
1552250000.0 -0.3137150408 0.2452985118
1562200000.0 -0.0546982211 0.4016143672
1572150000.0 0.2337896885 0.3698295011
1582100000.0 0.4330750777 0.1793676636
1592050000.0 0.4737045804 -0.0824874169
1602000000.0 0.3496076853 -0.3122265391
1611950000.0 0.107970265 -0.4232547963
1621900000.0 -0.1614904557 -0.3670085681
1631850000.0 -0.3509950571 -0.151349885
1641800000.0 -0.3699977628 0.1461285325
1651750000.0 -0.2013196042 0.3932538895
1661700000.0 0.0775262761 0.4840334338
1671650000.0 0.3502846119 0.392809857
1681600000.0 0.5181904432 0.1626164278
1691550000.0 0.5272976397 -0.1262325856
1701500000.0 0.3685396866 -0.3796026209
1711450000.0 0.0819473892 -0.5072222171
1721400000.0 -0.2421525186 -0.4457923102
1731350000.0 -0.4770188004 -0.201660141
1741300000.0 -0.5268254567 0.1336284517
1751250000.0 -0.3795923013 0.4299762309
1761200000.0 -0.1034259338 0.5894515809
1771150000.0 0.2043481541 0.5775231803
1781100000.0 0.4571187914 0.4115809592
1791050000.0 0.5902223441 0.1390253969
1801000000.0 0.5624903411 -0.1714546512
1810950000.0 0.3670984178 -0.4297809341
1820900000.0 0.052099195 -0.5415074979
1830850000.0 -0.2745294151 -0.4568329358
1840800000.0 -0.4921713926 -0.2091541652
1850750000.0 -0.536475916 0.1012735248
1860700000.0 -0.4179445992 0.3691652306
1870650000.0 -0.194560399 0.5279122692
1880600000.0 0.0646011893 0.550881344
1890550000.0 0.2926548736 0.4416182163
1900500000.0 0.4290027277 0.229920655
1910450000.0 0.4280469535 -0.0212542389
1920400000.0 0.2890371922 -0.2264413639
1930350000.0 0.0688108776 -0.3127542178
1940300000.0 -0.1406712182 -0.2649141589
1950250000.0 -0.2697637103 -0.1302113886
1960200000.0 -0.2958206322 0.0210823422
1970150000.0 -0.242865271 0.1296526809
1980100000.0 -0.1617644058 0.1643465002
1990050000.0 -0.1115031031 0.1325121462
2000000000.0 -0.1316247415 0.0881957113
