!Created with skrf (http://scikit-rf.org).
# GHz S RI R 50.0 
!freq ReS11 ImS11
10000000.0 -1.001918901 0.16022584
19950000.0 -0.9474039859 0.3063173766
29900000.0 -0.8711162068 0.4465640585
39850000.0 -0.7733330706 0.585410891
49800000.0 -0.6562152156 0.7177829365
59750000.0 -0.5148392206 0.8375985196
69700000.0 -0.3414961841 0.9332051289
79650000.0 -0.1326141723 0.9863282942
89600000.0 0.110950598 0.9807487495
99550000.0 0.3766570983 0.8985960092
109500000.0 0.643546903 0.7279090473
119450000.0 0.874229512 0.4548080678
129400000.0 0.9967994466 0.055914859
139350000.0 0.9766798136 -0.3140313535
149300000.0 0.7687420558 -0.6715483155
159250000.0 0.4401857847 -0.898347915
169200000.0 0.0776705234 -0.9809241333
179150000.0 -0.2548675922 -0.9462403269
189100000.0 -0.5280434662 -0.8333563181
199050000.0 -0.7295271253 -0.670495405
209000000.0 -0.856337176 -0.4793048559
218950000.0 -0.9227378032 -0.2806189477
228900000.0 -0.9408442024 -0.0841518485
238850000.0 -0.923098138 0.1086507082
248800000.0 -0.6745849511 0.3340863141
258750000.0 -0.8326016127 0.4134489608
268700000.0 -0.7444209878 0.5656764901
278650000.0 -0.6285980333 0.687008282
288600000.0 -0.484204065 0.7759156647
298550000.0 -0.3150813253 0.8297145468
308500000.0 -0.1277977795 0.8483378491
318450000.0 0.0700624505 0.8266232707
328400000.0 0.2667068719 0.7576510309
338350000.0 0.4375651636 0.6332784754
348300000.0 0.5550627324 0.4565769272
358250000.0 0.5948863234 0.2470748281
368200000.0 0.5524931143 0.0404119722
378150000.0 0.4471024102 -0.127791027
388100000.0 0.3108868546 -0.2392408689
398050000.0 0.1730249049 -0.2906858748
408000000.0 0.0553373313 -0.2892672507
417950000.0 -0.0325420221 -0.2495062138
427900000.0 -0.0897066185 -0.1889045192
437850000.0 -0.1222619104 -0.1221693557
447800000.0 -0.1353954185 -0.0615230446
457750000.0 -0.1336299473 -0.0147996667
467700000.0 -0.1209863623 0.0140695884
477650000.0 -0.0998367006 0.022731018
487600000.0 -0.0717364806 0.0120015641
497550000.0 -0.0627507681 -0.0626602686
507500000.0 -0.0427272641 0.0047970549
517450000.0 -0.0164562563 -0.0221532609
527400000.0 -0.008305981 -0.0432404887
537350000.0 -0.0153716204 -0.0613649229
547300000.0 -0.0374316471 -0.0796586652
557250000.0 -0.0710291327 -0.090133286
567200000.0 -0.1063603717 -0.0988916266
577150000.0 -0.1422225173 -0.1036064748
587100000.0 -0.1754485775 -0.0999995044
597050000.0 -0.2051771641 -0.0772896054
607000000.0 -0.1224674938 0.0105198748
616950000.0 -0.1655836827 -0.0687613139
626900000.0 -0.1880023481 -0.0353459228
636850000.0 -0.1959299791 0.0033275508
646800000.0 -0.1974117191 0.039040953
656750000.0 -0.1924763484 0.0684643859
666700000.0 -0.1788371308 0.0890453964
676650000.0 -0.1546904674 0.1002328644
686600000.0 -0.1204622104 0.1030010587
696550000.0 -0.0787403699 0.0994437642
706500000.0 -0.0343859342 0.089919307
716450000.0 0.0071516413 0.074729057
726400000.0 0.0397808162 0.0518749332
736350000.0 0.0603170977 0.0198480616
746300000.0 0.0652006017 -0.0226344968
756250000.0 0.0576258766 -0.0743370771
766200000.0 0.0371187248 -0.1317113665
776150000.0 0.0069539949 -0.1877997382
786100000.0 -0.0314480043 -0.2364273233
796050000.0 -0.0766629048 -0.2703536674
806000000.0 -0.1280059199 -0.2902954051
815950000.0 -0.1853227878 -0.2845489754
825900000.0 -0.2463982463 -0.2613884189
835850000.0 -0.3089401058 -0.2248974949
845800000.0 -0.3683759346 -0.1791825994
855750000.0 -0.4195100548 -0.1274065881
865700000.0 -0.4562734845 -0.0704653722
875650000.0 -0.4738441365 -0.0074794555
885600000.0 -0.4695136042 0.0614358034
895550000.0 -0.4440489999 0.1358823054
905500000.0 -0.398950528 0.2144986147
915450000.0 -0.3367210475 0.2919346006
925400000.0 -0.2577983562 0.3597844948
935350000.0 -0.1599207209 0.4073380523
945300000.0 -0.04308692 0.4191184268
955250000.0 0.0906607757 0.3805846621
965200000.0 0.230108429 0.2823700445
975150000.0 0.3532473225 0.1289550663
985100000.0 0.4213991005 -0.0686837222
995050000.0 0.4036287519 -0.3030325686
1005000000.0 0.2669051999 -0.524309847
1014950000.0 0.0190691069 -0.6633355003
1024900000.0 -0.2671362363 -0.6916542298
1034850000.0 -0.5121781095 -0.6069771044
1044800000.0 -0.710220075 -0.4298277899
1054750000.0 -0.8405659174 -0.1816509739
1064700000.0 -0.7903851634 0.0770165674
1074650000.0 -0.776445303 0.1429104997
1084600000.0 -0.7176707386 0.3204911279
1094550000.0 -0.639148127 0.5479378716
1104500000.0 -0.4043876253 0.7120400737
1114450000.0 -0.1322257013 0.7781895353
1124400000.0 0.1447911486 0.7376362568
1134350000.0 0.3776699033 0.5883611064
1144300000.0 0.5241682239 0.3578234799
1154250000.0 0.568699104 0.0991879902
1164200000.0 0.5274541721 -0.1396689831
1174150000.0 0.4347426249 -0.3332253626
1184100000.0 0.3071740311 -0.4777649
1194050000.0 0.1596199207 -0.5637068288
1204000000.0 0.0110385949 -0.5944275595
1213950000.0 -0.1275353531 -0.5851952709
1223900000.0 -0.2508375326 -0.552153974
1233850000.0 -0.3581302031 -0.5085605175
1243800000.0 -0.4500577267 -0.4603479518
1253750000.0 -0.5257495265 -0.4096840963
1263700000.0 -0.5836118181 -0.3546649692
1273650000.0 -0.6242739379 -0.2950843312
1283600000.0 -0.6486414927 -0.2296422816
1293550000.0 -0.6623604148 -0.1597041227
1303500000.0 -0.6712499162 -0.0881082079
1313450000.0 -0.6785303404 -0.0182770752
1323400000.0 -0.6872600186 0.0479371182
1333350000.0 -0.6946289313 0.1089805312
1343300000.0 -0.6958919259 0.1659475302
1353250000.0 -0.6883854827 0.2176197573
1363200000.0 -0.666901782 0.2663370776
1373150000.0 -0.6326477313 0.3134220285
1383100000.0 -0.5901498007 0.3610431276
1393050000.0 -0.5437140687 0.4098416621
1403000000.0 -0.4977939157 0.4583756171
1412950000.0 -0.4527647522 0.5036901242
1422900000.0 -0.4082432538 0.5427120877
1432850000.0 -0.3620464638 0.5702981506
1442800000.0 -0.3122049848 0.5868567943
1452750000.0 -0.2568727279 0.5937456459
1462700000.0 -0.1940566291 0.5948500669
1472650000.0 -0.122322395 0.5934570463
1482600000.0 -0.0443656792 0.590077814
1492550000.0 0.0347399665 0.5823099665
1502500000.0 0.1121528578 0.5661123492
1512450000.0 0.1842485119 0.5363500987
1522400000.0 0.2475588484 0.4897878502
1532350000.0 0.3015989544 0.4227218808
1542300000.0 0.3456752727 0.338110768
1552250000.0 0.3802548306 0.2402773974
1562200000.0 0.406575154 0.1361769664
1572150000.0 0.420133927 0.0311292906
1582100000.0 0.4163731579 -0.0705116202
1592050000.0 0.390263881 -0.1649952823
1602000000.0 0.3399746186 -0.2488277287
1611950000.0 0.2690961728 -0.3196854348
1621900000.0 0.1837367579 -0.3791428276
1631850000.0 0.0909123053 -0.4283560443
1641800000.0 -0.0033914538 -0.4676181097
1651750000.0 -0.09473005 -0.493523507
1661700000.0 -0.1803026065 -0.5031049291
1671650000.0 -0.2582032376 -0.4926337794
1681600000.0 -0.3283117943 -0.464618964
1691550000.0 -0.392768505 -0.4239651983
1701500000.0 -0.4545167823 -0.3757697888
1711450000.0 -0.5127790017 -0.3245910971
1721400000.0 -0.5667051392 -0.2739056972
1731350000.0 -0.6145792613 -0.2261253809
1741300000.0 -0.6507098752 -0.1788525096
1751250000.0 -0.6726197082 -0.1289127151
1761200000.0 -0.6801599553 -0.07650857
1771150000.0 -0.6766046287 -0.0211065553
1781100000.0 -0.6678760147 0.0368034846
1791050000.0 -0.6596167641 0.0947137093
1801000000.0 -0.6541806172 0.1505790476
1810950000.0 -0.6516184583 0.2038525476
1820900000.0 -0.646660769 0.2532168254
1830850000.0 -0.6313338058 0.2986671268
1840800000.0 -0.5822586328 0.3411037274
1850750000.0 -0.5490896162 0.2829280226
1860700000.0 -0.5561897947 0.3351549202
1870650000.0 -0.5128640958 0.3766063049
1880600000.0 -0.4676857631 0.4084042753
1890550000.0 -0.4276583231 0.4363419577
1900500000.0 -0.3934891653 0.4577046611
1910450000.0 -0.3630861487 0.4725766034
1920400000.0 -0.332665212 0.4759734014
1930350000.0 -0.2987252782 0.4681253154
1940300000.0 -0.2590670919 0.4487561688
1950250000.0 -0.2145341694 0.4199738506
1960200000.0 -0.1693427761 0.38612732
1970150000.0 -0.1314529346 0.348826257
1980100000.0 -0.1062171646 0.309263261
1990050000.0 -0.0992597561 0.2664681185
2000000000.0 -0.1145662793 0.2179971192
