!Created with skrf (http://scikit-rf.org).
# GHz S RI R 50.0 
!freq ReS11 ImS11
10000000.0 -0.7650530574 0.674241486
19950000.0 -0.1375632495 0.9868436927
29900000.0 0.536245172 0.8190571642
39850000.0 0.9432676646 0.2493319575
49800000.0 0.873738719 -0.4613958069
59750000.0 0.3265481842 -0.9545484242
69700000.0 -0.4354604081 -0.9257489909
79650000.0 -0.9603058468 -0.337881648
89600000.0 -0.8776658388 0.4678249427
99550000.0 -0.1991356505 0.9478134539
109500000.0 0.6295005332 0.7239692181
119450000.0 0.9700536752 -0.1024391205
129400000.0 0.4648556374 -0.8852298518
139350000.0 -0.4710591172 -0.8877893181
149300000.0 -0.9739087958 -0.1125473498
159250000.0 -0.6406664585 0.702939474
169200000.0 0.1635530306 0.927479246
179150000.0 0.8261725896 0.4810843637
189100000.0 0.9374505311 -0.2844828442
199050000.0 0.4692745842 -0.8754299744
209000000.0 -0.2613450681 -0.9508125634
218950000.0 -0.8175418098 -0.5087890675
228900000.0 -0.9222512883 0.1731802011
238850000.0 -0.5563272672 0.7394271879
248800000.0 0.0586830009 0.9216169744
258750000.0 0.6760716282 0.6620604308
268700000.0 0.9612650412 0.0658222744
278650000.0 0.7787498631 -0.5717348667
288600000.0 0.216158146 -0.9225724726
298550000.0 -0.4310084788 -0.8034769165
308500000.0 -0.8225168881 -0.2828476001
318450000.0 -0.753860482 0.354868476
328400000.0 -0.2709160746 0.7578516726
338350000.0 0.337666635 0.6975110648
348300000.0 0.6867501175 0.2312669164
358250000.0 0.5680053408 -0.2918725256
368200000.0 0.1401258634 -0.4996368326
378150000.0 -0.2187392407 -0.3195718205
388100000.0 -0.2719962629 0.0010184697
398050000.0 -0.0879252279 0.1775619265
408000000.0 0.1020470733 0.1271501491
417950000.0 0.1377530944 -0.025989092
427900000.0 0.0339613049 -0.1159914728
437850000.0 -0.0891741399 -0.0752655771
447800000.0 -0.1263409392 0.0497637296
457750000.0 -0.052637545 0.1565264987
467700000.0 0.0737545938 0.1690958877
477650000.0 0.166296507 0.0862120149
487600000.0 0.1701232668 -0.0313990308
497550000.0 0.104263265 -0.1144045163
507500000.0 0.0003640314 -0.1223861007
517450000.0 -0.0677981326 -0.0663466869
527400000.0 -0.0738994801 0.0042997751
537350000.0 -0.0356513787 0.0429895205
547300000.0 0.0033642805 0.037398278
557250000.0 0.0089406333 0.0091127291
567200000.0 -0.0179256365 -0.0020231908
577150000.0 -0.0446307939 0.0246547699
587100000.0 -0.034154779 0.0767366492
597050000.0 0.0350001053 0.1194615688
607000000.0 0.1192085833 0.0430226898
616950000.0 0.130847077 -0.0234788385
626900000.0 0.1024453106 -0.1101076663
636850000.0 0.0140697279 -0.1648664638
646800000.0 -0.0955986721 -0.1462000199
656750000.0 -0.167071119 -0.0542482218
666700000.0 -0.1554959099 0.0635578632
676650000.0 -0.0739567187 0.1387259061
686600000.0 0.0501424659 0.1481802552
696550000.0 0.1420078968 0.0629286818
706500000.0 0.149209871 -0.0565993852
716450000.0 0.0748130484 -0.1423917024
726400000.0 -0.0322325337 -0.1464758487
736350000.0 -0.1002154052 -0.0728383772
746300000.0 -0.0845737361 0.022527976
756250000.0 0.0031287329 0.0666620715
766200000.0 0.0958251476 0.0211016289
776150000.0 0.1187105185 -0.0882858345
786100000.0 0.040474651 -0.1843560558
796050000.0 -0.0993580366 -0.1868460844
806000000.0 -0.2057985384 -0.0685186577
815950000.0 -0.1882490695 0.1125711849
825900000.0 -0.0284737634 0.24061335
835850000.0 0.1953091468 0.2179878416
845800000.0 0.3540127069 0.0338840761
855750000.0 0.3447490333 -0.2256321227
865700000.0 0.1509569457 -0.4220430902
875650000.0 -0.1403213083 -0.4341685196
885600000.0 -0.3742380193 -0.2322210878
895550000.0 -0.4071572627 0.0908994326
905500000.0 -0.1997576016 0.3578413204
915450000.0 0.1440502559 0.4081408673
925400000.0 0.4305822842 0.2021554114
935350000.0 0.4932894224 -0.1493245388
945300000.0 0.2848727919 -0.4481892445
955250000.0 -0.0869456015 -0.5065006683
965200000.0 -0.3931717724 -0.2591169632
975150000.0 -0.4014353811 0.1585024329
985100000.0 -0.0543936486 0.4379296198
995050000.0 0.4030146456 0.3108044731
1005000000.0 0.5656941448 -0.1715532032
1014950000.0 0.2290713573 -0.6092596893
1024900000.0 -0.3803372862 -0.5653822842
1034850000.0 -0.7077922504 0.0338199614
1044800000.0 -0.3336703512 0.6840026273
1054750000.0 0.4486935545 0.6952568831
1064700000.0 0.8726292691 0.0694123431
1074650000.0 0.6302916743 -0.6204035332
1084600000.0 0.0068036763 -0.8473242756
1094550000.0 -0.626524632 -0.5492960457
1104500000.0 -0.7747510526 0.1445149481
1114450000.0 -0.3229931596 0.6824144663
1124400000.0 0.3498741293 0.6483430739
1134350000.0 0.7066849413 0.137328115
1144300000.0 0.5578796075 -0.4116777769
1154250000.0 0.0903920331 -0.649023383
1164200000.0 -0.3745966318 -0.4834571387
1174150000.0 -0.5791608537 -0.0423513627
1184100000.0 -0.3840676823 0.4116170098
1194050000.0 0.0840361787 0.5561014942
1204000000.0 0.4862673213 0.3093910353
1213950000.0 0.5804607183 -0.1278280826
1223900000.0 0.3589831455 -0.4925340114
1233850000.0 -0.0367190739 -0.6179043349
1243800000.0 -0.4206116829 -0.4567629681
1253750000.0 -0.6108892252 -0.075522804
1263700000.0 -0.4945533287 0.3481474558
1273650000.0 -0.1158243699 0.584616771
1283600000.0 0.319661833 0.5041119335
1293550000.0 0.5865891867 0.1677304338
1303500000.0 0.5840953802 -0.2449344481
1313450000.0 0.3418011777 -0.5628167354
1323400000.0 -0.0361318734 -0.6777738563
1333350000.0 -0.4148648079 -0.546913087
1343300000.0 -0.6475427486 -0.202439955
1353250000.0 -0.6128056374 0.228524475
1363200000.0 -0.2991890636 0.544357139
1373150000.0 0.1457691813 0.5801578039
1383100000.0 0.5002219276 0.3303696258
1393050000.0 0.6194532656 -0.065886249
1403000000.0 0.4861705374 -0.4387340861
1412950000.0 0.1717058631 -0.6597818182
1422900000.0 -0.2098028963 -0.6601118693
1432850000.0 -0.5231695424 -0.4315325213
1442800000.0 -0.6352902489 -0.0480998526
1452750000.0 -0.4757071173 0.3294079278
1462700000.0 -0.1059378768 0.5144490296
1472650000.0 0.2886054482 0.4160391256
1482600000.0 0.5192617516 0.1001004181
1492550000.0 0.5002066958 -0.2703343778
1502500000.0 0.2677487463 -0.5381536868
1512450000.0 -0.0703697587 -0.6067342924
1522400000.0 -0.3759455717 -0.4519983828
1532350000.0 -0.5127423541 -0.1349426348
1542300000.0 -0.405796491 0.1989499333
1552250000.0 -0.100974706 0.3738311926
1562200000.0 0.2349106425 0.2929749805
1572150000.0 0.417560873 0.0122347816
1582100000.0 0.3633770154 -0.3040152309
1592050000.0 0.1191120883 -0.4952822904
1602000000.0 -0.1882250942 -0.4761174542
1611950000.0 -0.408303574 -0.2537048379
1621900000.0 -0.421947331 0.0688266088
1631850000.0 -0.2029799843 0.3237528417
1641800000.0 0.1407113052 0.3575766261
1651750000.0 0.4133452457 0.1412601535
1661700000.0 0.460969934 -0.2018317931
1671650000.0 0.2608893245 -0.469626118
1681600000.0 -0.0132814747 -0.5888328865
1691550000.0 -0.3534029631 -0.4764437211
1701500000.0 -0.5460998757 -0.1713571265
1711450000.0 -0.5055265829 0.2006440346
1721400000.0 -0.2241800478 0.4738696917
1731350000.0 0.1806043415 0.4995593149
1741300000.0 0.5054790556 0.2530268254
1751250000.0 0.5914075339 -0.1385304779
1761200000.0 0.4193013923 -0.4853079229
1771150000.0 0.0859392375 -0.6542397777
1781100000.0 -0.2757030987 -0.6032360552
1791050000.0 -0.5458728899 -0.3575424072
1801000000.0 -0.6311074609 0.0069725307
1810950000.0 -0.4800438366 0.3663026795
1820900000.0 -0.1269815225 0.5646137917
1830850000.0 0.2786385551 0.4903462154
1840800000.0 0.537709743 0.1768891164
1850750000.0 0.540650425 -0.2107159435
1860700000.0 0.3236036639 -0.5014714719
1870650000.0 0.0006902509 -0.6087199375
1880600000.0 -0.3118374454 -0.5257260965
1890550000.0 -0.5229129707 -0.2934923244
1900500000.0 -0.5682588404 0.0144698488
1910450000.0 -0.4255155465 0.2916147814
1920400000.0 -0.1463144549 0.4241872698
1930350000.0 0.1436686956 0.3535747231
1940300000.0 0.3110515105 0.1306279123
1950250000.0 0.3051192846 -0.1209034869
1960200000.0 0.1698480015 -0.2942181135
1970150000.0 -0.0103430801 -0.3487392413
1980100000.0 -0.1586384686 -0.3016506443
1990050000.0 -0.2327311285 -0.2068721883
2000000000.0 -0.237475645 -0.1299643728
