!Created with skrf (http://scikit-rf.org).
# GHz S RI R 50.0 
!freq ReS11 ImS11
10000000.0 -0.6738390819 0.5370353784
19950000.0 -0.2414600663 0.8500334594
29900000.0 0.2968497294 0.8345542246
39850000.0 0.7339001323 0.4790155471
49800000.0 0.8725686576 -0.094933455
59750000.0 0.6246516751 -0.6542493135
69700000.0 0.0764776117 -0.938992839
79650000.0 -0.5254300199 -0.7911654263
89600000.0 -0.8883835094 -0.2551786469
99550000.0 -0.8088457518 0.4270545538
109500000.0 -0.2717085461 0.9005262197
119450000.0 0.4747514833 0.8507678944
129400000.0 0.9660295441 0.2290976098
139350000.0 0.8236855289 -0.565490652
149300000.0 0.1250797628 -0.9663369761
159250000.0 -0.6096697737 -0.6899051964
169200000.0 -0.8856052987 0.0141387227
179150000.0 -0.5947881992 0.6581879747
189100000.0 0.0129636356 0.8851373887
199050000.0 0.5768625839 0.6289988222
209000000.0 0.8266099132 0.0661832985
218950000.0 0.6677230198 -0.5020956339
228900000.0 0.1975474098 -0.8162441314
238850000.0 -0.3575102521 -0.7424346777
248800000.0 -0.4528135878 -0.3159961404
258750000.0 -0.7792590207 0.1796739596
268700000.0 -0.499083513 0.6584083397
278650000.0 -0.0081089561 0.84912905
288600000.0 0.4797004314 0.6817431245
298550000.0 0.7596859534 0.2305044093
308500000.0 0.7034116866 -0.3132351499
318450000.0 0.3206878263 -0.7031037991
328400000.0 -0.2152292696 -0.7498100077
338350000.0 -0.6343326452 -0.4256635255
348300000.0 -0.712891424 0.0877048541
358250000.0 -0.4304188605 0.4914710051
368200000.0 0.0121989689 0.5729883521
378150000.0 0.3442940613 0.3463439342
388100000.0 0.4123629124 0.0048399083
398050000.0 0.2510267015 -0.2351667283
408000000.0 0.017706999 -0.2731233076
417950000.0 -0.1375191915 -0.1572402503
427900000.0 -0.1598298955 -0.0079600129
437850000.0 -0.0902979432 0.075970707
447800000.0 -0.0099812073 0.0705361141
457750000.0 0.0245554004 0.013065912
467700000.0 0.0064031446 -0.0395510718
477650000.0 -0.03188642 -0.0487632681
487600000.0 -0.0502569479 -0.0112139934
497550000.0 0.0531398358 0.0070295416
507500000.0 -0.010628015 0.0314653924
517450000.0 0.043549268 0.0356701154
527400000.0 0.0719414246 0.0012315345
537350000.0 0.0589683934 -0.0426268729
547300000.0 0.0039600287 -0.0661891708
557250000.0 -0.0542714043 -0.0377698147
567200000.0 -0.0821691552 0.0157462841
577150000.0 -0.0661673633 0.0691354496
587100000.0 -0.01343766 0.0900442862
597050000.0 0.0477077655 0.0613093864
607000000.0 0.0795006533 -0.0077153368
616950000.0 0.0618051879 -0.0824289607
626900000.0 0.0035726325 -0.1238913597
636850000.0 -0.0637237013 -0.1097983455
646800000.0 -0.1066515865 -0.0476941714
656750000.0 -0.1017343183 0.034500184
666700000.0 -0.0493041811 0.0986046583
676650000.0 0.0285145141 0.1124829865
686600000.0 0.0964497393 0.0644405042
696550000.0 0.1169617096 -0.0263168103
706500000.0 0.0720952621 -0.1153831078
716450000.0 -0.0198153835 -0.1565040205
726400000.0 -0.11363459 -0.1240821849
736350000.0 -0.1541199128 -0.0308993897
746300000.0 -0.1116259406 0.0734323599
756250000.0 0.0015525158 0.1300230046
766200000.0 0.131893952 0.1000680481
776150000.0 0.2117817004 -0.0088208614
786100000.0 0.1959407441 -0.1439087588
796050000.0 0.0847455506 -0.2329399777
806000000.0 -0.0710068803 -0.2192511296
815950000.0 -0.1907125893 -0.0958964023
825900000.0 -0.20812384 0.0852275768
835850000.0 -0.1071453518 0.2369052475
845800000.0 0.0655883551 0.2829781769
855750000.0 0.2296845395 0.2027113051
865700000.0 0.318825909 0.0317172047
875650000.0 0.29121586 -0.1684358065
885600000.0 0.1370249181 -0.3108979634
895550000.0 -0.08445072 -0.3108374399
905500000.0 -0.2616636446 -0.1508395739
915450000.0 -0.2951994197 0.1035959116
925400000.0 -0.1565314924 0.3262668257
935350000.0 0.089329374 0.3987064291
945300000.0 0.3165760722 0.2729863993
955250000.0 0.3946570885 -0.0034878642
965200000.0 0.2426873526 -0.2891645127
975150000.0 -0.1010595472 -0.389022853
985100000.0 -0.4311456822 -0.1701649627
995050000.0 -0.4727778013 0.2673745559
1005000000.0 -0.1307021066 0.5990871284
1014950000.0 0.3779188683 0.5235310607
1024900000.0 0.6585802394 0.0336918901
1034850000.0 0.44759638 -0.5306096716
1044800000.0 -0.1332872377 -0.70797741
1054750000.0 -0.6235267247 -0.3303068251
1064700000.0 -0.6025444539 0.2183615881
1074650000.0 -0.4050330654 0.593489651
1084600000.0 0.1080190511 0.7318642554
1094550000.0 0.5540949723 0.4353074425
1104500000.0 0.6457403231 -0.1110715983
1114450000.0 0.3208312319 -0.5589231696
1124400000.0 -0.1946888816 -0.6205765704
1134350000.0 -0.5587062985 -0.2962993124
1144300000.0 -0.580783935 0.1656460986
1154250000.0 -0.2984349547 0.4941594326
1164200000.0 0.1050747521 0.5375118079
1174150000.0 0.4218875797 0.3104228266
1184100000.0 0.5071412949 -0.0750672374
1194050000.0 0.3030688194 -0.4085986707
1204000000.0 -0.0581458779 -0.5032082355
1213950000.0 -0.3744733109 -0.3446861673
1223900000.0 -0.5220567808 -0.0412284003
1233850000.0 -0.4702914219 0.2763911442
1243800000.0 -0.2466306963 0.4962584146
1253750000.0 0.0718312575 0.5321549792
1263700000.0 0.3610689408 0.3557652214
1273650000.0 0.4908762817 0.0310931127
1283600000.0 0.4049211261 -0.3008892392
1293550000.0 0.1576195075 -0.5061467779
1303500000.0 -0.1382397772 -0.5293355625
1313450000.0 -0.3817700521 -0.3901921548
1323400000.0 -0.5185750784 -0.1464407479
1333350000.0 -0.5278637789 0.1407486923
1343300000.0 -0.3894615191 0.4024066055
1353250000.0 -0.113854752 0.5417416401
1363200000.0 0.2099114791 0.4811934855
1373150000.0 0.444827671 0.2305448154
1383100000.0 0.4943080514 -0.1079849371
1393050000.0 0.3565965479 -0.4046109692
1403000000.0 0.1030940352 -0.5678549648
1412950000.0 -0.1672666594 -0.5663069273
1422900000.0 -0.3772332282 -0.4230108682
1432850000.0 -0.4883794698 -0.1821783945
1442800000.0 -0.4716609639 0.1021274009
1452750000.0 -0.3057311504 0.3479633384
1462700000.0 -0.0237570178 0.4644362888
1472650000.0 0.2780300723 0.3974600002
1482600000.0 0.4827749032 0.1683478627
1492550000.0 0.518139285 -0.1318539309
1502500000.0 0.3834751388 -0.3947621779
1512450000.0 0.1367919181 -0.5361314492
1522400000.0 -0.1350111211 -0.5145292206
1532350000.0 -0.3448945106 -0.3353379596
1542300000.0 -0.4182706085 -0.0507472714
1552250000.0 -0.3124586466 0.2366692836
1562200000.0 -0.0604490253 0.4077464246
1572150000.0 0.2312224283 0.3967378189
1582100000.0 0.446677414 0.2215778413
1592050000.0 0.5116034926 -0.040714665
1602000000.0 0.4073610071 -0.2884581114
1611950000.0 0.1721031044 -0.4301702786
1621900000.0 -0.1121147005 -0.4055218671
1631850000.0 -0.3352415483 -0.2096488913
1641800000.0 -0.3976634006 0.0853456147
1651750000.0 -0.2676702245 0.3529124937
1661700000.0 -0.00642841 0.4785920857
1671650000.0 0.2706461496 0.4204154241
1681600000.0 0.4582874584 0.2143711309
1691550000.0 0.4964019848 -0.0593647573
1701500000.0 0.3755798568 -0.3060416013
1711450000.0 0.1376477742 -0.4407805603
1721400000.0 -0.1429283874 -0.4079269996
1731350000.0 -0.3621072855 -0.2063845324
1741300000.0 -0.4246616615 0.0814921682
1751250000.0 -0.3476103217 0.3118936876
1761200000.0 -0.1615253662 0.5030824158
1771150000.0 0.114761008 0.5324139541
1781100000.0 0.3523861014 0.3976900695
1791050000.0 0.4798036229 0.156282738
1801000000.0 0.4680420237 -0.1194054932
1810950000.0 0.323736866 -0.3513804011
1820900000.0 0.0811219081 -0.4670227799
1830850000.0 -0.1918506191 -0.4154166555
1840800000.0 -0.3959517178 -0.2064902802
1850750000.0 -0.4527385643 0.0779407836
1860700000.0 -0.3544638758 0.3319639301
1870650000.0 -0.1537305287 0.4823249992
1880600000.0 0.0741380247 0.4992282301
1890550000.0 0.2589813097 0.3934443618
1900500000.0 0.3551739673 0.2049049201
1910450000.0 0.3480386973 -0.012891878
1920400000.0 0.2401031691 -0.1997100741
1930350000.0 0.0548215686 -0.2921400895
1940300000.0 -0.1411170833 -0.2592316627
1950250000.0 -0.2725969138 -0.1258811574
1960200000.0 -0.3002120882 0.0384231145
1970150000.0 -0.2380593445 0.1669971391
1980100000.0 -0.1329044464 0.2184658376
1990050000.0 -0.0511911883 0.1911147584
2000000000.0 -0.047728764 0.1296877404
