!Created with skrf (http://scikit-rf.org).
# GHz S RI R 50.0 
!freq ReS11 ImS11
10000000.0 -0.9995506213 0.1590229785
19950000.0 -0.9471441993 0.3042066582
29900000.0 -0.8734049274 0.4436603826
39850000.0 -0.777490695 0.5824401908
49800000.0 -0.6606634152 0.7147149681
59750000.0 -0.5176719846 0.8344396919
69700000.0 -0.3405567707 0.9309164782
79650000.0 -0.124898174 0.9846655451
89600000.0 0.1286264554 0.9770388336
99550000.0 0.4064290583 0.8860736044
109500000.0 0.6825019752 0.6947006153
119450000.0 0.9079193108 0.3885266087
129400000.0 1.009072396 -0.0175766367
139350000.0 0.9267009985 -0.4334186097
149300000.0 0.6641083529 -0.7689594467
159250000.0 0.3059377946 -0.9486060184
169200000.0 -0.0555464092 -0.9815036184
179150000.0 -0.3665985634 -0.9092071136
189100000.0 -0.6087883322 -0.7742543848
199050000.0 -0.7789692546 -0.6060809985
209000000.0 -0.8808091135 -0.4231262282
218950000.0 -0.9316480131 -0.2406017404
228900000.0 -0.9429252253 -0.0654343202
238850000.0 -0.9275191526 0.1008416705
248800000.0 -0.8653678182 0.2511549337
258750000.0 -0.8448896996 0.3970923703
268700000.0 -0.7750335838 0.528817167
278650000.0 -0.6820296073 0.6409368311
288600000.0 -0.5644720671 0.7300780179
298550000.0 -0.4244916547 0.7932786693
308500000.0 -0.2655040284 0.8313285303
318450000.0 -0.0921492232 0.8397001635
328400000.0 0.0892543138 0.8114114156
338350000.0 0.2627828262 0.7347333915
348300000.0 0.4052576298 0.6018861455
358250000.0 0.4877101184 0.4216698185
368200000.0 0.4932541406 0.2229580582
378150000.0 0.4270976991 0.0436576016
388100000.0 0.3144558333 -0.0878414731
398050000.0 0.1863886265 -0.1576980424
408000000.0 0.0707897724 -0.1699673524
417950000.0 -0.0180380285 -0.1400617666
427900000.0 -0.0774663535 -0.0863065315
437850000.0 -0.111641812 -0.0243617205
447800000.0 -0.1252968558 0.0337669244
457750000.0 -0.124277621 0.079439906
467700000.0 -0.1114871393 0.1094545177
477650000.0 -0.0899856488 0.1221584297
487600000.0 -0.0629428019 0.1206072258
497550000.0 -0.0347805908 0.1086231151
507500000.0 -0.0050305786 0.0950348649
517450000.0 0.0171984254 0.0756653342
527400000.0 0.0296548989 0.0562290674
537350000.0 0.0291552761 0.0370261267
547300000.0 0.017329151 0.0189435893
557250000.0 -0.0045829221 -5.9084e-06
567200000.0 -0.0329764167 -0.0175185235
577150000.0 -0.0629395245 -0.0312996177
587100000.0 -0.0901732757 -0.038764727
597050000.0 -0.1122423633 -0.0371419627
607000000.0 -0.128872265 -0.0247169013
616950000.0 -0.1408988957 -0.0022368218
626900000.0 -0.1488509263 0.0281811053
636850000.0 -0.1530697888 0.0617687752
646800000.0 -0.1527317273 0.0941672713
656750000.0 -0.1471674262 0.1217937255
666700000.0 -0.1337219364 0.1423451364
676650000.0 -0.1102121545 0.154682547
686600000.0 -0.077604012 0.1598705701
696550000.0 -0.0383376202 0.1594538289
706500000.0 0.0035436265 0.1531112352
716450000.0 0.044591139 0.141818521
726400000.0 0.0789145072 0.1222735299
736350000.0 0.1034376659 0.0930991515
746300000.0 0.1159049501 0.0532928871
756250000.0 0.1161763435 0.0026013189
766200000.0 0.1049542895 -0.0547032821
776150000.0 0.0837544735 -0.1133545249
786100000.0 0.0523196356 -0.1677054525
796050000.0 0.0107645964 -0.2097403763
806000000.0 -0.0397454248 -0.2353306514
815950000.0 -0.099835662 -0.2410107256
825900000.0 -0.166686325 -0.2278799294
835850000.0 -0.2365423571 -0.1987728404
845800000.0 -0.3035678192 -0.157229695
855750000.0 -0.3624041777 -0.1052475333
865700000.0 -0.4051765081 -0.0447186665
875650000.0 -0.4281151058 0.0241965759
885600000.0 -0.4275256193 0.1002792666
895550000.0 -0.4039688003 0.181749773
905500000.0 -0.3595614962 0.2664979169
915450000.0 -0.2969115657 0.3488873567
925400000.0 -0.2165027287 0.4215421778
935350000.0 -0.1188658567 0.4752386029
945300000.0 -0.0043041985 0.4988661317
955250000.0 0.1254208725 0.4826156523
965200000.0 0.2641469783 0.4178325122
975150000.0 0.4003658189 0.3008092067
985100000.0 0.5134307363 0.1293994223
995050000.0 0.5731918764 -0.089360121
1005000000.0 0.5429482854 -0.3293571114
1014950000.0 0.3944053565 -0.5503699626
1024900000.0 0.1348545117 -0.6908056177
1034850000.0 -0.1864309092 -0.7140419216
1044800000.0 -0.4965983127 -0.6168681541
1054750000.0 -0.7291287653 -0.4285722991
1064700000.0 -0.8389427698 -0.1840628185
1074650000.0 -0.819524437 0.0705760284
1084600000.0 -0.7397491845 0.3207677505
1094550000.0 -0.6216947793 0.547181081
1104500000.0 -0.4158775191 0.7154164612
1114450000.0 -0.1609100257 0.8013511861
1124400000.0 0.1056411853 0.7950144362
1134350000.0 0.342185799 0.6964378096
1144300000.0 0.5191196302 0.524171091
1154250000.0 0.6217002664 0.3114258135
1164200000.0 0.6549521206 0.0932955467
1174150000.0 0.638965083 -0.1070591078
1184100000.0 0.581584832 -0.2869155896
1194050000.0 0.4851464885 -0.431107208
1204000000.0 0.36179391 -0.5318116724
1213950000.0 0.2251415395 -0.5898802718
1223900000.0 0.0868860116 -0.6144784157
1233850000.0 -0.0449297307 -0.6162039632
1243800000.0 -0.1650764523 -0.6020357554
1253750000.0 -0.2718996658 -0.5757695554
1263700000.0 -0.3625239166 -0.5378081935
1273650000.0 -0.4381684697 -0.4883923265
1283600000.0 -0.4961393571 -0.4270630248
1293550000.0 -0.5407983021 -0.3560707462
1303500000.0 -0.5762839542 -0.2792437857
1313450000.0 -0.6060979003 -0.2017477504
1323400000.0 -0.6326663125 -0.1262755392
1333350000.0 -0.6540905001 -0.0550091907
1343300000.0 -0.6676142982 0.0130033455
1353250000.0 -0.6706682324 0.0767159403
1363200000.0 -0.6593745889 0.1384888625
1373150000.0 -0.633733728 0.1998416361
1383100000.0 -0.5980715619 0.2609199304
1393050000.0 -0.5568301359 0.3223829437
1403000000.0 -0.5137716038 0.3822792083
1412950000.0 -0.4696660966 0.4392552304
1422900000.0 -0.4237479715 0.4895832655
1432850000.0 -0.3744894993 0.5302739962
1442800000.0 -0.3183152113 0.5602330251
1452750000.0 -0.2532936906 0.5791950016
1462700000.0 -0.1782932158 0.5889447687
1472650000.0 -0.0928677406 0.592061982
1482600000.0 0.0092777777 0.5793293335
1492550000.0 0.0380607819 0.5499127303
1502500000.0 0.1239105842 0.5614655547
1512450000.0 0.202564824 0.5397753175
1522400000.0 0.2703281291 0.5006439965
1532350000.0 0.3283422996 0.4428460174
1542300000.0 0.3788404898 0.3696840623
1552250000.0 0.4230369912 0.2845725551
1562200000.0 0.4619455362 0.1930165491
1572150000.0 0.4914521071 0.0981188362
1582100000.0 0.5070351741 0.0028146596
1592050000.0 0.5046127764 -0.0899239745
1602000000.0 0.4802979623 -0.1782478654
1611950000.0 0.4351543918 -0.2601752024
1621900000.0 0.3730991382 -0.3360645818
1631850000.0 0.2995749494 -0.4060536934
1641800000.0 0.2199438663 -0.4688258426
1651750000.0 0.1376163106 -0.520745294
1661700000.0 0.0548376669 -0.558447811
1671650000.0 -0.0270640686 -0.5779511105
1681600000.0 -0.10649574 -0.5782094048
1691550000.0 -0.1842474146 -0.5622162396
1701500000.0 -0.2603070887 -0.5341239472
1711450000.0 -0.3334075973 -0.5001395701
1721400000.0 -0.4030515704 -0.4633239483
1731350000.0 -0.4665190465 -0.4260487896
1741300000.0 -0.5206537782 -0.3868482867
1751250000.0 -0.5629648969 -0.3421226967
1761200000.0 -0.5917999245 -0.2922569395
1771150000.0 -0.6092689069 -0.2362383357
1781100000.0 -0.6199502038 -0.1759417624
1791050000.0 -0.628464602 -0.1148556562
1801000000.0 -0.6370508339 -0.0552763148
1810950000.0 -0.6473041953 0.0007334098
1820900000.0 -0.6559478853 0.0537460864
1830850000.0 -0.6574543053 0.1004878998
1840800000.0 -0.6486411129 0.1449710619
1850750000.0 -0.6274893804 0.1863645115
1860700000.0 -0.5941065412 0.225857381
1870650000.0 -0.5547380764 0.264715289
1880600000.0 -0.5136388876 0.3015360053
1890550000.0 -0.4755763886 0.3361600414
1900500000.0 -0.4417519036 0.3660147198
1910450000.0 -0.4104081535 0.3885686431
1920400000.0 -0.3790398737 0.4016433836
1930350000.0 -0.3440479577 0.4045460313
1940300000.0 -0.3034793048 0.3973519845
1950250000.0 -0.2580224924 0.3820250686
1960200000.0 -0.2091757398 0.3627582378
1970150000.0 -0.1631347104 0.3397548079
1980100000.0 -0.1238765108 0.3137379869
1990050000.0 -0.0952805944 0.2814479227
2000000000.0 -0.0800590637 0.2395279247
