!Created with skrf (http://scikit-rf.org).
# GHz S RI R 50.0 
!freq ReS11 ImS11
10000000.0 -0.7973962729 0.603229771
19950000.0 -0.2861595869 0.9463493947
29900000.0 0.3263176082 0.9277272197
39850000.0 0.816459636 0.5508335563
49800000.0 0.9896362078 -0.0545726309
59750000.0 0.7537812147 -0.6550393896
69700000.0 0.1797719742 -0.9847676732
79650000.0 -0.4891867719 -0.8659581446
89600000.0 -0.9274240105 -0.3230891082
99550000.0 -0.8875313648 0.394283009
109500000.0 -0.3460619417 0.9044661148
119450000.0 0.4285033731 0.8759625719
129400000.0 0.9490056068 0.2528055869
139350000.0 0.81670671 -0.5511196165
149300000.0 0.1017418887 -0.9669176803
159250000.0 -0.65962541 -0.6917216601
169200000.0 -0.9476626039 0.0350855831
179150000.0 -0.6276669825 0.7154756549
189100000.0 0.0532421216 0.9586217274
199050000.0 0.6894379885 0.6741815371
209000000.0 0.9571942248 0.0548191186
218950000.0 0.7605313955 -0.563336583
228900000.0 0.2282251253 -0.9055616257
238850000.0 -0.3917393734 -0.8389567651
248800000.0 -0.6176218936 -0.4168224692
258750000.0 -0.9170581237 0.1532085971
268700000.0 -0.6321201785 0.6864190801
278650000.0 -0.0835731225 0.9236262309
288600000.0 0.4887451774 0.768138072
298550000.0 0.8354680622 0.2928892408
308500000.0 0.8056156388 -0.2906760415
318450000.0 0.4136151977 -0.7154098978
328400000.0 -0.1514783516 -0.7805951945
338350000.0 -0.6015186946 -0.4592101099
348300000.0 -0.7013437414 0.058560083
358250000.0 -0.4275135459 0.4662740934
368200000.0 0.0114395064 0.5458628894
378150000.0 0.3307737104 0.3137741701
388100000.0 0.372926034 -0.0249014087
398050000.0 0.1864208691 -0.2449776492
408000000.0 -0.0532128694 -0.2533677736
417950000.0 -0.1910943465 -0.110410218
427900000.0 -0.1801740246 0.055515488
437850000.0 -0.0700046491 0.1432614378
447800000.0 0.0501878829 0.1264795156
457750000.0 0.1117419491 0.0418521724
467700000.0 0.095781522 -0.0465157314
477650000.0 0.0343426169 -0.0877495284
487600000.0 -0.0214738043 -0.0709632707
497550000.0 -0.0152583293 -0.1069921136
507500000.0 -0.0618792702 -0.0094726493
517450000.0 -0.0323711859 0.0088776831
527400000.0 -0.0149481466 -0.0013877729
537350000.0 -0.0224683386 -0.0184229115
547300000.0 -0.0529093764 -0.0179177893
557250000.0 -0.0737837681 0.019298641
567200000.0 -0.0609364902 0.0695863823
577150000.0 -0.0090966846 0.106424838
587100000.0 0.0657459983 0.1007665425
597050000.0 0.1288750945 0.0426598594
607000000.0 0.1446787035 -0.0505529264
616950000.0 0.0977197601 -0.1407608318
626900000.0 0.0024036169 -0.186487513
636850000.0 -0.10400795 -0.164761741
646800000.0 -0.1759988334 -0.0810997149
656750000.0 -0.1819974628 0.0301777786
666700000.0 -0.1163200329 0.1218235464
676650000.0 -0.0075660791 0.1531415274
686600000.0 0.0948999687 0.1094235866
696550000.0 0.145237141 0.0140220335
706500000.0 0.1225356721 -0.0853790553
716450000.0 0.0427712463 -0.1398667485
726400000.0 -0.0481498171 -0.1218684134
736350000.0 -0.0962209122 -0.0435168491
746300000.0 -0.0710735487 0.0483181791
756250000.0 0.0189156657 0.0969557223
766200000.0 0.1236528407 0.0655660859
776150000.0 0.1803137316 -0.038478704
786100000.0 0.1453806374 -0.1636639783
796050000.0 0.0215620961 -0.2376849854
806000000.0 -0.1380709089 -0.2054329306
815950000.0 -0.2498867284 -0.0618232421
825900000.0 -0.2446425367 0.1374287387
835850000.0 -0.1073535664 0.3008812901
845800000.0 0.112097892 0.3467205145
855750000.0 0.3216347427 0.24314938
865700000.0 0.4257892556 0.0242774311
875650000.0 0.3696644905 -0.2223050088
885600000.0 0.1623600967 -0.3879838824
895550000.0 -0.115568155 -0.386903964
905500000.0 -0.3390256922 -0.2054599836
915450000.0 -0.3961312024 0.0847392537
925400000.0 -0.248021407 0.3448644431
935350000.0 0.0380993056 0.4396565427
945300000.0 0.3169747051 0.3080355401
955250000.0 0.4243992696 0.0028620789
965200000.0 0.2598825265 -0.3070970443
975150000.0 -0.1197243467 -0.3908054068
985100000.0 -0.4520980147 -0.1143707936
995050000.0 -0.427031434 0.3613075343
1005000000.0 0.0080803592 0.6488582859
1014950000.0 0.5459104408 0.4615350581
1024900000.0 0.7500375845 -0.1243752288
1034850000.0 0.3979033317 -0.6908120168
1044800000.0 -0.2868431243 -0.7776816363
1054750000.0 -0.7865897672 -0.3171586175
1064700000.0 -0.773635745 0.3124870968
1074650000.0 -0.3612931145 0.707175961
1084600000.0 0.1164479637 0.7775543033
1094550000.0 0.5939721063 0.4863187097
1104500000.0 0.7157768053 -0.0543556723
1114450000.0 0.4359634149 -0.5119792929
1124400000.0 -0.0673129475 -0.6448110007
1134350000.0 -0.502382873 -0.3884787624
1144300000.0 -0.6113213856 0.0740264996
1154250000.0 -0.3782103399 0.4477887223
1164200000.0 0.021986839 0.5461722957
1174150000.0 0.3694101064 0.3517059405
1184100000.0 0.4846808737 -0.0313733898
1194050000.0 0.2974487517 -0.3802319749
1204000000.0 -0.0666971335 -0.4975685092
1213950000.0 -0.3986669777 -0.3508470415
1223900000.0 -0.5561352566 -0.0423429842
1233850000.0 -0.4951645047 0.2901479671
1243800000.0 -0.2458526997 0.5218976663
1253750000.0 0.1011593782 0.5606505083
1263700000.0 0.4127102041 0.3782114439
1273650000.0 0.5558290815 0.0385220542
1283600000.0 0.4706052326 -0.3191104694
1293550000.0 0.2038456547 -0.5574228262
1303500000.0 -0.1375477799 -0.6071766786
1313450000.0 -0.4435297018 -0.4706434881
1323400000.0 -0.6294944893 -0.1975593757
1333350000.0 -0.6440965073 0.1366307754
1343300000.0 -0.4714325739 0.4375105312
1353250000.0 -0.1488293093 0.6000533958
1363200000.0 0.2210798699 0.5529912437
1373150000.0 0.5033472954 0.3042862861
1383100000.0 0.597278729 -0.0521425364
1393050000.0 0.4878282676 -0.3870579069
1403000000.0 0.2303455444 -0.6024782551
1412950000.0 -0.0891549538 -0.6498872009
1422900000.0 -0.3820138334 -0.5267147712
1432850000.0 -0.5671256683 -0.2653751447
1442800000.0 -0.5839361971 0.0612770761
1452750000.0 -0.4173097217 0.3512153308
1462700000.0 -0.1143783413 0.5063265817
1472650000.0 0.223470744 0.4683848097
1482600000.0 0.4761739382 0.2545811708
1492550000.0 0.5632281407 -0.0498729468
1502500000.0 0.4721532005 -0.3376591779
1512450000.0 0.2440485022 -0.520648931
1522400000.0 -0.0454438777 -0.5441769343
1532350000.0 -0.2995267261 -0.3960320695
1542300000.0 -0.4229792843 -0.1220661206
1552250000.0 -0.359530309 0.1748576758
1562200000.0 -0.1328391861 0.3708024028
1572150000.0 0.1550941783 0.3875488315
1582100000.0 0.380642833 0.2347327035
1592050000.0 0.4624510196 -0.0123084786
1602000000.0 0.3797958549 -0.2521518554
1611950000.0 0.1666087563 -0.3937614407
1621900000.0 -0.0973705691 -0.3779017855
1631850000.0 -0.3054579761 -0.1971958684
1641800000.0 -0.3595083605 0.0838058872
1651750000.0 -0.2251398238 0.3402022028
1661700000.0 0.0362765144 0.4557317586
1671650000.0 0.307560316 0.391092241
1681600000.0 0.4868013977 0.182267211
1691550000.0 0.5152589347 -0.0948870541
1701500000.0 0.3774181357 -0.3481038389
1711450000.0 0.1071594751 -0.4858446509
1721400000.0 -0.2092304203 -0.4397962833
1731350000.0 -0.4449318763 -0.2104360328
1741300000.0 -0.500636827 0.1119570721
1751250000.0 -0.3659910661 0.3956141149
1761200000.0 -0.1159379959 0.5509443696
1771150000.0 0.1672289731 0.5603370461
1781100000.0 0.4191905296 0.4257837311
1791050000.0 0.5694092753 0.1747556681
1801000000.0 0.5658551378 -0.1292371511
1810950000.0 0.3931507871 -0.3957639429
1820900000.0 0.091834645 -0.5271408357
1830850000.0 -0.2358372946 -0.4675859625
1840800000.0 -0.470011411 -0.2387252956
1850750000.0 -0.5379797826 0.0667224967
1860700000.0 -0.4407707549 0.3428293407
1870650000.0 -0.2282488104 0.5191697915
1880600000.0 0.0296614361 0.5602858459
1890550000.0 0.2654813101 0.4669408907
1900500000.0 0.4178895 0.2662060508
1910450000.0 0.4389737194 0.0143834218
1920400000.0 0.3186447584 -0.2060448432
1930350000.0 0.1040353179 -0.3165453194
1940300000.0 -0.1170489826 -0.2898781604
1950250000.0 -0.2651873884 -0.163797337
1960200000.0 -0.3088070372 -0.0078856599
1970150000.0 -0.2658918373 0.112617069
1980100000.0 -0.184716509 0.158605312
1990050000.0 -0.1310707416 0.1309802806
2000000000.0 -0.1592425115 0.0895247874
