!Created with skrf (http://scikit-rf.org).
# GHz S RI R 50.0 
!freq ReS11 ImS11
10000000.0 -0.7629297728 0.5777441383
19950000.0 -0.2830196338 0.9068995231
29900000.0 0.2978289468 0.8891457031
39850000.0 0.768368373 0.5251932403
49800000.0 0.937708848 -0.0650283356
59750000.0 0.7080448236 -0.6578802246
69700000.0 0.1424780699 -0.9840431372
79650000.0 -0.5125943345 -0.8539081432
89600000.0 -0.9226892128 -0.2936618096
99550000.0 -0.8423360507 0.4290446428
109500000.0 -0.2599942658 0.914371967
119450000.0 0.5290288552 0.8217505962
129400000.0 0.9955088022 0.1298325302
139350000.0 0.7437348077 -0.6840718
149300000.0 -0.04154883 -0.9782404354
159250000.0 -0.7359813563 -0.5707020543
169200000.0 -0.8930020728 0.1767584176
179150000.0 -0.4994152115 0.7759108818
189100000.0 0.1579088357 0.9246024805
199050000.0 0.717297034 0.5977968287
209000000.0 0.920592908 -0.0026900287
218950000.0 0.7074104115 -0.5697559785
228900000.0 0.2046364398 -0.869586042
238850000.0 -0.364666535 -0.7996463896
248800000.0 -0.7618677582 -0.4091136932
258750000.0 -0.8717861726 0.1536481648
268700000.0 -0.620459299 0.6617508012
278650000.0 -0.122388353 0.911113467
288600000.0 0.4163138814 0.7997691163
298550000.0 0.7737453697 0.3766678304
308500000.0 0.801621669 -0.1824129519
318450000.0 0.4818763626 -0.6402645911
328400000.0 -0.0485345146 -0.7909758531
338350000.0 -0.5350798148 -0.5577593833
348300000.0 -0.71988117 -0.0715007125
358250000.0 -0.5220942794 0.3722246338
368200000.0 -0.1110727567 0.5216287491
378150000.0 0.2260963343 0.3517312325
388100000.0 0.3132347445 0.0485709046
398050000.0 0.1788197933 -0.1630945797
408000000.0 -0.0149463614 -0.1842973731
417950000.0 -0.1200047109 -0.0727036691
427900000.0 -0.0959227074 0.0504189991
437850000.0 0.0023692913 0.0936889606
447800000.0 0.0901357507 0.04200582
457750000.0 0.1092343028 -0.0541669535
467700000.0 0.0550437914 -0.1324486394
477650000.0 -0.0311929238 -0.1469705561
487600000.0 -0.098311015 -0.0970312678
497550000.0 -0.1155344135 -0.0177083851
507500000.0 -0.0778711173 0.0559602265
517450000.0 -0.0108963244 0.0835025741
527400000.0 0.0452860637 0.066289336
537350000.0 0.0643314842 0.0241145706
547300000.0 0.0452943479 -0.0082788603
557250000.0 0.0078524948 -0.0125494659
567200000.0 -0.0172553711 0.0127532508
577150000.0 -0.0091422436 0.0445175071
587100000.0 0.0271677615 0.0534456328
597050000.0 0.0674250253 0.0220896027
607000000.0 0.0778809829 -0.0405205521
616950000.0 0.0411426339 -0.1031534906
626900000.0 -0.0321313493 -0.1313910236
636850000.0 -0.1112321996 -0.1027220414
646800000.0 -0.1577887577 -0.0249130554
656750000.0 -0.1463986715 0.0707710728
666700000.0 -0.0761352309 0.1421905812
676650000.0 0.025545498 0.1535085404
686600000.0 0.1156286012 0.0941416333
696550000.0 0.1507792428 -0.011861754
706500000.0 0.112320101 -0.1191385297
716450000.0 0.0189979178 -0.1788003968
726400000.0 -0.0859513336 -0.1613991646
736350000.0 -0.1458777299 -0.0776467078
746300000.0 -0.1269413875 0.0279923681
756250000.0 -0.0352428169 0.0968275216
766200000.0 0.0824382872 0.0857707723
776150000.0 0.1625644104 -0.0009987673
786100000.0 0.1575912572 -0.1197797946
796050000.0 0.0640979894 -0.201087477
806000000.0 -0.0712956078 -0.18739579
815950000.0 -0.1728262708 -0.0721241483
825900000.0 -0.1733480964 0.0964672401
835850000.0 -0.0590495126 0.2347043403
845800000.0 0.124616796 0.2658764257
855750000.0 0.2937738981 0.1642046336
865700000.0 0.364270199 -0.0351134969
875650000.0 0.285781515 -0.2453326438
885600000.0 0.0768084121 -0.3584542246
895550000.0 -0.1720333134 -0.3029345126
905500000.0 -0.3350549479 -0.0846115725
915450000.0 -0.3195323029 0.2010269855
925400000.0 -0.121133838 0.4094736685
935350000.0 0.1641466843 0.4322961807
945300000.0 0.3957467903 0.2490038954
955250000.0 0.4407033744 -0.0699250952
965200000.0 0.2307784961 -0.3595052363
975150000.0 -0.1563610208 -0.4153721961
985100000.0 -0.4866709281 -0.1356448422
995050000.0 -0.4833552688 0.3327047211
1005000000.0 -0.0863610903 0.648152071
1014950000.0 0.4494560382 0.519337634
1024900000.0 0.7044086674 -0.0277904452
1034850000.0 0.4194320415 -0.6130018581
1044800000.0 -0.240393156 -0.7533103284
1054750000.0 -0.7580382226 -0.3121303558
1064700000.0 -0.7650183294 0.3279470369
1074650000.0 -0.3292714862 0.7705184617
1084600000.0 0.2681354836 0.7620652417
1094550000.0 0.6867499274 0.3425788826
1104500000.0 0.6918623319 -0.2548484849
1114450000.0 0.276945672 -0.6756911781
1124400000.0 -0.2845570465 -0.6658288255
1134350000.0 -0.6424555522 -0.2813875363
1144300000.0 -0.6358646055 0.2077159883
1154250000.0 -0.3280351331 0.5466450762
1164200000.0 0.1040629036 0.6030830435
1174150000.0 0.4686372425 0.367943592
1184100000.0 0.5821038442 -0.0558412944
1194050000.0 0.3771055208 -0.4371257304
1204000000.0 -0.0141909153 -0.5725597717
1213950000.0 -0.3781511978 -0.4295844947
1223900000.0 -0.5690134652 -0.1113428799
1233850000.0 -0.5392625834 0.2443588616
1243800000.0 -0.3118767408 0.5133853189
1253750000.0 0.0349876178 0.5955214562
1263700000.0 0.3715324874 0.4452050514
1273650000.0 0.5508784705 0.1138692183
1283600000.0 0.4954435187 -0.2553946616
1293550000.0 0.2457391979 -0.5124951683
1303500000.0 -0.0860357756 -0.5812868486
1313450000.0 -0.386413798 -0.4645112154
1323400000.0 -0.5774984645 -0.2117032433
1333350000.0 -0.6134208297 0.1081267079
1343300000.0 -0.4704402743 0.4082533257
1353250000.0 -0.1695543562 0.579258138
1363200000.0 0.1883710977 0.5389399654
1373150000.0 0.4607788179 0.2908971754
1383100000.0 0.542350923 -0.0607234105
1393050000.0 0.4244281142 -0.3857645618
1403000000.0 0.1677772468 -0.5865262651
1412950000.0 -0.1373708738 -0.6176732254
1422900000.0 -0.403424042 -0.4824527684
1432850000.0 -0.5569810125 -0.2162847617
1442800000.0 -0.5434225255 0.107147969
1452750000.0 -0.3435737422 0.3787515534
1462700000.0 -0.0178172185 0.4870520352
1472650000.0 0.3056473396 0.3897724427
1482600000.0 0.5079164781 0.1334974309
1492550000.0 0.5278559548 -0.1784983784
1502500000.0 0.3742373663 -0.4371513651
1512450000.0 0.1076984638 -0.5586425105
1522400000.0 -0.1773351642 -0.5018909326
1532350000.0 -0.3773501518 -0.2803953804
1542300000.0 -0.4096791693 0.0268685266
1552250000.0 -0.2516889149 0.2989730971
1562200000.0 0.0326251596 0.4205741231
1572150000.0 0.3197771229 0.347653347
1582100000.0 0.4953952631 0.1247738804
1592050000.0 0.4987911241 -0.1519457616
1602000000.0 0.3320833801 -0.3762956645
1611950000.0 0.0554070151 -0.4598750757
1621900000.0 -0.2297327249 -0.3593150063
1631850000.0 -0.4080368602 -0.0984422329
1641800000.0 -0.3957017363 0.2221675183
1651750000.0 -0.1917383662 0.4697007035
1661700000.0 0.1139976591 0.5402813593
1671650000.0 0.396749307 0.4177281993
1681600000.0 0.5565034335 0.1580723018
1691550000.0 0.5464442685 -0.1480738795
1701500000.0 0.3692603244 -0.406118806
1711450000.0 0.0735677581 -0.5291147915
1721400000.0 -0.2535750436 -0.4639177469
1731350000.0 -0.4955230769 -0.2163600635
1741300000.0 -0.5561616374 0.1286763966
1751250000.0 -0.4130787657 0.4386939238
1761200000.0 -0.1319086884 0.6063143144
1771150000.0 0.1832093101 0.595241679
1781100000.0 0.4410590715 0.4261467608
1791050000.0 0.5787412024 0.1508932503
1801000000.0 0.5614387678 -0.1627139729
1810950000.0 0.3844873434 -0.4307652932
1820900000.0 0.0864027206 -0.5648217397
1830850000.0 -0.2420090077 -0.5040789572
1840800000.0 -0.4804256678 -0.265569526
1850750000.0 -0.5460806068 0.055340469
1860700000.0 -0.4385409922 0.3433478476
1870650000.0 -0.215720639 0.5224510133
1880600000.0 0.0485577139 0.5612973185
1890550000.0 0.281169317 0.4598382117
1900500000.0 0.4118908572 0.261333006
1910450000.0 0.4405859437 0.0325691597
1920400000.0 0.3445125169 -0.1945944692
1930350000.0 0.1390959326 -0.3238696734
1940300000.0 -0.0900618353 -0.3134066682
1950250000.0 -0.2565618402 -0.1903808489
1960200000.0 -0.3212288346 -0.0223526792
1970150000.0 -0.2909682316 0.124099818
1980100000.0 -0.2042713492 0.205686917
1990050000.0 -0.1186333339 0.2091857276
2000000000.0 -0.0874311636 0.1634521493
