!Created with skrf (http://scikit-rf.org).
# GHz S RI R 50.0 
!freq ReS11 ImS11
10000000.0 -0.7889573412 0.6007034372
19950000.0 -0.2806813303 0.944787624
29900000.0 0.3312875573 0.9281759453
39850000.0 0.8211250988 0.5511704057
49800000.0 0.9910413267 -0.0554153542
59750000.0 0.7492497784 -0.6534734426
69700000.0 0.1721555185 -0.9763972383
79650000.0 -0.4945546126 -0.850891185
89600000.0 -0.9272457913 -0.3043048775
99550000.0 -0.8789906766 0.4128126559
109500000.0 -0.3276120214 0.9143104971
119450000.0 0.4470767514 0.8661868403
129400000.0 0.9480766956 0.2312178463
139350000.0 0.7897228896 -0.5688910712
149300000.0 0.067046125 -0.9608774052
159250000.0 -0.6817592504 -0.6673616276
169200000.0 -0.9489982598 0.0614991629
179150000.0 -0.6136084006 0.7285664147
189100000.0 0.0677695877 0.9526960328
199050000.0 0.6923953613 0.6576819864
209000000.0 0.9485793704 0.0401205698
218950000.0 0.7482284929 -0.5717965576
228900000.0 0.2174066959 -0.9089371642
238850000.0 -0.3980720619 -0.8401504144
248800000.0 -0.6743027927 -0.3119408175
258750000.0 -0.9141644039 0.1551396897
268700000.0 -0.6253535367 0.6824597358
278650000.0 -0.0774633458 0.9147325616
288600000.0 0.4929300069 0.7572092695
298550000.0 0.8367850879 0.2807649509
308500000.0 0.8020772965 -0.3016627099
318450000.0 0.4053449153 -0.7199753052
328400000.0 -0.1590188891 -0.7745649785
338350000.0 -0.6008181606 -0.4443993436
348300000.0 -0.687539521 0.0749598312
358250000.0 -0.4013613123 0.4736608097
368200000.0 0.0387216437 0.5361946841
378150000.0 0.3439012096 0.2910804124
388100000.0 0.3668045333 -0.0453619186
398050000.0 0.168012447 -0.2513950196
408000000.0 -0.0717044958 -0.2434891973
417950000.0 -0.2003713419 -0.0906301282
427900000.0 -0.1785561786 0.0771443805
437850000.0 -0.0607103557 0.160921628
447800000.0 0.0630643617 0.1358947861
457750000.0 0.1220120564 0.0442216068
467700000.0 0.1023026799 -0.0474745568
477650000.0 0.038420345 -0.0918333029
487600000.0 -0.0185444394 -0.0808324126
497550000.0 -0.0909175355 -0.0876313607
507500000.0 -0.0681904762 -0.0059514786
517450000.0 -0.0394811788 0.0086651535
527400000.0 -0.0242965306 -0.0026936485
537350000.0 -0.0341775048 -0.0178745777
547300000.0 -0.060914083 -0.0117183715
557250000.0 -0.0764856368 0.0243095125
567200000.0 -0.0585220838 0.072827509
577150000.0 -0.0027530891 0.1043118785
587100000.0 0.0725118101 0.0925030181
597050000.0 0.1327733099 0.0301535234
607000000.0 0.1453163743 -0.064624016
616950000.0 0.0946343025 -0.1535614604
626900000.0 -0.0034725482 -0.1961800851
636850000.0 -0.1092601427 -0.1694397337
646800000.0 -0.1789521087 -0.0812978867
656750000.0 -0.1798264986 0.0325637373
666700000.0 -0.1096544031 0.1242452955
676650000.0 0.0015477303 0.1526707597
686600000.0 0.1034698306 0.1067385962
696550000.0 0.1508833886 0.0109332531
706500000.0 0.1256937183 -0.0855867301
716450000.0 0.0458460363 -0.1347175399
726400000.0 -0.0419404937 -0.1136027265
736350000.0 -0.0856956379 -0.0346065542
746300000.0 -0.0558976034 0.0549825097
756250000.0 0.0343916873 0.096160671
766200000.0 0.1333186566 0.0567459508
776150000.0 0.1789712643 -0.0500126287
786100000.0 0.1320556327 -0.1696851064
796050000.0 0.0018485949 -0.2325586362
806000000.0 -0.1563179426 -0.1874778445
815950000.0 -0.2588810643 -0.0347662877
825900000.0 -0.2394872921 0.1647217652
835850000.0 -0.0902824329 0.3186439351
845800000.0 0.1327980947 0.3484501004
855750000.0 0.3348213186 0.230049691
865700000.0 0.4244924182 0.0035011031
875650000.0 0.3528282381 -0.2394761935
885600000.0 0.1369461668 -0.3943527011
895550000.0 -0.1403236632 -0.3796673852
905500000.0 -0.3531845771 -0.1866087559
915450000.0 -0.3933342759 0.1029846987
925400000.0 -0.2327421935 0.3509296331
935350000.0 0.0546750774 0.4278340646
945300000.0 0.3203637584 0.2810688576
955250000.0 0.4041703954 -0.0246696578
965200000.0 0.2175215467 -0.3108141917
975150000.0 -0.1553751313 -0.3507692937
985100000.0 -0.4384578729 -0.047312976
995050000.0 -0.3519193884 0.4002679077
1005000000.0 0.0993178449 0.6189842096
1014950000.0 0.5951339852 0.3698669948
1024900000.0 0.7185759023 -0.228172713
1034850000.0 0.2988945183 -0.7348188075
1044800000.0 -0.3797778407 -0.7317498969
1054750000.0 -0.8149354978 -0.2263922873
1064700000.0 -0.7480639067 0.3887760143
1074650000.0 -0.3206883721 0.7724861114
1084600000.0 0.2465883392 0.7960498935
1094550000.0 0.6838550316 0.411964919
1104500000.0 0.7294369277 -0.1673147919
1114450000.0 0.3545265188 -0.6014601458
1124400000.0 -0.1925025131 -0.6320202596
1134350000.0 -0.5665137563 -0.2891207185
1144300000.0 -0.5904111519 0.1751010231
1154250000.0 -0.307044869 0.5006632979
1164200000.0 0.1003425287 0.5380102935
1174150000.0 0.4152332886 0.2926545598
1184100000.0 0.4706709346 -0.1047257204
1194050000.0 0.2357845599 -0.4224606756
1204000000.0 -0.13798306 -0.4912080111
1213950000.0 -0.4493387639 -0.3078518097
1223900000.0 -0.5714050354 0.0161318858
1233850000.0 -0.4735891325 0.3411708916
1243800000.0 -0.1983643444 0.5445307943
1253750000.0 0.1533510251 0.5455260551
1263700000.0 0.4454286863 0.3302821984
1273650000.0 0.5542691805 -0.0215897973
1283600000.0 0.4383592516 -0.3687439476
1293550000.0 0.15415747 -0.5824376236
1303500000.0 -0.1880515245 -0.6039854706
1313450000.0 -0.4803453175 -0.4433883043
1323400000.0 -0.6425955936 -0.1555783348
1333350000.0 -0.6283047737 0.1795805946
1343300000.0 -0.4297555851 0.4658984627
1353250000.0 -0.0930120537 0.6023165114
1363200000.0 0.272559533 0.5251757828
1373150000.0 0.5338316237 0.2559491361
1383100000.0 0.5995593861 -0.1043354414
1393050000.0 0.4659655979 -0.4277172942
1403000000.0 0.1939168995 -0.6221205413
1412950000.0 -0.1291104116 -0.6450548979
1422900000.0 -0.4146209549 -0.4983685936
1432850000.0 -0.5823335624 -0.2186960156
1442800000.0 -0.572946009 0.1168687958
1452750000.0 -0.3754028559 0.3995269256
1462700000.0 -0.0496664609 0.5246876955
1472650000.0 0.284387277 0.4461947854
1482600000.0 0.5072868939 0.2042179429
1492550000.0 0.5555331547 -0.1045190735
1502500000.0 0.4304463926 -0.3749211631
1512450000.0 0.1849420343 -0.5256726083
1522400000.0 -0.1017813723 -0.512654589
1532350000.0 -0.3323874364 -0.3351302721
1542300000.0 -0.4162916272 -0.0499369119
1552250000.0 -0.3101217416 0.2290284931
1562200000.0 -0.062308137 0.3792275696
1572150000.0 0.2108294205 0.3502375653
1582100000.0 0.4012384179 0.1718660126
1592050000.0 0.4433579279 -0.075912485
1602000000.0 0.3275310631 -0.2959197396
1611950000.0 0.097278123 -0.4028115974
1621900000.0 -0.1595740621 -0.3440253988
1631850000.0 -0.3299787808 -0.1328738952
1641800000.0 -0.3405238562 0.1436570346
1651750000.0 -0.1726783942 0.3763024919
1661700000.0 0.0999732136 0.4534515025
1671650000.0 0.3573807556 0.355635122
1681600000.0 0.5125813913 0.128068423
1691550000.0 0.5105895192 -0.1532754278
1701500000.0 0.3438362379 -0.3929693627
1711450000.0 0.0560090723 -0.5017820603
1721400000.0 -0.2579011971 -0.4212160859
1731350000.0 -0.4728720774 -0.1663463328
1741300000.0 -0.5008754213 0.1654842204
1751250000.0 -0.3410791038 0.4471315103
1761200000.0 -0.0647275025 0.5902367352
1771150000.0 0.2359809172 0.5669672903
1781100000.0 0.4778612199 0.3940776025
1791050000.0 0.5974805026 0.1186234773
1801000000.0 0.5546531646 -0.1886022479
1810950000.0 0.3456733542 -0.4347583299
1820900000.0 0.02584342 -0.5295527575
1830850000.0 -0.2938497902 -0.4295529328
1840800000.0 -0.499348505 -0.1764082277
1850750000.0 -0.5330891567 0.1299160452
1860700000.0 -0.410108592 0.3899096001
1870650000.0 -0.1863379749 0.5410596382
1880600000.0 0.071089354 0.5560841928
1890550000.0 0.2953938178 0.4389739447
1900500000.0 0.4234990801 0.2220093565
1910450000.0 0.4135330737 -0.0294954762
1920400000.0 0.2694101062 -0.2287775476
1930350000.0 0.0517137423 -0.3082276101
1940300000.0 -0.1500785161 -0.2600068841
1950250000.0 -0.2718005662 -0.1315907759
1960200000.0 -0.2961510067 0.0100146554
1970150000.0 -0.2497035141 0.1087154057
1980100000.0 -0.1803194856 0.1396781949
1990050000.0 -0.1427848402 0.1167200656
2000000000.0 -0.167296382 0.0926102663
