!Created with skrf (http://scikit-rf.org).
# GHz S RI R 50.0 
!freq ReS11 ImS11
10000000.0 -0.7492577772 0.6757481981
19950000.0 -0.1110503254 0.9784545023
29900000.0 0.5654052692 0.7843853184
39850000.0 0.9477144719 0.1834914155
49800000.0 0.8246602514 -0.5306197818
59750000.0 0.2331201996 -0.9759621875
69700000.0 -0.5163339777 -0.8764377755
79650000.0 -0.9769176282 -0.2592352102
89600000.0 -0.8421786812 0.5138568424
99550000.0 -0.1641475289 0.947053671
109500000.0 0.6348194081 0.7114843344
119450000.0 0.9671235935 -0.0915166254
129400000.0 0.4926650722 -0.8456610672
139350000.0 -0.4107762433 -0.9166492388
149300000.0 -0.9592402016 -0.1959584288
159250000.0 -0.6916977789 0.6425316851
169200000.0 0.1151413718 0.9207045724
179150000.0 0.8134061542 0.4691942574
189100000.0 0.9012675392 -0.3372430825
199050000.0 0.3583379929 -0.905722516
209000000.0 -0.3984274274 -0.8764520268
218950000.0 -0.8759691659 -0.3303650351
228900000.0 -0.8323681878 0.3712227981
238850000.0 -0.3241946382 0.8409940158
248800000.0 0.2805385249 0.6751294073
258750000.0 0.8443130021 0.3886823244
268700000.0 0.8948885443 -0.2981586354
278650000.0 0.4563077585 -0.8185589945
288600000.0 -0.2099018645 -0.8859749598
298550000.0 -0.7281941452 -0.4828923555
308500000.0 -0.8243782722 0.1573869647
318450000.0 -0.451213943 0.6784913155
328400000.0 0.1757032504 0.7764808385
338350000.0 0.6647539974 0.3907752333
348300000.0 0.6908767742 -0.2048040842
358250000.0 0.2811426686 -0.5759424005
368200000.0 -0.2087670275 -0.5021868628
378150000.0 -0.4288897949 -0.1298167943
388100000.0 -0.2986106966 0.2157517512
398050000.0 -0.0036840077 0.3059161938
408000000.0 0.1996406933 0.1558167838
417950000.0 0.1965532669 -0.0496176784
427900000.0 0.0565960999 -0.1463072365
437850000.0 -0.077950674 -0.0982984029
447800000.0 -0.1127804432 0.0185497612
457750000.0 -0.0501276 0.1030227947
467700000.0 0.0414603553 0.1024868788
477650000.0 0.0886608877 0.0388071416
487600000.0 0.0688919944 -0.0262558045
497550000.0 0.0191736844 -0.0287875371
507500000.0 -0.0222931905 -0.0581646161
517450000.0 -0.0377896529 -0.0104376191
527400000.0 -0.0192182684 0.0086337808
537350000.0 -0.003869823 -0.004959803
547300000.0 -0.0181006822 -0.0309210173
557250000.0 -0.0625305079 -0.0294274109
567200000.0 -0.0946143079 0.014807052
577150000.0 -0.0811034913 0.0801989341
587100000.0 -0.0136703079 0.1217139227
597050000.0 0.0762167258 0.1008745784
607000000.0 0.1337384561 0.0132688826
616950000.0 0.1156196579 -0.100281371
626900000.0 0.0208788722 -0.177647976
636850000.0 -0.1064140774 -0.1714647417
646800000.0 -0.1980534681 -0.0790876072
656750000.0 -0.2020185879 0.0527825144
666700000.0 -0.1130433759 0.1517937893
676650000.0 0.0201853935 0.1625233526
686600000.0 0.1230936925 0.079051027
696550000.0 0.1398594344 -0.049053043
706500000.0 0.0655991353 -0.1461374767
716450000.0 -0.0466696314 -0.1588875175
726400000.0 -0.1248072465 -0.0887243792
736350000.0 -0.1184272127 0.0099066729
746300000.0 -0.0364299818 0.0625327824
756250000.0 0.0557333433 0.0273015001
766200000.0 0.0846045487 -0.0729573512
776150000.0 0.0165490064 -0.164560687
786100000.0 -0.1101966732 -0.168576488
796050000.0 -0.2060783979 -0.0613410534
806000000.0 -0.1868239783 0.1036328783
815950000.0 -0.0370860361 0.2168541645
825900000.0 0.1699275439 0.1875634774
835850000.0 0.3093173635 0.0069784388
845800000.0 0.2823314805 -0.2357429795
855750000.0 0.0848458599 -0.4019905681
865700000.0 -0.186373678 -0.3857932873
875650000.0 -0.3823534194 -0.1789048102
885600000.0 -0.3855124127 0.1203367115
895550000.0 -0.1751887456 0.3511986908
905500000.0 0.1467515409 0.3773878917
915450000.0 0.4042807378 0.1684370088
925400000.0 0.4433885888 -0.1664304663
935350000.0 0.2320023275 -0.4340176034
945300000.0 -0.1110252391 -0.4707836566
955250000.0 -0.3801237233 -0.2438651727
965200000.0 -0.3966531763 0.1176396518
975150000.0 -0.1231629207 0.3762676
985100000.0 0.2673548267 0.3192482043
995050000.0 0.459225503 -0.0508904831
1005000000.0 0.2444183002 -0.4408854255
1014950000.0 -0.2335809117 -0.4779774839
1024900000.0 -0.5599955092 -0.0641997174
1034850000.0 -0.3778701866 0.4924332917
1044800000.0 0.246411837 0.6584389355
1054750000.0 0.7579681885 0.189584608
1064700000.0 0.6337595694 -0.5099643272
1074650000.0 0.0493849852 -0.7998385847
1084600000.0 -0.5815640766 -0.5697755887
1094550000.0 -0.8006871607 0.082077537
1104500000.0 -0.4382820737 0.6658626577
1114450000.0 0.2537682681 0.7429194096
1124400000.0 0.714644791 0.2426896269
1134350000.0 0.591905751 -0.3863503453
1144300000.0 0.06168985 -0.6503668722
1154250000.0 -0.434121945 -0.4191026872
1164200000.0 -0.5553139465 0.0778558778
1174150000.0 -0.2580318297 0.4552113406
1184100000.0 0.1986651006 0.4568883445
1194050000.0 0.471814958 0.1085840233
1204000000.0 0.3763979578 -0.3048347577
1213950000.0 0.0194123354 -0.4993550827
1223900000.0 -0.3572920455 -0.3803398955
1233850000.0 -0.53963958 -0.0344083639
1243800000.0 -0.4300522211 0.343996251
1253750000.0 -0.0841833259 0.543795242
1263700000.0 0.3079001463 0.4490409999
1273650000.0 0.5323611642 0.1144438926
1283600000.0 0.4830826498 -0.2805972447
1293550000.0 0.1990021793 -0.5495237422
1303500000.0 -0.1864715694 -0.5836706356
1313450000.0 -0.5119055833 -0.3730634382
1323400000.0 -0.6400310004 -0.0014460025
1333350000.0 -0.5034284808 0.3760040655
1343300000.0 -0.1504228279 0.5848825481
1353250000.0 0.2599048056 0.5185863285
1363200000.0 0.5336632165 0.2075400851
1373150000.0 0.5529652617 -0.1996290661
1383100000.0 0.322987669 -0.5250690988
1393050000.0 -0.0492263724 -0.6428744825
1403000000.0 -0.4128126086 -0.5139596708
1412950000.0 -0.6233951101 -0.1907018295
1422900000.0 -0.5904397236 0.1956045491
1432850000.0 -0.3212754688 0.4789391452
1442800000.0 0.0661280278 0.5313087734
1452750000.0 0.3969396566 0.3325257253
1462700000.0 0.5310422391 -0.0222427761
1472650000.0 0.4187813166 -0.376988192
1482600000.0 0.1150680671 -0.5808974655
1492550000.0 -0.2441046535 -0.5494194172
1502500000.0 -0.4996821641 -0.2990073367
1512450000.0 -0.5345528662 0.0564614871
1522400000.0 -0.3292719464 0.3496958332
1532350000.0 0.0158383289 0.4348236608
1542300000.0 0.3240958032 0.2717405354
1552250000.0 0.4402787851 -0.04359366
1562200000.0 0.3232869609 -0.3431806049
1572150000.0 0.0484835544 -0.4878353361
1582100000.0 -0.2502456264 -0.4156021306
1592050000.0 -0.4251369999 -0.1603544142
1602000000.0 -0.381578605 0.1504780405
1611950000.0 -0.134487159 0.3502731603
1621900000.0 0.1835393188 0.3257545802
1631850000.0 0.3975697791 0.0856944646
1641800000.0 0.3842663755 -0.2350379791
1651750000.0 0.1530032232 -0.456190594
1661700000.0 -0.1674930291 -0.4606791694
1671650000.0 -0.4114379845 -0.2488818901
1681600000.0 -0.4572072053 0.0763143668
1691550000.0 -0.2753122026 0.3593040797
1701500000.0 0.057067675 0.4530814934
1711450000.0 0.3641769414 0.2958904324
1721400000.0 0.4853348568 0.0042937011
1731350000.0 0.425119015 -0.32864152
1741300000.0 0.1329247388 -0.5452012077
1751250000.0 -0.2274017197 -0.5200275239
1761200000.0 -0.4930079715 -0.2796769848
1771150000.0 -0.5595043298 0.0732822248
1781100000.0 -0.3973089501 0.3990914323
1791050000.0 -0.0630465392 0.5599851953
1801000000.0 0.305593238 0.4737273511
1810950000.0 0.5363075278 0.1696540051
1820900000.0 0.5188064215 -0.2094992848
1830850000.0 0.2726682682 -0.4871592356
1840800000.0 -0.0815577138 -0.5543875563
1850750000.0 -0.3966631304 -0.4025629539
1860700000.0 -0.5588212308 -0.1018785843
1870650000.0 -0.5145529947 0.2327264709
1880600000.0 -0.28139302 0.4734839387
1890550000.0 0.0497734593 0.5206333682
1900500000.0 0.3348433834 0.3529980778
1910450000.0 0.4474697346 0.0525501076
1920400000.0 0.3533041455 -0.2395827928
1930350000.0 0.1172506008 -0.4031601063
1940300000.0 -0.1495100472 -0.3943889909
1950250000.0 -0.3426870597 -0.2434421666
1960200000.0 -0.4032499624 -0.0264989736
1970150000.0 -0.3294940471 0.1631200856
1980100000.0 -0.173740693 0.256227571
1990050000.0 -0.0152434529 0.2348822907
2000000000.0 0.0724135079 0.1365258708
