!Created with skrf (http://scikit-rf.org).
# GHz S RI R 50.0 
!freq ReS11 ImS11
10000000.0 -0.9863770739 0.0736160813
19950000.0 -0.9763751098 0.1405993128
29900000.0 -0.9614119924 0.2093456846
39850000.0 -0.9400698197 0.2814363456
49800000.0 -0.9090985853 0.359736078
59750000.0 -0.8660123007 0.446126335
69700000.0 -0.8065624161 0.5412163992
79650000.0 -0.7257548627 0.6454729182
89600000.0 -0.6145142214 0.7549750896
99550000.0 -0.4635824742 0.8606984921
109500000.0 -0.264118612 0.9466130907
119450000.0 -0.0124962991 0.9862101049
129400000.0 0.2851356734 0.9356755969
139350000.0 0.5549911941 0.8197884318
149300000.0 0.7869245166 0.6020200429
159250000.0 0.9323847801 0.3342342001
169200000.0 0.9849899882 0.0614544467
179150000.0 0.9627511628 -0.1814061166
189100000.0 0.89252033 -0.3799263784
199050000.0 0.79969382 -0.5337264614
209000000.0 0.6990968543 -0.6486715489
218950000.0 0.6006119214 -0.7346370938
228900000.0 0.5071333385 -0.7979637268
238850000.0 0.4141580766 -0.8449182117
248800000.0 0.2136414849 -0.806399778
258750000.0 0.2642807914 -0.8882965771
268700000.0 0.1722820661 -0.9027964346
278650000.0 0.0815237898 -0.9065470557
288600000.0 -0.0102102706 -0.9007857352
298550000.0 -0.1036532251 -0.8830575727
308500000.0 -0.1995990054 -0.8500862284
318450000.0 -0.2965727122 -0.7954945103
328400000.0 -0.3905349325 -0.7148562499
338350000.0 -0.4740275585 -0.6050678594
348300000.0 -0.535141454 -0.4681300519
358250000.0 -0.5601495688 -0.3139744928
368200000.0 -0.5418367882 -0.159568873
378150000.0 -0.4830896149 -0.0245069726
388100000.0 -0.3950659031 0.0782123354
398050000.0 -0.2931782079 0.1453200722
408000000.0 -0.1928795239 0.1796348834
417950000.0 -0.1044936673 0.1888574078
427900000.0 -0.0339118715 0.1812183741
437850000.0 0.0179398822 0.1623397484
447800000.0 0.0526160045 0.1368338825
457750000.0 0.0724600832 0.1079241896
467700000.0 0.0801795635 0.0793244384
477650000.0 0.0784961596 0.0528972327
487600000.0 0.0666407829 0.0298155871
497550000.0 0.0171610077 0.0277827194
507500000.0 0.0577196503 0.0172262898
517450000.0 0.0298628612 0.0064683869
527400000.0 0.0032962167 0.0042900368
537350000.0 -0.0229663897 0.0060523908
547300000.0 -0.0515461132 0.010777044
557250000.0 -0.0743898971 0.0218180961
567200000.0 -0.092870432 0.0343001393
577150000.0 -0.1079192476 0.0489003048
587100000.0 -0.120013717 0.0662046023
597050000.0 -0.1298815611 0.0839740922
607000000.0 -0.1366204831 0.1015036524
616950000.0 -0.1406324417 0.1172891375
626900000.0 -0.1408009942 0.1307178108
636850000.0 -0.1365323776 0.1415000734
646800000.0 -0.1274777132 0.150387072
656750000.0 -0.1143375677 0.1577356859
666700000.0 -0.0975407611 0.164235191
676650000.0 -0.0789316834 0.1684349253
686600000.0 -0.0596245766 0.1682634321
696550000.0 -0.0405196391 0.1634677845
706500000.0 -0.0203176657 0.1543081512
716450000.0 0.0034092422 0.1385170547
726400000.0 0.0302782608 0.1166680724
736350000.0 0.0586109451 0.0898139523
746300000.0 0.0867106236 0.0597038505
756250000.0 0.1123078096 0.0262698021
766200000.0 0.1326861199 -0.0103456276
776150000.0 0.1463352339 -0.0509551311
786100000.0 0.1531483265 -0.0948361958
796050000.0 0.153333157 -0.1425494838
806000000.0 0.1487821042 -0.1923758214
815950000.0 0.1396046492 -0.2408424918
825900000.0 0.1270654091 -0.2853830459
835850000.0 0.1106911272 -0.3242450547
845800000.0 0.0887312417 -0.3561706008
855750000.0 0.0601436329 -0.3808136767
865700000.0 0.0255630129 -0.4006086899
875650000.0 -0.0145762556 -0.4150700189
885600000.0 -0.0587849119 -0.4248102756
895550000.0 -0.1048117849 -0.4288907364
905500000.0 -0.1515220573 -0.4249266781
915450000.0 -0.1991058857 -0.4103938905
925400000.0 -0.2481617892 -0.3818322842
935350000.0 -0.2986489355 -0.3363286683
945300000.0 -0.3502176692 -0.270763775
955250000.0 -0.3983879128 -0.1820532177
965200000.0 -0.4336403615 -0.0675110421
975150000.0 -0.4430455577 0.0723915846
985100000.0 -0.4109023786 0.2304748287
995050000.0 -0.3238793232 0.3971063501
1005000000.0 -0.1700095017 0.5487987556
1014950000.0 0.0471708625 0.6504940692
1024900000.0 0.2982033624 0.6682889969
1034850000.0 0.5349822546 0.5928638663
1044800000.0 0.718721428 0.4413983912
1054750000.0 0.8272218519 0.2413045157
1064700000.0 0.8213553021 0.0313150705
1074650000.0 0.8268587584 -0.0587751901
1084600000.0 0.8153016245 -0.2231568432
1094550000.0 0.7650690508 -0.390837889
1104500000.0 0.6505115591 -0.527271813
1114450000.0 0.5058707676 -0.6251163739
1124400000.0 0.3399154647 -0.6838452088
1134350000.0 0.1652940268 -0.7013736155
1144300000.0 -0.0048417148 -0.6789734283
1154250000.0 -0.1593336267 -0.6202013878
1164200000.0 -0.2880004024 -0.5328006061
1174150000.0 -0.3871722218 -0.4288049766
1184100000.0 -0.4624155012 -0.316431992
1194050000.0 -0.5142935439 -0.2004211056
1204000000.0 -0.5446866039 -0.0920335874
1213950000.0 -0.5590061035 0.0039292168
1223900000.0 -0.5623708294 0.0840307647
1233850000.0 -0.5582286614 0.150837975
1243800000.0 -0.5487320242 0.206096325
1253750000.0 -0.5346824377 0.2542470751
1263700000.0 -0.5185085006 0.2976085047
1273650000.0 -0.5032844067 0.3362109936
1283600000.0 -0.4910010075 0.3700079254
1293550000.0 -0.4825388026 0.3976016184
1303500000.0 -0.4784331501 0.4180686312
1313450000.0 -0.4768571342 0.4320019604
1323400000.0 -0.4757768697 0.4410004292
1333350000.0 -0.4730057366 0.4473467453
1343300000.0 -0.4682551613 0.454431497
1353250000.0 -0.463078096 0.4630186189
1363200000.0 -0.4578137434 0.4728258907
1373150000.0 -0.4532927868 0.4820765828
1383100000.0 -0.4506547581 0.4892354757
1393050000.0 -0.4494990461 0.492481579
1403000000.0 -0.4482950507 0.4915567396
1412950000.0 -0.4447980214 0.4866657714
1422900000.0 -0.4382405129 0.480863821
1432850000.0 -0.4284187086 0.475634886
1442800000.0 -0.4166000171 0.4732093347
1452750000.0 -0.4059226266 0.4742331611
1462700000.0 -0.3951209629 0.4788883417
1472650000.0 -0.3848864215 0.4853161644
1482600000.0 -0.3729438813 0.4914211068
1492550000.0 -0.3580673901 0.4957368412
1502500000.0 -0.3387090936 0.4969413042
1512450000.0 -0.3149956862 0.4978432096
1522400000.0 -0.2854905454 0.4980589598
1532350000.0 -0.2523776683 0.5001588998
1542300000.0 -0.2151821417 0.50241251
1552250000.0 -0.174984879 0.505447936
1562200000.0 -0.1337500926 0.5067669281
1572150000.0 -0.0909770346 0.5048609799
1582100000.0 -0.0464987497 0.4996032034
1592050000.0 -0.0006880849 0.4917141622
1602000000.0 0.0461387256 0.4811022378
1611950000.0 0.0923585977 0.4686843773
1621900000.0 0.1363594899 0.4542320567
1631850000.0 0.1770581709 0.4423655591
1641800000.0 0.2232354103 0.4315714516
1651750000.0 0.269227243 0.4097523442
1661700000.0 0.310841697 0.3860272587
1671650000.0 0.3496793266 0.3613762076
1681600000.0 0.3861586771 0.3382585763
1691550000.0 0.4197440223 0.3178069201
1701500000.0 0.4492424136 0.3003408063
1711450000.0 0.4753870539 0.2851761687
1721400000.0 0.4965875014 0.2711852368
1731350000.0 0.5139632548 0.2567906041
1741300000.0 0.5288531215 0.2410942593
1751250000.0 0.5421742436 0.2262430806
1761200000.0 0.5541359483 0.2121034352
1771150000.0 0.5645238219 0.2022090384
1781100000.0 0.5727170394 0.1962544437
1791050000.0 0.5784584056 0.1955738426
1801000000.0 0.5811263968 0.1975583713
1810950000.0 0.5810278741 0.2005143425
1820900000.0 0.57898617 0.2017144117
1830850000.0 0.5765222112 0.1998358946
1840800000.0 0.5740562034 0.1964801214
1850750000.0 0.5707363249 0.1918899866
1860700000.0 0.5659232879 0.1879833497
1870650000.0 0.5581991022 0.1867441176
1880600000.0 0.5463178976 0.1884841995
1890550000.0 0.5292115614 0.1926667322
1900500000.0 0.5082267789 0.1964530184
1910450000.0 0.484662666 0.196913041
1920400000.0 0.4603858248 0.1928454511
1930350000.0 0.4361003861 0.1840829427
1940300000.0 0.4106130233 0.1716408651
1950250000.0 0.3834367169 0.1570100419
1960200000.0 0.352183936 0.1420882921
1970150000.0 0.3143628487 0.1276554347
1980100000.0 0.2687355691 0.114602686
1990050000.0 0.2136433683 0.1010075946
2000000000.0 0.1481353245 0.0865511842
