!Created with skrf (http://scikit-rf.org).
# GHz S RI R 50.0 
!freq ReS11 ImS11
10000000.0 -0.8095098319 0.6074809173
19950000.0 -0.2921010084 0.9484013108
29900000.0 0.3236324425 0.9228820736
39850000.0 0.8139061605 0.5385451506
49800000.0 0.9849399599 -0.0739032885
59750000.0 0.7421080377 -0.6807130413
69700000.0 0.1552299015 -1.008193778
79650000.0 -0.5212290798 -0.8707608651
89600000.0 -0.9456716604 -0.3030458608
99550000.0 -0.8730900632 0.4234359479
109500000.0 -0.2997458576 0.9158139463
119450000.0 0.4858212176 0.8493871246
129400000.0 0.9627616291 0.1808138525
139350000.0 0.7942283957 -0.6216387779
149300000.0 0.0419546435 -0.9873813382
159250000.0 -0.6999443445 -0.6540494383
169200000.0 -0.9392852536 0.0903893375
179150000.0 -0.5848986669 0.7526497564
189100000.0 0.1063745507 0.9673917354
199050000.0 0.7328893536 0.6569958091
209000000.0 0.9774917539 0.0243052424
218950000.0 0.7558871718 -0.5868780684
228900000.0 0.212390761 -0.9106414834
238850000.0 -0.4058782527 -0.8287373307
248800000.0 -0.6021788069 -0.2903668875
258750000.0 -0.9230611687 0.1737980206
268700000.0 -0.6327533355 0.7121562883
278650000.0 -0.076408768 0.9472917897
288600000.0 0.4983024226 0.7823797184
298550000.0 0.8400223805 0.299626841
308500000.0 0.8056843817 -0.2861923271
318450000.0 0.4133067395 -0.7152640557
328400000.0 -0.1561407848 -0.7887127188
338350000.0 -0.6188315315 -0.4699923324
348300000.0 -0.7258919313 0.0572614958
358250000.0 -0.4461525113 0.4738677644
368200000.0 0.0012735977 0.552864066
378150000.0 0.324785647 0.3151199105
388100000.0 0.3670210968 -0.0282216175
398050000.0 0.1798194271 -0.2498823671
408000000.0 -0.0588141687 -0.2560211749
417950000.0 -0.1915184375 -0.1108113054
427900000.0 -0.1730303436 0.0514235885
437850000.0 -0.0585218371 0.1321355939
447800000.0 0.0587187313 0.1067389646
457750000.0 0.1131962496 0.0194878117
467700000.0 0.0907598626 -0.0647065014
477650000.0 0.0258255691 -0.0969753552
487600000.0 -0.0281772695 -0.0679574995
497550000.0 0.0177308879 -0.0999907817
507500000.0 -0.0517739977 -0.0024194925
517450000.0 -0.0145070841 0.0152209997
527400000.0 0.005712975 -0.0001727983
537350000.0 -0.0039565492 -0.021198732
547300000.0 -0.0412324607 -0.0235207955
557250000.0 -0.0691730533 0.0178688144
567200000.0 -0.0608817084 0.0748711953
577150000.0 -0.0099195441 0.1176920982
587100000.0 0.0663385931 0.1169088366
597050000.0 0.1329952034 0.0594290495
607000000.0 0.1518611151 -0.0356323366
616950000.0 0.1050471041 -0.1309777065
626900000.0 0.0079645697 -0.1816835199
636850000.0 -0.1051917298 -0.1643264044
646800000.0 -0.183873356 -0.0821868089
656750000.0 -0.1961985008 0.0309282245
666700000.0 -0.1349827282 0.1263948636
676650000.0 -0.02857948 0.1612258985
686600000.0 0.0754576825 0.1230853287
696550000.0 0.1299624441 0.029163031
706500000.0 0.1142968125 -0.0719072498
716450000.0 0.0413204916 -0.1293242962
726400000.0 -0.0440585009 -0.1199447847
736350000.0 -0.0893757727 -0.0514629898
746300000.0 -0.0657546075 0.0308919029
756250000.0 0.018102545 0.0710093128
766200000.0 0.112993516 0.0361576448
776150000.0 0.1596306578 -0.0642313657
786100000.0 0.1178362556 -0.1785656354
796050000.0 -0.0055179813 -0.2370140786
806000000.0 -0.1550335475 -0.1896541825
815950000.0 -0.2491948372 -0.0373572077
825900000.0 -0.2235546914 0.1600370697
835850000.0 -0.0706090182 0.3111286701
845800000.0 0.1552407069 0.3383690735
855750000.0 0.3579124339 0.2164544007
865700000.0 0.4471736754 -0.0140183732
875650000.0 0.3705554966 -0.2595519621
885600000.0 0.1470618586 -0.4140259053
895550000.0 -0.1361770824 -0.3961572625
905500000.0 -0.3579566526 -0.2001759613
915450000.0 -0.4120666083 0.0966662791
925400000.0 -0.2650537108 0.3624698267
935350000.0 0.018483609 0.4702434482
945300000.0 0.3027954177 0.3613199514
955250000.0 0.4375207786 0.0767821284
965200000.0 0.3274072932 -0.2349024121
975150000.0 0.0029790332 -0.3797657334
985100000.0 -0.3475174769 -0.2186340881
995050000.0 -0.4447689518 0.1893657618
1005000000.0 -0.1553366011 0.5430266617
1014950000.0 0.3472923666 0.5215745493
1024900000.0 0.6701567205 0.0619536806
1034850000.0 0.4931853252 -0.5358319591
1044800000.0 -0.1357543393 -0.781259401
1054750000.0 -0.7274080245 -0.410187342
1064700000.0 -0.7530023647 0.1843563781
1074650000.0 -0.5260769338 0.6685289368
1084600000.0 0.0736958173 0.843877013
1094550000.0 0.6044506362 0.5531541708
1104500000.0 0.7866834089 -0.033458958
1114450000.0 0.4927998827 -0.5742322892
1124400000.0 -0.0873247514 -0.7196446686
1134350000.0 -0.5512521702 -0.4085920395
1144300000.0 -0.6345126871 0.0957234253
1154250000.0 -0.3600066461 0.4752188492
1164200000.0 0.0710537533 0.5476766848
1174150000.0 0.4157091892 0.3140632234
1184100000.0 0.4985224897 -0.0929845426
1194050000.0 0.2660147065 -0.4319601809
1204000000.0 -0.123928377 -0.5034922591
1213950000.0 -0.4423983317 -0.3037951737
1223900000.0 -0.5571419393 0.0371247959
1233850000.0 -0.4416996406 0.3697776159
1243800000.0 -0.1484227756 0.5674280328
1253750000.0 0.2142719774 0.5473162098
1263700000.0 0.4981301899 0.3041572833
1273650000.0 0.5776857481 -0.06673135
1283600000.0 0.422790133 -0.4093122179
1293550000.0 0.1102058695 -0.5971753812
1303500000.0 -0.2405040361 -0.5851033642
1313450000.0 -0.5247694197 -0.394561353
1323400000.0 -0.6674590959 -0.0847209698
1333350000.0 -0.6245884892 0.2607884706
1343300000.0 -0.3911580025 0.5379360417
1353250000.0 -0.0285103915 0.6401286421
1363200000.0 0.3379095619 0.5150921919
1373150000.0 0.5699449912 0.2054038869
1383100000.0 0.5935170746 -0.1692664792
1393050000.0 0.4227009761 -0.4847982158
1403000000.0 0.1266092483 -0.6579904265
1412950000.0 -0.2065181046 -0.652734808
1422900000.0 -0.4858964181 -0.4752020982
1432850000.0 -0.6289381137 -0.1707403506
1442800000.0 -0.5837096305 0.1717966184
1452750000.0 -0.353758525 0.4397861323
1462700000.0 -0.011059113 0.5395047084
1472650000.0 0.3264601791 0.4365189229
1482600000.0 0.544607724 0.1745108779
1492550000.0 0.5827672779 -0.149540725
1502500000.0 0.4422192789 -0.4301689552
1512450000.0 0.1752464739 -0.581766064
1522400000.0 -0.1311139432 -0.5559513973
1532350000.0 -0.3712771495 -0.3537593603
1542300000.0 -0.4502733021 -0.0430384632
1552250000.0 -0.3312100087 0.2560419046
1562200000.0 -0.063081495 0.4215932426
1572150000.0 0.2364873235 0.3931965782
1582100000.0 0.4458665785 0.2003890312
1592050000.0 0.4920767803 -0.0690570769
1602000000.0 0.3651565681 -0.3073195629
1611950000.0 0.1149382385 -0.4212247664
1621900000.0 -0.1615500434 -0.3574999889
1631850000.0 -0.3476400849 -0.132118221
1641800000.0 -0.3560444416 0.1645742247
1651750000.0 -0.1782947643 0.401936856
1661700000.0 0.1025811459 0.4742884373
1671650000.0 0.3596066262 0.3604166054
1681600000.0 0.4978846953 0.1312925839
1691550000.0 0.4987841668 -0.1466963393
1701500000.0 0.3234169852 -0.3962806954
1711450000.0 0.0235135814 -0.5032975396
1721400000.0 -0.2979503637 -0.4126127273
1731350000.0 -0.5108543985 -0.1447237749
1741300000.0 -0.525961317 0.1982619585
1751250000.0 -0.3426849292 0.4809366091
1761200000.0 -0.0415025205 0.6071535919
1771150000.0 0.2711483001 0.5524094136
1781100000.0 0.5064642102 0.3464152352
1791050000.0 0.6044363737 0.0473320575
1801000000.0 0.532192966 -0.2684832966
1810950000.0 0.2941800349 -0.505948125
1820900000.0 -0.0456501188 -0.5741467768
1830850000.0 -0.367346643 -0.4360955566
1840800000.0 -0.551385624 -0.1468766985
1850750000.0 -0.5482917723 0.1792037087
1860700000.0 -0.386148581 0.4383494186
1870650000.0 -0.1314753186 0.5733897262
1880600000.0 0.1444557251 0.5644323303
1890550000.0 0.3744268039 0.4202007392
1900500000.0 0.4965135729 0.1754974057
1910450000.0 0.4664997992 -0.0999462344
1920400000.0 0.288010505 -0.3114787232
1930350000.0 0.0306734177 -0.3840334359
1940300000.0 -0.2071948958 -0.3050890493
1950250000.0 -0.3463545764 -0.1340517224
1960200000.0 -0.3704928688 0.0559414986
1970150000.0 -0.3017710539 0.2026965082
1980100000.0 -0.1867755138 0.2699403729
1990050000.0 -0.0827210903 0.2545310161
2000000000.0 -0.037020989 0.1936087569
