!Created with skrf (http://scikit-rf.org).
# GHz S RI R 50.0 
!freq ReS11 ImS11
10000000.0 -0.9077446953 0.4523483009
19950000.0 -0.6106150809 0.7878572768
29900000.0 -0.1979029148 0.9599096699
39850000.0 0.2559406648 0.935135601
49800000.0 0.6630576898 0.7068559649
59750000.0 0.9327859956 0.3024231803
69700000.0 0.978860043 -0.206450479
79650000.0 0.7472736523 -0.6941739727
89600000.0 0.2625460288 -0.9939050021
99550000.0 -0.3353799208 -0.9591096251
109500000.0 -0.8155275294 -0.5584023082
119450000.0 -0.9587805565 0.0729040377
129400000.0 -0.6718620845 0.6759372524
139350000.0 -0.0616794817 0.9663019968
149300000.0 0.6000919089 0.7919861168
159250000.0 0.9807294518 0.2381171611
169200000.0 0.9188582702 -0.3998629381
179150000.0 0.5105293192 -0.832284208
189100000.0 -0.0252372917 -0.9452271966
199050000.0 -0.5021951272 -0.7755989429
209000000.0 -0.8187895063 -0.4174433294
218950000.0 -0.9288067521 0.0212268954
228900000.0 -0.8342216514 0.4535741651
238850000.0 -0.5580288131 0.794794266
248800000.0 -0.1602939121 0.9687421006
258750000.0 0.2825281093 0.9398923513
268700000.0 0.6579329243 0.7009606354
278650000.0 0.8756139821 0.3126743295
288600000.0 0.8864808761 -0.1296682415
298550000.0 0.6948459244 -0.5217812918
308500000.0 0.3498589516 -0.7766215676
318450000.0 -0.0664886418 -0.8393607879
328400000.0 -0.4547023463 -0.6946884913
338350000.0 -0.708606306 -0.3754208324
348300000.0 -0.7428023607 0.0205233293
358250000.0 -0.5468536067 0.3454821785
368200000.0 -0.2202990567 0.4709871798
378150000.0 0.0750995961 0.3765435038
388100000.0 0.2170621265 0.1568085998
398050000.0 0.193679991 -0.0521567436
408000000.0 0.0746481565 -0.1650042009
417950000.0 -0.0545326616 -0.1671069512
427900000.0 -0.1326838968 -0.0919903194
437850000.0 -0.1362008379 0.0076420914
447800000.0 -0.0757068192 0.0832942855
457750000.0 0.0151961925 0.1079471892
467700000.0 0.1000024943 0.0802928804
477650000.0 0.1530641389 0.0175835572
487600000.0 0.1643461677 -0.0549664986
497550000.0 0.1369875944 -0.1151428266
507500000.0 0.0885374693 -0.1443747711
517450000.0 0.0386855948 -0.141511946
527400000.0 0.0038252152 -0.1145221552
537350000.0 -0.007972823 -0.0786274001
547300000.0 0.0005307678 -0.049479212
557250000.0 0.0218543702 -0.0367241546
567200000.0 0.0391266522 -0.0461228564
577150000.0 0.039141023 -0.0680153366
587100000.0 0.0178889103 -0.089789298
597050000.0 -0.021422711 -0.0978488078
607000000.0 -0.069193761 -0.0819923742
616950000.0 -0.1085445977 -0.0383154696
626900000.0 -0.1227574444 0.0247240047
636850000.0 -0.1039974556 0.0917682203
646800000.0 -0.0519287266 0.1441233942
656750000.0 0.0231817265 0.1655933969
666700000.0 0.1028398013 0.1465651564
676650000.0 0.1642988232 0.0912636546
686600000.0 0.1928883305 0.0142258407
696550000.0 0.1839458051 -0.0668217936
706500000.0 0.1376860198 -0.1327277848
716450000.0 0.0646101284 -0.1643866521
726400000.0 -0.0137384625 -0.1496885488
736350000.0 -0.0688415595 -0.0918591184
746300000.0 -0.0812063674 -0.0093775163
756250000.0 -0.0424634273 0.0699558057
766200000.0 0.0365479134 0.1179122349
776150000.0 0.1329566379 0.1155742424
786100000.0 0.2158751505 0.0594001572
796050000.0 0.2559059826 -0.03753683
806000000.0 0.2335076528 -0.1476906582
815950000.0 0.1432355291 -0.2344017333
825900000.0 0.0046990074 -0.2609641036
835850000.0 -0.1435760684 -0.2048005657
845800000.0 -0.2536778848 -0.0695925924
855750000.0 -0.2863452073 0.1125482668
865700000.0 -0.2271939388 0.2924178317
875650000.0 -0.0910046276 0.4246388557
885600000.0 0.0900645079 0.477624314
895550000.0 0.2768807395 0.4372430457
905500000.0 0.4256503337 0.3048212403
915450000.0 0.4915875199 0.1009021984
925400000.0 0.4371883138 -0.1282396601
935350000.0 0.2526520184 -0.3101306
945300000.0 -0.022287186 -0.3670515058
955250000.0 -0.2971129572 -0.2531452333
965200000.0 -0.4603646635 0.0084153194
975150000.0 -0.4330942525 0.3245251608
985100000.0 -0.2046571903 0.568340567
995050000.0 0.1623291931 0.6146265215
1005000000.0 0.5209259381 0.3726260637
1014950000.0 0.632978184 -0.1303557041
1024900000.0 0.3103401379 -0.6212930842
1034850000.0 -0.2917886982 -0.7229611523
1044800000.0 -0.7595077406 -0.385529298
1054750000.0 -0.8702615714 0.1166370587
1064700000.0 -0.691421686 0.5087131758
1074650000.0 -0.3779327501 0.7614163675
1084600000.0 0.0368002838 0.8363921862
1094550000.0 0.482589556 0.6374359032
1104500000.0 0.7286769193 0.1833992523
1114450000.0 0.6380760341 -0.3314687103
1124400000.0 0.2646992024 -0.65754929
1134350000.0 -0.1775868911 -0.6848637945
1144300000.0 -0.5073168454 -0.4832017348
1154250000.0 -0.6597050102 -0.1785175607
1164200000.0 -0.6453634769 0.1326507949
1174150000.0 -0.4931008152 0.3951287612
1184100000.0 -0.2256887999 0.5563265241
1194050000.0 0.1010590161 0.5588647718
1204000000.0 0.3893729006 0.3808633042
1213950000.0 0.5349844062 0.072442702
1223900000.0 0.4925156446 -0.2542743648
1233850000.0 0.3020880902 -0.4942139872
1243800000.0 0.0455876638 -0.6041644596
1253750000.0 -0.2090074826 -0.5935282703
1263700000.0 -0.4232760243 -0.4908107813
1273650000.0 -0.5776277935 -0.3225783628
1283600000.0 -0.6594222264 -0.1100582719
1293550000.0 -0.6552805797 0.1256913132
1303500000.0 -0.5522571121 0.3543280883
1313450000.0 -0.3475797358 0.5305807827
1323400000.0 -0.0674596992 0.6007969075
1333350000.0 0.2241766468 0.5302109335
1343300000.0 0.4504654274 0.3338424546
1353250000.0 0.5624788501 0.0699350913
1363200000.0 0.5583810288 -0.1950059218
1373150000.0 0.4649715974 -0.4181874821
1383100000.0 0.3135295849 -0.5804783871
1393050000.0 0.1289967926 -0.6763420559
1403000000.0 -0.0703004872 -0.7030298527
1412950000.0 -0.2674667056 -0.6570941798
1422900000.0 -0.4411657767 -0.5353953543
1432850000.0 -0.5606226642 -0.3401348472
1442800000.0 -0.5897512331 -0.0909875281
1452750000.0 -0.4998349701 0.1647226652
1462700000.0 -0.2949343223 0.3613699296
1472650000.0 -0.0242171009 0.4449813386
1482600000.0 0.2420328966 0.4037985675
1492550000.0 0.4479616822 0.2668114074
1502500000.0 0.5676953593 0.0780123953
1512450000.0 0.598494239 -0.1230235216
1522400000.0 0.5489361539 -0.3068231612
1532350000.0 0.4288242628 -0.4482657436
1542300000.0 0.2551542316 -0.5244971922
1552250000.0 0.0536337435 -0.512654478
1562200000.0 -0.1327151608 -0.40408139
1572150000.0 -0.2598048378 -0.2099767167
1582100000.0 -0.2832971032 0.0331347082
1592050000.0 -0.1885099924 0.2583431681
1602000000.0 -0.0082918468 0.4061041336
1611950000.0 0.2042812983 0.447972582
1621900000.0 0.3955023573 0.3921498358
1631850000.0 0.5323069776 0.2636129284
1641800000.0 0.5972769374 0.0906481458
1651750000.0 0.5813130177 -0.0992281105
1661700000.0 0.4813571397 -0.2773234139
1671650000.0 0.3009236167 -0.4101945829
1681600000.0 0.059182065 -0.4585924177
1691550000.0 -0.1969416116 -0.3913827942
1701500000.0 -0.4038134783 -0.2080619456
1711450000.0 -0.5024598206 0.0479600641
1721400000.0 -0.475528475 0.3087356085
1731350000.0 -0.3484060547 0.5135042025
1741300000.0 -0.1656464204 0.6352673008
1751250000.0 0.0295701378 0.6728047573
1761200000.0 0.2129359819 0.6471162439
1771150000.0 0.381374707 0.5661638241
1781100000.0 0.5169759198 0.4278344089
1791050000.0 0.6027289135 0.2436813969
1801000000.0 0.6210903563 0.0259196224
1810950000.0 0.5524877514 -0.2019068594
1820900000.0 0.3856389462 -0.3976468989
1830850000.0 0.1387939039 -0.5078757099
1840800000.0 -0.1340939854 -0.4955406256
1850750000.0 -0.3645212283 -0.3672988729
1860700000.0 -0.505036034 -0.1703801459
1870650000.0 -0.5519238305 0.0407147018
1880600000.0 -0.5242156595 0.2296467131
1890550000.0 -0.4451982926 0.3791689464
1900500000.0 -0.3343248681 0.483152669
1910450000.0 -0.206616088 0.5397247697
1920400000.0 -0.0756192541 0.5483318546
1930350000.0 0.0441130564 0.5090196293
1940300000.0 0.1360565188 0.4260165323
1950250000.0 0.183525366 0.3148038579
1960200000.0 0.1786220153 0.1993414751
1970150000.0 0.129182594 0.1072973035
1980100000.0 0.0594845883 0.0566508241
1990050000.0 -0.000589616 0.0478368117
2000000000.0 -0.0236451321 0.0654560031
