!Created with skrf (http://scikit-rf.org).
# GHz S RI R 50.0 
!freq ReS11 ImS11
10000000.0 -0.9710904609 0.1771865214
19950000.0 -0.9392473006 0.3426640138
29900000.0 -0.8825754587 0.4980837417
39850000.0 -0.7861821858 0.6384483657
49800000.0 -0.6519001279 0.7566990322
59750000.0 -0.4804466858 0.850639955
69700000.0 -0.2748981799 0.9191475004
79650000.0 -0.0400630014 0.955578361
89600000.0 0.2208175074 0.942781781
99550000.0 0.4938706244 0.8524090694
109500000.0 0.7442444575 0.6539299033
119450000.0 0.9184572286 0.3396786539
129400000.0 0.9629614013 -0.0561066434
139350000.0 0.8488985554 -0.4611521658
149300000.0 0.5897751638 -0.7933821219
159250000.0 0.2409115925 -0.9847167872
169200000.0 -0.1190082372 -1.012465978
179150000.0 -0.4267903517 -0.9068185742
189100000.0 -0.6582229343 -0.7252761602
199050000.0 -0.8179429872 -0.5127339231
209000000.0 -0.91841314 -0.2963288505
218950000.0 -0.9730569382 -0.0902359415
228900000.0 -0.980770777 0.0987504738
238850000.0 -0.9440043911 0.2668604675
248800000.0 -0.855895222 0.4117000833
258750000.0 -0.7683866729 0.5388900735
268700000.0 -0.6469484196 0.6524770213
278650000.0 -0.5119738233 0.7518738847
288600000.0 -0.3656439002 0.8331023101
298550000.0 -0.208381767 0.8855587673
308500000.0 -0.0430333593 0.8970457628
318450000.0 0.1249687863 0.8567953889
328400000.0 0.2866984658 0.7626965827
338350000.0 0.4260449854 0.619058272
348300000.0 0.5275656718 0.4357595452
358250000.0 0.5700138535 0.2325474983
368200000.0 0.5380189432 0.0395246841
378150000.0 0.4360076532 -0.1060440524
388100000.0 0.2901520341 -0.183648952
398050000.0 0.1383456337 -0.1977203145
408000000.0 0.0082518254 -0.1685270898
417950000.0 -0.0827441476 -0.1153454916
427900000.0 -0.1362148904 -0.0561562935
437850000.0 -0.1493144165 1.40487e-05
447800000.0 -0.1368040295 0.048864901
457750000.0 -0.1055057809 0.08891762
467700000.0 -0.0678359156 0.1216376219
477650000.0 -0.0349787475 0.142199246
487600000.0 -0.0059250307 0.1489215433
497550000.0 0.0047997195 0.1478156043
507500000.0 0.019144918 0.1231862385
517450000.0 0.022974493 0.0922246003
527400000.0 0.0213072054 0.057515077
537350000.0 0.0182989969 0.0243392051
547300000.0 0.0124652191 0.0011598814
557250000.0 0.0027900755 -0.008833167
567200000.0 -0.0167118747 -0.0050555757
577150000.0 -0.0423191802 0.0073766166
587100000.0 -0.0725302653 0.0253978069
597050000.0 -0.1021717801 0.0445882815
607000000.0 -0.1253266545 0.0626678068
616950000.0 -0.1364184068 0.0791287465
626900000.0 -0.1320880417 0.0957144851
636850000.0 -0.1145107607 0.115757967
646800000.0 -0.0857012293 0.1379076542
656750000.0 -0.0525439691 0.1636040579
666700000.0 -0.0207398652 0.1860708295
676650000.0 0.0100758105 0.2005888273
686600000.0 0.0359963942 0.2027100355
696550000.0 0.0600401792 0.1852807831
706500000.0 0.0837704542 0.1494139276
716450000.0 0.0935970311 0.0976710882
726400000.0 0.1106841316 0.0655501267
736350000.0 0.1340678243 0.0199880933
746300000.0 0.1461173266 -0.0254991309
756250000.0 0.137826169 -0.0655815141
766200000.0 0.1110205715 -0.099347335
776150000.0 0.062053434 -0.1262155179
786100000.0 -0.0010356101 -0.1477011882
796050000.0 -0.0725091899 -0.1614801664
806000000.0 -0.1439430151 -0.165774937
815950000.0 -0.2060900326 -0.1551590195
825900000.0 -0.2556655446 -0.1236920846
835850000.0 -0.2892293795 -0.07340301
845800000.0 -0.3089355272 -0.0027399387
855750000.0 -0.3162028951 0.0801238237
865700000.0 -0.3134493434 0.1697090449
875650000.0 -0.2926541917 0.2545768767
885600000.0 -0.254945381 0.3267620775
895550000.0 -0.1965527668 0.3797233876
905500000.0 -0.1170504369 0.4104817151
915450000.0 -0.0156090001 0.421925638
925400000.0 0.1024849109 0.4085798806
935350000.0 0.2305628286 0.3673254107
945300000.0 0.3536441326 0.2919956798
955250000.0 0.4523505149 0.1718622163
965200000.0 0.5019226827 0.003206416
975150000.0 0.474692398 -0.2044832571
985100000.0 0.3516182431 -0.424008052
995050000.0 0.1248933942 -0.6069961662
1005000000.0 -0.185381834 -0.6840807144
1014950000.0 -0.5112938766 -0.5985269277
1024900000.0 -0.7519019197 -0.3553615986
1034850000.0 -0.8469036003 -0.0322620084
1044800000.0 -0.8074772061 0.2881816249
1054750000.0 -0.6687463261 0.5576086956
1064700000.0 -0.459637895 0.7496156623
1074650000.0 -0.2143123324 0.8278286003
1084600000.0 -0.0125140533 0.8422455883
1094550000.0 0.2248374949 0.7904618778
1104500000.0 0.4281857339 0.6619105964
1114450000.0 0.5848657651 0.492575785
1124400000.0 0.6889036187 0.3006374682
1134350000.0 0.7329856644 0.1000568042
1144300000.0 0.7092122566 -0.0972478466
1154250000.0 0.6230299137 -0.2706403379
1164200000.0 0.4900185353 -0.411305871
1174150000.0 0.3332785358 -0.5146774383
1184100000.0 0.1734444295 -0.5804741904
1194050000.0 0.0204069998 -0.6121369043
1204000000.0 -0.1179557298 -0.6060458829
1213950000.0 -0.238005823 -0.5686361968
1223900000.0 -0.3404487253 -0.4968434095
1233850000.0 -0.4233222014 -0.4050088015
1243800000.0 -0.4937638733 -0.3018752797
1253750000.0 -0.5504145102 -0.2000300755
1263700000.0 -0.5937442733 -0.1057001996
1273650000.0 -0.6220665133 -0.0196359379
1283600000.0 -0.6302145745 0.0566420588
1293550000.0 -0.6197784512 0.1275393954
1303500000.0 -0.5901590242 0.1975780544
1313450000.0 -0.5474911824 0.2704737661
1323400000.0 -0.4989027468 0.3446776907
1333350000.0 -0.449879207 0.418307048
1343300000.0 -0.4024638477 0.4860535337
1353250000.0 -0.3548147288 0.5410539567
1363200000.0 -0.3063822434 0.5801391357
1373150000.0 -0.2522336572 0.6020501823
1383100000.0 -0.1892063851 0.6092377284
1393050000.0 -0.1182398614 0.6086356707
1403000000.0 -0.0407341857 0.6054142993
1412950000.0 0.0389868064 0.6031064954
1422900000.0 0.1166699283 0.6035978198
1432850000.0 0.1885884053 0.5980484502
1442800000.0 0.2511073832 0.5826538716
1452750000.0 0.3035245046 0.5508553253
1462700000.0 0.3468586217 0.5018439905
1472650000.0 0.3880002031 0.4391744366
1482600000.0 0.4279233298 0.3663321569
1492550000.0 0.4697734051 0.2895781221
1502500000.0 0.5083840768 0.2112999517
1512450000.0 0.5391463267 0.1339921328
1522400000.0 0.5534377473 0.0566096755
1532350000.0 0.5455285803 -0.0191719409
1542300000.0 0.5160282249 -0.0936736452
1552250000.0 0.4681456705 -0.16908806
1562200000.0 0.4089359107 -0.2433748505
1572150000.0 0.3433357286 -0.3155666271
1582100000.0 0.2736400319 -0.380262696
1592050000.0 0.1989632257 -0.4324839109
1602000000.0 0.1177987595 -0.4652014228
1611950000.0 0.0320191301 -0.4738899282
1621900000.0 -0.0577144447 -0.4617900519
1631850000.0 -0.1489127777 -0.4355886875
1641800000.0 -0.2377128459 -0.4012993423
1651750000.0 -0.3204106925 -0.3621247328
1661700000.0 -0.3933510685 -0.3177209299
1671650000.0 -0.4536919955 -0.2654059244
1681600000.0 -0.4957539107 -0.2000808445
1691550000.0 -0.5212312934 -0.1241696125
1701500000.0 -0.5329407094 -0.0401590371
1711450000.0 -0.5364431558 0.0457020699
1721400000.0 -0.5377246116 0.1256110681
1731350000.0 -0.5374258974 0.1997015071
1741300000.0 -0.5329590828 0.2629531901
1751250000.0 -0.5197334262 0.3180924296
1761200000.0 -0.4925148089 0.3656673537
1771150000.0 -0.4489416013 0.4095121992
1781100000.0 -0.3921407242 0.4505861037
1791050000.0 -0.3300380042 0.4908995089
1801000000.0 -0.270789452 0.5301299527
1810950000.0 -0.2174804119 0.5638991965
1820900000.0 -0.1752916775 0.588123791
1830850000.0 -0.1434829393 0.6019226451
1840800000.0 -0.1092320425 0.6083872457
1850750000.0 -0.0653582217 0.5991887149
1860700000.0 -0.0119059069 0.5786708051
1870650000.0 0.0482052678 0.5534600918
1880600000.0 0.1123064051 0.5288684626
1890550000.0 0.169289739 0.5080776268
1900500000.0 0.2163363346 0.490128613
1910450000.0 0.2473719195 0.4701889874
1920400000.0 0.2613295528 0.4414398411
1930350000.0 0.2620866843 0.4008828227
1940300000.0 0.2538280145 0.3460985297
1950250000.0 0.2442450353 0.2804037734
1960200000.0 0.2341268231 0.2125771522
1970150000.0 0.2209860852 0.1472509617
1980100000.0 0.1992337778 0.0960324098
1990050000.0 0.1569570981 0.0600227558
2000000000.0 0.084022934 0.0500049555
