!Created with skrf (http://scikit-rf.org).
# GHz S RI R 50.0 
!freq ReS11 ImS11
10000000.0 -0.7822502123 0.5912596394
19950000.0 -0.281798364 0.9254382229
29900000.0 0.318406995 0.9006839198
39850000.0 0.7970735962 0.5211892115
49800000.0 0.9595399002 -0.0833423259
59750000.0 0.7133763683 -0.678546618
69700000.0 0.1330787732 -0.9935150012
79650000.0 -0.5270452105 -0.8498074019
89600000.0 -0.9350726196 -0.2863317241
99550000.0 -0.8561402812 0.4297480421
109500000.0 -0.2863118557 0.9137848253
119450000.0 0.4918655321 0.8441619326
129400000.0 0.9737246865 0.2056202055
139350000.0 0.7950277061 -0.6198426765
149300000.0 0.0485843907 -0.9842455537
159250000.0 -0.687741849 -0.6538038803
169200000.0 -0.9252768689 0.083684879
179150000.0 -0.5772154777 0.7365500294
189100000.0 0.0975731367 0.9462681206
199050000.0 0.7064508298 0.6425296801
209000000.0 0.9490752884 0.0237733796
218950000.0 0.7333024209 -0.574792571
228900000.0 0.2014735768 -0.8902594973
238850000.0 -0.4022311642 -0.8049783786
248800000.0 -0.6502419555 -0.4305164909
258750000.0 -0.8920424318 0.1888446496
268700000.0 -0.5977373128 0.7087650107
278650000.0 -0.0523567927 0.9273138606
288600000.0 0.502627554 0.7553097589
298550000.0 0.8262292413 0.2760683277
308500000.0 0.7810511203 -0.2994846978
318450000.0 0.3862031946 -0.7154043989
328400000.0 -0.1772863081 -0.7769706547
338350000.0 -0.6275644475 -0.4516059468
348300000.0 -0.7218141626 0.0739837082
358250000.0 -0.4351536816 0.4828154621
368200000.0 0.0117311727 0.5539798303
378150000.0 0.331060674 0.3128467065
388100000.0 0.3706549599 -0.0293468421
398050000.0 0.1846098243 -0.2493556702
408000000.0 -0.0515902695 -0.2561232034
417950000.0 -0.1836422115 -0.114219914
427900000.0 -0.1678591206 0.0439711563
437850000.0 -0.059328013 0.1218883006
447800000.0 0.0506736523 0.0972206588
457750000.0 0.0997145494 0.0140170881
467700000.0 0.0762598557 -0.0639300856
477650000.0 0.0152738301 -0.0907078339
487600000.0 -0.03009331 -0.0582437964
497550000.0 -0.0644105198 -0.0644190875
507500000.0 -0.0417997233 0.0093330776
517450000.0 -0.0034700607 0.0211205381
527400000.0 0.017254114 0.0024091335
537350000.0 0.0075799514 -0.021170855
547300000.0 -0.0300483822 -0.0249439027
557250000.0 -0.0592998308 0.0115118488
567200000.0 -0.0550753616 0.0644105462
577150000.0 -0.0104683573 0.1044560437
587100000.0 0.0587594386 0.1033465475
597050000.0 0.1183100425 0.048622852
607000000.0 0.1324338999 -0.040103569
616950000.0 0.0848563618 -0.1260100404
626900000.0 -0.0073226866 -0.1660818461
636850000.0 -0.1090049152 -0.1417080582
646800000.0 -0.1733262483 -0.058456052
656750000.0 -0.1728314389 0.0479069699
666700000.0 -0.1056507045 0.1308705413
676650000.0 -0.0016501784 0.1512827352
686600000.0 0.0914513184 0.1014372412
696550000.0 0.1304013474 0.0038523475
706500000.0 0.1009667138 -0.0929112389
716450000.0 0.0194056231 -0.1417521136
726400000.0 -0.068950245 -0.1210255974
736350000.0 -0.110785953 -0.0417067201
746300000.0 -0.0781914933 0.0476340173
756250000.0 0.0161735034 0.0896578004
766200000.0 0.1204824445 0.0522419692
776150000.0 0.172934493 -0.0539551837
786100000.0 0.1333155199 -0.1741830605
796050000.0 0.0097437901 -0.237393478
806000000.0 -0.1407781017 -0.1935912498
815950000.0 -0.2367112261 -0.0450498061
825900000.0 -0.2145055335 0.1479063677
835850000.0 -0.0681260367 0.2945774343
845800000.0 0.1474795975 0.319928727
855750000.0 0.3393496862 0.2009249563
865700000.0 0.420575987 -0.0217446908
875650000.0 0.3413843466 -0.2554264728
885600000.0 0.1220001945 -0.3955343919
895550000.0 -0.1483671289 -0.3642559269
905500000.0 -0.3489687326 -0.1609225507
915450000.0 -0.3775509091 0.1313972749
925400000.0 -0.2101995713 0.3765284107
935350000.0 0.0772808958 0.4505758423
945300000.0 0.3414058092 0.3051771382
955250000.0 0.4303120102 -0.0018480735
965200000.0 0.2598465804 -0.3005729129
975150000.0 -0.108026184 -0.3815070496
985100000.0 -0.4358286847 -0.1245543939
995050000.0 -0.427105989 0.333025247
1005000000.0 -0.0177053145 0.6236792338
1014950000.0 0.5059766224 0.4495970316
1024900000.0 0.7034499936 -0.1244053675
1034850000.0 0.3489742798 -0.6764554812
1044800000.0 -0.3332936553 -0.7363027641
1054750000.0 -0.7802584855 -0.22743311
1064700000.0 -0.7415742153 0.3089782032
1074650000.0 -0.3565273281 0.76349497
1084600000.0 0.240216038 0.7841253131
1094550000.0 0.6728258805 0.3922050327
1104500000.0 0.7152312031 -0.1852645001
1114450000.0 0.3472810321 -0.6264953707
1124400000.0 -0.2090180261 -0.6653743546
1134350000.0 -0.5920988103 -0.3074148888
1144300000.0 -0.6042573183 0.1780442482
1154250000.0 -0.3003660341 0.5099039503
1164200000.0 0.1225105594 0.5423825908
1174150000.0 0.4471588286 0.2868526342
1184100000.0 0.5021531685 -0.1227122699
1194050000.0 0.2569817462 -0.4462009293
1204000000.0 -0.1284873406 -0.5050396503
1213950000.0 -0.438543282 -0.3044626543
1223900000.0 -0.5508313041 0.030811567
1233850000.0 -0.4405674672 0.3572526411
1243800000.0 -0.1570557947 0.5534554347
1253750000.0 0.1961822199 0.5377347532
1263700000.0 0.4755590147 0.3031729509
1273650000.0 0.5566894004 -0.058204791
1283600000.0 0.4085875278 -0.3929630712
1293550000.0 0.1064606367 -0.5759159099
1303500000.0 -0.2311131304 -0.5634589165
1313450000.0 -0.5018609895 -0.378135523
1323400000.0 -0.6357868664 -0.0801915838
1333350000.0 -0.5944586489 0.2514045577
1343300000.0 -0.371138489 0.5179273357
1353250000.0 -0.021728205 0.6146136332
1363200000.0 0.3308216681 0.4886275876
1373150000.0 0.5495271991 0.1830610144
1383100000.0 0.5623728311 -0.1818190136
1393050000.0 0.3869116986 -0.4830668169
1403000000.0 0.0952208677 -0.6403965409
1412950000.0 -0.2230421448 -0.6224855133
1422900000.0 -0.4814779884 -0.4409733743
1432850000.0 -0.6065300157 -0.1421323145
1442800000.0 -0.5501412313 0.1897197869
1452750000.0 -0.3134011908 0.4432731242
1462700000.0 0.0283263232 0.5229755515
1472650000.0 0.3516183946 0.4008444676
1482600000.0 0.5454182077 0.1294204354
1492550000.0 0.5567563721 -0.1901074547
1502500000.0 0.3959997175 -0.4527671883
1512450000.0 0.122449209 -0.5781523723
1522400000.0 -0.1734411686 -0.5255592334
1532350000.0 -0.3884431295 -0.3054475668
1542300000.0 -0.4345293373 0.0076348742
1552250000.0 -0.288076292 0.2839748482
1562200000.0 -0.0168718936 0.4217357073
1572150000.0 0.2729756538 0.372046763
1582100000.0 0.4644438954 0.1668297388
1592050000.0 0.4903167987 -0.1035136074
1602000000.0 0.347106522 -0.3328274503
1611950000.0 0.0885690135 -0.431313012
1621900000.0 -0.1864849737 -0.3519031557
1631850000.0 -0.3636116557 -0.1154383171
1641800000.0 -0.3602918544 0.1843268226
1651750000.0 -0.173137941 0.4177228965
1661700000.0 0.1128930747 0.4845041947
1671650000.0 0.3760634113 0.3658691676
1681600000.0 0.5185145965 0.11673059
1691550000.0 0.4927074996 -0.1727938925
1701500000.0 0.304647855 -0.4042868808
1711450000.0 0.009515812 -0.493823233
1721400000.0 -0.2975579213 -0.3942351656
1731350000.0 -0.496533962 -0.1286714188
1741300000.0 -0.5044599358 0.2047316487
1751250000.0 -0.3217697722 0.4751383728
1761200000.0 -0.0280562752 0.5905077241
1771150000.0 0.2722679252 0.5294010233
1781100000.0 0.4927872153 0.3230181657
1791050000.0 0.5765721213 0.0312988975
1801000000.0 0.4964828428 -0.268978511
1810950000.0 0.2635831863 -0.4875981945
1820900000.0 -0.0584580983 -0.5419849734
1830850000.0 -0.358099971 -0.4013751612
1840800000.0 -0.5240609221 -0.1204401249
1850750000.0 -0.5106213755 0.1907998564
1860700000.0 -0.3467295411 0.4320535956
1870650000.0 -0.0987781771 0.5491448754
1880600000.0 0.1605401572 0.5255221456
1890550000.0 0.3646001241 0.3750138667
1900500000.0 0.4583131053 0.1389032018
1910450000.0 0.4100143518 -0.1124450561
1920400000.0 0.2323959572 -0.2928084139
1930350000.0 -0.0058241769 -0.3373330147
1940300000.0 -0.209964869 -0.2487528595
1950250000.0 -0.3154811684 -0.081980699
1960200000.0 -0.3121024619 0.0842560432
1970150000.0 -0.2313165864 0.1936872467
1980100000.0 -0.1287959543 0.2179702567
1990050000.0 -0.0677823648 0.1704038427
2000000000.0 -0.0890487103 0.1117899324
