!Created with skrf (http://scikit-rf.org).
# GHz S RI R 50.0 
!freq ReS11 ImS11
10000000.0 -1.000226742 0.1648208583
19950000.0 -0.9436662304 0.3153806841
29900000.0 -0.8640307148 0.4596939761
39850000.0 -0.7607386769 0.6021806043
49800000.0 -0.6351305121 0.7369730137
59750000.0 -0.4817801265 0.8572666618
69700000.0 -0.2931784721 0.94912429
79650000.0 -0.0660437299 0.9921256377
89600000.0 0.1955749448 0.9662510087
99550000.0 0.4730745942 0.8518749758
109500000.0 0.737097957 0.6366810787
119450000.0 0.9384280687 0.3156340186
129400000.0 1.010497542 -0.0826676918
139350000.0 0.9059275317 -0.4817504204
149300000.0 0.6426872485 -0.7885313792
159250000.0 0.2988979422 -0.9505606286
169200000.0 -0.0464376749 -0.9804357574
179150000.0 -0.3479740596 -0.9153346745
189100000.0 -0.5886576674 -0.7895581869
199050000.0 -0.762918845 -0.6268300205
209000000.0 -0.8708821505 -0.4433098383
218950000.0 -0.9257315561 -0.2538981346
228900000.0 -0.9377238556 -0.0659801412
238850000.0 -0.9169249101 0.1203860976
248800000.0 -0.8000440866 0.3348364533
258750000.0 -0.8097549721 0.4203334164
268700000.0 -0.718648056 0.5208347007
278650000.0 -0.6084151311 0.6109453268
288600000.0 -0.4817313254 0.7244680362
298550000.0 -0.3266990977 0.8012970644
308500000.0 -0.1413353702 0.8335804332
318450000.0 0.0636689251 0.8163486451
328400000.0 0.2719707027 0.7419394704
338350000.0 0.4495272117 0.6031101664
348300000.0 0.5654003402 0.4071096164
358250000.0 0.5932623314 0.1812190383
368200000.0 0.5361296501 -0.0320518076
378150000.0 0.4174131314 -0.1969057226
388100000.0 0.2733205796 -0.2983666348
398050000.0 0.1325575388 -0.3378537271
408000000.0 0.0119295787 -0.3268310104
417950000.0 -0.0732543062 -0.2809050073
427900000.0 -0.1263964421 -0.2176415855
437850000.0 -0.1557248448 -0.1503586173
447800000.0 -0.1656081103 -0.0905715258
457750000.0 -0.1614690578 -0.046091939
467700000.0 -0.1466730968 -0.0191760391
477650000.0 -0.1240826885 -0.013096529
487600000.0 -0.0950421393 -0.0269757293
497550000.0 -0.0629402271 -0.0898249909
507500000.0 -0.0835250762 -0.0403550464
517450000.0 -0.0574545132 -0.0805357924
527400000.0 -0.0511743069 -0.1105303278
537350000.0 -0.0623868243 -0.0793960234
547300000.0 -0.0826794694 -0.1089340014
557250000.0 -0.1123836991 -0.1261027651
567200000.0 -0.144799761 -0.1367847358
577150000.0 -0.1759192234 -0.1439589314
587100000.0 -0.2031539053 -0.1450124235
597050000.0 -0.2222716532 -0.1381209851
607000000.0 -0.2347707317 -0.1213358204
616950000.0 -0.2427312836 -0.0952891163
626900000.0 -0.2471739859 -0.0628879388
636850000.0 -0.2489042606 -0.0292322849
646800000.0 -0.2473696218 0.0023109488
656750000.0 -0.2415797197 0.0284131807
666700000.0 -0.2280459229 0.0463058118
676650000.0 -0.2050120876 0.0550466402
686600000.0 -0.1727469326 0.0553054968
696550000.0 -0.1336661644 0.0490223866
706500000.0 -0.0929795254 0.0367787173
716450000.0 -0.0558867059 0.0188097862
726400000.0 -0.0284890588 -0.0065948542
736350000.0 -0.0140592646 -0.0407639041
746300000.0 -0.0155172918 -0.0835655776
756250000.0 -0.0307111564 -0.1337324929
766200000.0 -0.0588426854 -0.1870776226
776150000.0 -0.0955562586 -0.2374247868
786100000.0 -0.1392195484 -0.2778751647
796050000.0 -0.1871082661 -0.3031779471
806000000.0 -0.237473763 -0.3103195503
815950000.0 -0.2919827487 -0.299045748
825900000.0 -0.3487827433 -0.2742473108
835850000.0 -0.4048631513 -0.2380090845
845800000.0 -0.4573517844 -0.1909670136
855750000.0 -0.502516999 -0.1417827479
865700000.0 -0.5353982227 -0.0896950683
875650000.0 -0.551425435 -0.0340354407
885600000.0 -0.5495195522 0.0265670859
895550000.0 -0.5315749135 0.0927886649
905500000.0 -0.4977499225 0.1648246068
915450000.0 -0.4521507607 0.2384795123
925400000.0 -0.3942679216 0.3091013471
935350000.0 -0.3199909246 0.3686454137
945300000.0 -0.2265171912 0.4070408512
955250000.0 -0.111172815 0.4123327487
965200000.0 0.022224446 0.3707114782
975150000.0 0.1615401713 0.2715216686
985100000.0 0.2800127334 0.1076793512
995050000.0 0.3357308628 -0.1125180992
1005000000.0 0.2855354674 -0.3519386882
1014950000.0 0.1175014887 -0.5443985814
1024900000.0 -0.1263749755 -0.6375379219
1034850000.0 -0.385230692 -0.6218760033
1044800000.0 -0.6119501209 -0.5192016318
1054750000.0 -0.7816558846 -0.3557918521
1064700000.0 -0.8719874843 -0.1485370039
1074650000.0 -0.8598329325 0.0208236941
1084600000.0 -0.8573338748 0.2059716926
1094550000.0 -0.7675950506 0.4104691795
1104500000.0 -0.6062567655 0.5813412075
1114450000.0 -0.3889049918 0.717184705
1124400000.0 -0.1091070861 0.7660955524
1134350000.0 0.185247654 0.6799692498
1144300000.0 0.4125524127 0.4498301602
1154250000.0 0.5034067205 0.1403862177
1164200000.0 0.4562009377 -0.1585134554
1174150000.0 0.3153995021 -0.3844877198
1184100000.0 0.1360613313 -0.5179558521
1194050000.0 -0.0417624035 -0.5686888402
1204000000.0 -0.1974613257 -0.5601217537
1213950000.0 -0.3257202042 -0.5178377493
1223900000.0 -0.4315159715 -0.4617471962
1233850000.0 -0.5197495724 -0.4016353098
1243800000.0 -0.5912678755 -0.342380259
1253750000.0 -0.6474953304 -0.2854071083
1263700000.0 -0.6865824023 -0.2282975963
1273650000.0 -0.7098747507 -0.1702593615
1283600000.0 -0.7189188005 -0.1091023147
1293550000.0 -0.720121715 -0.0464477298
1303500000.0 -0.7191931824 0.0162449133
1313450000.0 -0.7187595636 0.0765670029
1323400000.0 -0.7207912364 0.1329085455
1333350000.0 -0.7228031994 0.1846112921
1343300000.0 -0.7203485933 0.2316236121
1353250000.0 -0.7093335253 0.2730445171
1363200000.0 -0.6879479405 0.3117452377
1373150000.0 -0.6547923264 0.3493243335
1383100000.0 -0.6149239178 0.3878374121
1393050000.0 -0.5721747513 0.4284337854
1403000000.0 -0.5307051656 0.4696568417
1412950000.0 -0.4905158016 0.5081509225
1422900000.0 -0.4513353011 0.5413461405
1432850000.0 -0.4107158266 0.5641234907
1442800000.0 -0.3672707 0.5760998908
1452750000.0 -0.3197897847 0.5788522891
1462700000.0 -0.2673575217 0.5768419905
1472650000.0 -0.2060414136 0.5758423209
1482600000.0 -0.1366196719 0.5768844329
1492550000.0 -0.0624158703 0.5668006614
1502500000.0 0.0129560249 0.5526825263
1512450000.0 0.0846433504 0.5246914077
1522400000.0 0.1490874059 0.4760290616
1532350000.0 0.2039676026 0.4078765962
1542300000.0 0.2467255199 0.3201802955
1552250000.0 0.2753012612 0.2189090458
1562200000.0 0.2869010445 0.101752329
1572150000.0 0.2796578523 -0.0094611722
1582100000.0 0.26255564 -0.1063916092
1592050000.0 0.2249880225 -0.1943791035
1602000000.0 0.1579736269 -0.272530323
1611950000.0 0.0687723235 -0.3152819544
1621900000.0 -0.0333436882 -0.3562184371
1631850000.0 -0.1389315508 -0.3889421558
1641800000.0 -0.2402739053 -0.3989323329
1651750000.0 -0.3314829789 -0.3944725035
1661700000.0 -0.409505179 -0.3740209089
1671650000.0 -0.4728072459 -0.3383014179
1681600000.0 -0.5241890087 -0.2912953975
1691550000.0 -0.5686560092 -0.2379242953
1701500000.0 -0.6091545231 -0.1811932055
1711450000.0 -0.6473001581 -0.1257604361
1721400000.0 -0.681799046 -0.0719972215
1731350000.0 -0.7110102332 -0.0241051317
1741300000.0 -0.728906965 0.0204156898
1751250000.0 -0.733863727 0.0649183648
1761200000.0 -0.7265381798 0.108133938
1771150000.0 -0.7110598208 0.1532708903
1781100000.0 -0.6939704476 0.1993668986
1791050000.0 -0.6796462411 0.2451547392
1801000000.0 -0.6704420235 0.290371568
1810950000.0 -0.665569089 0.3314136293
1820900000.0 -0.6612271564 0.3690753698
1830850000.0 -0.6516878662 0.3978111581
1840800000.0 -0.6327304705 0.4233209865
1850750000.0 -0.6028924176 0.4442289441
1860700000.0 -0.5641278745 0.4626202128
1870650000.0 -0.5231364678 0.4818716979
1880600000.0 -0.4841117465 0.5011118143
1890550000.0 -0.4511366923 0.5191813115
1900500000.0 -0.4248458329 0.5322238728
1910450000.0 -0.4018887539 0.5423781808
1920400000.0 -0.3793939403 0.5460000996
1930350000.0 -0.349104849 0.5376241473
1940300000.0 -0.3295670892 0.5239354005
1950250000.0 -0.2962329039 0.5014421257
1960200000.0 -0.257837011 0.4680181366
1970150000.0 -0.2233087617 0.4432956746
1980100000.0 -0.1980714455 0.4166365118
1990050000.0 -0.1873264091 0.3864776242
2000000000.0 -0.1944604431 0.3519861663
