!Created with skrf (http://scikit-rf.org).
# GHz S RI R 50.0 
!freq ReS11 ImS11
10000000.0 -0.7433076387 0.6739047886
19950000.0 -0.1082898223 0.9817456251
29900000.0 0.571460322 0.7948780037
39850000.0 0.9599289583 0.1951412956
49800000.0 0.8397087272 -0.5217510056
59750000.0 0.2499925725 -0.968819911
69700000.0 -0.4965046575 -0.8744833851
79650000.0 -0.9614506251 -0.2680326278
89600000.0 -0.8438306798 0.5011212539
99550000.0 -0.1819040469 0.9478192245
109500000.0 0.6175058338 0.7351349268
119450000.0 0.9685635724 -0.0518453565
129400000.0 0.531785566 -0.8281439629
139350000.0 -0.3677912575 -0.9146837933
149300000.0 -0.9424485946 -0.2263178933
159250000.0 -0.71710242 0.620192745
169200000.0 0.0769967643 0.9357899576
179150000.0 0.7959152069 0.5110245831
189100000.0 0.9135740518 -0.2950285412
199050000.0 0.3887531012 -0.8854566801
209000000.0 -0.3743713026 -0.8835670414
218950000.0 -0.8757472881 -0.3483014472
228900000.0 -0.8520407358 0.3635834716
238850000.0 -0.3469964338 0.8506556341
248800000.0 0.3984367854 0.7831161049
258750000.0 0.835654306 0.4090583703
268700000.0 0.8927849952 -0.2823183924
278650000.0 0.457004257 -0.808120758
288600000.0 -0.2127589569 -0.8817512413
298550000.0 -0.7368413048 -0.4772903642
308500000.0 -0.8300037431 0.1689266893
318450000.0 -0.4448558088 0.6870399535
328400000.0 0.186555744 0.7695319954
338350000.0 0.65956334 0.3671648946
348300000.0 0.6642229982 -0.2261629222
358250000.0 0.2443822462 -0.5785714853
368200000.0 -0.2409213628 -0.4847158698
378150000.0 -0.443897134 -0.1003838486
388100000.0 -0.2909306511 0.2413044136
398050000.0 0.0187737315 0.3149099762
408000000.0 0.2219651301 0.1437748925
417950000.0 0.2052305208 -0.0789050784
427900000.0 0.0465261513 -0.1798873763
437850000.0 -0.1027836861 -0.1215540257
447800000.0 -0.1423586046 0.0116593973
457750000.0 -0.0738406739 0.1087818674
467700000.0 0.0296817858 0.1123755767
477650000.0 0.0889254078 0.048487611
487600000.0 0.0761726318 -0.0208900821
497550000.0 0.0261848496 -0.0218194237
507500000.0 -0.0007432933 -0.0643000579
517450000.0 -0.0210146812 -0.028486005
527400000.0 -0.0089859579 -0.0195053688
537350000.0 -0.0037364515 -0.0361865077
547300000.0 -0.0295806762 -0.0569163044
557250000.0 -0.0831783889 -0.0367614008
567200000.0 -0.1118020564 0.0252132642
577150000.0 -0.0858123299 0.0972242906
587100000.0 0.0016370879 0.1342342301
597050000.0 0.1043267442 0.1071785959
607000000.0 0.162244169 0.008286314
616950000.0 0.139060965 -0.1143908683
626900000.0 0.0353130505 -0.196119534
636850000.0 -0.1001940511 -0.1884992889
646800000.0 -0.1984546606 -0.0910774192
656750000.0 -0.2021784168 0.0462197285
666700000.0 -0.1116964336 0.1545458898
676650000.0 0.0236105441 0.1723617554
686600000.0 0.1304112841 0.0916386731
696550000.0 0.1531048057 -0.0374276012
706500000.0 0.0849803755 -0.1384473805
716450000.0 -0.0254566147 -0.1550573984
726400000.0 -0.1051321826 -0.0886643038
736350000.0 -0.1012033351 0.0079859144
746300000.0 -0.0234322746 0.0599027104
756250000.0 0.0650142737 0.0240603479
766200000.0 0.087429262 -0.074976837
776150000.0 0.0132426758 -0.1618535875
786100000.0 -0.1140865244 -0.1562930038
796050000.0 -0.2048048214 -0.0398036437
806000000.0 -0.1754492025 0.1285484646
815950000.0 -0.0178602831 0.2359825857
825900000.0 0.1919939829 0.1942952546
835850000.0 0.3235161572 0.0052731172
845800000.0 0.2842179111 -0.2392788582
855750000.0 0.0768302809 -0.3970629484
865700000.0 -0.196584083 -0.3684874822
875650000.0 -0.382819089 -0.1509538875
885600000.0 -0.3667800498 0.1491070812
895550000.0 -0.1420503331 0.3630166558
905500000.0 0.1781567579 0.3579196045
915450000.0 0.4048229991 0.1236473164
925400000.0 0.3951787907 -0.2065612854
935350000.0 0.1434234178 -0.4259389958
945300000.0 -0.1940723939 -0.3836084099
955250000.0 -0.3779060297 -0.0875018611
965200000.0 -0.2502745963 0.2511530402
975150000.0 0.107923966 0.3419822378
985100000.0 0.415464131 0.0702679154
995050000.0 0.3299049921 -0.3792083034
1005000000.0 -0.153348144 -0.5580753473
1014950000.0 -0.6053505514 -0.1935443122
1024900000.0 -0.5362901744 0.4509471919
1034850000.0 0.0858609609 0.7631066326
1044800000.0 0.7156027994 0.4034459419
1054750000.0 0.7884855478 -0.3164148892
1064700000.0 0.2726663488 -0.7732073558
1074650000.0 -0.3044164321 -0.7346224565
1084600000.0 -0.7345658397 -0.2817543602
1094550000.0 -0.690801261 0.3623153
1104500000.0 -0.1572133444 0.7376582233
1114450000.0 0.4547151744 0.5621047656
1124400000.0 0.6879931399 0.0052019406
1134350000.0 0.4233568825 -0.4912042821
1144300000.0 -0.0853746379 -0.6004646098
1154250000.0 -0.4743635569 -0.3031609045
1164200000.0 -0.4973813914 0.1643173443
1174150000.0 -0.1614809682 0.4663578591
1184100000.0 0.2682926367 0.393868016
1194050000.0 0.4763900263 0.0240674032
1204000000.0 0.3392217243 -0.3594277611
1213950000.0 -0.0229319769 -0.5154614135
1223900000.0 -0.3831136049 -0.3669907375
1233850000.0 -0.5426106942 -0.0108209867
1243800000.0 -0.4119512766 0.360623025
1253750000.0 -0.0575536506 0.5425785529
1263700000.0 0.3323875333 0.4333159735
1273650000.0 0.5506641494 0.094275279
1283600000.0 0.4973338168 -0.2989404875
1293550000.0 0.2103187177 -0.5658758427
1303500000.0 -0.1794010464 -0.5966430521
1313450000.0 -0.5079112448 -0.3838574178
1323400000.0 -0.6369655607 -0.0092025166
1333350000.0 -0.4983010398 0.3714005231
1343300000.0 -0.1421274728 0.5837908019
1353250000.0 0.2716854292 0.5223942627
1363200000.0 0.5500999832 0.2151417551
1373150000.0 0.5734607359 -0.1914409076
1383100000.0 0.3483801982 -0.5221697235
1393050000.0 -0.0212358482 -0.6491916427
1403000000.0 -0.3866308849 -0.5284520758
1412950000.0 -0.6042584651 -0.2099090218
1422900000.0 -0.5826754821 0.1810950145
1432850000.0 -0.3241481398 0.475262339
1442800000.0 0.0608639641 0.5382374891
1452750000.0 0.397919991 0.3461592304
1462700000.0 0.5417891617 -0.0072032977
1472650000.0 0.4383177567 -0.3624730116
1482600000.0 0.1434144676 -0.5690054463
1492550000.0 -0.2116109382 -0.5465045395
1502500000.0 -0.4741855855 -0.3077392074
1512450000.0 -0.5262604129 0.0394693522
1522400000.0 -0.338111175 0.3352375923
1532350000.0 0.0029006159 0.4322340284
1542300000.0 0.3194070705 0.2822953218
1552250000.0 0.4474193957 -0.0263497081
1562200000.0 0.3327486964 -0.3298922866
1572150000.0 0.0514272035 -0.477729628
1582100000.0 -0.2479687773 -0.4070387999
1592050000.0 -0.4171936095 -0.1578881818
1602000000.0 -0.3676239202 0.1468983668
1611950000.0 -0.1225697725 0.3424910787
1621900000.0 0.1856462219 0.3163545485
1631850000.0 0.385039762 0.0774552152
1641800000.0 0.3635168456 -0.2378447618
1651750000.0 0.1379437929 -0.4533012813
1661700000.0 -0.1712670395 -0.4585305134
1671650000.0 -0.4109541315 -0.25109294
1681600000.0 -0.4623615919 0.0746647656
1691550000.0 -0.2872188833 0.3627427893
1701500000.0 0.0451369666 0.4603464378
1711450000.0 0.3684446797 0.3044935361
1721400000.0 0.5121205325 -0.0287768086
1731350000.0 0.4030513958 -0.3698568091
1741300000.0 0.0993531625 -0.5549445442
1751250000.0 -0.2535293454 -0.5083776309
1761200000.0 -0.5021234676 -0.2524278883
1771150000.0 -0.5090337747 0.0832323405
1781100000.0 -0.4097107976 0.3320487542
1791050000.0 -0.0949898055 0.5353473762
1801000000.0 0.2859196403 0.4654363797
1810950000.0 0.5240713791 0.1678376379
1820900000.0 0.5133002521 -0.208029461
1830850000.0 0.2748054882 -0.4884049193
1840800000.0 -0.0715517975 -0.5662276965
1850750000.0 -0.3844587435 -0.426178008
1860700000.0 -0.5503654955 -0.1324625823
1870650000.0 -0.5112573013 0.2006080999
1880600000.0 -0.2829094769 0.4423423012
1890550000.0 0.0415512174 0.4899659695
1900500000.0 0.3169791964 0.3233639986
1910450000.0 0.4249642688 0.0325593192
1920400000.0 0.3343914745 -0.2458391482
1930350000.0 0.1102529891 -0.3974089216
1940300000.0 -0.1383966418 -0.383060328
1950250000.0 -0.3139877858 -0.2345856172
1960200000.0 -0.3566984167 -0.0342969961
1970150000.0 -0.2757263881 0.1247525264
1980100000.0 -0.1385661046 0.178744751
1990050000.0 -0.033415185 0.1332230856
2000000000.0 -0.0131180496 0.0663466698
