!Created with skrf (http://scikit-rf.org).
# GHz S RI R 50.0 
!freq ReS11 ImS11
10000000.0 -0.8127926809 0.6094137181
19950000.0 -0.2948623293 0.9510176577
29900000.0 0.320059968 0.9282916898
39850000.0 0.8115142497 0.5505645716
49800000.0 0.9902144513 -0.0551036838
59750000.0 0.7609339556 -0.6619343312
69700000.0 0.1858210393 -1.001654966
79650000.0 -0.49108909 -0.8858667205
89600000.0 -0.9334691176 -0.3379155926
99550000.0 -0.8924878511 0.3832626189
109500000.0 -0.3518839496 0.8966502098
119450000.0 0.4246137318 0.8779462263
129400000.0 0.9504652706 0.2783469614
139350000.0 0.8365378318 -0.5540999057
149300000.0 0.1155120036 -0.9783477611
159250000.0 -0.652440531 -0.7000734984
169200000.0 -0.9424303921 0.0303053173
179150000.0 -0.6259418729 0.715563233
189100000.0 0.0568482539 0.9679870839
199050000.0 0.7018528387 0.6864996717
209000000.0 0.9734604876 0.0601520844
218950000.0 0.7707927165 -0.5627548118
228900000.0 0.2314925923 -0.9029332738
238850000.0 -0.3923429647 -0.8321707374
248800000.0 -0.6241232261 -0.462419171
258750000.0 -0.9235257002 0.1578948818
268700000.0 -0.6412976193 0.699390672
278650000.0 -0.087105709 0.9412584316
288600000.0 0.4915280174 0.781085646
298550000.0 0.8366220749 0.2968373843
308500000.0 0.7998427747 -0.2905764945
318450000.0 0.4031446292 -0.7150941337
328400000.0 -0.1654174907 -0.7803888653
338350000.0 -0.6196546105 -0.4563047996
348300000.0 -0.7178101519 0.0683019543
358250000.0 -0.4333319691 0.4771610851
368200000.0 0.0136800405 0.5480646082
378150000.0 0.3323475851 0.3053816957
388100000.0 0.3701898251 -0.0385542793
398050000.0 0.1791720255 -0.260841729
408000000.0 -0.064048562 -0.268456365
417950000.0 -0.2029075492 -0.1219899088
427900000.0 -0.1894671185 0.047939235
437850000.0 -0.0749445117 0.1382806181
447800000.0 0.0495236234 0.1210280843
457750000.0 0.1126277726 0.0369770182
467700000.0 0.0997777798 -0.0489342585
477650000.0 0.0427606847 -0.0889522121
487600000.0 -0.0085234657 -0.0703456506
497550000.0 -0.0185213081 -0.1193523055
507500000.0 -0.0463611949 -0.0220644315
517450000.0 -0.0198664642 -0.004411444
527400000.0 -0.0074206796 -0.0150868519
537350000.0 -0.0211922644 -0.0299256399
547300000.0 -0.0598189278 -0.0231318526
557250000.0 -0.0823053434 0.0258733423
567200000.0 -0.0657971876 0.086248977
577150000.0 -0.0061534458 0.1284250164
587100000.0 0.0768409411 0.1228257312
597050000.0 0.1457581426 0.0601772858
607000000.0 0.1644143885 -0.0410698585
616950000.0 0.1147820468 -0.1402828064
626900000.0 0.0120145116 -0.1939698765
636850000.0 -0.1044281292 -0.1756920865
646800000.0 -0.1880393513 -0.0911116601
656750000.0 -0.2020392709 0.0263073767
666700000.0 -0.1396504617 0.1270740227
676650000.0 -0.0288605847 0.1656840952
686600000.0 0.0800242236 0.1268396909
696550000.0 0.1384030077 0.0318444354
706500000.0 0.1242094061 -0.0710001954
716450000.0 0.0510391918 -0.1325587139
726400000.0 -0.0370944452 -0.1244405397
736350000.0 -0.0866553872 -0.0549144572
746300000.0 -0.0650045626 0.0309830236
756250000.0 0.0192207144 0.0749970226
766200000.0 0.116804891 0.0418710853
776150000.0 0.1655232401 -0.0588806581
786100000.0 0.1259243741 -0.1731012287
796050000.0 0.0058957258 -0.2349760969
806000000.0 -0.1440551352 -0.1942119809
815950000.0 -0.2435002661 -0.0478640635
825900000.0 -0.226328023 0.1479419859
835850000.0 -0.0817422326 0.3028887965
845800000.0 0.1382714808 0.3386816453
855750000.0 0.3416207464 0.22827474
865700000.0 0.4358744466 0.0065518372
875650000.0 0.3673475939 -0.2347877136
885600000.0 0.1527554199 -0.3878505293
895550000.0 -0.1221712028 -0.3711659936
905500000.0 -0.3321268978 -0.1811450146
915450000.0 -0.3779635625 0.1006360939
925400000.0 -0.2326480714 0.3490228526
935350000.0 0.0427585368 0.4396383987
945300000.0 0.3104728124 0.3115290189
955250000.0 0.4110089446 0.0175753518
965200000.0 0.2512612183 -0.2776050017
975150000.0 -0.1080132315 -0.3592427594
985100000.0 -0.4269279915 -0.1066019368
995050000.0 -0.4182954826 0.3393025939
1005000000.0 -0.0235906924 0.6265025194
1014950000.0 0.4922627568 0.4770891468
1024900000.0 0.7229126703 -0.0662562589
1034850000.0 0.4292763883 -0.6372283281
1044800000.0 -0.2328475092 -0.7804768814
1054750000.0 -0.7433650517 -0.3451743551
1064700000.0 -0.7958179653 0.1612160318
1074650000.0 -0.5153355132 0.6924222021
1084600000.0 0.0687893485 0.8310056778
1094550000.0 0.5842729206 0.5485650382
1104500000.0 0.7613859753 -0.0214969449
1114450000.0 0.4761750252 -0.5449097583
1124400000.0 -0.0816112469 -0.6844782939
1134350000.0 -0.5259296842 -0.3874581437
1144300000.0 -0.6063928099 0.0928063668
1154250000.0 -0.3444405528 0.4540537525
1164200000.0 0.0670778599 0.5263269717
1174150000.0 0.4075977078 0.2959761221
1184100000.0 0.4782685346 -0.1081132682
1194050000.0 0.2426746854 -0.4320070143
1204000000.0 -0.1363948846 -0.4970226308
1213950000.0 -0.447443544 -0.3034230533
1223900000.0 -0.5632931846 0.0285781801
1233850000.0 -0.458698368 0.3573686363
1243800000.0 -0.1758530037 0.5624481457
1253750000.0 0.1836904743 0.5594709972
1263700000.0 0.4780288046 0.3338389654
1273650000.0 0.5789035199 -0.0290519338
1283600000.0 0.4485157043 -0.3791203077
1293550000.0 0.1517032961 -0.5873648605
1303500000.0 -0.1965884512 -0.6020974048
1313450000.0 -0.4929367242 -0.43683849
1323400000.0 -0.6600544308 -0.1441507161
1333350000.0 -0.6476557085 0.1983684604
1343300000.0 -0.445251439 0.4914266565
1353250000.0 -0.1002794115 0.6281093111
1363200000.0 0.2715858016 0.5432658316
1373150000.0 0.5320621761 0.2647255224
1383100000.0 0.5945422792 -0.10075314
1393050000.0 0.4597247838 -0.427170228
1403000000.0 0.1884927357 -0.6257668152
1412950000.0 -0.13511884 -0.6536524023
1422900000.0 -0.4209988865 -0.5111444407
1432850000.0 -0.5873866369 -0.236681998
1442800000.0 -0.5806002703 0.0896392121
1452750000.0 -0.3945191934 0.367927565
1462700000.0 -0.0802487565 0.5029383988
1472650000.0 0.2553453375 0.4424457009
1482600000.0 0.4923659437 0.2140865076
1492550000.0 0.5610168115 -0.0917993162
1502500000.0 0.4530630676 -0.3714195497
1512450000.0 0.2127812891 -0.5358480664
1522400000.0 -0.0775619458 -0.5320277662
1532350000.0 -0.3143472762 -0.3552973975
1542300000.0 -0.4016914916 -0.0668542776
1552250000.0 -0.2969518827 0.2165813576
1562200000.0 -0.0490258049 0.3727353621
1572150000.0 0.2283673205 0.3463347151
1582100000.0 0.4202325647 0.1645092627
1592050000.0 0.4550044742 -0.0873262597
1602000000.0 0.32569994 -0.3053843352
1611950000.0 0.0816211667 -0.4005793199
1621900000.0 -0.1820669347 -0.3212321678
1631850000.0 -0.3477964868 -0.0859464134
1641800000.0 -0.3305054068 0.2079194115
1651750000.0 -0.1354993199 0.4269416304
1661700000.0 0.1478404591 0.4793155552
1671650000.0 0.4034356539 0.3526202343
1681600000.0 0.5376831843 0.099387628
1691550000.0 0.5040890282 -0.192962
1701500000.0 0.3047968051 -0.4260992006
1711450000.0 -0.0048699601 -0.5133242391
1721400000.0 -0.3242788627 -0.4032315999
1731350000.0 -0.5247917867 -0.1212978137
1741300000.0 -0.5182851412 0.2220730834
1751250000.0 -0.3209287364 0.4757093284
1761200000.0 -0.0692785578 0.5814612634
1771150000.0 0.2265783722 0.5757750023
1781100000.0 0.4835604363 0.3994605373
1791050000.0 0.612257919 0.110395381
1801000000.0 0.5712378613 -0.2131574421
1810950000.0 0.3558711155 -0.4762592151
1820900000.0 0.0200454415 -0.5805767919
1830850000.0 -0.3185427714 -0.4764045484
1840800000.0 -0.5354707072 -0.2073582094
1850750000.0 -0.5691794949 0.1191614612
1860700000.0 -0.4371799484 0.3966439244
1870650000.0 -0.1996229441 0.560611238
1880600000.0 0.0746405252 0.5852374871
1890550000.0 0.3193306139 0.4731814192
1900500000.0 0.4724220788 0.2507092251
1910450000.0 0.4832897046 -0.0224254048
1920400000.0 0.3411245876 -0.254982329
1930350000.0 0.1006167355 -0.3636557481
1940300000.0 -0.142452698 -0.3254082586
1950250000.0 -0.3039165112 -0.179256719
1960200000.0 -0.3546300198 -0.0006842519
1970150000.0 -0.3098865679 0.1443481301
1980100000.0 -0.2146013599 0.2161011061
1990050000.0 -0.130315001 0.2082589503
2000000000.0 -0.1070527115 0.159940286
