!Created with skrf (http://scikit-rf.org).
# GHz S RI R 50.0 
!freq ReS11 ImS11
10000000.0 -0.9884191294 0.0675557306
14975000.0 -0.98627326 0.1013650617
19950000.0 -0.9831702443 0.135493235
24925000.0 -0.9785019658 0.1710144655
29900000.0 -0.9729793912 0.2063593614
34875000.0 -0.9645255153 0.2434865507
39850000.0 -0.95333543 0.2824742816
44825000.0 -0.9390972328 0.3236084316
49800000.0 -0.9218248839 0.3671702062
54775000.0 -0.9006489665 0.4133382838
59750000.0 -0.875092461 0.4623491431
64725000.0 -0.8447020546 0.5143380781
69700000.0 -0.8082495783 0.5689931869
74675000.0 -0.7644217148 0.6263445156
79650000.0 -0.7120412812 0.6858655831
84625000.0 -0.6496153328 0.7464384984
89600000.0 -0.5755999234 0.8066134477
94575000.0 -0.4886175553 0.8639930742
99550000.0 -0.3872871422 0.9158751438
104525000.0 -0.2709293069 0.9580170546
109500000.0 -0.1401418574 0.9858925525
114475000.0 0.0038579456 0.9945828004
119450000.0 0.1568546329 0.9800871794
124425000.0 0.3131118516 0.9391727811
129400000.0 0.4668457315 0.8700315616
134375000.0 0.5989339601 0.7817742882
139350000.0 0.7273329365 0.6630201231
144325000.0 0.8287991498 0.5296217093
149300000.0 0.9044566339 0.3866594616
154275000.0 0.9540931591 0.2411190404
159250000.0 0.979769897 0.0985931419
164225000.0 0.9841775912 -0.0358496349
169200000.0 0.9710032305 -0.1594738154
174175000.0 0.9440874977 -0.2707367278
179150000.0 0.908019598 -0.3690838446
184125000.0 0.8655453576 -0.4549510519
189100000.0 0.8197251619 -0.5296613872
194075000.0 0.7722999385 -0.5943389094
199050000.0 0.7248831519 -0.6502213582
204025000.0 0.6778266534 -0.6987784839
209000000.0 0.6325798428 -0.7404717427
213975000.0 0.5885899354 -0.7770317873
218950000.0 0.5461692609 -0.8085233713
223925000.0 0.505407848 -0.8359172632
228900000.0 0.4660009343 -0.8595255407
233875000.0 0.4277549708 -0.8797147718
238850000.0 0.389948732 -0.8968012848
243825000.0 0.3514865088 -0.9111083363
248800000.0 0.3281039186 -0.9080239966
253775000.0 0.2849777175 -0.9301813205
258750000.0 0.2476938349 -0.9381163638
263725000.0 0.2108827746 -0.9441154282
268700000.0 0.1738894746 -0.948489994
273675000.0 0.1361601894 -0.9514932535
278650000.0 0.0976907648 -0.9524371886
283625000.0 0.0582612414 -0.9518476372
288600000.0 0.0179049903 -0.9491304761
293575000.0 -0.0235631149 -0.9441840171
298550000.0 -0.0664374506 -0.9361622302
303525000.0 -0.1103861693 -0.924706729
308500000.0 -0.1554375248 -0.9086691385
313475000.0 -0.201069683 -0.8871238357
318450000.0 -0.2472813741 -0.8594724102
323425000.0 -0.2932751965 -0.8247575644
328400000.0 -0.3380329685 -0.7827054708
333375000.0 -0.3805055772 -0.7332712695
338350000.0 -0.4197491871 -0.6760541318
343325000.0 -0.4537829867 -0.6115985598
348300000.0 -0.480759434 -0.5403866788
353275000.0 -0.4984156311 -0.4641521775
358250000.0 -0.5058479549 -0.3844898669
363225000.0 -0.5019073118 -0.3041473871
368200000.0 -0.4862271796 -0.2255788374
373175000.0 -0.4595817056 -0.1517175314
378150000.0 -0.4231202632 -0.0850491106
383125000.0 -0.3784454184 -0.0268066725
388100000.0 -0.3278697972 0.0222145932
393075000.0 -0.2738211566 0.061086559
398050000.0 -0.2184446789 0.090327491
403025000.0 -0.1638687983 0.1108208616
408000000.0 -0.1119773547 0.1234881412
412975000.0 -0.0641634664 0.1293217863
417950000.0 -0.0207048999 0.1299484408
422925000.0 0.0180567727 0.1265236165
427900000.0 0.0517238338 0.1197516107
432875000.0 0.080354797 0.1108525327
437850000.0 0.1040257271 0.100642782
442825000.0 0.1234077836 0.0890155774
447800000.0 0.1390155207 0.0763989614
452775000.0 0.1507340971 0.0625634282
457750000.0 0.1589731016 0.0487586095
462725000.0 0.164347858 0.0354159517
467700000.0 0.1667649165 0.022622136
472675000.0 0.1671762578 0.0108053591
477650000.0 0.1654960517 0.0001380761
482625000.0 0.1622817513 -0.0092381253
487600000.0 0.1572630036 -0.0167504388
492575000.0 0.1518296793 -0.019954375
497550000.0 0.1473075314 -0.0289053429
502525000.0 0.1380842562 -0.0326564598
507500000.0 0.1283650528 -0.0345778568
512475000.0 0.1176215819 -0.0350996581
517450000.0 0.1060132497 -0.034483614
522425000.0 0.0935474108 -0.0326931682
527400000.0 0.0806821215 -0.0299922289
532375000.0 0.0674674985 -0.0261369696
537350000.0 0.0544218024 -0.0215673182
542325000.0 0.0416615299 -0.0162070061
547300000.0 0.0295523566 -0.0104198133
552275000.0 0.0178843599 -0.0038004789
557250000.0 0.0067131394 0.0033747536
562225000.0 -0.003624038 0.0112805894
567200000.0 -0.0126970949 0.01994248
572175000.0 -0.0206971507 0.029323932
577150000.0 -0.0279071029 0.0395454501
582125000.0 -0.0344907655 0.0502226923
587100000.0 -0.0404031135 0.0618034034
592075000.0 -0.045953384 0.0734364966
597050000.0 -0.0505191148 0.0851227764
602025000.0 -0.0545890137 0.0968974947
607000000.0 -0.0581669519 0.1083226731
611975000.0 -0.0606251287 0.119391678
616950000.0 -0.0625893583 0.1298406486
621925000.0 -0.0635390076 0.1395519468
626900000.0 -0.0634605628 0.1481805039
631875000.0 -0.0624749859 0.1559535141
636850000.0 -0.0603733647 0.162877886
641825000.0 -0.0573152156 0.1688343305
646800000.0 -0.0531247772 0.1739980191
651775000.0 -0.0475012115 0.1783902299
656750000.0 -0.0410513677 0.1826367439
661725000.0 -0.0338752721 0.1859651654
666700000.0 -0.0262048123 0.1885036514
671675000.0 -0.0181440712 0.1901297121
676650000.0 -0.0095791198 0.1911093219
681625000.0 -0.0005411418 0.1913420527
686600000.0 0.0081987177 0.1906278407
691575000.0 0.0169166371 0.1887109845
696550000.0 0.0256638563 0.1850148227
701525000.0 0.0347972749 0.1800106219
706500000.0 0.0436236723 0.1733156929
711475000.0 0.0526899313 0.1650707378
716450000.0 0.0619920884 0.1551016491
721425000.0 0.0712450225 0.1438020987
726400000.0 0.0804696265 0.1311453445
731375000.0 0.0895818502 0.1171459627
736350000.0 0.0984638107 0.1016177158
741325000.0 0.1072573353 0.0852926982
746300000.0 0.11564314 0.0679355734
751275000.0 0.1228946659 0.0500847251
756250000.0 0.1293994934 0.0311711707
761225000.0 0.1342061115 0.0115565439
766200000.0 0.1380370971 -0.0084954498
771175000.0 0.1398612284 -0.0294372842
776150000.0 0.1400174433 -0.0508998891
781125000.0 0.1385958201 -0.0734190726
786100000.0 0.1352021729 -0.0963744771
791075000.0 0.1301421555 -0.1194269638
796050000.0 0.1237135036 -0.1429218402
801025000.0 0.115416839 -0.1667284806
806000000.0 0.1058065952 -0.1898320878
810975000.0 0.0945077153 -0.2127921582
815950000.0 0.0819867421 -0.2352572219
820925000.0 0.0682813274 -0.2567791169
825900000.0 0.0534284401 -0.2768261308
830875000.0 0.0373122191 -0.29512734
835850000.0 0.019788322 -0.3119276685
840825000.0 0.000952804 -0.3267325196
845800000.0 -0.019089113 -0.3397393084
850775000.0 -0.0408138852 -0.3507167372
855750000.0 -0.0636337675 -0.360123344
860725000.0 -0.0875538931 -0.367753749
865700000.0 -0.1122567282 -0.3733604836
870675000.0 -0.1379699243 -0.3769839538
875650000.0 -0.1642942467 -0.3784498959
880625000.0 -0.1910673625 -0.3783116793
885600000.0 -0.2182979268 -0.3757118335
890575000.0 -0.2453290409 -0.3706579289
895550000.0 -0.2721817261 -0.3629414731
900525000.0 -0.2984512617 -0.3519502889
905500000.0 -0.3244968504 -0.3380553144
910475000.0 -0.3496699994 -0.3200867941
915450000.0 -0.3737486283 -0.2987135107
920425000.0 -0.3968774206 -0.2725194522
925400000.0 -0.4194132613 -0.2420855761
930375000.0 -0.4398714631 -0.2068263811
935350000.0 -0.4582629959 -0.166949915
940325000.0 -0.474897273 -0.1226556185
945300000.0 -0.4879951645 -0.0730895094
950275000.0 -0.4960735814 -0.0187399761
955250000.0 -0.4993580759 0.0404027314
960225000.0 -0.4957072351 0.1046529866
965200000.0 -0.4837118279 0.1728352178
970175000.0 -0.4617944504 0.244313694
975150000.0 -0.4275826774 0.3177087066
980125000.0 -0.3795939006 0.3908874761
985100000.0 -0.3168068284 0.4620148288
990075000.0 -0.238062727 0.527423643
995050000.0 -0.1441622321 0.5836390715
1000025000.0 -0.0357105178 0.6270639842
1005000000.0 0.0850252863 0.6529913472
1009975000.0 0.2136749047 0.6578336631
1014950000.0 0.3455509341 0.6384845771
1019925000.0 0.4747776064 0.5943267948
1024900000.0 0.5952505179 0.5255915671
1029875000.0 0.7002415159 0.4346765774
1034850000.0 0.7851756227 0.3253842991
1039825000.0 0.8466165501 0.2026164006
1044800000.0 0.8837095504 0.0724523525
1049775000.0 0.8965162897 -0.0596560946
1054750000.0 0.8864039062 -0.1883051387
1059725000.0 0.8567261112 -0.3105531073
1064700000.0 0.807931259 -0.4253233214
1069675000.0 0.7356564746 -0.5267260339
1074650000.0 0.6373994494 -0.5902976377
1079625000.0 0.5987601293 -0.5993381855
1084600000.0 0.5680940542 -0.6937053023
1089575000.0 0.4810477134 -0.7707358821
1094550000.0 0.3825906411 -0.8194248664
1099525000.0 0.2825281307 -0.8476385577
1104500000.0 0.183663693 -0.8591979381
1109475000.0 0.0870383808 -0.8568012401
1114450000.0 -0.0057264452 -0.8424182665
1119425000.0 -0.093798132 -0.8181401898
1124400000.0 -0.1757098289 -0.7849846057
1129375000.0 -0.251339005 -0.7452459794
1134350000.0 -0.319566417 -0.6996465306
1139325000.0 -0.3801376508 -0.6492328406
1144300000.0 -0.4333891556 -0.5945318068
1149275000.0 -0.4784096939 -0.5383894166
1154250000.0 -0.5160330253 -0.4813676996
1159225000.0 -0.545198358 -0.4246461573
1164200000.0 -0.568930818 -0.3702780954
1169175000.0 -0.5889943553 -0.3189086616
1174150000.0 -0.6066707422 -0.2673848663
1179125000.0 -0.6207086208 -0.214591826
1184100000.0 -0.6300836269 -0.161863202
1189075000.0 -0.6358956459 -0.1109417131
1194050000.0 -0.638754522 -0.0620433969
1199025000.0 -0.6382484977 -0.0154464939
1204000000.0 -0.6350675983 0.0285294446
1208975000.0 -0.6304703973 0.0698779228
1213950000.0 -0.6245588285 0.1094826835
1218925000.0 -0.6170808199 0.1462329204
1223900000.0 -0.6087051494 0.1797808623
1228875000.0 -0.599254585 0.2115888583
1233850000.0 -0.5889224014 0.2409336956
1238825000.0 -0.5777283391 0.2679280617
1243800000.0 -0.5654821375 0.2937114851
1248775000.0 -0.5531080332 0.3172061371
1253750000.0 -0.5406650613 0.3392350453
1258725000.0 -0.52785301 0.3605005602
1263700000.0 -0.515441924 0.380272139
1268675000.0 -0.5048447326 0.3983907146
1273650000.0 -0.4943144178 0.4161771642
1278625000.0 -0.4848528224 0.4318248192
1283600000.0 -0.4762381613 0.44619909
1288575000.0 -0.4680719141 0.459839772
1293550000.0 -0.4608381048 0.472472524
1298525000.0 -0.4540745497 0.4835751112
1303500000.0 -0.4475529222 0.4937983965
1308475000.0 -0.4422243171 0.5030088423
1313450000.0 -0.4360832872 0.5105771349
1318425000.0 -0.4296358755 0.5179363318
1323400000.0 -0.4230050498 0.5247183247
1328375000.0 -0.416436759 0.5307963586
1333350000.0 -0.4087018094 0.5369221999
1338325000.0 -0.4008830618 0.5425495605
1343300000.0 -0.3928474847 0.5483264603
1348275000.0 -0.3844745012 0.5547688737
1353250000.0 -0.3765119977 0.5615086626
1358225000.0 -0.3684437732 0.5677593825
1363200000.0 -0.3605905717 0.5741120895
1368175000.0 -0.3531179163 0.5806464668
1373150000.0 -0.3451508022 0.5865551123
1378125000.0 -0.3372181075 0.592196545
1383100000.0 -0.3305104249 0.5970311292
1388075000.0 -0.3233775468 0.6015571874
1393050000.0 -0.3160717376 0.6047608431
1398025000.0 -0.3091600896 0.6071960991
1403000000.0 -0.3012382567 0.6085342159
1407975000.0 -0.2930739053 0.6102146092
1412950000.0 -0.2847087606 0.6112675335
1417925000.0 -0.2754960746 0.6110463002
1422900000.0 -0.2665399345 0.6111872597
1427875000.0 -0.2569251578 0.6122100973
1432850000.0 -0.2465447994 0.6123265835
1437825000.0 -0.2365552271 0.6126621271
1442800000.0 -0.2264201508 0.6137619942
1447775000.0 -0.2156779344 0.6142696463
1452750000.0 -0.2039606219 0.6141844454
1457725000.0 -0.1920288663 0.6147688407
1462700000.0 -0.1792182081 0.6156355856
1467675000.0 -0.1663109817 0.6148450575
1472650000.0 -0.1520366126 0.6140523534
1477625000.0 -0.1372593213 0.6124845388
1482600000.0 -0.1222632553 0.6103800534
1487575000.0 -0.1057954774 0.6070254413
1492550000.0 -0.0880702579 0.6030202376
1497525000.0 -0.0704989929 0.5985763548
1502500000.0 -0.0515623733 0.5938825382
1507475000.0 -0.0316951538 0.5893905564
1512450000.0 -0.0119709153 0.5842254824
1517425000.0 0.0074774264 0.5790595236
1522400000.0 0.0273280677 0.5745046292
1527375000.0 0.0471522211 0.5691540455
1532350000.0 0.0665301077 0.5626974948
1537325000.0 0.0855536724 0.5559743219
1542300000.0 0.1053964252 0.5482749544
1547275000.0 0.1246930372 0.5388650159
1552250000.0 0.1429898979 0.5294035651
1557225000.0 0.1617857329 0.5182144842
1562200000.0 0.1802582836 0.5051815584
1567175000.0 0.1984838025 0.4917775382
1572150000.0 0.2169146373 0.4770155122
1577125000.0 0.2353091593 0.4611575571
1582100000.0 0.2540650317 0.4451520033
1587075000.0 0.273103548 0.4290056939
1592050000.0 0.2927221349 0.4127462981
1597025000.0 0.3119360771 0.3969044799
1602000000.0 0.3320521982 0.3813432772
1606975000.0 0.3522080125 0.3660182832
1611950000.0 0.3720604171 0.3510277566
1616925000.0 0.3910929139 0.3358202127
1621900000.0 0.4096869895 0.3208506374
1626875000.0 0.4268983284 0.3064007778
1631850000.0 0.4433009803 0.2915757954
1636825000.0 0.4580472705 0.2765332589
1641800000.0 0.4728438068 0.2614869517
1646775000.0 0.4865663234 0.2466606996
1651750000.0 0.4989170742 0.2314427852
1656725000.0 0.5108058315 0.2166233099
1661700000.0 0.5223716558 0.2020879551
1666675000.0 0.53329198 0.1878402574
1671650000.0 0.5437814549 0.173950106
1676625000.0 0.5536044075 0.1611174049
1681600000.0 0.5631151053 0.1489523502
1686575000.0 0.5725488323 0.1370972127
1691550000.0 0.5813719324 0.1259214241
1696525000.0 0.5892868551 0.1158674571
1701500000.0 0.5965914572 0.1061204933
1706475000.0 0.6033746891 0.0963659371
1711450000.0 0.6089785468 0.0870010393
1716425000.0 0.6139063079 0.0781874541
1721400000.0 0.6181140147 0.0693641434
1726375000.0 0.6218537806 0.0600095597
1731350000.0 0.6250340332 0.0507777733
1736325000.0 0.6283524926 0.0420897959
1741300000.0 0.6318046775 0.0330769377
1746275000.0 0.635249584 0.0245676059
1751250000.0 0.6387314958 0.0166378215
1756225000.0 0.6425145399 0.0095015035
1761200000.0 0.646182292 0.0034150244
1766175000.0 0.6496873236 -0.0020216193
1771150000.0 0.6531025396 -0.0065045691
1776125000.0 0.6560536429 -0.0098688544
1781100000.0 0.6587758067 -0.0123133103
1786075000.0 0.660446544 -0.0146793273
1791050000.0 0.6608486652 -0.0163133825
1796025000.0 0.65990284 -0.0175485266
1801000000.0 0.6568423966 -0.0182711449
1805975000.0 0.6504940145 -0.0183523038
1810950000.0 0.6426209435 -0.0135153085
1815925000.0 0.6398285718 -0.0036169633
1820900000.0 0.6426330612 0.0023036182
1825875000.0 0.6450588458 0.0025738397
1830850000.0 0.6445842873 0.0016964747
1835825000.0 0.6436260939 0.0004165431
1840800000.0 0.6418520239 -0.0007401361
1845775000.0 0.6389933744 -0.0010696223
1850750000.0 0.6355951531 -0.0009048472
1855725000.0 0.6324368938 -0.0003790939
1860700000.0 0.6276340738 0.0004077804
1865675000.0 0.6219606605 0.001876021
1870650000.0 0.6157558982 0.0040155601
1875625000.0 0.6084507336 0.0060221076
1880600000.0 0.5992300709 0.0078041027
1885575000.0 0.58921461 0.0100696289
1890550000.0 0.5775614835 0.0120756756
1895525000.0 0.5651628987 0.0135337488
1900500000.0 0.5514693707 0.0147563334
1905475000.0 0.5371175093 0.0155468374
1910450000.0 0.5229336853 0.0163353961
1915425000.0 0.5080140697 0.016801993
1920400000.0 0.4921408569 0.0172295825
1925375000.0 0.4764081936 0.0179415946
1930350000.0 0.4602881512 0.0194915719
1935325000.0 0.4436555059 0.0209653472
1940300000.0 0.425983357 0.0221590881
1945275000.0 0.4072659411 0.024876847
1950250000.0 0.3876547091 0.0285615449
1955225000.0 0.3663417989 0.0319585723
1960200000.0 0.3430913745 0.0357179662
1965175000.0 0.3182159826 0.0414227987
1970150000.0 0.290554299 0.0465912252
1975125000.0 0.2612785971 0.0517601724
1980100000.0 0.2288415832 0.0578299088
1985075000.0 0.195052866 0.0648287448
1990050000.0 0.1584972172 0.0709197511
1995025000.0 0.1192346282 0.0784525866
2000000000.0 0.0775432446 0.0880640645
