!Created with skrf (http://scikit-rf.org).
# GHz S RI R 50.0 
!freq ReS11 ImS11
10000000.0 -0.7742878812 0.5845438326
19950000.0 -0.282987538 0.9192872661
29900000.0 0.3116554888 0.901753951
39850000.0 0.7910818554 0.5299064311
49800000.0 0.958242489 -0.0710823089
59750000.0 0.7156154063 -0.6673990438
69700000.0 0.1297288951 -0.9816281984
79650000.0 -0.530752221 -0.8340637527
89600000.0 -0.9337500241 -0.2586978326
99550000.0 -0.8311663457 0.4687778504
109500000.0 -0.2191661916 0.9336392466
119450000.0 0.5748532384 0.7914752118
129400000.0 0.9936702861 0.0585403785
139350000.0 0.6808019381 -0.727795332
149300000.0 -0.120029213 -0.9630707863
159250000.0 -0.7824228677 -0.5152530747
169200000.0 -0.892375326 0.2349873436
179150000.0 -0.463066325 0.807301386
189100000.0 0.2046679935 0.9175865034
199050000.0 0.749205562 0.5626113378
209000000.0 0.9258018902 -0.0444764103
218950000.0 0.6906832418 -0.6023414665
228900000.0 0.1757428768 -0.8872805426
238850000.0 -0.3964322081 -0.8015152206
248800000.0 -0.7905890012 -0.4037547346
258750000.0 -0.8830202103 0.1681573155
268700000.0 -0.6169653883 0.6720146359
278650000.0 -0.1078134107 0.9110686374
288600000.0 0.4362847028 0.7896387884
298550000.0 0.7969305717 0.3636305079
308500000.0 0.819702627 -0.1996533091
318450000.0 0.4910571281 -0.6556205963
328400000.0 -0.0468756749 -0.797389699
338350000.0 -0.5333190357 -0.5530515393
348300000.0 -0.7114875269 -0.0613087928
358250000.0 -0.5045148103 0.3790187989
368200000.0 -0.0926408668 0.5190670109
378150000.0 0.2360559539 0.3411327079
388100000.0 0.3098130458 0.0387540386
398050000.0 0.1651873395 -0.1624771432
408000000.0 -0.029253905 -0.1724939261
417950000.0 -0.1256369442 -0.0521920877
427900000.0 -0.0908678318 0.0713802697
437850000.0 0.0161934346 0.1072730425
447800000.0 0.1062006104 0.0492852675
457750000.0 0.121106248 -0.0528016779
467700000.0 0.0622439365 -0.1333884886
477650000.0 -0.0293091647 -0.1491433431
487600000.0 -0.1036031917 -0.099433518
497550000.0 -0.1265945677 -0.0144945468
507500000.0 -0.0895149757 0.0564047804
517450000.0 -0.0235051986 0.0852046537
527400000.0 0.0307995332 0.0666610445
537350000.0 0.0482332611 0.0249353323
547300000.0 0.0297740666 -0.0068951518
557250000.0 -0.0012229188 -0.0096053856
567200000.0 -0.0183606357 0.014330575
577150000.0 -0.0037985873 0.0438573794
587100000.0 0.0372087654 0.0473250977
597050000.0 0.0768227217 0.0115231422
607000000.0 0.0829935192 -0.0526935445
616950000.0 0.0417693824 -0.1154266926
626900000.0 -0.0352428157 -0.1400416595
636850000.0 -0.1169998629 -0.1073279717
646800000.0 -0.1626019361 -0.0271318083
656750000.0 -0.1465440244 0.0702198603
666700000.0 -0.0727936393 0.1398646091
676650000.0 0.0316841988 0.1487007755
686600000.0 0.1200976042 0.0871696132
696550000.0 0.1509692468 -0.0182071324
706500000.0 0.1111386657 -0.118722744
716450000.0 0.0188259819 -0.1680744136
726400000.0 -0.0788817088 -0.1434543785
736350000.0 -0.1291470276 -0.0562076948
746300000.0 -0.1025743243 0.0426758355
756250000.0 -0.0097872388 0.0972465874
766200000.0 0.0982022203 0.0738951002
776150000.0 0.1600281885 -0.021433836
786100000.0 0.1364977021 -0.1376424715
796050000.0 0.0277262351 -0.2042170426
806000000.0 -0.1106441434 -0.1724886198
815950000.0 -0.2012814047 -0.0402400893
825900000.0 -0.1824683934 0.136408981
835850000.0 -0.0446860194 0.2668516764
845800000.0 0.1543738608 0.2784572137
855750000.0 0.3214488228 0.1561237869
865700000.0 0.3797866974 -0.0551149696
875650000.0 0.2853818439 -0.2686204376
885600000.0 0.0634496531 -0.3802454955
895550000.0 -0.1936882908 -0.3205370225
905500000.0 -0.3642989064 -0.0977608753
915450000.0 -0.3534348803 0.194135626
925400000.0 -0.1525006514 0.4151031635
935350000.0 0.1469923834 0.4489672217
945300000.0 0.3966143934 0.264509114
955250000.0 0.4550643252 -0.061222367
965200000.0 0.2554856727 -0.357331004
975150000.0 -0.1266567682 -0.4266453655
985100000.0 -0.4614557844 -0.1665818492
995050000.0 -0.4782017532 0.2928674766
1005000000.0 -0.1052599137 0.6186651306
1014950000.0 0.4214426366 0.5213603111
1024900000.0 0.6990686769 0.0031286632
1034850000.0 0.4479544274 -0.5870019739
1044800000.0 -0.2082375905 -0.7586341367
1054750000.0 -0.7525474895 -0.3338070609
1064700000.0 -0.7786913411 0.3361501334
1074650000.0 -0.3225090054 0.7864648602
1084600000.0 0.2958010819 0.7736358552
1094550000.0 0.7181340903 0.3313054355
1104500000.0 0.7014981943 -0.2824263065
1114450000.0 0.2529798813 -0.6912150712
1124400000.0 -0.3231090183 -0.6436833328
1134350000.0 -0.6604291903 -0.2238524816
1144300000.0 -0.6121345271 0.2726034797
1154250000.0 -0.268422053 0.5835297774
1164200000.0 0.1735129397 0.590681371
1174150000.0 0.5083903632 0.306786036
1184100000.0 0.5603492871 -0.1326618854
1194050000.0 0.3029176591 -0.4815187791
1204000000.0 -0.1038434155 -0.5635769464
1213950000.0 -0.4459647355 -0.3739142627
1223900000.0 -0.5929299536 -0.0322456234
1233850000.0 -0.5142712924 0.3182723262
1243800000.0 -0.2466332314 0.555025056
1253750000.0 0.11556861 0.5883844198
1263700000.0 0.4337601454 0.3896877791
1273650000.0 0.5696057421 0.033877746
1283600000.0 0.4674098538 -0.3299452276
1293550000.0 0.185157073 -0.5584043485
1303500000.0 -0.1578216822 -0.5892387813
1313450000.0 -0.4498713329 -0.4355143069
1323400000.0 -0.6157815633 -0.1545098859
1333350000.0 -0.6111204451 0.1764305688
1343300000.0 -0.4236334282 0.4632415053
1353250000.0 -0.0925424905 0.5981269916
1363200000.0 0.2653139759 0.5140094002
1373150000.0 0.5128039533 0.2361393551
1383100000.0 0.558250913 -0.1242184218
1393050000.0 0.4074903974 -0.4365899584
1403000000.0 0.1285817667 -0.6101939939
1412950000.0 -0.1839001933 -0.6080954934
1422900000.0 -0.4433180085 -0.441744246
1432850000.0 -0.5743199338 -0.1534161791
1442800000.0 -0.5265311281 0.1728477809
1452750000.0 -0.2960825712 0.4242081521
1462700000.0 0.0394691681 0.4980685384
1472650000.0 0.351060804 0.3684449359
1482600000.0 0.5249055501 0.095794655
1492550000.0 0.5145381562 -0.2145327627
1502500000.0 0.3375430027 -0.4545121034
1512450000.0 0.0614653258 -0.548402495
1522400000.0 -0.217703091 -0.461973185
1532350000.0 -0.3937451871 -0.2208078409
1542300000.0 -0.3911337188 0.0856326942
1552250000.0 -0.2049496148 0.3294442033
1562200000.0 0.083433002 0.4090840933
1572150000.0 0.3510183547 0.299217313
1582100000.0 0.4868461987 0.0578372792
1592050000.0 0.448616366 -0.212249126
1602000000.0 0.2539614183 -0.4063678411
1611950000.0 -0.0296300946 -0.4468982643
1621900000.0 -0.2933490115 -0.3025350589
1631850000.0 -0.4213956933 -0.0176939085
1641800000.0 -0.3502597821 0.2917444019
1651750000.0 -0.1075801052 0.4943142092
1661700000.0 0.2026056095 0.5090485856
1671650000.0 0.4579779532 0.3413249388
1681600000.0 0.57288392 0.0592787359
1691550000.0 0.5124267265 -0.2435529306
1701500000.0 0.2916386744 -0.4710908378
1711450000.0 -0.0276612427 -0.5416154683
1721400000.0 -0.3438559976 -0.416370251
1731350000.0 -0.5394219184 -0.1258975961
1741300000.0 -0.5362432268 0.2245354571
1751250000.0 -0.3419876864 0.5043844072
1761200000.0 -0.0374976928 0.6256993624
1771150000.0 0.273448244 0.5689383575
1781100000.0 0.5065236522 0.3651325222
1791050000.0 0.6064656457 0.0697008958
1801000000.0 0.5402333713 -0.2441932214
1810950000.0 0.3170290531 -0.4854795051
1820900000.0 -0.0086709125 -0.5686103574
1830850000.0 -0.3290886403 -0.4523926769
1840800000.0 -0.5276146047 -0.178631826
1850750000.0 -0.5454654418 0.1447868983
1860700000.0 -0.4013158555 0.4119060282
1870650000.0 -0.158593566 0.5596843741
1880600000.0 0.1095183033 0.5644719754
1890550000.0 0.3340623729 0.4357379938
1900500000.0 0.4585810655 0.2097869594
1910450000.0 0.4466600877 -0.0508070854
1920400000.0 0.2978628435 -0.2623061585
1930350000.0 0.0669500401 -0.3513895662
1940300000.0 -0.1574474307 -0.3000141967
1950250000.0 -0.298140338 -0.1545171076
1960200000.0 -0.332435511 0.0147738873
1970150000.0 -0.2792485039 0.1460383025
1980100000.0 -0.1853417903 0.2027663362
1990050000.0 -0.1098669479 0.1832941551
2000000000.0 -0.1052829505 0.1308822945
