!Created with skrf (http://scikit-rf.org).
# GHz S RI R 50.0 
!freq ReS11 ImS11
10000000.0 -0.7680580509 0.6736215161
19950000.0 -0.1414383921 0.9874753394
29900000.0 0.5327782752 0.8219760537
39850000.0 0.9422496678 0.2542745105
49800000.0 0.8777547824 -0.455548228
59750000.0 0.3379326775 -0.9527025589
69700000.0 -0.4201978374 -0.9364741539
79650000.0 -0.9548414548 -0.3648636427
89600000.0 -0.8975198396 0.4375469983
99550000.0 -0.2426065257 0.9400131179
109500000.0 0.5892750879 0.7572919846
119450000.0 0.9740084461 -0.0404036584
129400000.0 0.5318460697 -0.8485226601
139350000.0 -0.3952996711 -0.9291916102
149300000.0 -0.9663228276 -0.2006947393
159250000.0 -0.7016565636 0.6487779731
169200000.0 0.0956571813 0.9383994616
179150000.0 0.7974198454 0.5279333006
189100000.0 0.9507291053 -0.2423235527
199050000.0 0.5044869714 -0.8601763167
209000000.0 -0.2286101808 -0.9649150117
218950000.0 -0.8040930742 -0.5401547148
228900000.0 -0.9320331179 0.1436103149
238850000.0 -0.5788335488 0.7261001812
248800000.0 0.0484887925 0.9209678169
258750000.0 0.67415428 0.6669940702
268700000.0 0.9635573458 0.0640103842
278650000.0 0.7778345089 -0.5771867327
288600000.0 0.213133513 -0.9258958871
298550000.0 -0.432014867 -0.8061759183
308500000.0 -0.823931624 -0.2886957331
318450000.0 -0.7592085987 0.349311182
328400000.0 -0.2763933863 0.7577806985
338350000.0 0.337595294 0.6995266312
348300000.0 0.6905095935 0.2301931008
358250000.0 0.5728454434 -0.2975791197
368200000.0 0.1456141375 -0.5120878761
378150000.0 -0.2220306255 -0.3407516494
388100000.0 -0.2920942605 -0.0151990725
398050000.0 -0.1142440749 0.1791254904
408000000.0 0.0874478834 0.1435605118
417950000.0 0.1420332483 -0.0091434116
427900000.0 0.0492252509 -0.1114831886
437850000.0 -0.07616693 -0.0859881137
447800000.0 -0.1249164155 0.0290869864
457750000.0 -0.0645025144 0.1370729122
467700000.0 0.0547065688 0.1604464001
477650000.0 0.1489785217 0.0893501057
487600000.0 0.1642181008 -0.02292096
497550000.0 0.0920017909 -0.1157491553
507500000.0 -0.0002898908 -0.1195961272
517450000.0 -0.0668526098 -0.0711123807
527400000.0 -0.0778841153 -0.0048862665
537350000.0 -0.0451196513 0.035170246
547300000.0 -0.0101736962 0.0310495946
557250000.0 -0.0054438098 0.0103230584
567200000.0 -0.0260477252 0.0034403524
577150000.0 -0.0446043123 0.0278835035
587100000.0 -0.0298333445 0.0697415938
597050000.0 0.0260560692 0.0918141308
607000000.0 0.095620211 0.0614152102
616950000.0 0.1314681768 -0.0217513605
626900000.0 0.0995281758 -0.1192733848
636850000.0 0.0030012187 -0.1767056495
646800000.0 -0.1138054433 -0.1547530589
656750000.0 -0.188970583 -0.0557555888
666700000.0 -0.1766750495 0.071347413
676650000.0 -0.078363734 0.1575156895
686600000.0 0.0542909599 0.1527532636
696550000.0 0.1485186796 0.0585612729
706500000.0 0.1524337355 -0.0722643742
716450000.0 0.0668141245 -0.1656909131
726400000.0 -0.0541540351 -0.1675791647
736350000.0 -0.1310510858 -0.0865596443
746300000.0 -0.1210187401 0.0242843476
756250000.0 -0.0253498315 0.0856689551
766200000.0 0.0865272884 0.0447170681
776150000.0 0.1178172752 -0.0772755446
786100000.0 0.0451358708 -0.1639551256
796050000.0 -0.0699150036 -0.1894125122
806000000.0 -0.188176499 -0.1048831582
815950000.0 -0.2044671844 0.0636810665
825900000.0 -0.0770662032 0.2073357716
835850000.0 0.1360864335 0.2173901758
845800000.0 0.309156567 0.0625560433
855750000.0 0.327360468 -0.1853004629
865700000.0 0.1596362579 -0.3890195353
875650000.0 -0.1171961139 -0.4230778026
885600000.0 -0.3536475175 -0.2470467213
895550000.0 -0.4059873002 0.0595932816
905500000.0 -0.222325643 0.3298825234
915450000.0 0.1106869133 0.3979528882
925400000.0 0.4024663986 0.2055052978
935350000.0 0.4721694767 -0.1449378671
945300000.0 0.2638173947 -0.444396333
955250000.0 -0.1092540409 -0.497903885
965200000.0 -0.4120118417 -0.2437161948
975150000.0 -0.4130510305 0.1789792886
985100000.0 -0.0507761737 0.4606057355
995050000.0 0.4274624342 0.3158114959
1005000000.0 0.5823924115 -0.2056754569
1014950000.0 0.1987327806 -0.654096247
1024900000.0 -0.4390241569 -0.5729882716
1034850000.0 -0.7515437361 0.0602565814
1044800000.0 -0.3534280777 0.7203683708
1054750000.0 0.4575713776 0.7301301551
1064700000.0 0.8930678105 0.0603133376
1074650000.0 0.613480739 -0.6473777168
1084600000.0 -0.0352501765 -0.8413299282
1094550000.0 -0.6305417239 -0.5283816195
1104500000.0 -0.7743030391 0.1321078262
1114450000.0 -0.3611849423 0.6637610457
1124400000.0 0.2957495848 0.6715858969
1134350000.0 0.6856254567 0.1901102277
1144300000.0 0.5750910602 -0.3681698425
1154250000.0 0.1287232558 -0.6362834811
1164200000.0 -0.3400292043 -0.5139396222
1174150000.0 -0.5831454803 -0.1129267919
1184100000.0 -0.4645240452 0.3478508996
1194050000.0 -0.039282284 0.5711087504
1204000000.0 0.4035004414 0.4060915521
1213950000.0 0.5790868514 -0.013703925
1223900000.0 0.4181178954 -0.416876588
1233850000.0 0.0442394408 -0.6023062648
1243800000.0 -0.3533879026 -0.5020047257
1253750000.0 -0.5952163481 -0.1668371949
1263700000.0 -0.5589787239 0.2545666693
1273650000.0 -0.243926779 0.5521877533
1283600000.0 0.1937267983 0.5613193687
1293550000.0 0.5235655847 0.2803333039
1303500000.0 0.5928030354 -0.1354934712
1313450000.0 0.3958463672 -0.4926868935
1323400000.0 0.0318557645 -0.6560627248
1333350000.0 -0.3569116649 -0.5717728485
1343300000.0 -0.6224231344 -0.2663283168
1353250000.0 -0.6449952946 0.1501780679
1363200000.0 -0.3911343339 0.4974533812
1373150000.0 0.0328116127 0.6019478807
1383100000.0 0.4215747453 0.4111046349
1393050000.0 0.5987043128 0.0294919863
1403000000.0 0.5096169755 -0.3651925959
1412950000.0 0.2133282967 -0.620203874
1422900000.0 -0.1688525899 -0.6516305204
1432850000.0 -0.4944245351 -0.4511700197
1442800000.0 -0.634158402 -0.0893592934
1452750000.0 -0.5165003168 0.2872575094
1462700000.0 -0.1812751377 0.5058309794
1472650000.0 0.2157222857 0.4574019711
1482600000.0 0.4817627139 0.170291285
1492550000.0 0.5016200148 -0.2062407372
1502500000.0 0.288369449 -0.4986524582
1512450000.0 -0.0496353838 -0.5901680046
1522400000.0 -0.3639479293 -0.451621971
1532350000.0 -0.5171587592 -0.1460684788
1542300000.0 -0.4348745972 0.1881521188
1552250000.0 -0.1499246699 0.3853468106
1562200000.0 0.1923524137 0.3385189645
1572150000.0 0.4067860997 0.0743072124
1582100000.0 0.3830241206 -0.2571944935
1592050000.0 0.1467507933 -0.478518757
1602000000.0 -0.1722377089 -0.4838366105
1611950000.0 -0.4160226746 -0.2734815519
1621900000.0 -0.4607566886 0.0516871191
1631850000.0 -0.271831155 0.3333618543
1641800000.0 0.068347229 0.418028775
1651750000.0 0.3842684364 0.2452212141
1661700000.0 0.4999264899 -0.0995352725
1671650000.0 0.3539890911 -0.4326862756
1681600000.0 0.0283213483 -0.5886649046
1691550000.0 -0.3216545667 -0.5035001269
1701500000.0 -0.5468813029 -0.2180470077
1711450000.0 -0.5530647481 0.1539905471
1721400000.0 -0.3205196268 0.4634654639
1731350000.0 0.0690529872 0.5631347612
1741300000.0 0.4421963482 0.385338128
1751250000.0 0.6139014879 0.0056233499
1761200000.0 0.5059282481 -0.3897157086
1771150000.0 0.1860273961 -0.6260755074
1781100000.0 -0.1995070218 -0.6265238477
1791050000.0 -0.5089077117 -0.4113886306
1801000000.0 -0.6425181861 -0.0600706239
1810950000.0 -0.5503312684 0.3114340857
1820900000.0 -0.2480213378 0.566057838
1830850000.0 0.1583492987 0.5825505454
1840800000.0 0.4879409574 0.3363654665
1850750000.0 0.5845565034 -0.0564492167
1860700000.0 0.4243236805 -0.4082018785
1870650000.0 0.1062463414 -0.5842557665
1880600000.0 -0.2336307084 -0.5498171826
1890550000.0 -0.4855986403 -0.343978628
1900500000.0 -0.5789830479 -0.043617941
1910450000.0 -0.4880390638 0.2519025837
1920400000.0 -0.2456768768 0.4370482776
1930350000.0 0.0530292597 0.4381830739
1940300000.0 0.2775798158 0.2619166301
1950250000.0 0.3400458826 0.002929881
1960200000.0 0.2420441192 -0.2157882267
1970150000.0 0.0623564015 -0.318560305
1980100000.0 -0.1104341872 -0.3016617379
1990050000.0 -0.2166946168 -0.2117532158
2000000000.0 -0.2417185187 -0.1178927404
