!Created with skrf (http://scikit-rf.org).
# GHz S RI R 50.0 
!freq ReS11 ImS11
10000000.0 -0.811152183 0.6090943175
19950000.0 -0.2920620363 0.9515843855
29900000.0 0.3256342415 0.92724276
39850000.0 0.8175317738 0.5437386775
49800000.0 0.9900582477 -0.0681407793
59750000.0 0.7490489552 -0.674707061
69700000.0 0.1643115505 -1.004118892
79650000.0 -0.5125603335 -0.8720729716
89600000.0 -0.942681615 -0.3100875537
99550000.0 -0.8794905735 0.4149210402
109500000.0 -0.3142331623 0.9129398925
119450000.0 0.4696852404 0.8570789248
129400000.0 0.9525864343 0.1954532726
139350000.0 0.7989500365 -0.6053319239
149300000.0 0.052455915 -0.9829112888
159250000.0 -0.6951478864 -0.6596136703
169200000.0 -0.9423406058 0.0838201516
179150000.0 -0.590117486 0.749653865
189100000.0 0.1037472325 0.9661379797
199050000.0 0.7325547364 0.654288803
209000000.0 0.9753915383 0.0197478526
218950000.0 0.750672542 -0.5921151085
228900000.0 0.2032536537 -0.9133239786
238850000.0 -0.4165807906 -0.8253480592
248800000.0 -0.6472976361 -0.4557472468
258750000.0 -0.9216999663 0.1811678645
268700000.0 -0.6247988443 0.7152033543
278650000.0 -0.0652595696 0.9433564409
288600000.0 0.50877559 0.7714007865
298550000.0 0.8446182419 0.2836828356
308500000.0 0.8012098409 -0.301404901
318450000.0 0.4013733919 -0.7225079061
328400000.0 -0.1687703711 -0.7834799647
338350000.0 -0.6220770615 -0.4548643315
348300000.0 -0.7164645543 0.071531104
358250000.0 -0.4298568467 0.4785369972
368200000.0 0.0157688534 0.5476878491
378150000.0 0.331446066 0.3053571933
388100000.0 0.3661850247 -0.0369273451
398050000.0 0.1745178262 -0.2537048411
408000000.0 -0.0640778901 -0.2547749241
417950000.0 -0.195317747 -0.1078249037
427900000.0 -0.1749631196 0.0560325276
437850000.0 -0.0590846749 0.1363786852
447800000.0 0.0590083498 0.111646939
457750000.0 0.1141270127 0.0244639195
467700000.0 0.0934023075 -0.0601756528
477650000.0 0.0316183272 -0.0939114765
487600000.0 -0.0173446833 -0.0717827098
497550000.0 -0.0776136998 -0.1037905179
507500000.0 -0.0538124192 0.0006327178
517450000.0 -0.017436322 0.0137920126
527400000.0 0.0009137091 -0.0034164212
537350000.0 -0.0118188516 -0.0237610865
547300000.0 -0.045984978 -0.0195121933
557250000.0 -0.0693123712 0.0185853876
567200000.0 -0.0586075329 0.0728518981
577150000.0 -0.0066077749 0.1130046197
587100000.0 0.0693243048 0.1092533226
597050000.0 0.1332848008 0.0505339192
607000000.0 0.1487846462 -0.0439125829
616950000.0 0.0997244561 -0.1353314241
626900000.0 0.0020093438 -0.1822030043
636850000.0 -0.1072760068 -0.1596523706
646800000.0 -0.180764752 -0.0762719546
656750000.0 -0.1875821682 0.0350702687
666700000.0 -0.1224394155 0.1263105752
676650000.0 -0.0148473519 0.1557408286
686600000.0 0.0860235859 0.1107220062
696550000.0 0.1345352432 0.0156786082
706500000.0 0.1110048588 -0.0820059083
716450000.0 0.0335566528 -0.1340563421
726400000.0 -0.0518949715 -0.1155730007
736350000.0 -0.0926857237 -0.0406321682
746300000.0 -0.06276116 0.043194065
756250000.0 0.0268587744 0.0809797962
766200000.0 0.1246262632 0.0402303615
776150000.0 0.1680669629 -0.0662468884
786100000.0 0.1206239087 -0.1837518058
796050000.0 -0.008922641 -0.2414422178
806000000.0 -0.1619383181 -0.1898438865
815950000.0 -0.2557663486 -0.0337750333
825900000.0 -0.2274187061 0.1658202389
835850000.0 -0.0708833887 0.3160379931
845800000.0 0.1567011962 0.3398128357
855750000.0 0.3583900375 0.2139455931
865700000.0 0.4427089281 -0.0178490057
875650000.0 0.3597185672 -0.2619192093
885600000.0 0.1328864718 -0.4088454368
895550000.0 -0.1488428854 -0.3820451268
905500000.0 -0.3612403659 -0.1787077572
915450000.0 -0.3988753094 0.1194406328
925400000.0 -0.2335896344 0.3738340456
935350000.0 0.0611669593 0.4560836428
945300000.0 0.3355769599 0.3111029521
955250000.0 0.4311190355 0.0010618718
965200000.0 0.2588269633 -0.3000657492
975150000.0 -0.1139152196 -0.3763556383
985100000.0 -0.4371692587 -0.1094237869
995050000.0 -0.4159403651 0.3524708528
1005000000.0 0.0083952522 0.6313669938
1014950000.0 0.5324409914 0.4419361045
1024900000.0 0.7238683906 -0.1387078003
1034850000.0 0.3635158122 -0.6946550699
1044800000.0 -0.3289528054 -0.7659260839
1054750000.0 -0.8199229329 -0.2715147941
1064700000.0 -0.7625066609 0.3482132373
1074650000.0 -0.346374329 0.7578728016
1084600000.0 0.1975696508 0.7816457351
1094550000.0 0.6639220326 0.4307038156
1104500000.0 0.7362019885 -0.1629536346
1114450000.0 0.3601458668 -0.6192107739
1124400000.0 -0.20451947 -0.6508342087
1134350000.0 -0.5805391659 -0.2863614186
1144300000.0 -0.5800949461 0.189923835
1154250000.0 -0.2723523832 0.5026585118
1164200000.0 0.1393678885 0.51507702
1174150000.0 0.4427898701 0.2517114473
1184100000.0 0.4751684044 -0.1541899001
1194050000.0 0.2110677593 -0.4591886546
1204000000.0 -0.1756789035 -0.4936496068
1213950000.0 -0.4745957452 -0.2744869457
1223900000.0 -0.5665436947 0.0687205155
1233850000.0 -0.4354553571 0.392628191
1243800000.0 -0.1350805592 0.5776303627
1253750000.0 0.2269356303 0.5464350484
1263700000.0 0.505393777 0.2968380639
1273650000.0 0.5794480382 -0.0751035968
1283600000.0 0.4215268126 -0.4166518536
1293550000.0 0.1080642639 -0.6040319005
1303500000.0 -0.2440623362 -0.5911099143
1313450000.0 -0.5290081052 -0.3992525484
1323400000.0 -0.6710992295 -0.0890348741
1333350000.0 -0.6273327844 0.2560431164
1343300000.0 -0.3943195375 0.5328765604
1353250000.0 -0.0328032395 0.6362257418
1363200000.0 0.3329967099 0.5149535422
1373150000.0 0.5670372923 0.2104053789
1383100000.0 0.595153847 -0.161333577
1393050000.0 0.4295693612 -0.4762762683
1403000000.0 0.1366365721 -0.6513318201
1412950000.0 -0.1956399229 -0.6494623848
1422900000.0 -0.4765553135 -0.4743247234
1432850000.0 -0.621260765 -0.1710070166
1442800000.0 -0.5764669504 0.1700716082
1452750000.0 -0.3472303731 0.4359130599
1462700000.0 -0.006808622 0.5329999115
1472650000.0 0.3258733727 0.4286745808
1482600000.0 0.5382602071 0.1680492932
1492550000.0 0.5712792108 -0.1507120788
1502500000.0 0.4296859866 -0.4238394661
1512450000.0 0.165139214 -0.5682939585
1522400000.0 -0.1356284324 -0.5360916971
1532350000.0 -0.3656859986 -0.3319080322
1542300000.0 -0.4335256487 -0.026342986
1552250000.0 -0.306757234 0.2592792883
1562200000.0 -0.0410057811 0.4077386892
1572150000.0 0.2467740552 0.3670162761
1582100000.0 0.4400478426 0.1695807694
1592050000.0 0.4701850984 -0.094131383
1602000000.0 0.3321198566 -0.3194648966
1611950000.0 0.0798390252 -0.4152019862
1621900000.0 -0.1876529208 -0.334257878
1631850000.0 -0.3553178339 -0.0985050615
1641800000.0 -0.3397868855 0.195827944
1651750000.0 -0.1447467603 0.4148228671
1661700000.0 0.13435844 0.4596539951
1671650000.0 0.364573792 0.3454992526
1681600000.0 0.5191112457 0.1183204655
1691550000.0 0.5013600816 -0.1793505414
1701500000.0 0.3070048699 -0.4191394939
1711450000.0 -0.0010807083 -0.5101939518
1721400000.0 -0.3196328484 -0.4029940101
1731350000.0 -0.5210221825 -0.1241673774
1741300000.0 -0.5213105297 0.2188212285
1751250000.0 -0.3295149193 0.4940189761
1761200000.0 -0.0274957855 0.6123517034
1771150000.0 0.2825051409 0.5535104508
1781100000.0 0.5146670802 0.3464578109
1791050000.0 0.609949256 0.0470722462
1801000000.0 0.534559908 -0.2679514399
1810950000.0 0.293217795 -0.5034551578
1820900000.0 -0.0491805529 -0.5676333363
1830850000.0 -0.3690036451 -0.4265709652
1840800000.0 -0.5500820234 -0.1375460523
1850750000.0 -0.5448359123 0.1859039722
1860700000.0 -0.3826038864 0.4415262986
1870650000.0 -0.1291281996 0.5736487632
1880600000.0 0.1449550757 0.5623274849
1890550000.0 0.3723215106 0.4157579748
1900500000.0 0.4902567133 0.1702358156
1910450000.0 0.4544338496 -0.1026940364
1920400000.0 0.2727281266 -0.3062789024
1930350000.0 0.0191906404 -0.3677616773
1940300000.0 -0.2041751099 -0.2860725306
1950250000.0 -0.3312458241 -0.1201671063
1960200000.0 -0.3453292408 0.0557958776
1970150000.0 -0.2745589348 0.1820326678
1980100000.0 -0.1712389135 0.2262409904
1990050000.0 -0.095612394 0.1965877909
2000000000.0 -0.0894487814 0.1438133258
