!Created with skrf (http://scikit-rf.org).
# GHz S RI R 50.0 
!freq ReS11 ImS11
10000000.0 -0.7485413927 0.6774933511
19950000.0 -0.1093499594 0.9843235128
29900000.0 0.5720126344 0.7930131267
39850000.0 0.9588252004 0.1894023432
49800000.0 0.8350533307 -0.5295157793
59750000.0 0.2394228588 -0.975763373
69700000.0 -0.5113312332 -0.8743362986
79650000.0 -0.9717862311 -0.2563882423
89600000.0 -0.8375361365 0.5177987072
99550000.0 -0.1572719171 0.9513275917
109500000.0 0.6430724576 0.7096888793
119450000.0 0.9656410428 -0.0990178077
129400000.0 0.4917645688 -0.8533955664
139350000.0 -0.4210830557 -0.899154639
149300000.0 -0.9565804686 -0.1761177645
159250000.0 -0.6826304445 0.6557041901
169200000.0 0.1239305344 0.9276864328
179150000.0 0.8186741018 0.4729932814
189100000.0 0.9049596472 -0.3318716679
199050000.0 0.3651548838 -0.9020632877
209000000.0 -0.3918826278 -0.8813104404
218950000.0 -0.8799884557 -0.3417801389
228900000.0 -0.8496391198 0.3647604852
238850000.0 -0.3461857283 0.8478833355
248800000.0 0.359247865 0.7037295215
258750000.0 0.8380524305 0.411713399
268700000.0 0.9005427221 -0.2785863524
278650000.0 0.4685158197 -0.8098024224
288600000.0 -0.200794568 -0.8896672348
298550000.0 -0.7293319125 -0.4907380983
308500000.0 -0.8317393042 0.1544534108
318450000.0 -0.4547901451 0.6795978277
328400000.0 0.1772158759 0.7723235058
338350000.0 0.6605261109 0.3759348836
348300000.0 0.6713029371 -0.2214463881
358250000.0 0.2489247613 -0.5787426616
368200000.0 -0.2385843035 -0.4839218626
378150000.0 -0.4398049702 -0.0972867016
388100000.0 -0.2833048096 0.243740546
398050000.0 0.0265142378 0.3114749038
408000000.0 0.2251245104 0.1363083266
417950000.0 0.2033229476 -0.0824938382
427900000.0 0.0439906174 -0.1763266359
437850000.0 -0.1008612213 -0.1177045098
447800000.0 -0.138243914 0.0105352237
457750000.0 -0.0733547939 0.1050419894
467700000.0 0.0243328869 0.1136797579
477650000.0 0.0820224634 0.0557696312
487600000.0 0.0740880823 -0.0104512173
497550000.0 0.0316156602 -0.0127534495
507500000.0 0.0041128208 -0.0603121075
517450000.0 -0.0157870415 -0.0282626507
527400000.0 -0.0069394768 -0.0180581918
537350000.0 -0.0044133821 -0.0345067303
547300000.0 -0.0314738284 -0.0583046146
557250000.0 -0.087206902 -0.0440387604
567200000.0 -0.1195402767 0.0173181855
577150000.0 -0.0957341903 0.0972066686
587100000.0 -0.012139924 0.1445381528
597050000.0 0.0927568061 0.1194982952
607000000.0 0.1598630088 0.0206023689
616950000.0 0.1438068023 -0.1066939334
626900000.0 0.0445117632 -0.1956460966
636850000.0 -0.093017299 -0.196776668
646800000.0 -0.1975500836 -0.1049291646
656750000.0 -0.2136828815 0.0330312955
666700000.0 -0.1319046634 0.1437155412
676650000.0 0.0019379147 0.1683670975
686600000.0 0.1119685612 0.0968801014
696550000.0 0.1405707269 -0.0249724745
706500000.0 0.0790179991 -0.1227453947
716450000.0 -0.0237190305 -0.1416239524
726400000.0 -0.0955334854 -0.0816037428
736350000.0 -0.0875146099 0.0038749003
746300000.0 -0.012891438 0.0428749661
756250000.0 0.0642761441 -0.0016841689
766200000.0 0.0724380482 -0.1006042636
776150000.0 -0.013477436 -0.1766305879
786100000.0 -0.1448370114 -0.1557575343
796050000.0 -0.2278285642 -0.0248863246
806000000.0 -0.1833286118 0.14956389
815950000.0 -0.0079139676 0.2535928212
825900000.0 0.2134765322 0.1983278485
835850000.0 0.3403935871 -0.011640756
845800000.0 0.288220664 -0.2553258298
855750000.0 0.083068309 -0.4146719729
865700000.0 -0.1939357792 -0.3970178646
875650000.0 -0.3972068332 -0.1854120583
885600000.0 -0.4044153791 0.1221662574
895550000.0 -0.1933214591 0.3625403063
905500000.0 0.1336804917 0.3949088965
915450000.0 0.3963875397 0.18851808
925400000.0 0.4408821879 -0.1452465183
935350000.0 0.2369024317 -0.4122852718
945300000.0 -0.0972141627 -0.4528399158
955250000.0 -0.3598190756 -0.234636878
965200000.0 -0.3720864286 0.1146714996
975150000.0 -0.0974173497 0.3543918048
985100000.0 0.278748586 0.2685333333
995050000.0 0.4221240558 -0.1176505748
1005000000.0 0.1464128082 -0.4695478127
1014950000.0 -0.3419517609 -0.4171621269
1024900000.0 -0.5854134101 0.0730561444
1034850000.0 -0.2757561169 0.5987165267
1044800000.0 0.389807468 0.627938834
1054750000.0 0.8025725375 0.0580561108
1064700000.0 0.5528481769 -0.5932302714
1074650000.0 -0.0276336816 -0.8190683027
1084600000.0 -0.638460499 -0.5293884033
1094550000.0 -0.7966999696 0.127021417
1104500000.0 -0.4061360921 0.6837243648
1114450000.0 0.2788213735 0.7193310308
1124400000.0 0.7062100899 0.2076191269
1134350000.0 0.5588123769 -0.4024576571
1144300000.0 0.0281302457 -0.6374323225
1154250000.0 -0.4460406344 -0.384666174
1164200000.0 -0.5308951878 0.1115574404
1174150000.0 -0.2088049807 0.4583316514
1184100000.0 0.2414255223 0.4183669137
1194050000.0 0.4777141241 0.0483506166
1204000000.0 0.3450501843 -0.3529498653
1213950000.0 -0.028247412 -0.5163185987
1223900000.0 -0.3979158626 -0.3662129528
1233850000.0 -0.5574814749 -0.0018488372
1243800000.0 -0.4210909641 0.3766575311
1253750000.0 -0.0568878093 0.5623129515
1263700000.0 0.3405359835 0.4484931389
1273650000.0 0.5598750169 0.0986831347
1283600000.0 0.5004224521 -0.3050778021
1293550000.0 0.2047760411 -0.5756200946
1303500000.0 -0.1906100605 -0.6052621458
1313450000.0 -0.5221058914 -0.3877277517
1323400000.0 -0.6532632236 -0.008567921
1333350000.0 -0.5174720468 0.3766873008
1343300000.0 -0.1616444323 0.5957599373
1353250000.0 0.2576014235 0.5388324419
1363200000.0 0.545403801 0.2308044625
1373150000.0 0.5774225893 -0.182351376
1383100000.0 0.354367241 -0.5199882562
1393050000.0 -0.0181068247 -0.6516034503
1403000000.0 -0.3885400101 -0.5350068025
1412950000.0 -0.6125572638 -0.2206275961
1422900000.0 -0.5997034771 0.1656331693
1432850000.0 -0.3488191995 0.4646966256
1442800000.0 0.0352270833 0.5421420002
1452750000.0 0.3796336363 0.3622081955
1462700000.0 0.5332060048 0.0110414054
1472650000.0 0.4352255004 -0.3508161346
1482600000.0 0.1390849958 -0.5647123175
1492550000.0 -0.2177759132 -0.5434718034
1502500000.0 -0.4767130603 -0.3035666487
1512450000.0 -0.5208782334 0.0431925793
1522400000.0 -0.3273933058 0.3327510603
1532350000.0 0.0065977503 0.4207192355
1542300000.0 0.3087227252 0.2653596001
1552250000.0 0.4218766037 -0.0420297263
1562200000.0 0.3002919234 -0.3329592533
1572150000.0 0.0235822213 -0.4621076836
1582100000.0 -0.2598088428 -0.3741786638
1592050000.0 -0.4087434206 -0.1184247608
1602000000.0 -0.3422042577 0.1751727021
1611950000.0 -0.0883373844 0.345796552
1621900000.0 0.2160110542 0.2915187391
1631850000.0 0.3965583481 0.0351762458
1641800000.0 0.3470113315 -0.2759313499
1651750000.0 0.0967341279 -0.4686493749
1661700000.0 -0.21998767 -0.4406405051
1671650000.0 -0.4430569859 -0.2048063375
1681600000.0 -0.4584037214 0.1280393539
1691550000.0 -0.2462704482 0.3953309114
1701500000.0 0.0933151381 0.4484923026
1711450000.0 0.3637932195 0.2925345218
1721400000.0 0.5253514131 -0.017758128
1731350000.0 0.4181583384 -0.3747717072
1741300000.0 0.1044079813 -0.5710703517
1751250000.0 -0.2594448978 -0.5290382949
1761200000.0 -0.5220257911 -0.2770986534
1771150000.0 -0.5818039024 0.0834174696
1781100000.0 -0.409996496 0.4131825147
1791050000.0 -0.0659667028 0.5733655126
1801000000.0 0.3091413622 0.4839056884
1810950000.0 0.5441939394 0.1749446469
1820900000.0 0.5302602059 -0.2100125241
1830850000.0 0.2855586918 -0.4958084135
1840800000.0 -0.0697086012 -0.5723936717
1850750000.0 -0.3914357958 -0.4274407987
1860700000.0 -0.5633642332 -0.1293859604
1870650000.0 -0.5297822437 0.208271752
1880600000.0 -0.3048975013 0.4570132869
1890550000.0 0.0219693988 0.5172395715
1900500000.0 0.3116134783 0.3657454966
1910450000.0 0.439679181 0.0766026937
1920400000.0 0.3655126109 -0.2147514902
1930350000.0 0.1457696936 -0.3884320187
1940300000.0 -0.112593832 -0.395628951
1950250000.0 -0.3064081478 -0.262964252
1960200000.0 -0.3755013599 -0.0637278563
1970150000.0 -0.3189700231 0.1126892236
1980100000.0 -0.1898556912 0.2025180694
1990050000.0 -0.0658598239 0.1971009209
2000000000.0 0.0029987218 0.1420791705
