!Created with skrf (http://scikit-rf.org).
# GHz S RI R 50.0 
!freq ReS11 ImS11
10000000.0 -0.7882822336 0.5897957838
19950000.0 -0.2901954193 0.9242339839
29900000.0 0.3082757397 0.90309814
39850000.0 0.7894604575 0.5294742544
49800000.0 0.9602388673 -0.0723116126
59750000.0 0.7225613458 -0.6727825796
69700000.0 0.1421941736 -0.9976666763
79650000.0 -0.526971506 -0.8566386364
89600000.0 -0.9398938173 -0.2816984292
99550000.0 -0.8465507155 0.448585458
109500000.0 -0.2447925481 0.9250968683
119450000.0 0.5519293504 0.8090854775
129400000.0 1.001449303 0.0970717313
139350000.0 0.7207886625 -0.7101517221
149300000.0 -0.0775552713 -0.9797845757
159250000.0 -0.7636947176 -0.5530765369
169200000.0 -0.9036019547 0.2013456073
179150000.0 -0.4899122497 0.7984709101
189100000.0 0.186671708 0.9366282513
199050000.0 0.7546087004 0.5931558542
209000000.0 0.9492339919 -0.0211666656
218950000.0 0.7178950028 -0.5924482543
228900000.0 0.1982061172 -0.8887093093
238850000.0 -0.3833085821 -0.8114087382
248800000.0 -0.7804494751 -0.3984488409
258750000.0 -0.8986185661 0.1610167566
268700000.0 -0.6389688835 0.677480842
278650000.0 -0.1246940284 0.9283728368
288600000.0 0.430164864 0.8107968135
298550000.0 0.7956075491 0.3785330078
308500000.0 0.8227144742 -0.1872983902
318450000.0 0.4978609367 -0.6484447972
328400000.0 -0.0398594418 -0.7998037867
338350000.0 -0.5343499284 -0.5641803639
348300000.0 -0.7244209616 -0.0731458089
358250000.0 -0.5249303595 0.3742610667
368200000.0 -0.1122862429 0.5238863543
378150000.0 0.2248739968 0.3521502621
388100000.0 0.3108891491 0.0480979994
398050000.0 0.1732318576 -0.1634616709
408000000.0 -0.0230350833 -0.1838213452
417950000.0 -0.1257278944 -0.0674450057
427900000.0 -0.0957125274 0.0573796079
437850000.0 0.0096331512 0.097841249
447800000.0 0.1013960598 0.0449445597
457750000.0 0.1207501109 -0.0546057264
467700000.0 0.0660237601 -0.1354450189
477650000.0 -0.024210866 -0.1520186947
487600000.0 -0.0987027258 -0.1018277868
497550000.0 -0.1182787227 -0.0208215225
507500000.0 -0.0838431313 0.0540993561
517450000.0 -0.0176191683 0.0849548713
527400000.0 0.0376074325 0.0676337281
537350000.0 0.0560978776 0.026175794
547300000.0 0.0379234124 -0.0073337476
557250000.0 0.0037654938 -0.0109023483
567200000.0 -0.0170195814 0.0147275583
577150000.0 -0.0051917975 0.047845707
587100000.0 0.0355411142 0.0560417
597050000.0 0.0767229012 0.0236407922
607000000.0 0.0859911789 -0.0399204854
616950000.0 0.0474667967 -0.104601249
626900000.0 -0.0291241894 -0.1338832376
636850000.0 -0.1142886472 -0.1068071335
646800000.0 -0.1655389644 -0.0292630247
656750000.0 -0.1561617027 0.0686440141
666700000.0 -0.0866007428 0.1417273631
676650000.0 0.0170999375 0.1556632062
686600000.0 0.1096115048 0.0981422567
696550000.0 0.1471322931 -0.0072250458
706500000.0 0.1137198575 -0.1124025732
716450000.0 0.0240736738 -0.1696147607
726400000.0 -0.075898337 -0.1529364508
736350000.0 -0.1334486812 -0.0705297618
746300000.0 -0.1145665376 0.029315007
756250000.0 -0.0258624853 0.0909254923
766200000.0 0.0842745376 0.07513757
776150000.0 0.1539745711 -0.0149473239
786100000.0 0.1410341971 -0.1309606846
796050000.0 0.0400876451 -0.2046513406
806000000.0 -0.096860808 -0.1823324389
815950000.0 -0.1923052548 -0.0571658262
825900000.0 -0.1832124341 0.1180745035
835850000.0 -0.0537183534 0.2559741144
845800000.0 0.144932795 0.2818793748
855750000.0 0.322704692 0.1689990244
865700000.0 0.3932708563 -0.0427290173
875650000.0 0.3060029571 -0.2641361239
885600000.0 0.0837279619 -0.3845169087
895550000.0 -0.1806687085 -0.3315158413
905500000.0 -0.3620531579 -0.1111092055
915450000.0 -0.3633831253 0.1862487833
925400000.0 -0.169131331 0.4207356691
935350000.0 0.1352964906 0.469053281
945300000.0 0.3984388202 0.2907869949
955250000.0 0.4696936715 -0.0400393196
965200000.0 0.2742726518 -0.3490189334
975150000.0 -0.1146130928 -0.4281850453
985100000.0 -0.4511012977 -0.163304137
995050000.0 -0.4572412348 0.269725603
1005000000.0 -0.137914507 0.5577819473
1014950000.0 0.3274118615 0.5284430225
1024900000.0 0.6562443902 0.0952006088
1034850000.0 0.5031683724 -0.503134837
1044800000.0 -0.112003803 -0.7671388385
1054750000.0 -0.7151116807 -0.422875375
1064700000.0 -0.8205986257 0.2510507265
1074650000.0 -0.4100047422 0.7559789888
1084600000.0 0.2064776205 0.7955191709
1094550000.0 0.6759272411 0.4201179737
1104500000.0 0.7452807642 -0.191293194
1114450000.0 0.3575915953 -0.6664264478
1124400000.0 -0.2307339316 -0.7073088435
1134350000.0 -0.6371412978 -0.3328611999
1144300000.0 -0.6621066364 0.1789557514
1154250000.0 -0.3580808502 0.5458729068
1164200000.0 0.0906243288 0.616789046
1174150000.0 0.4657191421 0.3812273
1184100000.0 0.5861450323 -0.0478455075
1194050000.0 0.3797383763 -0.4367590215
1204000000.0 -0.0197125999 -0.5745828172
1213950000.0 -0.3903048013 -0.4243645951
1223900000.0 -0.5772993203 -0.0951029585
1233850000.0 -0.5347827794 0.2661340312
1243800000.0 -0.2895668637 0.5311183333
1253750000.0 0.0693508622 0.5983576507
1263700000.0 0.4053687322 0.4285879245
1273650000.0 0.5696510667 0.0831463381
1283600000.0 0.4928238743 -0.2891733268
1293550000.0 0.2228756736 -0.5365655529
1303500000.0 -0.1215729236 -0.5870578822
1313450000.0 -0.4253287414 -0.4486538852
1323400000.0 -0.6075426025 -0.1766024731
1333350000.0 -0.6202103546 0.1537301187
1343300000.0 -0.449483156 0.4482546309
1353250000.0 -0.1279995586 0.6003500319
1363200000.0 0.2348944644 0.5348849723
1373150000.0 0.4973890475 0.2693306044
1383100000.0 0.5630666878 -0.0908627361
1393050000.0 0.4296048579 -0.4145817442
1403000000.0 0.1586272166 -0.6083441148
1412950000.0 -0.1591415284 -0.627847521
1422900000.0 -0.4344885061 -0.4772388388
1432850000.0 -0.5881387508 -0.1922820456
1442800000.0 -0.5593652822 0.1436019168
1452750000.0 -0.3389171825 0.4140246901
1462700000.0 -0.0003696698 0.5103801409
1472650000.0 0.3270112831 0.4002504674
1482600000.0 0.526820407 0.1354400206
1492550000.0 0.5447693026 -0.1814751525
1502500000.0 0.3872128427 -0.4430501186
1512450000.0 0.1158460665 -0.5664507499
1522400000.0 -0.177182961 -0.5089096824
1532350000.0 -0.3838788712 -0.2840683935
1542300000.0 -0.4198019331 0.0274682427
1552250000.0 -0.2637648086 0.3025321798
1562200000.0 0.0196204035 0.4272254995
1572150000.0 0.3104890461 0.3584833818
1582100000.0 0.4892588972 0.1347473436
1592050000.0 0.4954538494 -0.1438101598
1602000000.0 0.3294824176 -0.369159191
1611950000.0 0.0531389245 -0.4534111175
1621900000.0 -0.2305359047 -0.3524456637
1631850000.0 -0.4039261943 -0.0920535573
1641800000.0 -0.3853125208 0.2245612895
1651750000.0 -0.1782113261 0.4643177148
1661700000.0 0.1275005952 0.5270081185
1671650000.0 0.4050842156 0.3955973503
1681600000.0 0.5547130517 0.1291862354
1691550000.0 0.5282018222 -0.1785064128
1701500000.0 0.3332940217 -0.4264948179
1711450000.0 0.0250731267 -0.5300549332
1721400000.0 -0.3011567994 -0.4396811171
1731350000.0 -0.5253582205 -0.171672078
1741300000.0 -0.555142223 0.1781724313
1751250000.0 -0.3829091619 0.4747320846
1761200000.0 -0.0849777755 0.6187571196
1771150000.0 0.2336220492 0.5805601291
1781100000.0 0.4819217881 0.3871517217
1791050000.0 0.5987717012 0.0950225481
1801000000.0 0.5516376355 -0.2227924194
1810950000.0 0.3410393591 -0.4778556622
1820900000.0 0.0159506814 -0.5784261128
1830850000.0 -0.3149964235 -0.4735817513
1840800000.0 -0.524547888 -0.198419729
1850750000.0 -0.5381463411 0.1300448969
1860700000.0 -0.3983842121 0.3743601072
1870650000.0 -0.1883774428 0.5352703806
1880600000.0 0.0812057107 0.5694320787
1890550000.0 0.322943298 0.4590145476
1900500000.0 0.4698619112 0.2377995002
1910450000.0 0.4784285146 -0.031746798
1920400000.0 0.338809648 -0.2627892894
1930350000.0 0.0997140787 -0.3723581099
1940300000.0 -0.1428539405 -0.3313028024
1950250000.0 -0.3077074847 -0.1831451647
1960200000.0 -0.362254632 0.0022889335
1970150000.0 -0.3186736336 0.1607102044
1980100000.0 -0.2159330318 0.250025754
1990050000.0 -0.1091404068 0.2566793015
2000000000.0 -0.0497420374 0.2047515657
