!Created with skrf (http://scikit-rf.org).
# GHz S RI R 50.0 
!freq ReS11 ImS11
10000000.0 1.006330061 0.0672676637
14975000.0 1.003390069 0.1037711142
19950000.0 0.9992971901 0.1401582011
24925000.0 0.9946788104 0.1652092687
29900000.0 0.9865121652 0.2130877639
34875000.0 0.9782284464 0.2489664475
39850000.0 0.968771514 0.2843708323
44825000.0 0.958061322 0.3195967183
49800000.0 0.9459499405 0.3539945354
54775000.0 0.9326581603 0.3881188206
59750000.0 0.918261869 0.421706142
64725000.0 0.9025759112 0.4546878314
69700000.0 0.8857017563 0.4872606682
74675000.0 0.8675632311 0.519161713
79650000.0 0.8482545282 0.5503056009
84625000.0 0.8279306612 0.5807391327
89600000.0 0.8064755739 0.6105593336
94575000.0 0.784018471 0.6394117945
99550000.0 0.7604984189 0.6674491207
104525000.0 0.7357868777 0.6946739241
109500000.0 0.7103309092 0.7208840005
114475000.0 0.6838436387 0.7463220792
119450000.0 0.6566534814 0.7707138885
124425000.0 0.6284575507 0.7940441337
129400000.0 0.5993582206 0.8165215006
134375000.0 0.5694984142 0.8379257711
139350000.0 0.5388029576 0.8583121947
144325000.0 0.5072549526 0.8772821244
149300000.0 0.4752541629 0.8951228869
154275000.0 0.4424479408 0.9119978358
159250000.0 0.4093254365 0.9275340261
164225000.0 0.3757623876 0.9417941554
169200000.0 0.3412669103 0.954914623
174175000.0 0.3064847172 0.9668580043
179150000.0 0.271362015 0.977444533
184125000.0 0.2358421065 0.9867597746
189100000.0 0.1999940546 0.9947715508
194075000.0 0.163767414 1.00152937
199050000.0 0.1275455609 1.007084765
204025000.0 0.0941915078 1.011845745
209000000.0 0.0571549666 1.01454958
213975000.0 0.0187113127 1.015506415
218950000.0 -0.018660465 1.015325736
223925000.0 -0.0556434012 1.013925955
228900000.0 -0.0922723485 1.01146748
233875000.0 -0.128771822 1.00752054
238850000.0 -0.1652472663 1.002175853
243825000.0 -0.2014984079 0.995573489
248800000.0 -0.2375434426 0.9875882323
253775000.0 -0.2731981662 0.9782489904
258750000.0 -0.3083687364 0.9677349036
263725000.0 -0.3432548417 0.9559222365
268700000.0 -0.3777135546 0.94294612
273675000.0 -0.4116300662 0.9285807389
278650000.0 -0.4451295391 0.9129557568
283625000.0 -0.4780026596 0.8962555501
288600000.0 -0.5100788547 0.8782748278
293575000.0 -0.5417091379 0.8589867056
298550000.0 -0.572691909 0.8388534265
303525000.0 -0.6027209788 0.8175069834
308500000.0 -0.6319629641 0.7950618687
313475000.0 -0.6605208502 0.7714849914
318450000.0 -0.6879963361 0.7470492182
323425000.0 -0.7145839631 0.721633951
328400000.0 -0.7401598125 0.6952069194
333375000.0 -0.7648788959 0.6678037721
338350000.0 -0.7885802886 0.639564732
343325000.0 -0.8113299578 0.6104125175
348300000.0 -0.8329506757 0.5805305383
353275000.0 -0.853382894 0.5498802315
358250000.0 -0.8728249487 0.5184304811
363225000.0 -0.8910263633 0.4862151696
368200000.0 -0.9080041268 0.4534310161
373175000.0 -0.9237181835 0.4200173069
378150000.0 -0.9384954204 0.3859182646
383125000.0 -0.9518246741 0.3515624327
388100000.0 -0.9637637089 0.3166162552
393075000.0 -0.9744763385 0.2813696098
398050000.0 -0.984003462 0.2459810619
403025000.0 -0.9921490073 0.2100763873
408000000.0 -0.9990822307 0.1738613473
412975000.0 -1.004652084 0.1372454474
417950000.0 -1.00880092 0.1004335105
422925000.0 -1.011719484 0.0635224938
427900000.0 -1.013256044 0.0265423254
432875000.0 -1.013330297 -0.010348202
437850000.0 -1.012260603 -0.0474300844
442825000.0 -1.009804631 -0.0842677485
447800000.0 -1.005922448 -0.1210497261
452775000.0 -1.000725637 -0.1577166628
457750000.0 -0.9942487003 -0.1940727965
462725000.0 -0.9863726117 -0.2302599242
467700000.0 -0.9770651269 -0.2661886802
472675000.0 -0.9664295894 -0.301539113
477650000.0 -0.9549077334 -0.3367416018
482625000.0 -0.9418652749 -0.3714115601
487600000.0 -0.9274800759 -0.405672974
492575000.0 -0.9118933612 -0.4393126367
497550000.0 -0.8951646176 -0.4724388073
502525000.0 -0.8771733635 -0.5049757778
507500000.0 -0.8578825782 -0.5367360973
512475000.0 -0.8374858914 -0.5678768561
517450000.0 -0.8160111332 -0.5981534492
522425000.0 -0.7934140655 -0.6277869161
527400000.0 -0.7698975725 -0.6564109964
532375000.0 -0.7451895509 -0.6843912763
537350000.0 -0.7193793948 -0.7112174546
542325000.0 -0.692816777 -0.7371188448
547300000.0 -0.6652164504 -0.7620014012
552275000.0 -0.6365851215 -0.7860120254
557250000.0 -0.6075053142 -0.808921947
562225000.0 -0.5773644978 -0.830807735
567200000.0 -0.5461994931 -0.8513317554
572175000.0 -0.5146361309 -0.8707708196
577150000.0 -0.4825067392 -0.888961199
582125000.0 -0.4494546517 -0.9061600312
587100000.0 -0.4159404645 -0.9221100235
592075000.0 -0.3818478474 -0.9368235907
597050000.0 -0.3473095965 -0.9500979208
602025000.0 -0.3123046049 -0.9623012302
607000000.0 -0.2768706859 -0.9733578667
611975000.0 -0.240939874 -0.9830290302
616950000.0 -0.204995226 -0.9912914803
621925000.0 -0.1687032439 -0.9983079571
626900000.0 -0.1319960809 -1.003592889
631875000.0 -0.0953011631 -1.007680343
636850000.0 -0.0585570195 -1.010798297
641825000.0 -0.0214312244 -1.012027882
646800000.0 0.0153933825 -1.012218123
651775000.0 0.0524791101 -1.011149173
656750000.0 0.089216008 -1.008547425
661725000.0 0.1258382505 -1.004739322
666700000.0 0.1626667471 -0.999392785
671675000.0 0.1993624395 -0.9928229997
676650000.0 0.2350194494 -0.9850837128
681625000.0 0.2708631375 -0.9758214041
686600000.0 0.3065466396 -0.9652948951
691575000.0 0.3419159919 -0.9536431357
696550000.0 0.3767230125 -0.9406909457
701525000.0 0.4109574964 -0.9263096977
706500000.0 0.4447188419 -0.9105783475
711475000.0 0.4774396329 -0.8939098455
716450000.0 0.5100414435 -0.8758671048
721425000.0 0.5418865005 -0.8567087914
726400000.0 0.5727657775 -0.8364060123
731375000.0 0.6031087646 -0.8145422855
736350000.0 0.6327700848 -0.7923515987
741325000.0 0.6612141313 -0.7686873931
746300000.0 0.6888229429 -0.7441252897
751275000.0 0.7154462224 -0.7183117646
756250000.0 0.7411630325 -0.6917011363
761225000.0 0.7662425563 -0.664325797
766200000.0 0.7898376377 -0.6356753965
771175000.0 0.8125548599 -0.6064661381
776150000.0 0.8342139635 -0.5768021292
781125000.0 0.8547585587 -0.546078714
786100000.0 0.8740098882 -0.5146312128
791075000.0 0.8920732304 -0.4827143899
796050000.0 0.9091797206 -0.4502834939
801025000.0 0.9272688169 -0.4145217141
806000000.0 0.9409948237 -0.3828763395
810975000.0 0.9542322834 -0.3484599299
815950000.0 0.9662653116 -0.3136251998
820925000.0 0.9771857866 -0.2780884821
825900000.0 0.986868332 -0.2426562994
830875000.0 0.995165355 -0.2067953494
835850000.0 1.00213679 -0.1704639371
840825000.0 1.007727909 -0.1337278673
845800000.0 1.011828562 -0.0971869346
850775000.0 1.014711489 -0.0605002143
855750000.0 1.016377576 -0.023717166
860725000.0 1.0167706 0.013176122
865700000.0 1.015465032 0.0501154953
870675000.0 1.012949325 0.0869941719
875650000.0 1.009167096 0.1236876672
880625000.0 1.00407432 0.1599645342
885600000.0 0.9975001355 0.1963130567
890575000.0 0.9899149175 0.2325137465
895550000.0 0.9807752305 0.2683982257
900525000.0 0.9702408737 0.3037815485
905500000.0 0.9585507883 0.3386494546
910475000.0 0.9455615765 0.3732596262
915450000.0 0.9313147666 0.4073433362
920425000.0 0.9159798267 0.4411283263
925400000.0 0.8991140017 0.4741715514
930375000.0 0.881347835 0.5064688836
935350000.0 0.862172996 0.5378529449
940325000.0 0.8420366071 0.5688518773
945300000.0 0.820571936 0.5990745046
950275000.0 0.7982220347 0.6284956485
955250000.0 0.7749195622 0.6569622391
960225000.0 0.7503828835 0.6845562609
965200000.0 0.7248034681 0.7113838119
970175000.0 0.6985083148 0.7372115649
975150000.0 0.6711446502 0.7619710207
980125000.0 0.6427511056 0.7858567394
985100000.0 0.6135822241 0.808749979
990075000.0 0.5836924455 0.8302320914
995050000.0 0.5525734439 0.8506655989
1000025000.0 0.5210031785 0.8703874223
1005000000.0 0.4887451268 0.888517748
1009975000.0 0.4558935868 0.9055592494
1014950000.0 0.4224883412 0.9215981674
1019925000.0 0.3884650659 0.9363462533
1024900000.0 0.3540669548 0.9498464279
1029875000.0 0.3189123513 0.961929288
1034850000.0 0.2835980447 0.9732322599
1039825000.0 0.2477770954 0.9829559368
1044800000.0 0.2115013176 0.9912595529
1049775000.0 0.1749295911 0.9981590048
1054750000.0 0.1380928974 1.003652368
1059725000.0 0.1011923493 1.007930861
1064700000.0 0.0640737699 1.011042128
1069675000.0 0.026962191 1.012406901
1074650000.0 -0.0102905135 1.012776573
1079625000.0 -0.0476980027 1.011653811
1084600000.0 -0.0848074114 1.009035147
1089575000.0 -0.1218073813 1.005210156
1094550000.0 -0.158944981 0.9999237583
1099525000.0 -0.1956617079 0.9933665835
1104500000.0 -0.2323594065 0.9853098451
1109475000.0 -0.268592678 0.9760772186
1114450000.0 -0.304601423 0.9656040211
1119425000.0 -0.3400746601 0.9535423557
1124400000.0 -0.3750602473 0.9400483302
1129375000.0 -0.4097254292 0.9254522736
1134350000.0 -0.4439799871 0.9098828782
1139325000.0 -0.4770396638 0.8928111225
1144300000.0 -0.5104157522 0.8746928333
1149275000.0 -0.5422732053 0.8551234358
1154250000.0 -0.5735653261 0.834383876
1159225000.0 -0.6040322101 0.8124280438
1164200000.0 -0.6341095329 0.7893895446
1169175000.0 -0.6629403874 0.7654436882
1174150000.0 -0.6910265412 0.7405764323
1179125000.0 -0.7184573232 0.7141957537
1184100000.0 -0.7445790063 0.6867760114
1189075000.0 -0.7696394608 0.6586366222
1194050000.0 -0.7937459348 0.6296032249
1199025000.0 -0.8168237581 0.5997542045
1204000000.0 -0.8386402072 0.5688418546
1208975000.0 -0.8594879959 0.537312575
1213950000.0 -0.8789168565 0.5046412868
1218925000.0 -0.8971710773 0.4717483831
1223900000.0 -0.9142836801 0.4378618361
1228875000.0 -0.9301084182 0.4033944416
1233850000.0 -0.9446518782 0.3681548003
1238825000.0 -0.9579835793 0.3328607539
1243800000.0 -0.9696633795 0.2971213803
1248775000.0 -0.9801832854 0.2605789811
1253750000.0 -0.9893082725 0.2238329285
1258725000.0 -0.9972346534 0.1867069995
1263700000.0 -1.003800079 0.1494348217
1268675000.0 -1.009063549 0.1117926218
1273650000.0 -1.012436936 0.0743159051
1278625000.0 -1.014409943 0.0362614458
1283600000.0 -1.015106177 -0.0018118703
1288575000.0 -1.014695958 -0.039416616
1293550000.0 -1.012509667 -0.0771282231
1298525000.0 -1.009102904 -0.1151164879
1303500000.0 -1.004222477 -0.1524342344
1308475000.0 -0.9979557384 -0.1895478186
1313450000.0 -0.9904265704 -0.2267154661
1318425000.0 -0.9816968421 -0.2635304884
1323400000.0 -0.9713759995 -0.299749028
1328375000.0 -0.9595042487 -0.3359835319
1333350000.0 -0.9461649923 -0.371574069
1338325000.0 -0.931801372 -0.4064715654
1343300000.0 -0.916401698 -0.4409312741
1348275000.0 -0.8996073615 -0.4747828747
1353250000.0 -0.881205955 -0.5079904281
1358225000.0 -0.8620317616 -0.5398723712
1363200000.0 -0.8416484082 -0.571826245
1368175000.0 -0.8198651756 -0.6023425128
1373150000.0 -0.7973035046 -0.6322704258
1378125000.0 -0.7734701116 -0.6617054047
1383100000.0 -0.7488573917 -0.6898513272
1388075000.0 -0.7228330306 -0.7172192499
1393050000.0 -0.6958647765 -0.7435104836
1398025000.0 -0.6682168213 -0.768929501
1403000000.0 -0.6392339731 -0.7928455842
1407975000.0 -0.6095365961 -0.815646521
1412950000.0 -0.5796069144 -0.8376317446
1417925000.0 -0.5483657993 -0.858863783
1422900000.0 -0.5165777378 -0.8784462063
1427875000.0 -0.4840177336 -0.896871952
1432850000.0 -0.4509705399 -0.9138276454
1437825000.0 -0.4170791475 -0.9297647496
1442800000.0 -0.3830189976 -0.9444797794
1447775000.0 -0.3481477677 -0.9583267049
1452750000.0 -0.3126983732 -0.9703022885
1457725000.0 -0.2769386176 -0.9809495054
1462700000.0 -0.2407888417 -0.9905257435
1467675000.0 -0.2042510392 -0.9986694257
1472650000.0 -0.1678722036 -1.00509957
1477625000.0 -0.130875561 -1.010712644
1482600000.0 -0.0941248911 -1.015032884
1487575000.0 -0.0569377536 -1.01764541
1492550000.0 -0.0198941529 -1.018977924
1497525000.0 0.0172305253 -1.019174098
1502500000.0 0.0544756926 -1.017743831
1507475000.0 0.0912119591 -1.015231305
1512450000.0 0.1283700288 -1.010964055
1517425000.0 0.1648841625 -1.005492954
1522400000.0 0.200958174 -0.9987049268
1527375000.0 0.2372230694 -0.9906005018
1532350000.0 0.2729319097 -0.9811291589
1537325000.0 0.3087736015 -0.9708195254
1542300000.0 0.3437895176 -0.958792737
1547275000.0 0.377855073 -0.9454904187
1552250000.0 0.4117774374 -0.9310384023
1557225000.0 0.4454018905 -0.9154833439
1562200000.0 0.4781959209 -0.8984420414
1567175000.0 0.5107253843 -0.8808282219
1572150000.0 0.5420514291 -0.861366041
1577125000.0 0.5726214208 -0.840876968
1582100000.0 0.6026216672 -0.8195209031
1587075000.0 0.6319008603 -0.7969298602
1592050000.0 0.6602703435 -0.7734312824
1597025000.0 0.6877640334 -0.7489285802
1602000000.0 0.715071712 -0.7237824182
1606975000.0 0.7399844103 -0.6975296575
1611950000.0 0.7647006206 -0.6702696079
1616925000.0 0.7885313 -0.6422777896
1621900000.0 0.8110159299 -0.6131382189
1626875000.0 0.832686856 -0.5834102965
1631850000.0 0.8529606282 -0.5525171402
1636825000.0 0.8723500367 -0.5214866919
1641800000.0 0.8907615141 -0.4894420246
1646775000.0 0.9079342524 -0.4565179528
1651750000.0 0.9234174848 -0.423302929
1656725000.0 0.9382418627 -0.3893007888
1661700000.0 0.9517498472 -0.3549734075
1666675000.0 0.9639589601 -0.3202261693
1671650000.0 0.9749526994 -0.2847316179
1676625000.0 0.9846184486 -0.2488524237
1681600000.0 0.9926460241 -0.2125980647
1686575000.0 0.9998542492 -0.1764034504
1691550000.0 1.005749392 -0.1399899425
1696525000.0 1.009729519 -0.1030465769
1701500000.0 1.012824468 -0.0658577895
1706475000.0 1.014603353 -0.0284634543
1711450000.0 1.014865518 0.0086496699
1716425000.0 1.014019963 0.0453637797
1721400000.0 1.011478226 0.0828367072
1726375000.0 1.007590707 0.1198171526
1731350000.0 1.002531425 0.1563615869
1736325000.0 0.9960003876 0.1931274123
1741300000.0 0.9881020596 0.2292539263
1746275000.0 0.979093127 0.2659215665
1751250000.0 0.968600741 0.3019935418
1756225000.0 0.956564457 0.3374014395
1761200000.0 0.9434479574 0.3724219334
1766175000.0 0.9291347134 0.407193436
1771150000.0 0.9133586047 0.4408916751
1776125000.0 0.8965404059 0.4740264542
1781100000.0 0.8781680742 0.5068672788
1786075000.0 0.858628867 0.5392061322
1791050000.0 0.8380137452 0.5708326644
1796025000.0 0.8161045514 0.6012253577
1801000000.0 0.793030549 0.6311330186
1805975000.0 0.76913711 0.66017321
1810950000.0 0.7442048583 0.6883301758
1815925000.0 0.7179667346 0.7154172273
1820900000.0 0.6908338857 0.7414085087
1825875000.0 0.6626531277 0.7666172068
1830850000.0 0.6335336491 0.7904977622
1835825000.0 0.6034247638 0.8135836271
1840800000.0 0.5727274682 0.8354944777
1845775000.0 0.5409871896 0.8564033178
1850750000.0 0.508357424 0.8760537384
1855725000.0 0.4754650314 0.8945608915
1860700000.0 0.4415795765 0.9114326805
1865675000.0 0.4072718599 0.9275812191
1870650000.0 0.3723257738 0.9423262753
1875625000.0 0.3366931721 0.9554313576
1880600000.0 0.3005522926 0.9673008314
1885575000.0 0.2636189995 0.9782701322
1890550000.0 0.2265699549 0.9869737544
1895525000.0 0.1892299285 0.995267625
1900500000.0 0.1513350295 1.001682552
1905475000.0 0.1140239133 1.006912558
1910450000.0 0.0762220227 1.010257108
1915425000.0 0.038703997 1.012936106
1920400000.0 0.00052695 1.01360256
1925375000.0 -0.0378712875 1.012933442
1930350000.0 -0.0755364516 1.011334746
1935325000.0 -0.1141453362 1.007167549
1940300000.0 -0.1521653904 1.002262352
1945275000.0 -0.1899202443 0.996168773
1950250000.0 -0.2275517807 0.9887704932
1955225000.0 -0.264350718 0.9795071334
1960200000.0 -0.3007639201 0.9690376088
1965175000.0 -0.336989128 0.9572606563
1970150000.0 -0.3726963992 0.9443300902
1975125000.0 -0.4077794572 0.9299731235
1980100000.0 -0.4424829269 0.9140455959
1985075000.0 -0.4762982993 0.897275199
1990050000.0 -0.5097523767 0.878685464
1995025000.0 -0.5421225832 0.8593939566
2000000000.0 -0.573870577 0.8383709974
