!Created with skrf (http://scikit-rf.org).
# GHz S RI R 50.0 
!freq ReS11 ImS11
10000000.0 1.006375274 0.0673410761
14975000.0 1.003383094 0.1038385153
19950000.0 0.9993281897 0.1402359161
24925000.0 0.9947522016 0.1652203041
29900000.0 0.9865865676 0.2131585231
34875000.0 0.9782295486 0.2490689683
39850000.0 0.9687349787 0.2843961055
44825000.0 0.9581699458 0.3196206776
49800000.0 0.945925381 0.3540322104
54775000.0 0.9325598048 0.388180818
59750000.0 0.9182828435 0.42173063
64725000.0 0.9026515951 0.4547546796
69700000.0 0.8857345905 0.4873377608
74675000.0 0.8676095251 0.5191899697
79650000.0 0.8482596319 0.5503274322
84625000.0 0.8279415984 0.5808526059
89600000.0 0.8063907256 0.6105805444
94575000.0 0.7840360942 0.6394280958
99550000.0 0.7604667698 0.6675131347
104525000.0 0.735703156 0.6946862109
109500000.0 0.7103384987 0.7209846588
114475000.0 0.6837920447 0.7462902605
119450000.0 0.6566909094 0.770702513
124425000.0 0.6284696236 0.7940534621
129400000.0 0.5994893271 0.8165430319
134375000.0 0.5694608248 0.8380145175
139350000.0 0.5388682671 0.8583966998
144325000.0 0.5072341085 0.8773256254
149300000.0 0.4752496309 0.8952017165
154275000.0 0.442349441 0.9120561047
159250000.0 0.4094153761 0.927645815
164225000.0 0.3757447952 0.9418099011
169200000.0 0.3413213611 0.9548813031
174175000.0 0.3063939778 0.9668331788
179150000.0 0.2713939512 0.977482627
184125000.0 0.2358875859 0.9868110005
189100000.0 0.1999798643 0.9948368505
194075000.0 0.1637606769 1.001463768
199050000.0 0.1275459617 1.0070482
204025000.0 0.094063 1.011892627
209000000.0 0.0570472288 1.014493277
213975000.0 0.0186194103 1.015516376
218950000.0 -0.018649129 1.015236056
223925000.0 -0.0556526175 1.01394274
228900000.0 -0.0922805552 1.011465193
233875000.0 -0.1289193324 1.007454552
238850000.0 -0.1652952833 1.002195811
243825000.0 -0.2014939929 0.995598235
248800000.0 -0.2377061 0.9875652402
253775000.0 -0.2732815675 0.9782552283
258750000.0 -0.3085305246 0.9677653418
263725000.0 -0.3432924081 0.9558512494
268700000.0 -0.3777722644 0.9429080475
273675000.0 -0.4118107847 0.9285206927
278650000.0 -0.4452381055 0.9129750912
283625000.0 -0.4780634029 0.896193255
288600000.0 -0.5101493367 0.8783234935
293575000.0 -0.5418256295 0.8590087623
298550000.0 -0.5727729559 0.838881593
303525000.0 -0.6028799313 0.8174147172
308500000.0 -0.6320850591 0.7950640933
313475000.0 -0.6605117692 0.7714514858
318450000.0 -0.688083953 0.7469853222
323425000.0 -0.7146329045 0.7216225572
328400000.0 -0.7402055786 0.6951596417
333375000.0 -0.7650678715 0.6678331112
338350000.0 -0.7886676974 0.6395462038
343325000.0 -0.8113988798 0.610376585
348300000.0 -0.8330951804 0.5805121117
353275000.0 -0.8534347256 0.5498979171
358250000.0 -0.8730262372 0.5184031757
363225000.0 -0.8910881923 0.4861194344
368200000.0 -0.9081414159 0.4533189707
373175000.0 -0.9238467922 0.4200030789
378150000.0 -0.9386492754 0.3859058556
383125000.0 -0.9518959837 0.3515057908
388100000.0 -0.9638941256 0.3165807682
393075000.0 -0.9745307783 0.2813100455
398050000.0 -0.9842067509 0.2458824872
403025000.0 -0.992309497 0.2099921056
408000000.0 -0.9991512008 0.1737296243
412975000.0 -1.004659373 0.1371259223
417950000.0 -1.008826507 0.1004911383
422925000.0 -1.011619683 0.0633953237
427900000.0 -1.013397818 0.0264599808
432875000.0 -1.01339192 -0.0103854309
437850000.0 -1.012452748 -0.0474684263
442825000.0 -1.009928418 -0.0843452391
447800000.0 -1.006075793 -0.1210995216
452775000.0 -1.000826827 -0.157764354
457750000.0 -0.9942594194 -0.1941441089
462725000.0 -0.9863391268 -0.2303016061
467700000.0 -0.9770528845 -0.2663040118
472675000.0 -0.9663667151 -0.301516382
477650000.0 -0.9550263677 -0.3367914898
482625000.0 -0.9418907437 -0.3714042522
487600000.0 -0.9275296404 -0.4056715045
492575000.0 -0.9120022823 -0.4392736046
497550000.0 -0.8951803493 -0.4724806431
502525000.0 -0.8772109382 -0.5050477601
507500000.0 -0.8577977806 -0.5367448872
512475000.0 -0.8376140521 -0.5680104973
517450000.0 -0.8159624784 -0.5982317073
522425000.0 -0.7935019346 -0.6277840841
527400000.0 -0.7698168703 -0.656450775
532375000.0 -0.7451333322 -0.6843416739
537350000.0 -0.7193544174 -0.7112235009
542325000.0 -0.6927523513 -0.7371158721
547300000.0 -0.6651731763 -0.7620399648
552275000.0 -0.6365983431 -0.7860733279
557250000.0 -0.6074179104 -0.8089697866
562225000.0 -0.5773452313 -0.8308017137
567200000.0 -0.546131387 -0.8513577215
572175000.0 -0.5146922097 -0.8707804955
577150000.0 -0.4824132327 -0.888983811
582125000.0 -0.4493554148 -0.9062223613
587100000.0 -0.415892892 -0.9221372821
592075000.0 -0.3819273945 -0.9368154154
597050000.0 -0.3472762832 -0.9501713863
602025000.0 -0.3123035712 -0.9624514682
607000000.0 -0.2767384181 -0.9733024316
611975000.0 -0.241007535 -0.9830760796
616950000.0 -0.2049251976 -0.9912736583
621925000.0 -0.1686324656 -0.9982384713
626900000.0 -0.1320133018 -1.003639474
631875000.0 -0.0953302138 -1.007672357
636850000.0 -0.0585741293 -1.01079311
641825000.0 -0.0213340617 -1.011925146
646800000.0 0.0154742179 -1.012217765
651775000.0 0.0524335777 -1.010989735
656750000.0 0.089329399 -1.008481291
661725000.0 0.1258275226 -1.004699568
666700000.0 0.162681747 -0.9992547194
671675000.0 0.199194369 -0.9927911047
676650000.0 0.2350426606 -0.9849325099
681625000.0 0.2708983314 -0.9757142665
686600000.0 0.3066509894 -0.9652555197
691575000.0 0.3421298573 -0.9535070402
696550000.0 0.3765678695 -0.9406619344
701525000.0 0.4108479186 -0.9263320758
706500000.0 0.4449580905 -0.9103710435
711475000.0 0.4776560863 -0.8939715135
716450000.0 0.5100941567 -0.8759351191
721425000.0 0.5421118036 -0.8566082133
726400000.0 0.5727343074 -0.8363911394
731375000.0 0.60301679 -0.8144157131
736350000.0 0.632974069 -0.7923169645
741325000.0 0.6614361923 -0.7686712852
746300000.0 0.6887483151 -0.7440906472
751275000.0 0.7154245795 -0.7182179571
756250000.0 0.7411645145 -0.6916293656
761225000.0 0.7662772443 -0.6643372639
766200000.0 0.7898944206 -0.6356225911
771175000.0 0.8126069152 -0.6064073003
776150000.0 0.834211757 -0.576782624
781125000.0 0.8545723283 -0.5460323957
786100000.0 0.8740259414 -0.5145907963
791075000.0 0.892155266 -0.482728674
796050000.0 0.9094363502 -0.4502005637
801025000.0 0.9272450792 -0.4144474687
806000000.0 0.941032333 -0.3827880361
810975000.0 0.9542737163 -0.3484510617
815950000.0 0.9662726313 -0.313578046
820925000.0 0.9772261769 -0.2780202056
825900000.0 0.9868305481 -0.2426676643
830875000.0 0.9953911153 -0.2067468298
835850000.0 1.002305368 -0.1703768084
840825000.0 1.007639012 -0.1336242245
845800000.0 1.012071483 -0.097088166
850775000.0 1.014938938 -0.0604820547
855750000.0 1.016305383 -0.0236135431
860725000.0 1.01666239 0.0131543541
865700000.0 1.015514914 0.0502030347
870675000.0 1.013003056 0.0870416179
875650000.0 1.009146433 0.1237672657
880625000.0 1.004192025 0.1599515508
885600000.0 0.9976521903 0.1964992614
890575000.0 0.9899790527 0.2326128402
895550000.0 0.9807686583 0.2683436317
900525000.0 0.9702708212 0.303762535
905500000.0 0.9584049394 0.3386246882
910475000.0 0.9456490072 0.3733663397
915450000.0 0.9313230107 0.4072855875
920425000.0 0.9161247232 0.4412333568
925400000.0 0.8990590075 0.4742312143
930375000.0 0.8812050405 0.5064238755
935350000.0 0.8622053437 0.53786099
940325000.0 0.8420649527 0.5687477758
945300000.0 0.8205440688 0.5990573721
950275000.0 0.7981291072 0.6285163251
955250000.0 0.7749221224 0.6570557136
960225000.0 0.750208087 0.6845903489
965200000.0 0.72487957 0.7114590561
970175000.0 0.6983974595 0.7373129991
975150000.0 0.6711277349 0.7619710755
980125000.0 0.6428391255 0.7859940831
985100000.0 0.6136147733 0.8087455
990075000.0 0.5836028542 0.8301919133
995050000.0 0.5524021613 0.8507046194
1000025000.0 0.521016152 0.8704386572
1005000000.0 0.4888625325 0.8885845124
1009975000.0 0.4557786314 0.905613712
1014950000.0 0.4224423461 0.9216165615
1019925000.0 0.3883634544 0.9363770157
1024900000.0 0.3540602246 0.9498260318
1029875000.0 0.3188492115 0.9619676309
1034850000.0 0.2835754018 0.9732711982
1039825000.0 0.247628459 0.9829782615
1044800000.0 0.2115084701 0.9912866103
1049775000.0 0.1749505482 0.9981259908
1054750000.0 0.1380306339 1.003684959
1059725000.0 0.1010772634 1.007890434
1064700000.0 0.0641215979 1.010980452
1069675000.0 0.0268363309 1.012477437
1074650000.0 -0.0103432097 1.01281466
1079625000.0 -0.0475477497 1.011586535
1084600000.0 -0.0849393576 1.009111532
1089575000.0 -0.121787548 1.005207697
1094550000.0 -0.1589923876 0.9999178297
1099525000.0 -0.1956007312 0.9934617635
1104500000.0 -0.2322027716 0.9852251229
1109475000.0 -0.2687912718 0.9760649589
1114450000.0 -0.3044988743 0.9655159461
1119425000.0 -0.3399927974 0.9535742474
1124400000.0 -0.3753093345 0.9399563834
1129375000.0 -0.4098728159 0.9255115418
1134350000.0 -0.4442276398 0.9098489964
1139325000.0 -0.477201999 0.8926693218
1144300000.0 -0.5104403112 0.8747355074
1149275000.0 -0.5424722883 0.8552133447
1154250000.0 -0.573447308 0.8343271727
1159225000.0 -0.6039148885 0.8124644454
1164200000.0 -0.6341563008 0.7894110237
1169175000.0 -0.6629379524 0.7653252611
1174150000.0 -0.6910125303 0.7403385809
1179125000.0 -0.7184631939 0.7142408556
1184100000.0 -0.7447650507 0.6868847643
1189075000.0 -0.7698364792 0.6585364479
1194050000.0 -0.7939750954 0.6294317877
1199025000.0 -0.8167078874 0.5997666034
1204000000.0 -0.8388409134 0.5688735707
1208975000.0 -0.8595773713 0.5372537577
1213950000.0 -0.8789573856 0.5045961164
1218925000.0 -0.8970769152 0.471651378
1223900000.0 -0.9144301047 0.4378669653
1228875000.0 -0.9300179754 0.4033298272
1233850000.0 -0.944731501 0.3681355302
1238825000.0 -0.9581834197 0.3327176572
1243800000.0 -0.969859547 0.2971187217
1248775000.0 -0.9803840167 0.2603870695
1253750000.0 -0.9892791544 0.2236890268
1258725000.0 -0.997232365 0.186637077
1263700000.0 -1.003801555 0.1492807797
1268675000.0 -1.009226121 0.1117177342
1273650000.0 -1.012390769 0.0742860223
1278625000.0 -1.014427602 0.0362729668
1283600000.0 -1.015023037 -0.0017487833
1288575000.0 -1.014685935 -0.0393621371
1293550000.0 -1.012433054 -0.077098106
1298525000.0 -1.00921349 -0.1152250984
1303500000.0 -1.004353331 -0.1524386122
1308475000.0 -0.9979386031 -0.1895987476
1313450000.0 -0.9904795582 -0.2268111481
1318425000.0 -0.9815581053 -0.2635906303
1323400000.0 -0.9712937505 -0.2998095
1328375000.0 -0.9595744411 -0.3360445535
1333350000.0 -0.9460966603 -0.3716194791
1338325000.0 -0.9318755759 -0.406568387
1343300000.0 -0.9162616405 -0.4409863279
1348275000.0 -0.8997691639 -0.4747602548
1353250000.0 -0.8811629137 -0.508100124
1358225000.0 -0.8621042143 -0.5398987808
1363200000.0 -0.8418417101 -0.5719168577
1368175000.0 -0.8198893281 -0.6023471114
1373150000.0 -0.7972151568 -0.6322840997
1378125000.0 -0.7735485655 -0.6617155686
1383100000.0 -0.7490192411 -0.6898463458
1388075000.0 -0.722906777 -0.7171286343
1393050000.0 -0.695806604 -0.743586203
1398025000.0 -0.6683755516 -0.769022858
1403000000.0 -0.639467863 -0.7928423042
1407975000.0 -0.6095975552 -0.8157124357
1412950000.0 -0.5794968989 -0.8375536326
1417925000.0 -0.5483969446 -0.8589120246
1422900000.0 -0.5164875834 -0.8784866458
1427875000.0 -0.483911591 -0.896801483
1432850000.0 -0.4508318562 -0.9137653962
1437825000.0 -0.4169979828 -0.9297707843
1442800000.0 -0.3829671926 -0.944585942
1447775000.0 -0.3482724098 -0.9583055986
1452750000.0 -0.3125963516 -0.9703597919
1457725000.0 -0.2769282283 -0.9808875182
1462700000.0 -0.2408028679 -0.9905677488
1467675000.0 -0.2040258529 -0.9986038298
1472650000.0 -0.1677802441 -1.005228118
1477625000.0 -0.1309239991 -1.010731297
1482600000.0 -0.0940539572 -1.015082505
1487575000.0 -0.0570577261 -1.017676244
1492550000.0 -0.019854793 -1.018892265
1497525000.0 0.0170533065 -1.019174097
1502500000.0 0.0546337997 -1.017724485
1507475000.0 0.0913722636 -1.015144481
1512450000.0 0.1284530291 -1.010959865
1517425000.0 0.1649952907 -1.005546887
1522400000.0 0.2010781757 -0.9986751204
1527375000.0 0.2372297697 -0.9905083108
1532350000.0 0.2729893607 -0.981155919
1537325000.0 0.3088272733 -0.9708628315
1542300000.0 0.3439154147 -0.9587827606
1547275000.0 0.3778598502 -0.945457089
1552250000.0 0.411840384 -0.931018004
1557225000.0 0.4454320818 -0.9154322696
1562200000.0 0.4782208942 -0.8983725537
1567175000.0 0.5107705062 -0.8807607831
1572150000.0 0.5420733639 -0.8613548437
1577125000.0 0.572657389 -0.8408459966
1582100000.0 0.6026536629 -0.8195418497
1587075000.0 0.6319253958 -0.7969781056
1592050000.0 0.660252526 -0.7733228637
1597025000.0 0.6877477172 -0.7489573271
1602000000.0 0.715087846 -0.7237802665
1606975000.0 0.740021209 -0.6975728101
1611950000.0 0.7647946139 -0.6702076119
1616925000.0 0.7886162281 -0.6421332355
1621900000.0 0.8110105148 -0.6131365833
1626875000.0 0.8326043726 -0.5833584478
1631850000.0 0.8530610715 -0.5525181456
1636825000.0 0.8726193758 -0.5214878733
1641800000.0 0.8910538131 -0.4894744927
1646775000.0 0.9080185901 -0.4564984125
1651750000.0 0.9234344702 -0.4232695574
1656725000.0 0.9379698514 -0.3891704656
1661700000.0 0.951628449 -0.3550224631
1666675000.0 0.9642214015 -0.3201236704
1671650000.0 0.9750919944 -0.284629505
1676625000.0 0.9844682544 -0.2488088503
1681600000.0 0.992683835 -0.2125294515
1686575000.0 1.000312966 -0.1762475361
1691550000.0 1.005406648 -0.1396974734
1696525000.0 1.009662288 -0.1030593513
1701500000.0 1.012842218 -0.0658401657
1706475000.0 1.014777213 -0.0283830194
1711450000.0 1.014900926 0.0086860616
1716425000.0 1.014061883 0.0454596042
1721400000.0 1.01160856 0.0829441047
1726375000.0 1.0074986 0.1198026415
1731350000.0 1.002431319 0.156458234
1736325000.0 0.9958880036 0.193151035
1741300000.0 0.988235472 0.2292519564
1746275000.0 0.9793265836 0.2660211816
1751250000.0 0.9686195388 0.3020733246
1756225000.0 0.9562989394 0.3374671659
1761200000.0 0.9435250442 0.3725323461
1766175000.0 0.9291576472 0.4072750517
1771150000.0 0.9133513311 0.4409349219
1776125000.0 0.8965638089 0.4740485694
1781100000.0 0.8781819606 0.5069060819
1786075000.0 0.858649524 0.5392416855
1791050000.0 0.8379447705 0.5708409698
1796025000.0 0.8160590053 0.6012966909
1801000000.0 0.7930454794 0.6311844839
1805975000.0 0.7692012948 0.6602275642
1810950000.0 0.744154466 0.6883703892
1815925000.0 0.7179847037 0.715464294
1820900000.0 0.6907953158 0.7414199379
1825875000.0 0.6626100609 0.7666038523
1830850000.0 0.6333921914 0.7904990814
1835825000.0 0.6033856969 0.8135759097
1840800000.0 0.5729236127 0.8356245781
1845775000.0 0.5408260559 0.8563924644
1850750000.0 0.5081261766 0.8760462502
1855725000.0 0.4753484824 0.8945731315
1860700000.0 0.441819063 0.9115630682
1865675000.0 0.4074009122 0.9275408242
1870650000.0 0.3722665999 0.9424580114
1875625000.0 0.3368605221 0.9554261134
1880600000.0 0.3003051386 0.9673116522
1885575000.0 0.2635163375 0.9782143494
1890550000.0 0.225802926 0.9870600673
1895525000.0 0.1890745942 0.995244284
1900500000.0 0.1511343782 1.001530864
1905475000.0 0.1141099416 1.006591114
1910450000.0 0.0763275416 1.009886195
1915425000.0 0.0390439555 1.012766488
1920400000.0 0.0006863278 1.013586145
1925375000.0 -0.037742581 1.012594623
1930350000.0 -0.0753094116 1.011457063
1935325000.0 -0.1144405395 1.007005253
1940300000.0 -0.152228666 1.00193219
1945275000.0 -0.189698143 0.996189484
1950250000.0 -0.2275962937 0.9884052145
1955225000.0 -0.2638228356 0.979681101
1960200000.0 -0.3007827745 0.9687673395
1965175000.0 -0.3367843083 0.9568676636
1970150000.0 -0.3727604433 0.9442385497
1975125000.0 -0.4084213176 0.9299813011
1980100000.0 -0.4428468981 0.9143367729
1985075000.0 -0.4765960819 0.897464167
1990050000.0 -0.509926486 0.8787963602
1995025000.0 -0.542447403 0.8597204267
2000000000.0 -0.5741646643 0.8379763507
