!Created with skrf (http://scikit-rf.org).
# GHz S RI R 50.0 
!freq ReS11 ImS11
10000000.0 -0.7554328998 0.6764526369
19950000.0 -0.1199256851 0.9851252318
29900000.0 0.5603053544 0.8002907532
39850000.0 0.9538263379 0.204239977
49800000.0 0.8434892736 -0.5147409459
59750000.0 0.2578607625 -0.9733543371
69700000.0 -0.4973540123 -0.8881274794
79650000.0 -0.9725244125 -0.2747104184
89600000.0 -0.8465778896 0.508724493
99550000.0 -0.1588470188 0.9506491774
109500000.0 0.6534046157 0.6983191463
119450000.0 0.9626238186 -0.136683808
129400000.0 0.4350169894 -0.8944266148
139350000.0 -0.4985119905 -0.8626860511
149300000.0 -0.9684204349 -0.0745115871
159250000.0 -0.5968685607 0.7289829808
169200000.0 0.2372130353 0.9024520257
179150000.0 0.8720012322 0.372766596
189100000.0 0.8697654956 -0.4299394839
199050000.0 0.2832649894 -0.9373994152
209000000.0 -0.4581278994 -0.8526654571
218950000.0 -0.8988750122 -0.2892542242
228900000.0 -0.8314713841 0.4008369162
238850000.0 -0.3243583159 0.8554153258
248800000.0 0.3343341008 0.846918257
258750000.0 0.8497028705 0.3996181905
268700000.0 0.9089353314 -0.2751779509
278650000.0 0.4924550808 -0.8037664425
288600000.0 -0.1629237166 -0.9027355194
298550000.0 -0.701054594 -0.5331460941
308500000.0 -0.8374028155 0.0947410983
318450000.0 -0.5049897864 0.6320762394
328400000.0 0.1011064799 0.7747925712
338350000.0 0.6023262196 0.4311968898
348300000.0 0.658855367 -0.1343451528
358250000.0 0.2987337415 -0.4938207061
368200000.0 -0.1423955688 -0.445429355
378150000.0 -0.3287963135 -0.1226986669
388100000.0 -0.2091338958 0.1430072096
398050000.0 0.0114945733 0.1863261838
408000000.0 0.1312051055 0.0549662906
417950000.0 0.0803344266 -0.0842511979
427900000.0 -0.0477770988 -0.0961579708
437850000.0 -0.1204396888 -0.0023899067
447800000.0 -0.0858125344 0.108460897
457750000.0 0.0169970383 0.1510716858
467700000.0 0.1208148532 0.0998013189
477650000.0 0.1432842397 -0.007088067
487600000.0 0.0932842336 -0.0910685317
497550000.0 0.007964057 -0.1141853647
507500000.0 -0.0657829829 -0.0760818538
517450000.0 -0.0799974788 -0.0131563086
527400000.0 -0.0563409806 0.0214805552
537350000.0 -0.029197112 0.0247378331
547300000.0 -0.0259757184 0.0087131279
557250000.0 -0.0435491505 0.0067116894
567200000.0 -0.0602738145 0.0386338974
577150000.0 -0.0320386893 0.0831205876
587100000.0 0.0328883885 0.0922896994
597050000.0 0.0974105867 0.0507186992
607000000.0 0.1274156793 -0.0425907304
616950000.0 0.0738452115 -0.1432133099
626900000.0 -0.0358384977 -0.1865458386
636850000.0 -0.1586322266 -0.1437062925
646800000.0 -0.2238663123 -0.0184006228
656750000.0 -0.1771225412 0.115826364
666700000.0 -0.0565690343 0.1842961988
676650000.0 0.0847522454 0.1573561322
686600000.0 0.1736943639 0.0340105709
696550000.0 0.1457847108 -0.1137897641
706500000.0 0.0327566887 -0.1931346366
716450000.0 -0.1001600301 -0.1710213017
726400000.0 -0.1690320213 -0.0617994836
736350000.0 -0.1294825564 0.059250084
746300000.0 -0.0091039332 0.1034512292
756250000.0 0.1006944845 0.0299112398
766200000.0 0.1097262496 -0.1032174773
776150000.0 -0.0014193008 -0.205670735
786100000.0 -0.1685344409 -0.1630859144
796050000.0 -0.236743976 0.0175244926
806000000.0 -0.1048111142 0.1931865539
815950000.0 0.0909002194 0.1467140591
825900000.0 0.1560159296 0.0622651363
835850000.0 0.2272238748 -0.036703515
845800000.0 0.2021721156 -0.2196739549
855750000.0 0.0362847062 -0.3505388783
865700000.0 -0.2022335589 -0.3273005885
875650000.0 -0.3647381663 -0.1076695389
885600000.0 -0.3207772624 0.1764322758
895550000.0 -0.0806510062 0.3558272471
905500000.0 0.2305876528 0.3142033219
915450000.0 0.4274829322 0.0490752443
925400000.0 0.3677261609 -0.2845893992
935350000.0 0.0750829239 -0.4690313808
945300000.0 -0.2640918344 -0.3772204178
955250000.0 -0.4320605096 -0.0436345423
965200000.0 -0.2641760226 0.3207047248
975150000.0 0.1541417495 0.4076289268
985100000.0 0.4881441522 0.0894986302
995050000.0 0.3936826214 -0.4079498359
1005000000.0 -0.1265003387 -0.6066113643
1014950000.0 -0.6137444865 -0.240160646
1024900000.0 -0.5645013214 0.4242240906
1034850000.0 0.0682306323 0.7686224864
1044800000.0 0.7285574172 0.4053856388
1054750000.0 0.7918286738 -0.3467142078
1064700000.0 0.2365066213 -0.8223769198
1074650000.0 -0.4391562738 -0.6772294419
1084600000.0 -0.7650183707 -0.1685436741
1094550000.0 -0.6177240356 0.478243996
1104500000.0 -0.0201597808 0.7632496875
1114450000.0 0.5584638322 0.4857033182
1124400000.0 0.7006295376 -0.1065011855
1134350000.0 0.3616474323 -0.5655351815
1144300000.0 -0.1686872189 -0.6130174325
1154250000.0 -0.5385989681 -0.2722385529
1164200000.0 -0.5382003159 0.2091585709
1174150000.0 -0.1888963843 0.5233501753
1184100000.0 0.2683672337 0.4652503382
1194050000.0 0.5136374058 0.0948705217
1204000000.0 0.4121555186 -0.318077933
1213950000.0 0.0584534261 -0.5293853986
1223900000.0 -0.3324440079 -0.4351708497
1233850000.0 -0.5507608225 -0.1058912015
1243800000.0 -0.4882909787 0.2863106855
1253750000.0 -0.1736032994 0.5350134711
1263700000.0 0.2307245816 0.5032807321
1273650000.0 0.5080483917 0.207755366
1283600000.0 0.5236629377 -0.1932976295
1293550000.0 0.282940599 -0.5065052756
1303500000.0 -0.0971139183 -0.5985618147
1313450000.0 -0.4510181424 -0.4335640968
1323400000.0 -0.6262581848 -0.0840061943
1333350000.0 -0.5422956456 0.3037635169
1343300000.0 -0.2240063667 0.5552746641
1353250000.0 0.1860780966 0.5429735603
1363200000.0 0.4922532899 0.2723753041
1373150000.0 0.5594418118 -0.1248099093
1383100000.0 0.3700892721 -0.4703243566
1393050000.0 0.0168018653 -0.6237404217
1403000000.0 -0.3511129391 -0.5329932247
1412950000.0 -0.5866641857 -0.2360434887
1422900000.0 -0.5870184947 0.1432286142
1432850000.0 -0.3472494739 0.4425777604
1442800000.0 0.0306661393 0.5206239875
1452750000.0 0.3685348711 0.3412444868
1462700000.0 0.5122106616 -0.00581654
1472650000.0 0.4062931467 -0.3556951813
1482600000.0 0.1099579451 -0.5532181071
1492550000.0 -0.2361470998 -0.518610961
1502500000.0 -0.4758719628 -0.2733124117
1512450000.0 -0.5003953057 0.067370383
1522400000.0 -0.2941296683 0.3419617721
1532350000.0 0.0409336225 0.4086591245
1542300000.0 0.3296435218 0.2371978308
1552250000.0 0.4261741719 -0.0771606958
1562200000.0 0.2885486411 -0.3674572664
1572150000.0 -0.0007415741 -0.4841544774
1582100000.0 -0.2904721938 -0.3778750592
1592050000.0 -0.4333729498 -0.1028943705
1602000000.0 -0.3525345598 0.2014795656
1611950000.0 -0.0796460527 0.3712707613
1621900000.0 0.2398969556 0.306384235
1631850000.0 0.4261308882 0.0358443424
1641800000.0 0.3750345356 -0.2902378677
1651750000.0 0.1149090147 -0.4935228999
1661700000.0 -0.2168739323 -0.4688012578
1671650000.0 -0.4542236122 -0.2313852071
1681600000.0 -0.4827652774 0.1106784123
1691550000.0 -0.2780144186 0.3980105968
1701500000.0 0.0740533941 0.4874031115
1711450000.0 0.4022314046 0.31570756
1721400000.0 0.5266195177 -0.0330448214
1731350000.0 0.4192255696 -0.3419212998
1741300000.0 0.1353890611 -0.5595480908
1751250000.0 -0.2296220018 -0.5371047291
1761200000.0 -0.5008151105 -0.2954622293
1771150000.0 -0.5720942978 0.0604895833
1781100000.0 -0.4143841183 0.3906520945
1791050000.0 -0.0822286664 0.5582286309
1801000000.0 0.2854909397 0.4802698192
1810950000.0 0.5204178201 0.1900276377
1820900000.0 0.5199294601 -0.1800502726
1830850000.0 0.2947389348 -0.4618892416
1840800000.0 -0.0423583306 -0.5449765185
1850750000.0 -0.3533178886 -0.4176931118
1860700000.0 -0.5262032809 -0.1422546082
1870650000.0 -0.5062460815 0.1751359703
1880600000.0 -0.307261873 0.4158815947
1890550000.0 -0.0088607904 0.4874362714
1900500000.0 0.2673945391 0.3630995109
1910450000.0 0.4015312425 0.1037709964
1920400000.0 0.3534376359 -0.165895337
1930350000.0 0.1663314141 -0.3439541639
1940300000.0 -0.0694945931 -0.3775890545
1950250000.0 -0.2647343637 -0.2782282947
1960200000.0 -0.359415473 -0.1006466667
1970150000.0 -0.3347281277 0.0793757071
1980100000.0 -0.2228505423 0.1910761726
1990050000.0 -0.0909484681 0.209808127
2000000000.0 -0.0056907907 0.1575942044
