!Created with skrf (http://scikit-rf.org).
# GHz S RI R 50.0 
!freq ReS11 ImS11
10000000.0 -0.754780243 0.6801449298
19950000.0 -0.1130585235 0.9861865615
29900000.0 0.568176943 0.7934376423
39850000.0 0.9553697127 0.1906083186
49800000.0 0.8351537415 -0.5279187301
59750000.0 0.2432030178 -0.978670492
69700000.0 -0.5090478584 -0.8841677309
79650000.0 -0.9761773781 -0.2703526612
89600000.0 -0.8504290523 0.5047239354
99550000.0 -0.1787474792 0.9470934627
109500000.0 0.6228321664 0.7245288124
119450000.0 0.9686593585 -0.0709029169
129400000.0 0.519343391 -0.8498542051
139350000.0 -0.3930462551 -0.9218560987
149300000.0 -0.9560555246 -0.2102896831
159250000.0 -0.7009277174 0.6365555075
169200000.0 0.1081252432 0.9267114326
179150000.0 0.8159766755 0.4771400823
189100000.0 0.9081304741 -0.3366740809
199050000.0 0.3595550644 -0.9116992535
209000000.0 -0.4064844593 -0.8798134049
218950000.0 -0.8865234166 -0.3226465813
228900000.0 -0.8326288404 0.3881908324
238850000.0 -0.3077353493 0.8549966927
248800000.0 0.2060358486 0.743759893
258750000.0 0.8567819963 0.3709016725
268700000.0 0.8861453348 -0.3237251364
278650000.0 0.426266094 -0.8278650463
288600000.0 -0.2385534397 -0.8698820237
298550000.0 -0.7426376513 -0.4483643096
308500000.0 -0.8072803864 0.1986544031
318450000.0 -0.4028788535 0.6989341286
328400000.0 0.2343130443 0.7457035565
338350000.0 0.6793227269 0.3190125305
348300000.0 0.6367620567 -0.2677059146
358250000.0 0.1947034627 -0.5745618801
368200000.0 -0.2598479279 -0.4310195845
378150000.0 -0.4142771642 -0.0506951833
388100000.0 -0.2236064929 0.251054217
398050000.0 0.0589286603 0.2766562496
408000000.0 0.2221250189 0.0903856674
417950000.0 0.1702602778 -0.097203952
427900000.0 0.0098331014 -0.1586140365
437850000.0 -0.1120734991 -0.0856886571
447800000.0 -0.1201718825 0.0468585451
457750000.0 -0.0448920718 0.1187491293
467700000.0 0.0534823164 0.1058705383
477650000.0 0.0924856064 0.034293773
487600000.0 0.0625243293 -0.0267756649
497550000.0 0.0188459861 -0.0027126887
507500000.0 -0.0155958091 -0.0512344764
517450000.0 -0.0200494481 -0.0127055453
527400000.0 -0.0094517493 -0.0015126494
537350000.0 0.000605654 -0.0277649431
547300000.0 -0.0331101321 -0.0502420153
557250000.0 -0.0907050149 -0.0340714065
567200000.0 -0.1107891549 0.0286422587
577150000.0 -0.0884550771 0.1072525969
587100000.0 0.0024049383 0.1396356592
597050000.0 0.1000412236 0.1066397359
607000000.0 0.1570045215 -0.0027022541
616950000.0 0.1204017975 -0.1233642054
626900000.0 0.0098918594 -0.1979611942
636850000.0 -0.1282750737 -0.1751017283
646800000.0 -0.2108627475 -0.0662948133
656750000.0 -0.2034548262 0.0723134828
666700000.0 -0.0948529079 0.1644110906
676650000.0 0.0403877539 0.1571266315
686600000.0 0.1334116192 0.0579397253
696550000.0 0.1301333567 -0.0739424662
706500000.0 0.0381610666 -0.1542556752
716450000.0 -0.073977885 -0.1433448899
726400000.0 -0.1329321129 -0.0509926452
736350000.0 -0.0972111362 0.0439647518
746300000.0 0.0115323128 0.0714060326
756250000.0 0.0955122907 0.0017439544
766200000.0 0.0957674646 -0.1273591288
776150000.0 -0.0160234828 -0.2096037945
786100000.0 -0.1697546549 -0.179759153
796050000.0 -0.256631867 -0.0231021609
806000000.0 -0.1983235637 0.1690716794
815950000.0 0.0051825844 0.2728219428
825900000.0 0.2436436137 0.1931468877
835850000.0 0.3550123366 -0.046785649
845800000.0 0.2715347876 -0.2920461335
855750000.0 0.0422377186 -0.4305914948
865700000.0 -0.239175264 -0.3783033493
875650000.0 -0.4145133751 -0.1353255893
885600000.0 -0.3752050645 0.1755056074
895550000.0 -0.124103174 0.384787341
905500000.0 0.2109923792 0.3574868579
915450000.0 0.4366219686 0.0991051538
925400000.0 0.4066415237 -0.2452006621
935350000.0 0.1313011352 -0.463314252
945300000.0 -0.2210098159 -0.4015758587
955250000.0 -0.4096446267 -0.0883663149
965200000.0 -0.2743492181 0.2751049079
975150000.0 0.1269522954 0.3828233519
985100000.0 0.4610709558 0.0855367208
995050000.0 0.3672737611 -0.400772609
1005000000.0 -0.1391644286 -0.5851261906
1014950000.0 -0.6081224344 -0.2186292305
1024900000.0 -0.5532101156 0.4285826204
1034850000.0 0.0611171945 0.7648932391
1044800000.0 0.7104340071 0.4277065005
1054750000.0 0.8010272968 -0.3017583164
1064700000.0 0.285240773 -0.752808246
1074650000.0 -0.304561245 -0.7489204662
1084600000.0 -0.7529004706 -0.2610577683
1094550000.0 -0.66541484 0.380589082
1104500000.0 -0.1351818595 0.7317483688
1114450000.0 0.4651060891 0.5505020995
1124400000.0 0.6848447791 -0.0151903176
1134350000.0 0.3913386223 -0.498878896
1144300000.0 -0.1245624333 -0.5741421111
1154250000.0 -0.4837713562 -0.2478066957
1164200000.0 -0.4672525061 0.2097877976
1174150000.0 -0.1137717597 0.4727815605
1184100000.0 0.2967385685 0.3668847604
1194050000.0 0.4660628664 -0.0093495911
1204000000.0 0.3013372271 -0.3684311503
1213950000.0 -0.0646799875 -0.4931912999
1223900000.0 -0.406582182 -0.3264615608
1233850000.0 -0.539290883 0.0260741601
1243800000.0 -0.3937459238 0.38440157
1253750000.0 -0.0401833496 0.5479524586
1263700000.0 0.3365964487 0.428697011
1273650000.0 0.5401994111 0.0870856823
1283600000.0 0.4746076863 -0.3016430863
1293550000.0 0.1814253662 -0.5586311382
1303500000.0 -0.2051489858 -0.5812239326
1313450000.0 -0.5256316343 -0.3598965782
1323400000.0 -0.6417340889 0.0144373405
1333350000.0 -0.4958193039 0.3904624903
1343300000.0 -0.140232611 0.5904704743
1353250000.0 0.2685110059 0.5194980593
1363200000.0 0.5394272296 0.2070047439
1373150000.0 0.5562276624 -0.1977104344
1383100000.0 0.3281136453 -0.5246997511
1393050000.0 -0.0443852794 -0.6421642875
1403000000.0 -0.4056919915 -0.5140562489
1412950000.0 -0.6192585963 -0.1938551454
1422900000.0 -0.5864431215 0.1900989693
1432850000.0 -0.3237091824 0.4725341446
1442800000.0 0.0591918637 0.528679663
1452750000.0 0.3873664781 0.3355271909
1462700000.0 0.5265668624 -0.0100123607
1472650000.0 0.4203381823 -0.3622674956
1482600000.0 0.1282623665 -0.5669499757
1492550000.0 -0.2245030616 -0.5463176563
1502500000.0 -0.480088576 -0.3067385738
1512450000.0 -0.5257845937 0.0345878895
1522400000.0 -0.33711047 0.3295260588
1532350000.0 -0.0040097368 0.4242071021
1542300000.0 0.3027523913 0.2808989277
1552250000.0 0.4344207625 -0.025219169
1562200000.0 0.3287640207 -0.3272370147
1572150000.0 0.0598489644 -0.4803932143
1582100000.0 -0.2386121188 -0.4090906304
1592050000.0 -0.4078796736 -0.1651438223
1602000000.0 -0.3685825019 0.138528247
1611950000.0 -0.1301621581 0.330468775
1621900000.0 0.1747450403 0.306482867
1631850000.0 0.380287523 0.07320735
1641800000.0 0.3611335464 -0.2330532381
1651750000.0 0.1368734622 -0.4435399538
1661700000.0 -0.1712596316 -0.4398141085
1671650000.0 -0.4029815887 -0.2332014474
1681600000.0 -0.440249286 0.0849458615
1691550000.0 -0.2582580042 0.3544655305
1701500000.0 0.0696092697 0.4420451515
1711450000.0 0.3749049063 0.2834180896
1721400000.0 0.5032106623 -0.0412452481
1731350000.0 0.3759688304 -0.3707929402
1741300000.0 0.0721153759 -0.5333082022
1751250000.0 -0.2675059472 -0.4628426168
1761200000.0 -0.4498023037 -0.2036482537
1771150000.0 -0.5031803942 0.0655785241
1781100000.0 -0.363152201 0.3772797728
1791050000.0 -0.0448390558 0.5237098045
1801000000.0 0.3023014872 0.4328055238
1810950000.0 0.5061396328 0.136481005
1820900000.0 0.4774079858 -0.2140839724
1830850000.0 0.238533392 -0.4640380575
1840800000.0 -0.0894667627 -0.5134353268
1850750000.0 -0.375235395 -0.3661273523
1860700000.0 -0.5147797605 -0.086338567
1870650000.0 -0.4658050663 0.2147212646
1880600000.0 -0.2499734741 0.4241958867
1890550000.0 0.042044943 0.4613731593
1900500000.0 0.2896176064 0.311587902
1910450000.0 0.3876363747 0.0525154034
1920400000.0 0.3114475925 -0.20039408
1930350000.0 0.1115320417 -0.3468875696
1940300000.0 -0.114406648 -0.3488918099
1950250000.0 -0.2863904218 -0.2289542103
1960200000.0 -0.3470404514 -0.0538664455
1970150000.0 -0.3013761839 0.107046402
1980100000.0 -0.1859503996 0.1881616651
1990050000.0 -0.074335758 0.1887872598
2000000000.0 -0.0129666017 0.1398439406
