!Created with skrf (http://scikit-rf.org).
# GHz S RI R 50.0 
!freq ReS11 ImS11
10000000.0 -0.7535216489 0.6791633113
19950000.0 -0.1130595172 0.9857665611
29900000.0 0.5681103715 0.7943613566
39850000.0 0.956348573 0.1924704329
49800000.0 0.8368109834 -0.5263073783
59750000.0 0.2457988045 -0.9772285633
69700000.0 -0.5059866518 -0.8838759646
79650000.0 -0.9739148539 -0.2715163516
89600000.0 -0.8506005125 0.5030450111
99550000.0 -0.1810015493 0.9471007972
109500000.0 0.6205677982 0.7275307506
119450000.0 0.9689940257 -0.065797122
129400000.0 0.5229971395 -0.8455969744
139350000.0 -0.3872919286 -0.9216859648
149300000.0 -0.9539622152 -0.2142226262
159250000.0 -0.704196102 0.6340083406
169200000.0 0.103551202 0.9287270206
179150000.0 0.8138929696 0.4820031243
189100000.0 0.9094780847 -0.3312420376
199050000.0 0.3637907439 -0.9089316514
209000000.0 -0.4022489599 -0.8815772939
218950000.0 -0.8863250805 -0.3273573666
228900000.0 -0.8380131947 0.3849713625
238850000.0 -0.3147150856 0.8569221743
248800000.0 0.2071173361 0.7346329569
258750000.0 0.8566604632 0.3778949252
268700000.0 0.8908572333 -0.3188725077
278650000.0 0.4323507762 -0.831741528
288600000.0 -0.2424239537 -0.8763432408
298550000.0 -0.7486253905 -0.4473017215
308500000.0 -0.8106803106 0.2041730462
318450000.0 -0.3988456228 0.7012063209
328400000.0 0.2358832228 0.7463037674
338350000.0 0.6792932883 0.3133591959
348300000.0 0.6330906353 -0.2714116344
358250000.0 0.1897860985 -0.5728774835
368200000.0 -0.2644373108 -0.4313707708
378150000.0 -0.4109904073 -0.047251617
388100000.0 -0.2277148365 0.2516435826
398050000.0 0.0622989693 0.2767477024
408000000.0 0.2182078677 0.0929410023
417950000.0 0.1700110991 -0.0982451628
427900000.0 0.0117943954 -0.1639140716
437850000.0 -0.1128932726 -0.0807465708
447800000.0 -0.1199724311 0.0405931859
457750000.0 -0.0465536068 0.1180069308
467700000.0 0.052299283 0.1038737026
477650000.0 0.0901980665 0.0336146718
487600000.0 0.0645336991 -0.0296840203
497550000.0 0.0154549336 -0.0042599138
507500000.0 -0.0111033111 -0.0520042963
517450000.0 -0.0240962796 -0.0132715561
527400000.0 -0.0065896166 -0.0075303525
537350000.0 4.54907e-05 -0.0242109308
547300000.0 -0.0334632736 -0.0571383833
557250000.0 -0.0894394529 -0.0338171755
567200000.0 -0.1143554331 0.0276021858
577150000.0 -0.0871031351 0.1033456761
587100000.0 0.000389179 0.1439954947
597050000.0 0.1026343704 0.105110861
607000000.0 0.155569163 -0.0007275965
616950000.0 0.1242893954 -0.1219046796
626900000.0 0.0139744582 -0.1992465651
636850000.0 -0.12614613 -0.1796149926
646800000.0 -0.2117459476 -0.0672433334
656750000.0 -0.200763343 0.0678235014
666700000.0 -0.1001472288 0.1612706699
676650000.0 0.0376786128 0.1605830401
686600000.0 0.1342736029 0.0610115201
696550000.0 0.1314940258 -0.0661057497
706500000.0 0.0463519596 -0.1516345804
716450000.0 -0.066113968 -0.1436248347
726400000.0 -0.1277230167 -0.0590597147
736350000.0 -0.0958047679 0.0384774404
746300000.0 0.0048925783 0.0675125234
756250000.0 0.0914701552 0.0003907234
766200000.0 0.0907818836 -0.1200760883
776150000.0 -0.0149621509 -0.2039886298
786100000.0 -0.1656437721 -0.1720781558
796050000.0 -0.2478763568 -0.0199865608
806000000.0 -0.1886596881 0.1614956201
815950000.0 0.0002227495 0.262856944
825900000.0 0.228462672 0.1925376558
835850000.0 0.3495577128 -0.0278846403
845800000.0 0.2836739964 -0.2853198734
855750000.0 0.0519805733 -0.4345969044
865700000.0 -0.2351097393 -0.3855568802
875650000.0 -0.4188968307 -0.1378638124
885600000.0 -0.3779710629 0.1764874904
895550000.0 -0.1269102878 0.3860027248
905500000.0 0.2090647356 0.3606206566
915450000.0 0.434752528 0.1020582243
925400000.0 0.4039535366 -0.2466183584
935350000.0 0.1257052065 -0.4585117288
945300000.0 -0.2194834585 -0.3985391514
955250000.0 -0.410762695 -0.0819770688
965200000.0 -0.2668170869 0.281747778
975150000.0 0.1366480755 0.3799007144
985100000.0 0.4634573312 0.0700267336
995050000.0 0.3573430648 -0.4136766344
1005000000.0 -0.1609317084 -0.5860899128
1014950000.0 -0.6235435705 -0.2024282345
1024900000.0 -0.5484850093 0.4486359946
1034850000.0 0.0772468402 0.7717635111
1044800000.0 0.722660538 0.4198709617
1054750000.0 0.8030340346 -0.3133057605
1064700000.0 0.2812726307 -0.7646372058
1074650000.0 -0.3202110475 -0.7550872598
1084600000.0 -0.7634735317 -0.2569347646
1094550000.0 -0.6726776773 0.3960941587
1104500000.0 -0.120342109 0.7445157693
1114450000.0 0.4812912856 0.5381909204
1124400000.0 0.6799980846 -0.0307517421
1134350000.0 0.3802059465 -0.5043462379
1144300000.0 -0.1329041436 -0.5689113997
1154250000.0 -0.4869496992 -0.2410404566
1164200000.0 -0.4624895884 0.2126577058
1174150000.0 -0.1105934602 0.4724252385
1184100000.0 0.3010875433 0.3615778575
1194050000.0 0.467174917 -0.0149084684
1204000000.0 0.296782762 -0.3752047509
1213950000.0 -0.069823743 -0.4951048578
1223900000.0 -0.4109004012 -0.3277975001
1233850000.0 -0.5432291114 0.0304175894
1243800000.0 -0.3946564667 0.3858337142
1253750000.0 -0.0393175165 0.5512951942
1263700000.0 0.340773328 0.4296867763
1273650000.0 0.5436419441 0.0872738185
1283600000.0 0.4801574672 -0.3029894139
1293550000.0 0.1855734832 -0.5638364822
1303500000.0 -0.2019897085 -0.5848922495
1313450000.0 -0.5242419233 -0.3667390101
1323400000.0 -0.6448439269 0.0118329282
1333350000.0 -0.4994888554 0.3868503532
1343300000.0 -0.144473106 0.5926804288
1353250000.0 0.2669772917 0.5246836948
1363200000.0 0.5406590525 0.2129684883
1373150000.0 0.5624019532 -0.1942911113
1383100000.0 0.3345895076 -0.5227185508
1393050000.0 -0.0367857099 -0.6436527043
1403000000.0 -0.4011895507 -0.5199530461
1412950000.0 -0.6155693926 -0.2005109736
1422900000.0 -0.5899563569 0.1838602672
1432850000.0 -0.3285814274 0.4703661246
1442800000.0 0.0536630137 0.5302640311
1452750000.0 0.386540951 0.3408721007
1462700000.0 0.5269426203 -0.0071203054
1472650000.0 0.4238269827 -0.3607389443
1482600000.0 0.1277507324 -0.5671837521
1492550000.0 -0.2242868743 -0.5438714087
1502500000.0 -0.480527376 -0.3062724619
1512450000.0 -0.5244478015 0.0397155397
1522400000.0 -0.3339170418 0.3300530461
1532350000.0 -0.0028557703 0.4255567028
1542300000.0 0.3042857289 0.2787516973
1552250000.0 0.4313953414 -0.0260185466
1562200000.0 0.3260290841 -0.3271431739
1572150000.0 0.0546468166 -0.4765395008
1582100000.0 -0.2395518989 -0.4058827391
1592050000.0 -0.408981802 -0.1591029219
1602000000.0 -0.3676641264 0.1413739536
1611950000.0 -0.1291304255 0.3333414289
1621900000.0 0.1775315074 0.3065646942
1631850000.0 0.380391421 0.072438757
1641800000.0 0.3604828376 -0.2362175714
1651750000.0 0.1336770868 -0.443531792
1661700000.0 -0.1752823696 -0.4402725667
1671650000.0 -0.4055347389 -0.229466336
1681600000.0 -0.4410445963 0.0873197431
1691550000.0 -0.2530050185 0.3573722752
1701500000.0 0.0765660478 0.4251556659
1711450000.0 0.3193154271 0.2620191729
1721400000.0 0.4955652961 0.0108820868
1731350000.0 0.4087343404 -0.3433130121
1741300000.0 0.1104589116 -0.5395473005
1751250000.0 -0.2379071236 -0.5018012571
1761200000.0 -0.4885681688 -0.2597476252
1771150000.0 -0.5412943251 0.0855961436
1781100000.0 -0.3712242509 0.3951520434
1791050000.0 -0.0423434729 0.5356960381
1801000000.0 0.3051829543 0.439265449
1810950000.0 0.5127644215 0.1412064859
1820900000.0 0.4826277575 -0.2142132579
1830850000.0 0.2446150577 -0.4657876599
1840800000.0 -0.0863091633 -0.5201890969
1850750000.0 -0.3745708395 -0.372014982
1860700000.0 -0.5168963804 -0.0921536471
1870650000.0 -0.4706369534 0.2115839646
1880600000.0 -0.255108953 0.4245931397
1890550000.0 0.039587078 0.4620827602
1900500000.0 0.2882262656 0.3149450114
1910450000.0 0.3904446559 0.0545080671
1920400000.0 0.3145558971 -0.1999431028
1930350000.0 0.1161300698 -0.348209559
1940300000.0 -0.1123135199 -0.3507498322
1950250000.0 -0.2827063154 -0.232498035
1960200000.0 -0.3449539535 -0.0557353883
1970150000.0 -0.2981937551 0.1016993238
1980100000.0 -0.1863846921 0.1841544267
1990050000.0 -0.0764415222 0.1813043799
2000000000.0 -0.0195959833 0.1376430812
