!Created with skrf (http://scikit-rf.org).
# GHz S RI R 50.0 
!freq ReS11 ImS11
10000000.0 -0.757172901 0.6773722314
19950000.0 -0.1203089348 0.9856243216
29900000.0 0.5600373678 0.8001465167
39850000.0 0.9532702592 0.2036372534
49800000.0 0.8429274743 -0.5156368281
59750000.0 0.2571269699 -0.9749703345
69700000.0 -0.4990683486 -0.8895766989
79650000.0 -0.9747872138 -0.27494417
89600000.0 -0.8475635398 0.5092655361
99550000.0 -0.1587811976 0.950585079
109500000.0 0.6536120956 0.6973957767
119450000.0 0.9627319231 -0.1378202013
129400000.0 0.4355469781 -0.8960702266
139350000.0 -0.4985105724 -0.8653226634
149300000.0 -0.969911144 -0.0770123439
159250000.0 -0.5990751287 0.7279375829
169200000.0 0.2364414945 0.9021721573
179150000.0 0.8720475329 0.3731203564
189100000.0 0.8712268308 -0.4304099566
199050000.0 0.2845397649 -0.9390689259
209000000.0 -0.4574842193 -0.85484787
218950000.0 -0.8986369777 -0.2908996207
228900000.0 -0.831396776 0.3994878949
238850000.0 -0.3245751823 0.8546442324
248800000.0 0.3360158015 0.8462163436
258750000.0 0.8510769442 0.3995786269
268700000.0 0.9112573232 -0.2759475587
278650000.0 0.4951063038 -0.8056856784
288600000.0 -0.1623846058 -0.9048809067
298550000.0 -0.7011467873 -0.5356558134
308500000.0 -0.8394534928 0.0920700051
318450000.0 -0.508323276 0.634012619
328400000.0 0.1020669432 0.7778583736
338350000.0 0.6054018758 0.4370466954
348300000.0 0.6668599632 -0.1345841531
358250000.0 0.3016952347 -0.5032827129
368200000.0 -0.1443669016 -0.4482936155
378150000.0 -0.3344034274 -0.1236281324
388100000.0 -0.214901857 0.1530162699
398050000.0 0.018117595 0.1909819766
408000000.0 0.140111108 0.0548693106
417950000.0 0.0836192624 -0.0852213787
427900000.0 -0.0453982833 -0.1031199664
437850000.0 -0.124872373 -0.0040906071
447800000.0 -0.0930712419 0.1128352592
457750000.0 0.0192698242 0.1565817404
467700000.0 0.1235090953 0.1033350319
477650000.0 0.1507510491 -0.0045476592
487600000.0 0.0948958011 -0.0973901657
497550000.0 0.0051754445 -0.1178106478
507500000.0 -0.0739563419 -0.0771231675
517450000.0 -0.0858015907 -0.0106878614
527400000.0 -0.0586138999 0.0326687309
537350000.0 -0.024626913 0.0302952784
547300000.0 -0.0182131273 0.0118216398
557250000.0 -0.0395197196 0.0054570135
567200000.0 -0.0541660042 0.0332423073
577150000.0 -0.0385469337 0.0760685735
587100000.0 0.0235266355 0.093676989
597050000.0 0.0932516116 0.0535629328
607000000.0 0.1238719717 -0.0369280903
616950000.0 0.0755817051 -0.1384744858
626900000.0 -0.0342155677 -0.1852743189
636850000.0 -0.156303499 -0.1417789531
646800000.0 -0.2216384454 -0.0220996846
656750000.0 -0.1820374407 0.112707084
666700000.0 -0.0585097089 0.1896606845
676650000.0 0.0861501761 0.1546620472
686600000.0 0.1686451484 0.0301128833
696550000.0 0.1402661577 -0.1110732609
706500000.0 0.0272860898 -0.1862926418
716450000.0 -0.0915613153 -0.161446871
726400000.0 -0.1546302611 -0.0666196859
736350000.0 -0.12835789 0.036320078
746300000.0 -0.0280240064 0.0867152138
756250000.0 0.0692032811 0.04062904
766200000.0 0.098012925 -0.0744866824
776150000.0 0.0205719051 -0.1689121255
786100000.0 -0.1112487463 -0.1667759868
796050000.0 -0.2053286229 -0.0490028288
806000000.0 -0.1710780497 0.1143985738
815950000.0 -0.0096730183 0.2134913998
825900000.0 0.1922927956 0.1595774102
835850000.0 0.308866543 -0.039284494
845800000.0 0.2405661734 -0.2725930236
855750000.0 0.0173032703 -0.4048930728
865700000.0 -0.2491117417 -0.3320486411
875650000.0 -0.3989103937 -0.0861242397
885600000.0 -0.3264698539 0.2115989342
895550000.0 -0.0578740359 0.3837470395
905500000.0 0.2671426264 0.313265214
915450000.0 0.4496281477 0.0237322275
925400000.0 0.3659944059 -0.3140973883
935350000.0 0.0519368509 -0.4886278836
945300000.0 -0.2962912338 -0.3705902263
955250000.0 -0.4424846825 -0.0149729372
965200000.0 -0.2511853078 0.3433756582
975150000.0 0.1835808355 0.413020918
985100000.0 0.5063440213 0.0704935563
995050000.0 0.3868797217 -0.4309406225
1005000000.0 -0.1396287006 -0.6082350948
1014950000.0 -0.616746349 -0.231417901
1024900000.0 -0.5589798763 0.4251686606
1034850000.0 0.0663360271 0.7625596694
1044800000.0 0.7186846602 0.4088974604
1054750000.0 0.7934569161 -0.33217807
1064700000.0 0.2531896426 -0.8165609538
1074650000.0 -0.4297554802 -0.6923626932
1084600000.0 -0.763850819 -0.1734971504
1094550000.0 -0.6229303346 0.4733567961
1104500000.0 -0.0272727969 0.7662977987
1114450000.0 0.5561349748 0.4946264831
1124400000.0 0.706417879 -0.0998785327
1134350000.0 0.3694113698 -0.5626661141
1144300000.0 -0.1621984197 -0.6173224439
1154250000.0 -0.535359767 -0.2803336769
1164200000.0 -0.5438038661 0.2062002549
1174150000.0 -0.1960791224 0.5240543023
1184100000.0 0.2607074859 0.4709607409
1194050000.0 0.5153767137 0.1041688037
1204000000.0 0.4165969577 -0.3136626168
1213950000.0 0.0625019878 -0.5282351934
1223900000.0 -0.3290527942 -0.4363186416
1233850000.0 -0.5506217107 -0.1082243699
1243800000.0 -0.4896735837 0.286123654
1253750000.0 -0.1756715232 0.5358224865
1263700000.0 0.2286383515 0.5033850855
1273650000.0 0.5075599018 0.2099470343
1283600000.0 0.5221925424 -0.1914371813
1293550000.0 0.2821419445 -0.5049971969
1303500000.0 -0.0976335435 -0.595978046
1313450000.0 -0.4505773256 -0.4346927788
1323400000.0 -0.6265648643 -0.0840359534
1333350000.0 -0.5435405173 0.3054022269
1343300000.0 -0.2259918093 0.5557854491
1353250000.0 0.1841220659 0.5431205609
1363200000.0 0.4908022081 0.2734381568
1373150000.0 0.5589566138 -0.1235419598
1383100000.0 0.3691688031 -0.4681173499
1393050000.0 0.0164776793 -0.6235971914
1403000000.0 -0.3516245679 -0.532761202
1412950000.0 -0.5876308174 -0.2366435593
1422900000.0 -0.5857875617 0.1432753088
1432850000.0 -0.3463500833 0.4426050219
1442800000.0 0.0321077943 0.5194571732
1452750000.0 0.3681036413 0.3392451397
1462700000.0 0.5123136951 -0.0091705381
1472650000.0 0.4047790827 -0.3578797012
1482600000.0 0.1082836497 -0.5543200767
1492550000.0 -0.2380013754 -0.5190696065
1502500000.0 -0.4772895239 -0.2724853064
1512450000.0 -0.4990768177 0.0682969425
1522400000.0 -0.2921081492 0.341559926
1532350000.0 0.0424634169 0.4056907481
1542300000.0 0.3323549464 0.2329160223
1552250000.0 0.4258412593 -0.080823294
1562200000.0 0.286907372 -0.3693093637
1572150000.0 -0.0021504476 -0.4843259942
1582100000.0 -0.2905678537 -0.3795250571
1592050000.0 -0.4317476462 -0.10351361
1602000000.0 -0.3517465081 0.1989864109
1611950000.0 -0.0797303986 0.3698100181
1621900000.0 0.2393292738 0.3056535999
1631850000.0 0.4257123863 0.0361594016
1641800000.0 0.3782027446 -0.2900575992
1651750000.0 0.1175733987 -0.4914130656
1661700000.0 -0.2109491866 -0.4724613763
1671650000.0 -0.4510500936 -0.235878925
1681600000.0 -0.4822645852 0.1032376549
1691550000.0 -0.2841453804 0.394776875
1701500000.0 0.0681150565 0.4875966523
1711450000.0 0.3987582209 0.3276627265
1721400000.0 0.5461131782 -0.0191306143
1731350000.0 0.4306347328 -0.3724686754
1741300000.0 0.1194446791 -0.5698247925
1751250000.0 -0.2425879924 -0.531375723
1761200000.0 -0.5056554655 -0.2839717848
1771150000.0 -0.5694502403 0.0720483957
1781100000.0 -0.4050323182 0.3979496648
1791050000.0 -0.0712242933 0.5601136238
1801000000.0 0.2958419615 0.4760321877
1810950000.0 0.5262292301 0.1790669114
1820900000.0 0.5121034793 -0.1944240642
1830850000.0 0.26632453 -0.4612603859
1840800000.0 -0.0282682869 -0.5068298432
1850750000.0 -0.3358397736 -0.4197033967
1860700000.0 -0.5208415179 -0.1499400962
1870650000.0 -0.509189769 0.1708380318
1880600000.0 -0.3106787331 0.4151069377
1890550000.0 -0.0095757843 0.4902409658
1900500000.0 0.266448808 0.365668081
1910450000.0 0.4026783373 0.1082439313
1920400000.0 0.3547772633 -0.1656138681
1930350000.0 0.1664309987 -0.344836541
1940300000.0 -0.0714709305 -0.3786998114
1950250000.0 -0.2684864843 -0.2781392968
1960200000.0 -0.3619993757 -0.0982701421
1970150000.0 -0.3378623269 0.0821390638
1980100000.0 -0.2240990476 0.1960332604
1990050000.0 -0.0915344507 0.2121839919
2000000000.0 -0.0030341637 0.1574598072
