!Created with skrf (http://scikit-rf.org).
# GHz S RI R 50.0 
!freq ReS11 ImS11
10000000.0 -0.7562014061 0.6803498894
19950000.0 -0.1143204552 0.9864629676
29900000.0 0.5669700285 0.7937992653
39850000.0 0.9544708615 0.19117592
49800000.0 0.8351757086 -0.5275815415
59750000.0 0.2440225003 -0.9796550119
69700000.0 -0.5094033678 -0.8864333239
79650000.0 -0.9780267034 -0.2722532475
89600000.0 -0.8522444171 0.503949303
99550000.0 -0.1796954425 0.9467328372
109500000.0 0.6224792983 0.7240584444
119450000.0 0.9688071809 -0.0717495819
129400000.0 0.5193145693 -0.851528562
139350000.0 -0.3935441305 -0.9237283354
149300000.0 -0.9571750454 -0.2116001063
159250000.0 -0.7021669151 0.6355691268
169200000.0 0.1068393334 0.9265960605
179150000.0 0.8158645233 0.4780736318
189100000.0 0.9103313804 -0.3358276497
199050000.0 0.3628009783 -0.9133175967
209000000.0 -0.4037270665 -0.8834906173
218950000.0 -0.885516607 -0.3281929181
228900000.0 -0.8365186233 0.382288224
238850000.0 -0.3152008488 0.8539536082
248800000.0 0.2201886242 0.7530201594
258750000.0 0.8579864763 0.3772911555
268700000.0 0.8947780006 -0.3197772017
278650000.0 0.4363329462 -0.8346463004
288600000.0 -0.2386048305 -0.8797976216
298550000.0 -0.7468945516 -0.4493491355
308500000.0 -0.8097975426 0.2015813137
318450000.0 -0.4029145086 0.6998087381
328400000.0 0.2375196559 0.7430242008
338350000.0 0.6831194983 0.3174822957
348300000.0 0.6376534682 -0.2660265764
358250000.0 0.1934550679 -0.5729334504
368200000.0 -0.2621749181 -0.4339043054
378150000.0 -0.4139048045 -0.055940399
388100000.0 -0.2202395417 0.2535054004
398050000.0 0.0619045148 0.2843495385
408000000.0 0.2217754566 0.0915846428
417950000.0 0.167547183 -0.1030327112
427900000.0 0.009121603 -0.1628174982
437850000.0 -0.1091654455 -0.0804331162
447800000.0 -0.1153979661 0.0522479419
457750000.0 -0.0441612943 0.1176739928
467700000.0 0.0492438788 0.1010104431
477650000.0 0.0879204701 0.0340054324
487600000.0 0.0628473121 -0.0216045561
497550000.0 0.0226520707 0.003274784
507500000.0 -0.0104170745 -0.0515150843
517450000.0 -0.0205512308 -0.0169609281
527400000.0 -0.0139038788 -0.0044940216
537350000.0 -0.003612785 -0.0267321518
547300000.0 -0.0326172969 -0.0443991467
557250000.0 -0.0869562471 -0.0342468006
567200000.0 -0.1105898957 0.0248316928
577150000.0 -0.0931574041 0.1045775809
587100000.0 -0.0050650454 0.1421342352
597050000.0 0.0953361034 0.113965241
607000000.0 0.1578689037 0.0036381018
616950000.0 0.1245547929 -0.1219463679
626900000.0 0.0127822399 -0.1992062676
636850000.0 -0.1279835372 -0.1772642369
646800000.0 -0.2124301822 -0.0665801159
656750000.0 -0.2057200505 0.0727079863
666700000.0 -0.097243229 0.1613866107
676650000.0 0.0372943236 0.1553896172
686600000.0 0.129055968 0.0584970695
696550000.0 0.1280385193 -0.0686464886
706500000.0 0.0386303395 -0.1476192176
716450000.0 -0.0701177994 -0.143160082
726400000.0 -0.1301915588 -0.0553694824
736350000.0 -0.0976575389 0.0359095514
746300000.0 0.0069097675 0.0673365845
756250000.0 0.090223417 0.0036351459
766200000.0 0.0918248 -0.1234764024
776150000.0 -0.0162697976 -0.2067167138
786100000.0 -0.168247533 -0.1812609286
796050000.0 -0.2547218892 -0.027115227
806000000.0 -0.1959407019 0.165744295
815950000.0 0.0038896073 0.265655242
825900000.0 0.2268043512 0.1898279676
835850000.0 0.3463604739 -0.0278364184
845800000.0 0.2856734438 -0.2865689747
855750000.0 0.0529324768 -0.4384633743
865700000.0 -0.2360663272 -0.3854757665
875650000.0 -0.4180347211 -0.1410015271
885600000.0 -0.3816882092 0.1725361222
895550000.0 -0.1317547846 0.3839353687
905500000.0 0.2070287445 0.3595672147
915450000.0 0.4365776246 0.1039139134
925400000.0 0.409818323 -0.2403781178
935350000.0 0.1365247827 -0.4609007494
945300000.0 -0.217191346 -0.4037330279
955250000.0 -0.408267659 -0.0938328675
965200000.0 -0.2753139788 0.269427526
975150000.0 0.1234796309 0.3828803444
985100000.0 0.4596549612 0.0905286944
995050000.0 0.3702113983 -0.3965805575
1005000000.0 -0.1342330173 -0.5862984603
1014950000.0 -0.605873628 -0.2240408931
1024900000.0 -0.556637154 0.4239252932
1034850000.0 0.0540619711 0.767820363
1044800000.0 0.7097638834 0.4384183217
1054750000.0 0.8114845576 -0.2937843081
1064700000.0 0.2988917563 -0.7588605282
1074650000.0 -0.3026368633 -0.7608512388
1084600000.0 -0.7608357194 -0.2721771147
1094550000.0 -0.683178251 0.3864007374
1104500000.0 -0.1339605563 0.7494696194
1114450000.0 0.4780544531 0.5531878073
1124400000.0 0.6905829696 -0.0198103042
1134350000.0 0.3900437744 -0.5008535854
1144300000.0 -0.1280472921 -0.5737979636
1154250000.0 -0.4876363334 -0.2470457085
1164200000.0 -0.4690523257 0.2122523011
1174150000.0 -0.1114825433 0.4785031122
1184100000.0 0.3003639634 0.3708546702
1194050000.0 0.469773453 -0.0080381037
1204000000.0 0.3007584335 -0.3692512451
1213950000.0 -0.0676984935 -0.4954178186
1223900000.0 -0.4095932083 -0.3255802042
1233850000.0 -0.542276273 0.0298723118
1243800000.0 -0.395370614 0.3901436058
1253750000.0 -0.0404116658 0.5544159967
1263700000.0 0.3369854712 0.4343269953
1273650000.0 0.5433421829 0.0900414293
1283600000.0 0.4795582629 -0.3006326308
1293550000.0 0.1866192359 -0.5605210992
1303500000.0 -0.2028380581 -0.5849325299
1313450000.0 -0.5278267592 -0.3647177028
1323400000.0 -0.6481389777 0.0122020817
1333350000.0 -0.5050523489 0.3911741804
1343300000.0 -0.1452474244 0.5949760372
1353250000.0 0.2678247794 0.5264187733
1363200000.0 0.5415533093 0.2129873835
1373150000.0 0.5597899141 -0.1932383434
1383100000.0 0.3311824354 -0.5214783405
1393050000.0 -0.0410039548 -0.6435793079
1403000000.0 -0.4010195414 -0.5190380315
1412950000.0 -0.6175269874 -0.2015715429
1422900000.0 -0.5887328061 0.1827378194
1432850000.0 -0.3319937868 0.4692414906
1442800000.0 0.0478778575 0.5319461374
1452750000.0 0.3806512033 0.3440519231
1462700000.0 0.530380732 -0.0044756458
1472650000.0 0.4296912139 -0.3647540597
1482600000.0 0.1314170721 -0.5718014324
1492550000.0 -0.2299917164 -0.546495548
1502500000.0 -0.4879103725 -0.3035931704
1512450000.0 -0.5270889024 0.0379739957
1522400000.0 -0.3307000814 0.3262852877
1532350000.0 0.0019545938 0.4186105436
1542300000.0 0.3022529405 0.2783474168
1552250000.0 0.4268224003 -0.0210526268
1562200000.0 0.3233301384 -0.3211724928
1572150000.0 0.0634458631 -0.4798744745
1582100000.0 -0.2294437278 -0.4134628807
1592050000.0 -0.4014371806 -0.1696979188
1602000000.0 -0.3708796375 0.1381844121
1611950000.0 -0.1347727156 0.3336602978
1621900000.0 0.1756089829 0.306824652
1631850000.0 0.3854778548 0.0668167009
1641800000.0 0.3614468754 -0.2386945031
1651750000.0 0.1345795937 -0.4280272337
1661700000.0 -0.1598779546 -0.4491080568
1671650000.0 -0.4079659903 -0.2433581923
1681600000.0 -0.4477717624 0.0755788616
1691550000.0 -0.2651370511 0.3512590116
1701500000.0 0.0580368228 0.4490078503
1711450000.0 0.3673832308 0.3050809505
1721400000.0 0.5084043172 -0.0163098591
1731350000.0 0.401778467 -0.3561090427
1741300000.0 0.1086745979 -0.5417059482
1751250000.0 -0.2395521707 -0.503476008
1761200000.0 -0.4884454217 -0.2544214614
1771150000.0 -0.5429311924 0.0893131924
1781100000.0 -0.3708886201 0.4025424438
1791050000.0 -0.0381463377 0.5393332526
1801000000.0 0.3138980123 0.4409731099
1810950000.0 0.517741219 0.1396103063
1820900000.0 0.4849838361 -0.2148756665
1830850000.0 0.2429504525 -0.4669280823
1840800000.0 -0.0884371399 -0.5177688637
1850750000.0 -0.3756161598 -0.3695697582
1860700000.0 -0.5171914803 -0.088594619
1870650000.0 -0.4710909372 0.2167725604
1880600000.0 -0.2562574885 0.4292141974
1890550000.0 0.0388888088 0.4689906106
1900500000.0 0.2907324976 0.3203757028
1910450000.0 0.3933091282 0.058361618
1920400000.0 0.3180343285 -0.1970498893
1930350000.0 0.1171478252 -0.3464240186
1940300000.0 -0.1118429965 -0.3498500191
1950250000.0 -0.2855200246 -0.2305186072
1960200000.0 -0.3462338024 -0.0554485356
1970150000.0 -0.3016938696 0.1035627565
1980100000.0 -0.1861360645 0.1865061306
1990050000.0 -0.0809994606 0.1871463832
2000000000.0 -0.0193861152 0.1413398436
