!Created with skrf (http://scikit-rf.org).
# GHz S RI R 50.0 
!freq ReS11 ImS11
10000000.0 -0.7583437579 0.6819607003
19950000.0 -0.1146256834 0.9873308904
29900000.0 0.5674058697 0.7935323153
39850000.0 0.9546467873 0.1898781505
49800000.0 0.8345183243 -0.5297079087
59750000.0 0.2415286446 -0.9819013404
69700000.0 -0.5135832427 -0.887214848
79650000.0 -0.9813447505 -0.2700294968
89600000.0 -0.8516791911 0.5076150226
99550000.0 -0.175261405 0.9476725906
109500000.0 0.6271548198 0.7195781236
119450000.0 0.9688954791 -0.0800791741
129400000.0 0.512084304 -0.8582918826
139350000.0 -0.4035973864 -0.922338726
149300000.0 -0.9605547389 -0.2037409944
159250000.0 -0.6971766323 0.6409418825
169200000.0 0.1135419925 0.9255377324
179150000.0 0.8195171058 0.4736923528
189100000.0 0.910853858 -0.3400043714
199050000.0 0.3621102936 -0.9163667693
209000000.0 -0.4050841247 -0.8854571829
218950000.0 -0.886678515 -0.3294732188
228900000.0 -0.8371535028 0.381670831
238850000.0 -0.3159630036 0.8533312431
248800000.0 0.2332235065 0.7800176236
258750000.0 0.8607657479 0.37650754
268700000.0 0.8977326399 -0.3211319222
278650000.0 0.4372127058 -0.8364233552
288600000.0 -0.239799329 -0.8813944636
298550000.0 -0.7479397762 -0.4498873003
308500000.0 -0.8084524806 0.2025887322
318450000.0 -0.399641397 0.7020594862
328400000.0 0.2411187948 0.7457937224
338350000.0 0.6850205853 0.3159377041
348300000.0 0.6373311914 -0.2710222957
358250000.0 0.1947719604 -0.5737610318
368200000.0 -0.2587447078 -0.4292904789
378150000.0 -0.4095382232 -0.0530900354
388100000.0 -0.2212129264 0.2463850814
398050000.0 0.0581299036 0.2789964204
408000000.0 0.2190632422 0.0997978656
417950000.0 0.1722130092 -0.0916539808
427900000.0 0.0174895389 -0.1608871316
437850000.0 -0.1051725248 -0.0885481931
447800000.0 -0.1208888836 0.0462340026
457750000.0 -0.0486889323 0.1246718168
467700000.0 0.0513052744 0.1123670514
477650000.0 0.0980480814 0.0356261372
487600000.0 0.0701472641 -0.0318018528
497550000.0 0.0181096789 -2.89075e-05
507500000.0 -0.0197717323 -0.0482421425
517450000.0 -0.0254874049 -0.0053803751
527400000.0 -0.0087806019 0.0008196073
537350000.0 0.0047853401 -0.0304236287
547300000.0 -0.0289066391 -0.0494585228
557250000.0 -0.092022716 -0.0331606785
567200000.0 -0.1168320866 0.0328357008
577150000.0 -0.0923349555 0.1090421168
587100000.0 0.0019385269 0.1401901407
597050000.0 0.1016987417 0.1038873025
607000000.0 0.1555835048 -0.0003713732
616950000.0 0.1144869318 -0.1190513224
626900000.0 0.0052189124 -0.1911241007
636850000.0 -0.1285998353 -0.1722808741
646800000.0 -0.2067180419 -0.0685955915
656750000.0 -0.1986510058 0.0671503382
666700000.0 -0.0977075816 0.1583992297
676650000.0 0.0306413994 0.156066018
686600000.0 0.1200986135 0.0602144308
696550000.0 0.1235334515 -0.0673591749
706500000.0 0.0387672264 -0.1497400514
716450000.0 -0.0673000555 -0.1412666782
726400000.0 -0.1284179044 -0.0508517326
736350000.0 -0.0942846582 0.0410801146
746300000.0 0.010816674 0.0654973062
756250000.0 0.0829204918 -0.0112180122
766200000.0 0.0845399457 -0.1211267597
776150000.0 -0.0159893396 -0.2041762237
786100000.0 -0.1626720774 -0.1772351424
796050000.0 -0.2525985852 -0.0285952743
806000000.0 -0.1995471122 0.1594790151
815950000.0 -0.006565994 0.2632354582
825900000.0 0.2256212733 0.1963526569
835850000.0 0.3562753386 -0.0266179498
845800000.0 0.2928803113 -0.2908995941
855750000.0 0.0522616339 -0.4436206396
865700000.0 -0.2400392223 -0.3904392409
875650000.0 -0.4223825306 -0.1440703952
885600000.0 -0.3836701062 0.1730394697
895550000.0 -0.1295556783 0.3841806039
905500000.0 0.2099704716 0.3647962322
915450000.0 0.4381000159 0.1075607695
925400000.0 0.415208751 -0.2400453414
935350000.0 0.1453961891 -0.4670457513
945300000.0 -0.2089835933 -0.4159241167
955250000.0 -0.4085574193 -0.1072808141
965200000.0 -0.2891618475 0.2612920135
975150000.0 0.1010083778 0.38913464
985100000.0 0.4487325734 0.1111613755
995050000.0 0.3895338765 -0.3736940615
1005000000.0 -0.0984684301 -0.5852187705
1014950000.0 -0.5839383188 -0.2531081423
1024900000.0 -0.5725655478 0.3892631721
1034850000.0 0.0141234495 0.7622469631
1044800000.0 0.6865277803 0.4680587079
1054750000.0 0.826337883 -0.2597069091
1064700000.0 0.3312099223 -0.7548058762
1074650000.0 -0.2842242741 -0.7722937082
1084600000.0 -0.7553717434 -0.2915931174
1094550000.0 -0.6940229074 0.3719488109
1104500000.0 -0.1500814489 0.7509056717
1114450000.0 0.470373273 0.5667252575
1124400000.0 0.6930262723 -0.0064869938
1134350000.0 0.4003733366 -0.4980198933
1144300000.0 -0.1173000641 -0.5771590528
1154250000.0 -0.4811293635 -0.2521057638
1164200000.0 -0.4700734186 0.2096927561
1174150000.0 -0.1181325342 0.4796020903
1184100000.0 0.2948284904 0.3713083958
1194050000.0 0.4694801009 -0.0063043417
1204000000.0 0.3046424229 -0.3671965419
1213950000.0 -0.0617402344 -0.4934218297
1223900000.0 -0.4081198706 -0.3264974353
1233850000.0 -0.5457110787 0.0272554933
1243800000.0 -0.4003390282 0.3863003638
1253750000.0 -0.0439476589 0.5535895068
1263700000.0 0.3361147006 0.4360416102
1273650000.0 0.5441931517 0.0925976882
1283600000.0 0.4782757969 -0.2968863762
1293550000.0 0.1841203609 -0.5585497778
1303500000.0 -0.2048480445 -0.5838226295
1313450000.0 -0.5280515569 -0.365031473
1323400000.0 -0.6465931852 0.0125564727
1333350000.0 -0.5030764661 0.3918091939
1343300000.0 -0.1449284033 0.5948106278
1353250000.0 0.2653197684 0.5261093194
1363200000.0 0.5392507378 0.2109074093
1373150000.0 0.5580990376 -0.1963592094
1383100000.0 0.3308353521 -0.5245496971
1393050000.0 -0.041569285 -0.6456766043
1403000000.0 -0.4055097647 -0.5185926309
1412950000.0 -0.6244921288 -0.1999921778
1422900000.0 -0.593596315 0.1848359455
1432850000.0 -0.3344504529 0.4710123415
1442800000.0 0.0507076719 0.5324094057
1452750000.0 0.3829234955 0.3454763924
1462700000.0 0.5309206082 -0.0018384959
1472650000.0 0.4285703335 -0.361554279
1482600000.0 0.1358427405 -0.5727084471
1492550000.0 -0.2225318186 -0.5537364617
1502500000.0 -0.4836532542 -0.314089424
1512450000.0 -0.5294657419 0.0298153268
1522400000.0 -0.3404586052 0.3247739679
1532350000.0 -0.0041249324 0.4214900879
1542300000.0 0.2999554161 0.2811606697
1552250000.0 0.4328666462 -0.0241773166
1562200000.0 0.324956458 -0.3269586993
1572150000.0 0.063915086 -0.4830603528
1582100000.0 -0.2359526597 -0.4142410659
1592050000.0 -0.4041328363 -0.1670213481
1602000000.0 -0.3712769043 0.137707553
1611950000.0 -0.1319276261 0.3326396414
1621900000.0 0.1750508179 0.3039629725
1631850000.0 0.3865341477 0.0673349907
1641800000.0 0.3662784839 -0.2412690559
1651750000.0 0.1372539724 -0.4443974979
1661700000.0 -0.1772303308 -0.4372009092
1671650000.0 -0.4055308859 -0.2279696182
1681600000.0 -0.4307072628 0.084285813
1691550000.0 -0.2328626863 0.3349574439
1701500000.0 0.0213970319 0.4173367631
1711450000.0 0.3522816906 0.317182755
1721400000.0 0.5099668414 -0.0037300474
1731350000.0 0.4073837496 -0.3517626745
1741300000.0 0.1137746956 -0.5401480263
1751250000.0 -0.2333850824 -0.5042813737
1761200000.0 -0.4849997634 -0.2563549954
1771150000.0 -0.5412911076 0.0860460035
1781100000.0 -0.3743671654 0.3992690941
1791050000.0 -0.0431664464 0.5395478604
1801000000.0 0.3111444215 0.4453296948
1810950000.0 0.5203684528 0.1451981138
1820900000.0 0.490480784 -0.2102443124
1830850000.0 0.2476103863 -0.4660377554
1840800000.0 -0.0860700029 -0.519355887
1850750000.0 -0.3748389189 -0.3726785564
1860700000.0 -0.5185874761 -0.0914716574
1870650000.0 -0.4727092879 0.2139298453
1880600000.0 -0.2597757901 0.4300077781
1890550000.0 0.0344438952 0.4713303554
1900500000.0 0.2872788869 0.3250389101
1910450000.0 0.3918046401 0.0638204922
1920400000.0 0.320391236 -0.1932465806
1930350000.0 0.1222327563 -0.3449060697
1940300000.0 -0.1078276638 -0.3520195425
1950250000.0 -0.2866948195 -0.2362918256
1960200000.0 -0.3521936186 -0.0589858974
1970150000.0 -0.30996705 0.1033814816
1980100000.0 -0.1924651288 0.193240641
1990050000.0 -0.081432783 0.194465995
2000000000.0 -0.0159715303 0.1477491231
