!Created with skrf (http://scikit-rf.org).
# GHz S RI R 50.0 
!freq ReS11 ImS11
10000000.0 -0.7597773666 0.6788330862
19950000.0 -0.1212215236 0.986645229
29900000.0 0.5596628561 0.7995418715
39850000.0 0.9524544371 0.2019015467
49800000.0 0.841239589 -0.517990375
59750000.0 0.2542381665 -0.9778085447
69700000.0 -0.5040630501 -0.8910805201
79650000.0 -0.9788885865 -0.2727028011
89600000.0 -0.8469259994 0.5133434293
99550000.0 -0.1531917157 0.9509366925
109500000.0 0.6589583394 0.6907491103
119450000.0 0.961770895 -0.148971539
129400000.0 0.4260406759 -0.9039166251
139350000.0 -0.5096108006 -0.863059802
149300000.0 -0.9723693197 -0.0690673848
159250000.0 -0.5936096452 0.7321974167
169200000.0 0.2430742793 0.9001252353
179150000.0 0.8753550486 0.3673554307
189100000.0 0.8712739261 -0.4362939096
199050000.0 0.2827467875 -0.9437748045
209000000.0 -0.4601479079 -0.8569321619
218950000.0 -0.9001949972 -0.2910907495
228900000.0 -0.8307429335 0.3993624649
238850000.0 -0.3235234782 0.8542864268
248800000.0 0.3376815512 0.8478191677
258750000.0 0.8538956526 0.3993737237
268700000.0 0.9148297003 -0.2773679451
278650000.0 0.498075219 -0.8082925848
288600000.0 -0.1602245092 -0.9078903775
298550000.0 -0.69946489 -0.539039205
308500000.0 -0.8393318226 0.0885535857
318450000.0 -0.5112925483 0.6322193067
328400000.0 0.0983297234 0.7804169041
338350000.0 0.606541417 0.4428312828
348300000.0 0.6737929933 -0.130897057
358250000.0 0.3094092594 -0.5040122194
368200000.0 -0.1405878538 -0.4514160069
378150000.0 -0.333409923 -0.1270284918
388100000.0 -0.2147200497 0.1512658892
398050000.0 0.0180341808 0.1902509288
408000000.0 0.139468905 0.0564066212
417950000.0 0.0833128889 -0.0832313525
427900000.0 -0.0444591507 -0.1018467427
437850000.0 -0.1240288995 -0.0028850108
447800000.0 -0.093109762 0.1146764898
457750000.0 0.0185886013 0.1604224804
467700000.0 0.1241911814 0.1077265405
477650000.0 0.154233514 0.0001386539
487600000.0 0.0991638093 -0.0949629498
497550000.0 0.009337812 -0.1186649444
507500000.0 -0.0723508821 -0.07926021
517450000.0 -0.0871147782 -0.0126970462
527400000.0 -0.0618659944 0.0331521194
537350000.0 -0.0281882255 0.033533669
547300000.0 -0.0193442092 0.0159212335
557250000.0 -0.0381919524 0.0085529478
567200000.0 -0.052161333 0.0343019871
577150000.0 -0.0385196933 0.0744106207
587100000.0 0.0204731911 0.0924412019
597050000.0 0.0879498136 0.0541201799
607000000.0 0.1180487254 -0.0328652939
616950000.0 0.0735249228 -0.1326182886
626900000.0 -0.0331091022 -0.1789674522
636850000.0 -0.151959988 -0.1391850077
646800000.0 -0.2176169545 -0.0248002792
656750000.0 -0.1821696674 0.1059310817
666700000.0 -0.0650227546 0.1830408837
676650000.0 0.0752796394 0.1552368724
686600000.0 0.1612962694 0.0385589941
696550000.0 0.1451322298 -0.1023599315
706500000.0 0.0365675259 -0.1896360134
716450000.0 -0.0942949123 -0.1747196264
726400000.0 -0.1692089173 -0.0720089742
736350000.0 -0.1395635927 0.0446021129
746300000.0 -0.0271733666 0.0985237028
756250000.0 0.0790712096 0.0459562478
766200000.0 0.1076146846 -0.080538097
776150000.0 0.0221020553 -0.1825042724
786100000.0 -0.119621338 -0.1782017541
796050000.0 -0.2192848199 -0.0522321641
806000000.0 -0.1813205935 0.1225471149
815950000.0 -0.0091991556 0.2251181255
825900000.0 0.2026601425 0.1659654173
835850000.0 0.3220724283 -0.0452954321
845800000.0 0.2461887226 -0.2895710131
855750000.0 0.0088703966 -0.4223659525
865700000.0 -0.2687062004 -0.3387066198
875650000.0 -0.4170475789 -0.0727473413
885600000.0 -0.3272439457 0.2371003218
895550000.0 -0.0310085639 0.4016371384
905500000.0 0.3080741177 0.2969239735
915450000.0 0.4618420924 -0.0361863005
925400000.0 0.2967731564 -0.3622270323
935350000.0 -0.0377235479 -0.4067656035
945300000.0 -0.2113285039 -0.2681737771
955250000.0 -0.3273383539 -0.0663270595
965200000.0 -0.2578120465 0.2337227153
975150000.0 0.0878910615 0.3721274005
985100000.0 0.4317902196 0.134491166
995050000.0 0.411567184 -0.3369427658
1005000000.0 -0.047688468 -0.5857659285
1014950000.0 -0.5551956685 -0.2961684077
1024900000.0 -0.5863330484 0.3472136216
1034850000.0 -0.007949052 0.7532377952
1044800000.0 0.6831706123 0.4639400684
1054750000.0 0.8192402804 -0.2830489571
1064700000.0 0.2993711209 -0.8107071034
1074650000.0 -0.4058279994 -0.7212289725
1084600000.0 -0.7593513684 -0.1976212964
1094550000.0 -0.6412440658 0.4577576057
1104500000.0 -0.0485214728 0.7729723895
1114450000.0 0.5504915925 0.5131588932
1124400000.0 0.7156209162 -0.0857557562
1134350000.0 0.3810787971 -0.5601172445
1144300000.0 -0.1557124736 -0.6210994868
1154250000.0 -0.5362101858 -0.2844872774
1164200000.0 -0.5476654452 0.2053776422
1174150000.0 -0.1989065869 0.5291241334
1184100000.0 0.2618188059 0.4768917068
1194050000.0 0.5184522501 0.1076473565
1204000000.0 0.4199319152 -0.3125482512
1213950000.0 0.0645803707 -0.5289018481
1223900000.0 -0.3297878847 -0.4374369069
1233850000.0 -0.5531676685 -0.1093339297
1243800000.0 -0.49433877 0.2872604777
1253750000.0 -0.1802725879 0.5399424205
1263700000.0 0.2265169864 0.5094656435
1273650000.0 0.5078325431 0.2153369633
1283600000.0 0.5249451028 -0.1877905933
1293550000.0 0.2837245433 -0.5040024195
1303500000.0 -0.0974116556 -0.597113703
1313450000.0 -0.4529414898 -0.435769265
1323400000.0 -0.6311320785 -0.0843929662
1333350000.0 -0.5470153883 0.3071336227
1343300000.0 -0.2283110068 0.5592456938
1353250000.0 0.1833545032 0.5452341483
1363200000.0 0.4905925201 0.2745498829
1373150000.0 0.5577350109 -0.1245005142
1383100000.0 0.3677712059 -0.4689490505
1393050000.0 0.013761269 -0.6249377251
1403000000.0 -0.3552755369 -0.5330303288
1412950000.0 -0.5915365714 -0.2359603176
1422900000.0 -0.5894988545 0.145962769
1432850000.0 -0.3473798868 0.4432473977
1442800000.0 0.0323338144 0.5206774983
1452750000.0 0.368635097 0.3390717715
1462700000.0 0.5128518539 -0.0090740926
1472650000.0 0.405389536 -0.3589318381
1482600000.0 0.1101089473 -0.5574645699
1492550000.0 -0.2377153929 -0.5228700994
1502500000.0 -0.4787489905 -0.2774086012
1512450000.0 -0.5021801678 0.0650185434
1522400000.0 -0.2962973965 0.3403812501
1532350000.0 0.0402105911 0.4064023011
1542300000.0 0.3321125529 0.2342122361
1552250000.0 0.4287598814 -0.0805393887
1562200000.0 0.2902236059 -0.3709616437
1572150000.0 0.0004153727 -0.4881802326
1582100000.0 -0.2896046073 -0.3834112734
1592050000.0 -0.432683641 -0.1069038429
1602000000.0 -0.3524966994 0.1961459502
1611950000.0 -0.0806546731 0.3683686367
1621900000.0 0.2386512817 0.30567188
1631850000.0 0.4278506519 0.0353754354
1641800000.0 0.3801849982 -0.2900890441
1651750000.0 0.119756656 -0.4944530645
1661700000.0 -0.2103780343 -0.4734944504
1671650000.0 -0.451203175 -0.2379773057
1681600000.0 -0.4823794287 0.1029715241
1691550000.0 -0.2847359945 0.3950505129
1701500000.0 0.0680023827 0.4907476231
1711450000.0 0.3999546504 0.331463707
1721400000.0 0.5508297862 -0.014577197
1731350000.0 0.4368905175 -0.3716897707
1741300000.0 0.1248320441 -0.5705903158
1751250000.0 -0.238948253 -0.5332121008
1761200000.0 -0.5036894768 -0.2848443622
1771150000.0 -0.5678685168 0.0716215375
1781100000.0 -0.4037891661 0.3980428876
1791050000.0 -0.0707436333 0.5583184421
1801000000.0 0.2925404149 0.4758676247
1810950000.0 0.5180118225 0.1847332946
1820900000.0 0.5143456532 -0.1753049614
1830850000.0 0.2959731425 -0.451574413
1840800000.0 -0.0360710613 -0.5397843502
1850750000.0 -0.3477889555 -0.4171919103
1860700000.0 -0.524589056 -0.143194954
1870650000.0 -0.5102467465 0.1759751155
1880600000.0 -0.3111586481 0.4202217668
1890550000.0 -0.0110522072 0.4953051023
1900500000.0 0.2671886928 0.3717374612
1910450000.0 0.4046695317 0.1131739439
1920400000.0 0.3579362329 -0.1615050748
1930350000.0 0.1694507728 -0.3427036761
1940300000.0 -0.0706557688 -0.3771843392
1950250000.0 -0.268970814 -0.2783196539
1960200000.0 -0.3641789126 -0.0978324282
1970150000.0 -0.3414674883 0.083445664
1980100000.0 -0.2279634036 0.1995292517
1990050000.0 -0.0946133101 0.2171396761
2000000000.0 -0.0032066121 0.1641798238
