!Created with skrf (http://scikit-rf.org).
# GHz S RI R 50.0 
!freq ReS11 ImS11
10000000.0 -0.7585644819 0.6781470056
19950000.0 -0.1210882807 0.9861529393
29900000.0 0.5596482412 0.800169849
39850000.0 0.9527297517 0.203081879
49800000.0 0.8421603692 -0.516605269
59750000.0 0.2558292709 -0.9762677471
69700000.0 -0.5012528062 -0.8905954044
79650000.0 -0.9767954282 -0.274361671
89600000.0 -0.8474900967 0.510928657
99550000.0 -0.1564635283 0.9507220072
109500000.0 0.6559785328 0.6943391027
119450000.0 0.9622170652 -0.1429083757
129400000.0 0.4312830331 -0.8997411211
139350000.0 -0.5029968936 -0.8650385057
149300000.0 -0.9711881597 -0.0753524285
159250000.0 -0.5986617104 0.728677751
169200000.0 0.2371669254 0.902342419
179150000.0 0.8724705165 0.3724657979
189100000.0 0.8723805856 -0.4311900531
199050000.0 0.2859588855 -0.9409153864
209000000.0 -0.4572460131 -0.8569128439
218950000.0 -0.8991964008 -0.2925441861
228900000.0 -0.8316771703 0.3982976839
238850000.0 -0.3252360928 0.8541127777
248800000.0 0.3366384743 0.8465727628
258750000.0 0.8523816372 0.4007502484
268700000.0 0.914112495 -0.2754800565
278650000.0 0.4984129805 -0.806990491
288600000.0 -0.1596433907 -0.907803013
298550000.0 -0.7000400711 -0.5400916528
308500000.0 -0.8413572116 0.0880004949
318450000.0 -0.5136313322 0.6332555857
328400000.0 0.0972995388 0.7826609613
338350000.0 0.6075746829 0.4447445278
348300000.0 0.6760805894 -0.1313660551
358250000.0 0.3100036503 -0.5077088409
368200000.0 -0.1437316292 -0.4555282351
378150000.0 -0.3392732902 -0.1280115223
388100000.0 -0.2191989188 0.154728336
398050000.0 0.0182607765 0.1953438998
408000000.0 0.1437571809 0.0577603432
417950000.0 0.0870803592 -0.0869656404
427900000.0 -0.0452270353 -0.1074195081
437850000.0 -0.1288525839 -0.0065932587
447800000.0 -0.0983772666 0.1152966275
457750000.0 0.0161188481 0.1640344109
467700000.0 0.1252547405 0.1113704067
477650000.0 0.1577787702 0.0011456689
487600000.0 0.1027517615 -0.0973189249
497550000.0 0.0103578378 -0.123624246
507500000.0 -0.0734060379 -0.0833977571
517450000.0 -0.0903621638 -0.0148620672
527400000.0 -0.0649606311 0.0333585866
537350000.0 -0.0292851979 0.0353683783
547300000.0 -0.0181817819 0.0170340767
557250000.0 -0.0361616907 0.0080459271
567200000.0 -0.0509824703 0.0324801942
577150000.0 -0.0384709195 0.0722975472
587100000.0 0.0194481048 0.0912841179
597050000.0 0.0869286498 0.0541650293
607000000.0 0.1181147703 -0.0313150073
616950000.0 0.0747061346 -0.1310764506
626900000.0 -0.0302120548 -0.1779829099
636850000.0 -0.1488412186 -0.1405158106
646800000.0 -0.215357416 -0.0276584856
656750000.0 -0.1827704642 0.1027591816
666700000.0 -0.066840626 0.181550605
676650000.0 0.0731516604 0.1568908621
686600000.0 0.1615134541 0.0414358899
696550000.0 0.1473442108 -0.0988272771
706500000.0 0.0408874372 -0.189530923
716450000.0 -0.0902236945 -0.176689774
726400000.0 -0.1675818416 -0.0756234626
736350000.0 -0.1409207289 0.0418489955
746300000.0 -0.0306180052 0.0984043323
756250000.0 0.0767573653 0.0485843357
766200000.0 0.1076165976 -0.0761207679
776150000.0 0.0257174779 -0.1785570174
786100000.0 -0.1143527784 -0.1763378161
796050000.0 -0.2141874317 -0.0547417689
806000000.0 -0.1785748569 0.1182997531
815950000.0 -0.011763835 0.2201907287
825900000.0 0.1978831832 0.1641042783
835850000.0 0.3147650332 -0.0432214469
845800000.0 0.2420071142 -0.2830602709
855750000.0 0.0094040198 -0.4113778607
865700000.0 -0.2584216209 -0.3295870569
875650000.0 -0.3997243986 -0.0739122673
885600000.0 -0.3176192315 0.2167820719
895550000.0 -0.0490508589 0.3750667251
905500000.0 0.2639521621 0.300927911
915450000.0 0.4394466148 0.0215649109
925400000.0 0.3611050179 -0.304658962
935350000.0 0.0586692781 -0.4784273709
945300000.0 -0.2836097122 -0.3720696102
955250000.0 -0.4360111628 -0.0285581619
965200000.0 -0.2597879476 0.3283627014
975150000.0 0.1642855545 0.4138858176
985100000.0 0.4984708967 0.0914290399
995050000.0 0.4018242076 -0.4087984107
1005000000.0 -0.1125348266 -0.6122189812
1014950000.0 -0.6038216737 -0.2581293593
1024900000.0 -0.5764431825 0.4016284022
1034850000.0 0.0382562787 0.7676442472
1044800000.0 0.7105795485 0.4358118615
1054750000.0 0.8098123054 -0.3127574622
1064700000.0 0.2763287734 -0.8179991148
1074650000.0 -0.4200521376 -0.7119676612
1084600000.0 -0.7672923436 -0.1823338308
1094550000.0 -0.6321758805 0.468475791
1104500000.0 -0.0380258707 0.7712216585
1114450000.0 0.5545449814 0.5057248426
1124400000.0 0.7131889096 -0.091704768
1134350000.0 0.3776257546 -0.562700331
1144300000.0 -0.1582188618 -0.6211129619
1154250000.0 -0.5371944842 -0.2850924305
1164200000.0 -0.5480495394 0.2047342544
1174150000.0 -0.200194626 0.5283529128
1184100000.0 0.2611330539 0.4760126163
1194050000.0 0.5181747901 0.1080814282
1204000000.0 0.4193732263 -0.3138206894
1213950000.0 0.0650463115 -0.5292250678
1223900000.0 -0.3311720403 -0.4379517577
1233850000.0 -0.5533842955 -0.1089514236
1243800000.0 -0.4939275252 0.2877682666
1253750000.0 -0.1786975257 0.5392330374
1263700000.0 0.227467102 0.5088382651
1273650000.0 0.5088266802 0.213571577
1283600000.0 0.5248332146 -0.188090915
1293550000.0 0.2846874749 -0.5047879268
1303500000.0 -0.0970406528 -0.5971728946
1313450000.0 -0.4513929761 -0.4363293233
1323400000.0 -0.6301030516 -0.0853158415
1333350000.0 -0.5460281908 0.3059736716
1343300000.0 -0.2280062139 0.5586110464
1353250000.0 0.1833158017 0.5448649461
1363200000.0 0.4911681708 0.2748862031
1373150000.0 0.5586603939 -0.1243758821
1383100000.0 0.3691518145 -0.4686504255
1393050000.0 0.0148090872 -0.6249009761
1403000000.0 -0.3540708009 -0.5327161103
1412950000.0 -0.5907099395 -0.2358661882
1422900000.0 -0.5883319581 0.1453776085
1432850000.0 -0.3472166236 0.4434475983
1442800000.0 0.0327702086 0.5208495888
1452750000.0 0.368668474 0.3395250715
1462700000.0 0.5130745108 -0.0083436181
1472650000.0 0.4052816779 -0.3577271423
1482600000.0 0.1102446001 -0.5557906479
1492550000.0 -0.2364282361 -0.5208896113
1502500000.0 -0.4769010335 -0.2760851374
1512450000.0 -0.500266549 0.0647464616
1522400000.0 -0.295698366 0.3388251982
1532350000.0 0.0390716436 0.4049400879
1542300000.0 0.3295234526 0.2337303419
1552250000.0 0.4256675786 -0.0791390813
1562200000.0 0.2885465452 -0.3678381831
1572150000.0 -0.0005742237 -0.4837675005
1582100000.0 -0.288175302 -0.3801411153
1592050000.0 -0.4308977587 -0.1050093552
1602000000.0 -0.3505195079 0.1961641901
1611950000.0 -0.0798235158 0.3674656566
1621900000.0 0.2376572643 0.3042563494
1631850000.0 0.4251333217 0.0355326802
1641800000.0 0.3781932039 -0.2884101211
1651750000.0 0.11916185 -0.4913164526
1661700000.0 -0.2090898589 -0.472312585
1671650000.0 -0.4496590479 -0.2377421747
1681600000.0 -0.4823633368 0.1009895251
1691550000.0 -0.2859953522 0.3936244076
1701500000.0 0.0652904313 0.4902081218
1711450000.0 0.3967986993 0.3325635913
1721400000.0 0.549275055 -0.0115388185
1731350000.0 0.4383590768 -0.3684338755
1741300000.0 0.128402373 -0.5701733046
1751250000.0 -0.2360241474 -0.5361778952
1761200000.0 -0.503227611 -0.2905502607
1771150000.0 -0.5718760598 0.0658540622
1781100000.0 -0.4117823011 0.3952618769
1791050000.0 -0.079116299 0.5630779858
1801000000.0 0.2907849668 0.4851906706
1810950000.0 0.5284317452 0.1916193361
1820900000.0 0.5257467044 -0.1821017854
1830850000.0 0.2968519595 -0.4643779308
1840800000.0 -0.0438508017 -0.5487843397
1850750000.0 -0.3568936888 -0.4189771926
1860700000.0 -0.5312383508 -0.1403816905
1870650000.0 -0.5129791576 0.1814526989
1880600000.0 -0.3099503263 0.4257070915
1890550000.0 -0.0066320415 0.4975685739
1900500000.0 0.2723334971 0.3708074933
1910450000.0 0.408720627 0.1089912957
1920400000.0 0.3592772747 -0.1671562271
1930350000.0 0.1674509915 -0.3476137413
1940300000.0 -0.0745579452 -0.3799736974
1950250000.0 -0.2732584039 -0.2771415694
1960200000.0 -0.3662166438 -0.0939368356
1970150000.0 -0.3386146067 0.0884394118
1980100000.0 -0.2202668071 0.2018734808
1990050000.0 -0.0865542633 0.2110997984
2000000000.0 -0.0042227163 0.1540176683
