!Created with skrf (http://scikit-rf.org).
# GHz S RI R 50.0 
!freq ReS11 ImS11
10000000.0 1.008702932 0.0669509757
14975000.0 1.005858166 0.1035349079
19950000.0 1.00175072 0.1400711496
24925000.0 0.9969959306 0.1639895543
29900000.0 0.9889800574 0.2130818853
34875000.0 0.9806077053 0.2492199343
39850000.0 0.9711106666 0.2847214538
44825000.0 0.9602895325 0.3201253638
49800000.0 0.9480988377 0.3545776292
54775000.0 0.9348283138 0.3888024854
59750000.0 0.9203054123 0.422392033
64725000.0 0.9045891903 0.4555419962
69700000.0 0.8875602675 0.4880397348
74675000.0 0.8693125616 0.5200849788
79650000.0 0.8499731608 0.5512903894
84625000.0 0.8295157019 0.5817503728
89600000.0 0.8079689004 0.61151388
94575000.0 0.785416382 0.640401845
99550000.0 0.7617705243 0.6685027283
104525000.0 0.7369830324 0.6956800748
109500000.0 0.7114831668 0.7218851655
114475000.0 0.6848990741 0.7472552156
119450000.0 0.6577385211 0.7716030164
124425000.0 0.6294051789 0.7949235683
129400000.0 0.6001426973 0.8174489225
134375000.0 0.5701929676 0.8388030767
139350000.0 0.5394125755 0.8592171086
144325000.0 0.5077573788 0.8780253318
149300000.0 0.4758237409 0.8957800513
154275000.0 0.4429319444 0.9126234393
159250000.0 0.4098785823 0.9279889961
164225000.0 0.3760424869 0.9422722106
169200000.0 0.3416885036 0.9552862527
174175000.0 0.3068720824 0.9671429274
179150000.0 0.2716368708 0.9776441103
184125000.0 0.2362003057 0.9869679903
189100000.0 0.2003652621 0.9948689234
194075000.0 0.1641461684 1.001422707
199050000.0 0.1279887239 1.006966109
204025000.0 0.0958166083 1.012050311
209000000.0 0.0579257178 1.014352203
213975000.0 0.0191988115 1.015394568
218950000.0 -0.0182605563 1.014880664
223925000.0 -0.055186809 1.013448162
228900000.0 -0.09180678 1.010872767
233875000.0 -0.1282339289 1.006880848
238850000.0 -0.164641187 1.00149861
243825000.0 -0.2009419597 0.9949393724
248800000.0 -0.2369523013 0.9869292288
253775000.0 -0.2726035162 0.9776197322
258750000.0 -0.3076988149 0.9669872244
263725000.0 -0.3423752967 0.9551565039
268700000.0 -0.37678775 0.9422303618
273675000.0 -0.4105911577 0.9278882624
278650000.0 -0.4439834463 0.9123114809
283625000.0 -0.4768180085 0.895622736
288600000.0 -0.508864545 0.877766926
293575000.0 -0.5403095163 0.8584864076
298550000.0 -0.5712604886 0.8384558566
303525000.0 -0.6011891811 0.8172747938
308500000.0 -0.630391061 0.7949081332
313475000.0 -0.6588673253 0.7714060026
318450000.0 -0.6863552412 0.7470692535
323425000.0 -0.7128528087 0.7217972992
328400000.0 -0.7384556205 0.6954126596
333375000.0 -0.7631948183 0.6682228035
338350000.0 -0.7867605745 0.6400815564
343325000.0 -0.8095645078 0.6110939033
348300000.0 -0.8311295232 0.5813706675
353275000.0 -0.851625003 0.5508248025
358250000.0 -0.8710793917 0.5194771571
363225000.0 -0.889270177 0.4873481716
368200000.0 -0.9064544802 0.4547255203
373175000.0 -0.9222209741 0.4215590396
378150000.0 -0.9371357078 0.3875805129
383125000.0 -0.9504930376 0.3534229906
388100000.0 -0.9625058969 0.318604411
393075000.0 -0.973238986 0.2835074867
398050000.0 -0.9829149104 0.2481464524
403025000.0 -0.9912279218 0.2124334352
408000000.0 -0.9982506236 0.1763463649
412975000.0 -1.004059995 0.1397817747
417950000.0 -1.0084842 0.1031129855
422925000.0 -1.011536644 0.066342107
427900000.0 -1.013103553 0.0293182143
432875000.0 -1.013372178 -0.0074818674
437850000.0 -1.01260515 -0.0444112619
442825000.0 -1.01023845 -0.0813078678
447800000.0 -1.006496592 -0.1180376038
452775000.0 -1.001508308 -0.1545960549
457750000.0 -0.9953331392 -0.191049754
462725000.0 -0.9877048994 -0.2271973107
467700000.0 -0.9785527954 -0.2632211287
472675000.0 -0.9681571156 -0.2985924075
477650000.0 -0.9568524758 -0.3338011148
482625000.0 -0.9439623489 -0.3686498325
487600000.0 -0.9297890337 -0.4029393034
492575000.0 -0.9144041596 -0.4366409317
497550000.0 -0.8977833872 -0.4698266829
502525000.0 -0.8799802536 -0.5026188035
507500000.0 -0.8609601435 -0.5345681945
512475000.0 -0.8405985375 -0.5657941621
517450000.0 -0.8192872036 -0.5962435541
522425000.0 -0.7968762626 -0.6259688537
527400000.0 -0.7734597711 -0.6548706971
532375000.0 -0.7489232089 -0.6829605305
537350000.0 -0.7232145266 -0.7098953273
542325000.0 -0.6966148784 -0.7360873412
547300000.0 -0.6691375331 -0.7611479181
552275000.0 -0.6406263139 -0.7852662237
557250000.0 -0.6116054148 -0.8085290579
562225000.0 -0.5813032985 -0.8306341431
567200000.0 -0.5503323803 -0.8512807566
572175000.0 -0.5188176314 -0.8708388897
577150000.0 -0.4866968233 -0.8893652231
582125000.0 -0.4536901004 -0.9066290156
587100000.0 -0.4200050032 -0.9228156449
592075000.0 -0.386028032 -0.9378200643
597050000.0 -0.3513910125 -0.9512382962
602025000.0 -0.3163364203 -0.9633656757
607000000.0 -0.2807765269 -0.9748520319
611975000.0 -0.2447543411 -0.9845651802
616950000.0 -0.2087821426 -0.9929433128
621925000.0 -0.1725577072 -1.000078429
626900000.0 -0.1358001828 -1.00543734
631875000.0 -0.0988560362 -1.009761746
636850000.0 -0.0621221999 -1.012947144
641825000.0 -0.0251105658 -1.014344378
646800000.0 0.0116977604 -1.014694202
651775000.0 0.0488495795 -1.013590943
656750000.0 0.0858414156 -1.011179001
661725000.0 0.1223378432 -1.007368183
666700000.0 0.159272822 -1.00206393
671675000.0 0.1962364037 -0.995558894
676650000.0 0.2319766955 -0.9879851453
681625000.0 0.2678226707 -0.978774188
686600000.0 0.3038362543 -0.9682789573
691575000.0 0.3390640289 -0.9566360162
696550000.0 0.3741818887 -0.9435421892
701525000.0 0.408539233 -0.9293843564
706500000.0 0.4423597994 -0.9137731553
711475000.0 0.4752458446 -0.8969438741
716450000.0 0.5080660497 -0.878596518
721425000.0 0.5397565304 -0.8596104879
726400000.0 0.570863795 -0.8391142003
731375000.0 0.6011871316 -0.817424872
736350000.0 0.6309429611 -0.7950570858
741325000.0 0.659565443 -0.7715191016
746300000.0 0.6871472806 -0.7467279394
751275000.0 0.7137950599 -0.7209400987
756250000.0 0.7395632503 -0.694232748
761225000.0 0.764640938 -0.6668634125
766200000.0 0.7883916487 -0.6381636407
771175000.0 0.8109033355 -0.6090398252
776150000.0 0.8326803648 -0.5792840406
781125000.0 0.853341837 -0.5485530248
786100000.0 0.8723311537 -0.5171471322
791075000.0 0.8902637982 -0.4851393662
796050000.0 0.9077139951 -0.4526344223
801025000.0 0.9260439847 -0.4162491434
806000000.0 0.939806633 -0.3845642299
810975000.0 0.9530690179 -0.3502581333
815950000.0 0.9651057843 -0.315363
820925000.0 0.9760050477 -0.2797750394
825900000.0 0.9855603054 -0.2444735884
830875000.0 0.993822561 -0.208461888
835850000.0 1.000833513 -0.1723026646
840825000.0 1.006491684 -0.1355007528
845800000.0 1.010651744 -0.0987990183
850775000.0 1.013474408 -0.0622427448
855750000.0 1.015018329 -0.0255948822
860725000.0 1.015550962 0.0112424691
865700000.0 1.014248298 0.0482089264
870675000.0 1.01185376 0.0850199655
875650000.0 1.008169232 0.1216563331
880625000.0 1.003127102 0.1579637481
885600000.0 0.9964245972 0.1941888666
890575000.0 0.9889474533 0.2304277363
895550000.0 0.9797297265 0.2663169914
900525000.0 0.9694876676 0.3015845338
905500000.0 0.9577555758 0.3365329066
910475000.0 0.9448267381 0.3708645238
915450000.0 0.9308667192 0.4052237749
920425000.0 0.9153843885 0.4389027599
925400000.0 0.8988132407 0.4717756917
930375000.0 0.881078677 0.504117327
935350000.0 0.8621277841 0.5355306784
940325000.0 0.8420718463 0.5664608751
945300000.0 0.8206286706 0.5967188375
950275000.0 0.7984883514 0.6261783882
955250000.0 0.7752625156 0.6547217095
960225000.0 0.7507853703 0.6823593854
965200000.0 0.7253719035 0.7091850196
970175000.0 0.6991138021 0.7351682903
975150000.0 0.6720656984 0.7598164838
980125000.0 0.643758698 0.7839112146
985100000.0 0.6148088775 0.8068745319
990075000.0 0.5849040266 0.8285091807
995050000.0 0.5539087353 0.8490058261
1000025000.0 0.522503466 0.8687522132
1005000000.0 0.4902712067 0.8870488608
1009975000.0 0.4575423343 0.9041818978
1014950000.0 0.4242224377 0.9203327698
1019925000.0 0.3903301994 0.9352679579
1024900000.0 0.3559832488 0.9489727472
1029875000.0 0.3209380763 0.9611770283
1034850000.0 0.285620117 0.9726356236
1039825000.0 0.24985087 0.982502498
1044800000.0 0.2137999087 0.991016704
1049775000.0 0.1771369247 0.9979827119
1054750000.0 0.1402476772 1.003714469
1059725000.0 0.1034082737 1.008190668
1064700000.0 0.0663666468 1.01145291
1069675000.0 0.029124926 1.012882552
1074650000.0 -0.0078691254 1.013519207
1079625000.0 -0.0452792164 1.012586137
1084600000.0 -0.0826176747 1.010214895
1089575000.0 -0.1196874293 1.006375921
1094550000.0 -0.156843524 1.00128
1099525000.0 -0.1936493429 0.994926551
1104500000.0 -0.2304027136 0.9870356805
1109475000.0 -0.2667450066 0.9780980069
1114450000.0 -0.3027896961 0.967584779
1119425000.0 -0.3383309689 0.9554903509
1124400000.0 -0.3734954158 0.9421422554
1129375000.0 -0.4082573875 0.9279646953
1134350000.0 -0.442652314 0.912249851
1139325000.0 -0.4760795889 0.89536094
1144300000.0 -0.5091285362 0.877425689
1149275000.0 -0.5412390696 0.8579634672
1154250000.0 -0.5723066793 0.837255476
1159225000.0 -0.6032947003 0.8153698065
1164200000.0 -0.63345635 0.7922869501
1169175000.0 -0.6621220796 0.7685036685
1174150000.0 -0.6903275355 0.7437871703
1179125000.0 -0.7179708564 0.7175037821
1184100000.0 -0.7444944071 0.6903159529
1189075000.0 -0.7693016721 0.6618629384
1194050000.0 -0.7937435614 0.6328369114
1199025000.0 -0.8166055877 0.6030119618
1204000000.0 -0.8387139313 0.5721495598
1208975000.0 -0.8595683194 0.5406135991
1213950000.0 -0.8792543509 0.5080102696
1218925000.0 -0.8975664679 0.4748917099
1223900000.0 -0.91483072 0.4411784354
1228875000.0 -0.9305995192 0.4068048551
1233850000.0 -0.9452039059 0.3715677223
1238825000.0 -0.9587780613 0.3361747256
1243800000.0 -0.9704192305 0.3003264851
1248775000.0 -0.9809793743 0.2638887561
1253750000.0 -0.9900211058 0.2271673884
1258725000.0 -0.998141751 0.1901018093
1263700000.0 -1.004809771 0.1527756477
1268675000.0 -1.010230414 0.1152339938
1273650000.0 -1.013691779 0.0776653581
1278625000.0 -1.015665453 0.0395565619
1283600000.0 -1.016511914 0.001569714
1288575000.0 -1.015961539 -0.0359308547
1293550000.0 -1.013873311 -0.0737467583
1298525000.0 -1.010526535 -0.1115911978
1303500000.0 -1.00573242 -0.1489969448
1308475000.0 -0.9995523049 -0.1861080614
1313450000.0 -0.9920291672 -0.2233266588
1318425000.0 -0.9835322856 -0.2600784336
1323400000.0 -0.9731858947 -0.2961935351
1328375000.0 -0.9613794007 -0.3325675522
1333350000.0 -0.948031811 -0.3680348043
1338325000.0 -0.9337582519 -0.4030516287
1343300000.0 -0.9185183802 -0.4374514511
1348275000.0 -0.901779145 -0.4713618957
1353250000.0 -0.8834322436 -0.5045617695
1358225000.0 -0.8643878004 -0.5365012051
1363200000.0 -0.8441215251 -0.5684352468
1368175000.0 -0.8223128701 -0.59895245
1373150000.0 -0.7998244516 -0.6288848182
1378125000.0 -0.7760160918 -0.6580601309
1383100000.0 -0.7514291173 -0.6865321371
1388075000.0 -0.7253614219 -0.7137772796
1393050000.0 -0.698621195 -0.7403760251
1398025000.0 -0.6709045028 -0.7655716563
1403000000.0 -0.6419773362 -0.789496957
1407975000.0 -0.6123557795 -0.8124174883
1412950000.0 -0.5825035503 -0.8342571952
1417925000.0 -0.5515944848 -0.8557647861
1422900000.0 -0.5198206463 -0.8752403878
1427875000.0 -0.4873139293 -0.8936040093
1432850000.0 -0.4543136526 -0.910807951
1437825000.0 -0.4204935028 -0.9270362878
1442800000.0 -0.3868450911 -0.9416257729
1447775000.0 -0.3519929482 -0.9554314633
1452750000.0 -0.3162960665 -0.9675312615
1457725000.0 -0.2807950951 -0.9782503843
1462700000.0 -0.2446142486 -0.9879858532
1467675000.0 -0.2081208649 -0.9960698023
1472650000.0 -0.1718307395 -1.002615085
1477625000.0 -0.1349352988 -1.008384485
1482600000.0 -0.0981535039 -1.012934887
1487575000.0 -0.0612837631 -1.015559187
1492550000.0 -0.0238244889 -1.016890826
1497525000.0 0.0130459474 -1.017377048
1502500000.0 0.0502310927 -1.016141729
1507475000.0 0.0868964804 -1.013717211
1512450000.0 0.1241764618 -1.009594451
1517425000.0 0.160617587 -1.00417266
1522400000.0 0.1966554726 -0.9976119751
1527375000.0 0.2331063574 -0.9895727578
1532350000.0 0.2687693057 -0.9802862548
1537325000.0 0.3044966589 -0.9701718905
1542300000.0 0.3395247809 -0.9582689572
1547275000.0 0.3736168034 -0.9451649902
1552250000.0 0.407527941 -0.930987005
1557225000.0 0.4414291873 -0.9155651126
1562200000.0 0.4741151107 -0.8987866229
1567175000.0 0.5065973475 -0.8812753659
1572150000.0 0.5380775994 -0.8620192919
1577125000.0 0.5687153769 -0.8416903366
1582100000.0 0.5988187429 -0.8204880238
1587075000.0 0.6281766776 -0.7981418919
1592050000.0 0.6566161636 -0.7747152359
1597025000.0 0.6841078663 -0.7503919823
1602000000.0 0.7119681454 -0.7251968569
1606975000.0 0.7371060477 -0.6990552824
1611950000.0 0.761977851 -0.6719034974
1616925000.0 0.7859096011 -0.6438966963
1621900000.0 0.8085016961 -0.6149369386
1626875000.0 0.8303611795 -0.5852357024
1631850000.0 0.8507275452 -0.5545536841
1636825000.0 0.8702955208 -0.5234427961
1641800000.0 0.8887759283 -0.4916156652
1646775000.0 0.9064399101 -0.4587190481
1651750000.0 0.9220500204 -0.4255819458
1656725000.0 0.9370871853 -0.3915900595
1661700000.0 0.9505251619 -0.3573696642
1666675000.0 0.9632424868 -0.3225592052
1671650000.0 0.974419863 -0.2871447263
1676625000.0 0.9840114989 -0.2511212915
1681600000.0 0.9921887682 -0.2150222791
1686575000.0 1.000015507 -0.1784567476
1691550000.0 1.00604727 -0.1422361168
1696525000.0 1.009801695 -0.1052542798
1701500000.0 1.013133805 -0.0677710701
1706475000.0 1.015148169 -0.0305339867
1711450000.0 1.015705117 0.0067585013
1716425000.0 1.014636684 0.0436066519
1721400000.0 1.012798999 0.0809937565
1726375000.0 1.008765076 0.118048039
1731350000.0 1.00417883 0.1548497963
1736325000.0 0.9976570938 0.1916633541
1741300000.0 0.9898362332 0.2278336685
1746275000.0 0.9811738339 0.264706404
1751250000.0 0.9707556007 0.3008721589
1756225000.0 0.9586471084 0.3364341633
1761200000.0 0.9456573956 0.3715926846
1766175000.0 0.9315763 0.4063974138
1771150000.0 0.9158379778 0.4403956666
1776125000.0 0.8990100547 0.4735525457
1781100000.0 0.8807477485 0.5064465454
1786075000.0 0.8610746018 0.5388359893
1791050000.0 0.8406021267 0.5705157758
1796025000.0 0.8187737341 0.6010245826
1801000000.0 0.7956695273 0.631044533
1805975000.0 0.7718672514 0.6601322045
1810950000.0 0.7468481846 0.6884033263
1815925000.0 0.7206273083 0.7155143
1820900000.0 0.6935489033 0.7415942366
1825875000.0 0.6656408653 0.7668387255
1830850000.0 0.6363433059 0.7907909959
1835825000.0 0.6062202408 0.8139262644
1840800000.0 0.5754068417 0.8359636284
1845775000.0 0.5437118257 0.8568182013
1850750000.0 0.5113218519 0.8765948028
1855725000.0 0.4782262241 0.895099535
1860700000.0 0.4443546113 0.9119168947
1865675000.0 0.410226956 0.9282612121
1870650000.0 0.3751439381 0.9427819299
1875625000.0 0.3396391523 0.9556673422
1880600000.0 0.3035784842 0.9678735502
1885575000.0 0.266749137 0.9789335247
1890550000.0 0.2290817971 0.9879547784
1895525000.0 0.192132495 0.9957883758
1900500000.0 0.1542260273 1.002518864
1905475000.0 0.1166531728 1.007524481
1910450000.0 0.0788557386 1.011317037
1915425000.0 0.0419521312 1.01363756
1920400000.0 0.0033545628 1.014629077
1925375000.0 -0.0353376668 1.014101186
1930350000.0 -0.073348035 1.012206994
1935325000.0 -0.1111951084 1.008230362
1940300000.0 -0.1490913825 1.002932901
1945275000.0 -0.1868800842 0.9964753041
1950250000.0 -0.2247746922 0.9897776645
1955225000.0 -0.2609876442 0.9803122713
1960200000.0 -0.2984228458 0.9700085939
1965175000.0 -0.3337139606 0.9582268697
1970150000.0 -0.3697611152 0.945269467
1975125000.0 -0.4046411806 0.9311734791
1980100000.0 -0.4392566331 0.9151437642
1985075000.0 -0.472888376 0.898373356
1990050000.0 -0.506667871 0.8802287331
1995025000.0 -0.538666549 0.8604312539
2000000000.0 -0.5704374982 0.8401854534
