!Created with skrf (http://scikit-rf.org).
# GHz S RI R 50.0 
!freq ReS11 ImS11
10000000.0 1.008711659 0.0669106647
14975000.0 1.005880197 0.1035258245
19950000.0 1.001804164 0.1400780762
24925000.0 0.9971361095 0.1639597401
29900000.0 0.9890346152 0.2131579371
34875000.0 0.9806268649 0.2492719535
39850000.0 0.9711841875 0.284767636
44825000.0 0.9603190378 0.3201396313
49800000.0 0.9482109866 0.3546343711
54775000.0 0.9348329295 0.3888460766
59750000.0 0.9202761984 0.4224921581
64725000.0 0.9045931404 0.4555067158
69700000.0 0.8876075276 0.488097635
74675000.0 0.8693461107 0.5200625638
79650000.0 0.8499693694 0.5512569406
84625000.0 0.8294908746 0.5817400834
89600000.0 0.8080013057 0.6115035155
94575000.0 0.7854737269 0.6404546881
99550000.0 0.7618632126 0.6684691426
104525000.0 0.7369174206 0.6956922914
109500000.0 0.711399046 0.7219805131
114475000.0 0.6848814756 0.7472809057
119450000.0 0.6575183913 0.7716053813
124425000.0 0.629303534 0.7949744849
129400000.0 0.6001873881 0.8173261765
134375000.0 0.5702479824 0.8386867189
139350000.0 0.5394589427 0.859149752
144325000.0 0.5078179636 0.8780529186
149300000.0 0.4757572002 0.8957282369
154275000.0 0.4428861124 0.9125066748
159250000.0 0.409673192 0.9280401556
164225000.0 0.3760834212 0.9421818552
169200000.0 0.341511727 0.9552996623
174175000.0 0.3067271456 0.9670147283
179150000.0 0.271754541 0.977590666
184125000.0 0.2361888697 0.9867838948
189100000.0 0.2003311522 0.9947296309
194075000.0 0.164109122 1.001463058
199050000.0 0.1281762475 1.006890251
204025000.0 0.0958040508 1.011975715
209000000.0 0.0578946907 1.014361667
213975000.0 0.0192078816 1.015201892
218950000.0 -0.01826182 1.014859693
223925000.0 -0.055218849 1.013370184
228900000.0 -0.0918628166 1.010855421
233875000.0 -0.1282368474 1.00685609
238850000.0 -0.1646525905 1.001390592
243825000.0 -0.2010332113 0.9948699884
248800000.0 -0.2369368989 0.9868740543
253775000.0 -0.2725291252 0.9774381694
258750000.0 -0.3076444366 0.9669579513
263725000.0 -0.3423786916 0.9551487452
268700000.0 -0.3768149095 0.9421945288
273675000.0 -0.4105350307 0.9278288897
278650000.0 -0.4439505587 0.9122132719
283625000.0 -0.4768406607 0.8955063264
288600000.0 -0.5087542601 0.8777121152
293575000.0 -0.540316623 0.8584754746
298550000.0 -0.5711779571 0.8383855447
303525000.0 -0.6011871598 0.8170854449
308500000.0 -0.630377767 0.7948380973
313475000.0 -0.6588308351 0.7714212557
318450000.0 -0.6862473393 0.7469831573
323425000.0 -0.7127223995 0.7217152394
328400000.0 -0.7383629298 0.6954569211
333375000.0 -0.7630409859 0.6681833604
338350000.0 -0.7867036095 0.6400144403
343325000.0 -0.8095596385 0.611022786
348300000.0 -0.8311764523 0.581220676
353275000.0 -0.851713508 0.5508292643
358250000.0 -0.8711881986 0.5195322785
363225000.0 -0.8892500018 0.4873968406
368200000.0 -0.9063642649 0.4546748508
373175000.0 -0.9221753029 0.4214549676
378150000.0 -0.9370102323 0.3876479906
383125000.0 -0.9503941309 0.3533636066
388100000.0 -0.9625298503 0.318584768
393075000.0 -0.9733104583 0.2834510801
398050000.0 -0.9827913605 0.2482925623
403025000.0 -0.991203741 0.2123679095
408000000.0 -0.998163496 0.1762980039
412975000.0 -1.00403965 0.1399373398
417950000.0 -1.00834866 0.1030810249
422925000.0 -1.011405706 0.0663149875
427900000.0 -1.013138543 0.0294516137
432875000.0 -1.013383619 -0.0074801859
437850000.0 -1.01253189 -0.0444478452
442825000.0 -1.010420889 -0.0812270771
447800000.0 -1.006536603 -0.1179818786
452775000.0 -1.001583382 -0.154538085
457750000.0 -0.9953742086 -0.1910030017
462725000.0 -0.9878010213 -0.2271979063
467700000.0 -0.9786637858 -0.263116718
472675000.0 -0.9680927778 -0.298598368
477650000.0 -0.9568730062 -0.3337913798
482625000.0 -0.9439353069 -0.368584332
487600000.0 -0.929774249 -0.4029340741
492575000.0 -0.9143843116 -0.4366611528
497550000.0 -0.8978357895 -0.4698921987
502525000.0 -0.8800426962 -0.5025986341
507500000.0 -0.8610008932 -0.5345317575
512475000.0 -0.8406179912 -0.5658522738
517450000.0 -0.8193870348 -0.5962624099
522425000.0 -0.7968630645 -0.6259818729
527400000.0 -0.7735061438 -0.6547994925
532375000.0 -0.7489830448 -0.6829608302
537350000.0 -0.7231070199 -0.7100278066
542325000.0 -0.6967162824 -0.7361843442
547300000.0 -0.6691821843 -0.7612220568
552275000.0 -0.6407195054 -0.7853797699
557250000.0 -0.6116298929 -0.8085649855
562225000.0 -0.581426008 -0.8306717629
567200000.0 -0.5503911033 -0.851342719
572175000.0 -0.5188581268 -0.8708848822
577150000.0 -0.4867207294 -0.8892493794
582125000.0 -0.4536684476 -0.9067420547
587100000.0 -0.4201480353 -0.922817666
592075000.0 -0.3859850109 -0.937803705
597050000.0 -0.3514939696 -0.9512030089
602025000.0 -0.3164335583 -0.9636277599
607000000.0 -0.2808626811 -0.9748267792
611975000.0 -0.244908187 -0.9845484168
616950000.0 -0.2088436793 -0.9930583871
621925000.0 -0.1726325455 -1.000168534
626900000.0 -0.135800859 -1.005493112
631875000.0 -0.0990793844 -1.009752437
636850000.0 -0.062332847 -1.01305823
641825000.0 -0.0250121488 -1.014148072
646800000.0 0.0117428334 -1.014592635
651775000.0 0.0491147318 -1.013700883
656750000.0 0.0857140534 -1.011037074
661725000.0 0.1225015776 -1.007312248
666700000.0 0.159423284 -1.002212959
671675000.0 0.1961206699 -0.9956382113
676650000.0 0.2318082227 -0.9878523116
681625000.0 0.26794603 -0.9786901052
686600000.0 0.3038466457 -0.9682050842
691575000.0 0.3392749559 -0.9565660643
696550000.0 0.3743138111 -0.943614408
701525000.0 0.4087396319 -0.9293702234
706500000.0 0.4424144247 -0.9135800238
711475000.0 0.4753064565 -0.8969159673
716450000.0 0.5079225733 -0.8788572543
721425000.0 0.5396703382 -0.8594697546
726400000.0 0.5709317835 -0.8393286553
731375000.0 0.6012746313 -0.8174330833
736350000.0 0.6311560677 -0.7950259623
741325000.0 0.6594839036 -0.7714035883
746300000.0 0.687075197 -0.7467135869
751275000.0 0.7139088659 -0.7209202184
756250000.0 0.7396552825 -0.6943231202
761225000.0 0.764642312 -0.666863104
766200000.0 0.7883667967 -0.6382434139
771175000.0 0.8110630137 -0.6089264862
776150000.0 0.8325733838 -0.5791722443
781125000.0 0.8530740503 -0.5485815239
786100000.0 0.872655149 -0.5171195217
791075000.0 0.8905257752 -0.4850739562
796050000.0 0.9075637154 -0.4527682141
801025000.0 0.9262397982 -0.416163848
806000000.0 0.9398067674 -0.3845088879
810975000.0 0.953002089 -0.3501781877
815950000.0 0.9650342722 -0.3153273968
820925000.0 0.9760627858 -0.2798414798
825900000.0 0.9855721288 -0.2443414767
830875000.0 0.9938849654 -0.2085814905
835850000.0 1.000884215 -0.1722106056
840825000.0 1.006432272 -0.1356210347
845800000.0 1.010579324 -0.098939118
850775000.0 1.013528338 -0.0622652512
855750000.0 1.015189365 -0.0255166388
860725000.0 1.015606366 0.0113011458
865700000.0 1.014426336 0.0482657089
870675000.0 1.011775426 0.0850513161
875650000.0 1.007907033 0.1217235592
880625000.0 1.002901965 0.1577367421
885600000.0 0.9964879614 0.1941394103
890575000.0 0.988938678 0.2303332263
895550000.0 0.9799563319 0.266359955
900525000.0 0.9695317203 0.3015894921
905500000.0 0.9577925404 0.3363954004
910475000.0 0.9448519118 0.3710308322
915450000.0 0.9307606878 0.4050340098
920425000.0 0.9155788235 0.4389297819
925400000.0 0.8985331913 0.4718485404
930375000.0 0.8809908426 0.5039636397
935350000.0 0.8619186089 0.5354805756
940325000.0 0.8420381685 0.566578899
945300000.0 0.8207433613 0.5966712798
950275000.0 0.7983558365 0.6262482407
955250000.0 0.7752465005 0.6546977037
960225000.0 0.750869958 0.6824079155
965200000.0 0.725285674 0.7092020728
970175000.0 0.6991289762 0.7351620363
975150000.0 0.6719836485 0.7598765119
980125000.0 0.6438529735 0.7839910268
985100000.0 0.6145419731 0.8067766851
990075000.0 0.5849301166 0.8284359589
995050000.0 0.5540095322 0.848982169
1000025000.0 0.522545097 0.8687762728
1005000000.0 0.4902871872 0.8871233629
1009975000.0 0.4575830445 0.9042439474
1014950000.0 0.4242599106 0.9204509368
1019925000.0 0.3902593766 0.9352103201
1024900000.0 0.3559312563 0.9489260553
1029875000.0 0.3209002511 0.9611128392
1034850000.0 0.2857160744 0.9725129588
1039825000.0 0.2499141146 0.9825464618
1044800000.0 0.213714398 0.9908958866
1049775000.0 0.1770980619 0.9979086771
1054750000.0 0.1403608156 1.003591878
1059725000.0 0.1034461274 1.00817979
1064700000.0 0.0662510388 1.011419659
1069675000.0 0.0294070889 1.012884786
1074650000.0 -0.0080613734 1.013426679
1079625000.0 -0.0454021518 1.012396573
1084600000.0 -0.0826458418 1.00997727
1089575000.0 -0.1197059393 1.006362031
1094550000.0 -0.1568124353 1.001320022
1099525000.0 -0.1935967228 0.9948964094
1104500000.0 -0.2303562161 0.9869712061
1109475000.0 -0.2668842482 0.9780267647
1114450000.0 -0.3027619774 0.9676203393
1119425000.0 -0.3383135493 0.9555329533
1124400000.0 -0.3735383058 0.9424161733
1129375000.0 -0.408280663 0.9280013051
1134350000.0 -0.4426082427 0.9122551239
1139325000.0 -0.4757618721 0.8954279
1144300000.0 -0.5092576938 0.8774464221
1149275000.0 -0.5412319017 0.8580330274
1154250000.0 -0.5722811129 0.837412788
1159225000.0 -0.6032265201 0.8154053494
1164200000.0 -0.633098754 0.7924070654
1169175000.0 -0.6622544187 0.7685626021
1174150000.0 -0.6907062077 0.7437129839
1179125000.0 -0.7179652513 0.7174024991
1184100000.0 -0.7444099143 0.6901046399
1189075000.0 -0.7693878781 0.6618563349
1194050000.0 -0.7934894277 0.6330033181
1199025000.0 -0.8168930962 0.6030315113
1204000000.0 -0.8387388618 0.5720398247
1208975000.0 -0.8596905381 0.5406343075
1213950000.0 -0.8792579213 0.5079502215
1218925000.0 -0.897531687 0.4750221021
1223900000.0 -0.9148086364 0.4410711788
1228875000.0 -0.9308742961 0.4067895943
1233850000.0 -0.9452857117 0.371645702
1238825000.0 -0.958464124 0.3362441761
1243800000.0 -0.970705925 0.3003394878
1248775000.0 -0.9808731729 0.2639844029
1253750000.0 -0.9903007475 0.2271482121
1258725000.0 -0.9983709965 0.1899874669
1263700000.0 -1.00490091 0.1527534931
1268675000.0 -1.010291433 0.1151285763
1273650000.0 -1.01373141 0.0776591001
1278625000.0 -1.015665715 0.0395910381
1283600000.0 -1.016434016 0.001538701
1288575000.0 -1.016170217 -0.0359471607
1293550000.0 -1.014196902 -0.0736945398
1298525000.0 -1.010762641 -0.1116528757
1303500000.0 -1.005826324 -0.1489458343
1308475000.0 -0.9996960489 -0.1859786301
1313450000.0 -0.9920989865 -0.2232956229
1318425000.0 -0.9835410804 -0.2601737094
1323400000.0 -0.9732633958 -0.2962984643
1328375000.0 -0.9614496814 -0.3325366788
1333350000.0 -0.9481379767 -0.3682142649
1338325000.0 -0.9337961192 -0.4030488896
1343300000.0 -0.9184511662 -0.4375047009
1348275000.0 -0.9017028863 -0.4714750466
1353250000.0 -0.8835916783 -0.5045351478
1358225000.0 -0.8643313109 -0.5364648098
1363200000.0 -0.8440904812 -0.5684052929
1368175000.0 -0.8223144891 -0.5989717768
1373150000.0 -0.7997905106 -0.6290499989
1378125000.0 -0.7762833837 -0.6582705618
1383100000.0 -0.7515332428 -0.6865110117
1388075000.0 -0.7254931895 -0.7137810898
1393050000.0 -0.6986338948 -0.7403034935
1398025000.0 -0.6708670895 -0.7657054106
1403000000.0 -0.6419319919 -0.7895871869
1407975000.0 -0.6124193304 -0.8126051078
1412950000.0 -0.5823906997 -0.834355916
1417925000.0 -0.5516313597 -0.8555924932
1422900000.0 -0.5197963978 -0.8751940507
1427875000.0 -0.4872481495 -0.8938020624
1432850000.0 -0.4543138368 -0.9108478064
1437825000.0 -0.4205597462 -0.9268704648
1442800000.0 -0.3864860357 -0.9416777577
1447775000.0 -0.3518772453 -0.9555050512
1452750000.0 -0.3163945142 -0.9676208361
1457725000.0 -0.2809216422 -0.9781455683
1462700000.0 -0.2448036535 -0.9881492814
1467675000.0 -0.2082583134 -0.9962991502
1472650000.0 -0.1719608671 -1.00285635
1477625000.0 -0.1350646081 -1.008299994
1482600000.0 -0.0982586548 -1.012661998
1487575000.0 -0.0611355329 -1.015522525
1492550000.0 -0.0238614686 -1.017196292
1497525000.0 0.0128588647 -1.017397864
1502500000.0 0.0500972138 -1.015927229
1507475000.0 0.086753107 -1.013684852
1512450000.0 0.1241046272 -1.009412683
1517425000.0 0.1605820904 -1.004317046
1522400000.0 0.1966441945 -0.9976088297
1527375000.0 0.2328701652 -0.9895918202
1532350000.0 0.2685984804 -0.9803389563
1537325000.0 0.3044172157 -0.9701262875
1542300000.0 0.3394290315 -0.9583384938
1547275000.0 0.37373058 -0.9451983683
1552250000.0 0.4074523163 -0.9309274648
1557225000.0 0.4412000382 -0.9154884288
1562200000.0 0.4739913481 -0.89888102
1567175000.0 0.5065919432 -0.8812686533
1572150000.0 0.5380564416 -0.8620166062
1577125000.0 0.5686390853 -0.8416343616
1582100000.0 0.5987104003 -0.820472905
1587075000.0 0.6282517626 -0.7980992827
1592050000.0 0.6566331716 -0.7747448344
1597025000.0 0.6841797131 -0.7503908336
1602000000.0 0.7119229306 -0.7252301026
1606975000.0 0.7369979499 -0.698971428
1611950000.0 0.7619302168 -0.6720879126
1616925000.0 0.7858670893 -0.6440612243
1621900000.0 0.8086415856 -0.6150818655
1626875000.0 0.8301871067 -0.585421098
1631850000.0 0.8507762179 -0.5545369449
1636825000.0 0.8702779974 -0.5236161243
1641800000.0 0.8888433223 -0.4916118022
1646775000.0 0.9062718681 -0.4588160105
1651750000.0 0.9220030834 -0.4256400102
1656725000.0 0.9372601688 -0.391717988
1661700000.0 0.9506309673 -0.3574071107
1666675000.0 0.9630240093 -0.3224476493
1671650000.0 0.9742344994 -0.2870681585
1676625000.0 0.9840831971 -0.2512167718
1681600000.0 0.9923203776 -0.2148382446
1686575000.0 0.9996328267 -0.1784801853
1691550000.0 1.005951187 -0.142175568
1696525000.0 1.010155062 -0.1049925669
1701500000.0 1.013550138 -0.0678891334
1706475000.0 1.015776019 -0.0306770781
1711450000.0 1.015757356 0.0064737323
1716425000.0 1.015195858 0.0435659367
1721400000.0 1.012940036 0.0810219402
1726375000.0 1.008968204 0.118123381
1731350000.0 1.004090735 0.1548043336
1736325000.0 0.9975623407 0.1916117802
1741300000.0 0.9899871515 0.2279207577
1746275000.0 0.9811778894 0.2645542713
1751250000.0 0.970587333 0.3008207403
1756225000.0 0.9586927076 0.3363371609
1761200000.0 0.945690914 0.3713842926
1766175000.0 0.9313513886 0.4063377092
1771150000.0 0.9158362867 0.4401970583
1776125000.0 0.8990747719 0.4734025445
1781100000.0 0.8806338717 0.5064111375
1786075000.0 0.8610923529 0.5389350768
1791050000.0 0.8407166763 0.5705519327
1796025000.0 0.8187716726 0.6011142875
1801000000.0 0.7956521392 0.6309922664
1805975000.0 0.7718690218 0.660190807
1810950000.0 0.7469101504 0.6884265387
1815925000.0 0.7207918643 0.7155426341
1820900000.0 0.6935874953 0.74162311
1825875000.0 0.6654634034 0.7668416485
1830850000.0 0.6363639113 0.7907939389
1835825000.0 0.6062355458 0.8139107709
1840800000.0 0.5753911903 0.8359369695
1845775000.0 0.5436749745 0.8568194386
1850750000.0 0.5109842735 0.8764620919
1855725000.0 0.4782536789 0.8952943094
1860700000.0 0.4445944512 0.9120802974
1865675000.0 0.4100500974 0.9279626321
1870650000.0 0.3754259648 0.9429246954
1875625000.0 0.3395438941 0.9561839342
1880600000.0 0.3032169092 0.9676074012
1885575000.0 0.2666133319 0.9790691493
1890550000.0 0.2291907081 0.987761488
1895525000.0 0.1923625053 0.9958540964
1900500000.0 0.1544757271 1.002580945
1905475000.0 0.1171251365 1.007450128
1910450000.0 0.0789622492 1.011482007
1915425000.0 0.041407662 1.013343963
1920400000.0 0.0030828373 1.014263417
1925375000.0 -0.035322817 1.014019123
1930350000.0 -0.0736056729 1.012177775
1935325000.0 -0.1114223344 1.007938389
1940300000.0 -0.149273538 1.003238489
1945275000.0 -0.1869791378 0.9968923784
1950250000.0 -0.2248958357 0.9897188492
1955225000.0 -0.2611133762 0.98051161
1960200000.0 -0.2978892456 0.969734082
1965175000.0 -0.3342086244 0.9580943776
1970150000.0 -0.369710018 0.945349945
1975125000.0 -0.4044411061 0.9312472514
1980100000.0 -0.438946471 0.9151373056
1985075000.0 -0.4737178234 0.8981341107
1990050000.0 -0.5064733442 0.8800492964
1995025000.0 -0.5383580548 0.8604435689
2000000000.0 -0.5705844117 0.8403824116
