!Created with skrf (http://scikit-rf.org).
# GHz S RI R 50.0 
!freq ReS11 ImS11
10000000.0 -0.8019597567 0.6009018336
19950000.0 -0.2927404554 0.9456656992
29900000.0 0.3195659075 0.9302250965
39850000.0 0.8121799723 0.5560878616
49800000.0 0.9893549188 -0.0500913008
59750000.0 0.7536373296 -0.6553963735
69700000.0 0.171830547 -0.9872332325
79650000.0 -0.5069984965 -0.8566881329
89600000.0 -0.9387028331 -0.2878091833
99550000.0 -0.8587382951 0.4487297593
109500000.0 -0.2543165714 0.9304806537
119450000.0 0.5441369926 0.8035990021
129400000.0 0.972302175 0.0813419192
139350000.0 0.6674768659 -0.7070915794
149300000.0 -0.1264757172 -0.9471575308
159250000.0 -0.7910956166 -0.5046345564
169200000.0 -0.8981583104 0.2472222345
179150000.0 -0.454677784 0.8155512063
189100000.0 0.2218620436 0.91329841
199050000.0 0.766492442 0.548698233
209000000.0 0.9327347426 -0.0643149605
218950000.0 0.6864701646 -0.6140288842
228900000.0 0.1647366381 -0.893870885
238850000.0 -0.4109563159 -0.7991842101
248800000.0 -0.8061757059 -0.3911786592
258750000.0 -0.8714749595 0.1754808103
268700000.0 -0.5808974514 0.6527805911
278650000.0 -0.1054204164 0.8495341214
288600000.0 0.400879862 0.7397701806
298550000.0 0.7303875302 0.3378844557
308500000.0 0.7401233534 -0.1735450523
318450000.0 0.4668032945 -0.5364106233
328400000.0 0.0591505303 -0.6680702514
338350000.0 -0.3829009463 -0.53452005
348300000.0 -0.5997392581 -0.1592919879
358250000.0 -0.4866048922 0.2541203876
368200000.0 -0.1748184605 0.4327949247
378150000.0 0.1055426182 0.3318239116
388100000.0 0.2066236708 0.1154768705
398050000.0 0.14568899 -0.0494751357
408000000.0 0.0447070326 -0.0507040374
417950000.0 0.0294866595 -0.0680180308
427900000.0 -0.0282527813 -0.084910709
437850000.0 -0.09582163 0.0099694925
447800000.0 -0.0394067852 0.0734234635
457750000.0 0.0537514402 0.0351559455
467700000.0 0.0587135967 -0.037061582
477650000.0 0.035076186 -0.0319427575
487600000.0 0.0517424204 -0.0669187582
497550000.0 -0.0129249834 -0.1069346145
507500000.0 -0.0601152898 -0.0873252761
517450000.0 -0.1297650683 -0.0831336298
527400000.0 -0.1474942922 0.0123549036
537350000.0 -0.1312942132 0.0580219876
547300000.0 -0.0965958948 0.1498731128
557250000.0 0.0358203916 0.2137832331
567200000.0 0.1962953042 0.1454203306
577150000.0 0.2272089334 -0.0351384572
587100000.0 0.1401711417 -0.1711153927
597050000.0 0.0053219926 -0.1819689285
607000000.0 -0.0946512476 -0.1523864491
616950000.0 -0.1305130178 -0.0657116676
626900000.0 -0.1255522954 0.0010720694
636850000.0 -0.0476013531 0.0510782842
646800000.0 -0.0182643089 0.0481192522
656750000.0 0.0435107633 0.0478305826
666700000.0 0.0409293915 -0.0046719572
676650000.0 0.000129306 -0.0115938033
686600000.0 -0.0018845248 -0.0159895464
696550000.0 -0.0167919246 -0.0394273768
706500000.0 -0.0396022018 -0.0210245574
716450000.0 -0.0022931465 0.0137002012
726400000.0 0.0205582026 0.0241990441
736350000.0 0.0564967163 0.0311596109
746300000.0 0.0756311828 0.0041896579
756250000.0 0.111033852 -0.0304450415
766200000.0 0.0876483354 -0.1296747869
776150000.0 0.0060142408 -0.1622321371
786100000.0 -0.0912046039 -0.1393366966
796050000.0 -0.1304757737 -0.0549074453
806000000.0 -0.1312330555 0.0289842287
815950000.0 -0.0700023004 0.1190559812
825900000.0 0.0062079277 0.1501034796
835850000.0 0.0629878668 0.1513222313
845800000.0 0.1294619081 0.1344296177
855750000.0 0.2139956367 0.071778588
865700000.0 0.2612025874 -0.0411372205
875650000.0 0.2241204644 -0.2066342275
885600000.0 0.0570682354 -0.2967888304
895550000.0 -0.1523977613 -0.2559716554
905500000.0 -0.2881541354 -0.0861493631
915450000.0 -0.2940659368 0.1610078157
925400000.0 -0.1151262673 0.3383823096
935350000.0 0.1470683193 0.3461860769
945300000.0 0.3349470529 0.1470363544
955250000.0 0.325024956 -0.1263489563
965200000.0 0.0875550835 -0.3062490603
975150000.0 -0.2094795989 -0.2139977557
985100000.0 -0.3238302513 0.0684347724
995050000.0 -0.1806814068 0.3446173786
1005000000.0 0.1404528635 0.416410595
1014950000.0 0.4243757762 0.2076589051
1024900000.0 0.4498541697 -0.1721537927
1034850000.0 0.1813701478 -0.4560049339
1044800000.0 -0.2260746835 -0.4691143181
1054750000.0 -0.5336785071 -0.1809495738
1064700000.0 -0.5493421082 0.2425587494
1074650000.0 -0.2579726303 0.5410665129
1084600000.0 0.0695826407 0.6020545339
1094550000.0 0.4751902325 0.4301433786
1104500000.0 0.6395358003 -0.0231465972
1114450000.0 0.401144696 -0.4697131245
1124400000.0 -0.0859569007 -0.5951552273
1134350000.0 -0.4895788531 -0.3469066556
1144300000.0 -0.5954778472 0.0831257128
1154250000.0 -0.381864172 0.440850753
1164200000.0 -0.0081585118 0.5594493473
1174150000.0 0.3621236262 0.3960703208
1184100000.0 0.5036071088 0.0252657911
1194050000.0 0.3613459266 -0.3524855295
1204000000.0 0.0059221075 -0.5072631034
1213950000.0 -0.3333924523 -0.4084984956
1223900000.0 -0.5462072675 -0.1395514996
1233850000.0 -0.5462288668 0.2050562585
1243800000.0 -0.3377035375 0.4729811698
1253750000.0 0.0031817155 0.5745104356
1263700000.0 0.3414425993 0.4406399869
1273650000.0 0.5384612913 0.1212423364
1283600000.0 0.5057251148 -0.2389758789
1293550000.0 0.2774496737 -0.5082736064
1303500000.0 -0.0619059353 -0.608961355
1313450000.0 -0.3761226646 -0.5047962087
1323400000.0 -0.5823764834 -0.2556615689
1333350000.0 -0.6285241984 0.0657540421
1343300000.0 -0.4893402096 0.372912157
1353250000.0 -0.1932453963 0.5587131301
1363200000.0 0.1635164625 0.541914182
1373150000.0 0.4482474844 0.3340699504
1383100000.0 0.5751184571 0.0073191931
1393050000.0 0.4970469418 -0.3334207344
1403000000.0 0.263096396 -0.5520921108
1412950000.0 -0.0396972776 -0.6218526503
1422900000.0 -0.3336580895 -0.5227930099
1432850000.0 -0.5237337167 -0.277934574
1442800000.0 -0.5569585307 0.0355036721
1452750000.0 -0.4189379724 0.3196169446
1462700000.0 -0.1346323112 0.4900480987
1472650000.0 0.1978765246 0.4656633825
1482600000.0 0.4538257041 0.2624357929
1492550000.0 0.5462655404 -0.0290734677
1502500000.0 0.4619758015 -0.3211401896
1512450000.0 0.2261066905 -0.5071373281
1522400000.0 -0.0667490143 -0.5228340078
1532350000.0 -0.3186928174 -0.3603667922
1542300000.0 -0.4269744356 -0.0828252362
1552250000.0 -0.3385192975 0.2160750417
1562200000.0 -0.0947031469 0.3821055215
1572150000.0 0.1952940602 0.3774338486
1582100000.0 0.4007381536 0.1974651155
1592050000.0 0.4680312976 -0.0568560234
1602000000.0 0.3508179885 -0.3061051131
1611950000.0 0.1109575717 -0.4277966745
1621900000.0 -0.1667883401 -0.3791210402
1631850000.0 -0.3607907995 -0.1587996318
1641800000.0 -0.3823743933 0.1275871214
1651750000.0 -0.2273710062 0.3819029822
1661700000.0 0.067106163 0.4832819681
1671650000.0 0.3297008524 0.4146318976
1681600000.0 0.5251159136 0.1880251523
1691550000.0 0.5504366967 -0.1140811618
1701500000.0 0.4007336408 -0.3702116448
1711450000.0 0.1287437765 -0.5179246179
1721400000.0 -0.1942172859 -0.48785644
1731350000.0 -0.4569902992 -0.2687467078
1741300000.0 -0.5424942246 0.0607965917
1751250000.0 -0.4339222158 0.3799502392
1761200000.0 -0.1737472943 0.5835837517
1771150000.0 0.1421267606 0.6141299127
1781100000.0 0.4180525412 0.4786365193
1791050000.0 0.5908107025 0.2264460435
1801000000.0 0.6057844851 -0.0853834719
1810950000.0 0.4561337782 -0.3719502321
1820900000.0 0.1662560292 -0.5439339173
1830850000.0 -0.1787841489 -0.530037444
1840800000.0 -0.4563896245 -0.3281383047
1850750000.0 -0.5785386841 -0.0220705756
1860700000.0 -0.5217880137 0.2895264783
1870650000.0 -0.3321315387 0.5107950644
1880600000.0 -0.0686877785 0.6070875276
1890550000.0 0.197628801 0.5619162179
1900500000.0 0.4082157223 0.3884620867
1910450000.0 0.5014238685 0.1160908136
1920400000.0 0.4401617669 -0.1610240618
1930350000.0 0.2337498886 -0.3532700775
1940300000.0 -0.0307665253 -0.4104204921
1950250000.0 -0.2642596926 -0.3098430818
1960200000.0 -0.3958085042 -0.1272352975
1970150000.0 -0.4101150073 0.0621537666
1980100000.0 -0.3303935146 0.2119658266
1990050000.0 -0.2018866275 0.2679351963
2000000000.0 -0.0970609654 0.2411101263
