!Created with skrf (http://scikit-rf.org).
# GHz S RI R 50.0 
!freq ReS11 ImS11
10000000.0 -0.4672485283 -0.4672485283
19950000.0 -0.8252876348 -0.8252876348
29900000.0 -0.9988351395 -0.9988351395
39850000.0 -0.9476613395 -0.9476613395
49800000.0 -0.6850771069 -0.6850771069
59750000.0 -0.2742768582 -0.2742768582
69700000.0 0.1905625738 0.1905625738
79650000.0 0.6074256646 0.6074256646
89600000.0 0.889768119 0.889768119
99550000.0 0.9776161078 0.9776161078
109500000.0 0.8510456274 0.8510456274
119450000.0 0.5363450426 0.5363450426
129400000.0 0.1009468095 0.1009468095
139350000.0 -0.3577284075 -0.3577284075
149300000.0 -0.7352019031 -0.7352019031
159250000.0 -0.9473128169 -0.9473128169
169200000.0 -0.9498549223 -0.9498549223
179150000.0 -0.7455357642 -0.7455357642
189100000.0 -0.3797861814 -0.3797861814
199050000.0 0.0693830353 0.0693830353
209000000.0 0.5075229746 0.5075229746
218950000.0 0.831212756 0.831212756
228900000.0 0.9741000531 0.9741000531
238850000.0 0.9012582438 0.9012582438
248800000.0 0.6306891126 0.6306891126
258750000.0 0.2244368588 0.2244368588
268700000.0 -0.2264464919 -0.2264464919
278650000.0 -0.6244355461 -0.6244355461
288600000.0 -0.8848170709 -0.8848170709
298550000.0 -0.950697001 -0.950697001
308500000.0 -0.8057906289 -0.8057906289
318450000.0 -0.4808445353 -0.4808445353
328400000.0 -0.0474928881 -0.0474928881
338350000.0 0.3963306557 0.3963306557
348300000.0 0.7515178987 0.7515178987
358250000.0 0.9420596671 0.9420596671
368200000.0 0.92932596 0.92932596
378150000.0 0.7176533679 0.7176533679
388100000.0 0.3506814646 0.3506814646
398050000.0 -0.0942341707 -0.0942341707
408000000.0 -0.5196639807 -0.5196639807
417950000.0 -0.8297348292 -0.8297348292
427900000.0 -0.9519371811 -0.9519371811
437850000.0 -0.8599844906 -0.8599844906
447800000.0 -0.5788819994 -0.5788819994
457750000.0 -0.1749772676 -0.1749772676
467700000.0 0.2628438105 0.2628438105
477650000.0 0.6432824033 0.6432824033
487600000.0 0.88626969 0.88626969
497550000.0 0.9381756225 0.9381756225
507500000.0 0.781969277 0.781969277
517450000.0 0.4480219003 0.4480219003
527400000.0 0.0115122962 0.0115122962
537350000.0 -0.4263033671 -0.4263033671
547300000.0 -0.7648343186 -0.7648343186
557250000.0 -0.9337209507 -0.9337209507
567200000.0 -0.9023213811 -0.9023213811
577150000.0 -0.6817631637 -0.6817631637
587100000.0 -0.3181869738 -0.3181869738
597050000.0 0.1157195912 0.1157195912
607000000.0 0.5279226888 0.5279226888
616950000.0 0.8251964708 0.8251964708
626900000.0 0.9334866589 0.9334866589
636850000.0 0.8249927898 0.8249927898
646800000.0 0.5290600281 0.5290600281
656750000.0 0.1176024516 0.1176024516
666700000.0 -0.3151635788 -0.3151635788
676650000.0 -0.6780330007 -0.6780330007
686600000.0 -0.8986468892 -0.8986468892
696550000.0 -0.9332160221 -0.9332160221
706500000.0 -0.7704869811 -0.7704869811
716450000.0 -0.4389940365 -0.4389940365
726400000.0 -0.0090660023 -0.0090660023
736350000.0 0.4226017883 0.4226017883
746300000.0 0.7546194014 0.7546194014
756250000.0 0.9112334199 0.9112334199
766200000.0 0.861751176 0.861751176
776150000.0 0.6227960052 0.6227960052
786100000.0 0.2517136711 0.2517136711
796050000.0 -0.1729430887 -0.1729430887
806000000.0 -0.5636081467 -0.5636081467
815950000.0 -0.8371612897 -0.8371612897
825900000.0 -0.9331166938 -0.9331166938
835850000.0 -0.824693322 -0.824693322
845800000.0 -0.5310710177 -0.5310710177
855750000.0 -0.1159074067 -0.1159074067
865700000.0 0.3249242883 0.3249242883
875650000.0 0.6895701807 0.6895701807
885600000.0 0.8966379504 0.8966379504
895550000.0 0.905758584 0.905758584
905500000.0 0.7212749371 0.7212749371
915450000.0 0.3876769689 0.3876769689
925400000.0 -0.0244868482 -0.0244868482
935350000.0 -0.431291154 -0.431291154
945300000.0 -0.7473729255 -0.7473729255
955250000.0 -0.9010701841 -0.9010701841
965200000.0 -0.8496574306 -0.8496574306
975150000.0 -0.597063257 -0.597063257
985100000.0 -0.2009599031 -0.2009599031
995050000.0 0.2408839268 0.2408839268
1005000000.0 0.6236413694 0.6236413694
1014950000.0 0.8663717883 0.8663717883
1024900000.0 0.9283643096 0.9283643096
1034850000.0 0.8063935981 0.8063935981
1044800000.0 0.5261605614 0.5261605614
1054750000.0 0.1373460695 0.1373460695
1064700000.0 -0.2876097488 -0.2876097488
1074650000.0 -0.6553765708 -0.6553765708
1084600000.0 -0.871143521 -0.871143521
1094550000.0 -0.8707610149 -0.8707610149
1104500000.0 -0.654891359 -0.654891359
1114450000.0 -0.2889729222 -0.2889729222
1124400000.0 0.1305108878 0.1305108878
1134350000.0 0.512224539 0.512224539
1144300000.0 0.7893686352 0.7893686352
1154250000.0 0.9159901344 0.9159901344
1164200000.0 0.8656956541 0.8656956541
1174150000.0 0.6341790707 0.6341790707
1184100000.0 0.2515869639 0.2515869639
1194050000.0 -0.2015002433 -0.2015002433
1204000000.0 -0.6059487187 -0.6059487187
1213950000.0 -0.8521922274 -0.8521922274
1223900000.0 -0.8875756597 -0.8875756597
1233850000.0 -0.7270318335 -0.7270318335
1243800000.0 -0.4248726702 -0.4248726702
1253750000.0 -0.0471867207 -0.0471867207
1263700000.0 0.3403414041 0.3403414041
1273650000.0 0.6707523081 0.6707523081
1283600000.0 0.872459681 0.872459681
1293550000.0 0.8819589571 0.8819589571
1303500000.0 0.6725962006 0.6725962006
1313450000.0 0.2874594089 0.2874594089
1323400000.0 -0.16490488 -0.16490488
1333350000.0 -0.5637958742 -0.5637958742
1343300000.0 -0.8238724593 -0.8238724593
1353250000.0 -0.9116610719 -0.9116610719
1363200000.0 -0.8278713615 -0.8278713615
1373150000.0 -0.5919380549 -0.5919380549
1383100000.0 -0.2394458815 -0.2394458815
1393050000.0 0.1723400632 0.1723400632
1403000000.0 0.5588583159 0.5588583159
1412950000.0 0.8174256641 0.8174256641
1422900000.0 0.8671308687 0.8671308687
1432850000.0 0.6931245947 0.6931245947
1442800000.0 0.3528755505 0.3528755505
1452750000.0 -0.0583043623 -0.0583043623
1462700000.0 -0.4477536464 -0.4477536464
1472650000.0 -0.7451035006 -0.7451035006
1482600000.0 -0.9029573313 -0.9029573313
1492550000.0 -0.8919471434 -0.8919471434
1502500000.0 -0.7022706755 -0.7022706755
1512450000.0 -0.3560442523 -0.3560442523
1522400000.0 0.0799940246 0.0799940246
1532350000.0 0.4987545889 0.4987545889
1542300000.0 0.7873557094 0.7873557094
1552250000.0 0.8728473671 0.8728473671
1562200000.0 0.7485974046 0.7485974046
1572150000.0 0.4622472326 0.4622472326
1582100000.0 0.0873952284 0.0873952284
1592050000.0 -0.2997418924 -0.2997418924
1602000000.0 -0.630457561 -0.630457561
1611950000.0 -0.8436164094 -0.8436164094
1621900000.0 -0.8886472637 -0.8886472637
1631850000.0 -0.7399221973 -0.7399221973
1641800000.0 -0.4113655396 -0.4113655396
1651750000.0 0.0261347463 0.0261347463
1661700000.0 0.4586140356 0.4586140356
1671650000.0 0.7705084277 0.7705084277
1681600000.0 0.893959768 0.893959768
1691550000.0 0.8210460249 0.8210460249
1701500000.0 0.5888458429 0.5888458429
1711450000.0 0.2527274936 0.2527274936
1721400000.0 -0.1284334752 -0.1284334752
1731350000.0 -0.4902542147 -0.4902542147
1741300000.0 -0.7619677436 -0.7619677436
1751250000.0 -0.8716058989 -0.8716058989
1761200000.0 -0.7668699191 -0.7668699191
1771150000.0 -0.4560339669 -0.4560339669
1781100000.0 -0.024008391 -0.024008391
1791050000.0 0.4034496063 0.4034496063
1801000000.0 0.7229919804 0.7229919804
1810950000.0 0.8839395674 0.8839395674
1820900000.0 0.878056281 0.878056281
1830850000.0 0.7189469578 0.7189469578
1840800000.0 0.4297789483 0.4297789483
1850750000.0 0.0460505543 0.0460505543
1860700000.0 -0.3667136095 -0.3667136095
1870650000.0 -0.7048639211 -0.7048639211
1880600000.0 -0.8555482113 -0.8555482113
1890550000.0 -0.7631534594 -0.7631534594
1900500000.0 -0.471237051 -0.471237051
1910450000.0 -0.0840542769 -0.0840542769
1920400000.0 0.2994237596 0.2994237596
1930350000.0 0.6147160444 0.6147160444
1940300000.0 0.8248040657 0.8248040657
1950250000.0 0.9011970129 0.9011970129
1960200000.0 0.816167911 0.816167911
1970150000.0 0.5535878141 0.5535878141
1980100000.0 0.1403228837 0.1403228837
1990050000.0 -0.3235334987 -0.3235334987
2000000000.0 -0.6902042496 -0.6902042496
